! 23-Mar-26 11:38:24 AM
! E:\UPDATEDVNAMEASUREMENTS\REC\RECBLOCK.S2P
! CHANNEL.1
! TR.MEASUREMENT
! CORRECTED.DATA
# GHZ S RI R 50.0
! FREQ.GHZ         S11RE         S11IM         S21RE         S21IM         S12RE         S12IM         S22RE         S22IM         
!; PortSelection: Port_12
   0.000050000    -0.3277797    0.3630298    -0.0516088    0.1450891     0.0031786    0.0010075     0.4646070   -0.1400903 
   0.000150025    -0.2196992    0.0901680    -0.0819612    0.0546208    -0.0006810   -0.0018938     0.2292383   -0.3768392 
   0.000250050    -0.0074299   -0.7932732    -0.0759845   -0.2408952    -0.0008134    0.0007788    -0.0287537   -0.3034339 
   0.000350075    -0.9739529    0.0158789    -0.0009773   -0.0012141     0.0001805   -0.0000131    -0.0967420   -0.1493054 
   0.000450100    -0.9681882    0.0358676    -0.0014361   -0.0012916     0.0000248    0.0003076    -0.0756125   -0.0705866 
   0.000550125    -0.9598020    0.0317128    -0.0016393   -0.0022002    -0.0001239    0.0000085    -0.0524745   -0.0287356 
   0.000650150    -0.9581156    0.0407357    -0.0013525   -0.0025423    -0.0000718    0.0000101    -0.0337467   -0.0111726 
   0.000750175    -0.9738279    0.0416360    -0.0014673   -0.0025564    -0.0000649   -0.0001714    -0.0200718   -0.0000409 
   0.000850200    -0.9680353    0.0512447    -0.0009936   -0.0010418     0.0000712   -0.0000331    -0.0091123    0.0061108 
   0.000950225    -0.9788972    0.0508099    -0.0020321   -0.0014899     0.0000330   -0.0001442     0.0007906    0.0089825 
   0.001050250    -0.9686866    0.0660773    -0.0019391   -0.0016468     0.0000019   -0.0001685     0.0062528    0.0104104 
   0.001150275    -0.9713287    0.0714421    -0.0024501   -0.0011233     0.0000912   -0.0001105     0.0118533    0.0117190 
   0.001250300    -0.9548185    0.0683433    -0.0025925   -0.0014931    -0.0000646    0.0002432     0.0163148    0.0121738 
   0.001350325    -0.9640704    0.0859308    -0.0025099   -0.0015298     0.0002268   -0.0000952     0.0188423    0.0107381 
   0.001450350    -0.9589177    0.0813438    -0.0027228   -0.0015204    -0.0000565   -0.0000480     0.0220728    0.0127347 
   0.001550375    -0.9617444    0.0834267    -0.0027314   -0.0010638    -0.0001447   -0.0000864     0.0245974    0.0117972 
   0.001650400    -0.9631675    0.1006614    -0.0026686   -0.0005847     0.0001550   -0.0000679     0.0263847    0.0110093 
   0.001750425    -0.9539827    0.0961495    -0.0019753   -0.0008243    -0.0000343   -0.0000640     0.0269542    0.0112359 
   0.001850450    -0.9573788    0.1102980    -0.0025525   -0.0004182     0.0002211   -0.0001039     0.0284372    0.0121403 
   0.001950475    -0.9581360    0.1114505    -0.0030035    0.0000033     0.0001643    0.0000033     0.0314732    0.0099105 
   0.002050500    -0.9574567    0.1184049    -0.0031908   -0.0005803     0.0001010    0.0000108     0.0319802    0.0087990 
   0.002150525    -0.9647750    0.1252811    -0.0038525   -0.0000865     0.0000431    0.0000523     0.0327326    0.0091102 
   0.002250550    -0.9516134    0.1303037    -0.0031245   -0.0006126     0.0001643    0.0000436     0.0326294    0.0085026 
   0.002350575    -0.9595889    0.1307536    -0.0033654   -0.0000345     0.0001130    0.0000985     0.0349239    0.0071673 
   0.002450600    -0.9551817    0.1444659    -0.0034532    0.0005054    -0.0000037   -0.0000831     0.0343595    0.0072067 
   0.002550625    -0.9606092    0.1464763    -0.0037138    0.0003948     0.0001402   -0.0003517     0.0346882    0.0080947 
   0.002650650    -0.9439356    0.1530158    -0.0035650    0.0004504    -0.0000793    0.0001666     0.0366368    0.0077628 
   0.002750675    -0.9514458    0.1558595    -0.0029238    0.0007589    -0.0000642    0.0002178     0.0362994    0.0074413 
   0.002850700    -0.9533053    0.1644680    -0.0036312    0.0010301     0.0000825    0.0002521     0.0360218    0.0051490 
   0.002950725    -0.9507517    0.1685372    -0.0032661   -0.0000042     0.0002055    0.0001142     0.0381266    0.0055337 
   0.003050750    -0.9452301    0.1790136    -0.0044549    0.0005488     0.0000303   -0.0001095     0.0374015    0.0045291 
   0.003150775    -0.9448122    0.1781878    -0.0041358    0.0001553    -0.0000114   -0.0000904     0.0390958    0.0050964 
   0.003250800    -0.9433887    0.1953095    -0.0037826    0.0010827     0.0000713    0.0000166     0.0384254    0.0046267 
   0.003350825    -0.9417916    0.1972210    -0.0049340    0.0005314     0.0000522    0.0000961     0.0382196    0.0042351 
   0.003450850    -0.9452149    0.1925683    -0.0042489    0.0004055    -0.0001309   -0.0000047     0.0397027    0.0033959 
   0.003550875    -0.9291102    0.2071166    -0.0054271    0.0014191    -0.0000192   -0.0001273     0.0395108    0.0032123 
   0.003650900    -0.9425564    0.2034466    -0.0046184    0.0017427     0.0001347    0.0001145     0.0401712    0.0025900 
   0.003750925    -0.9390610    0.2075209    -0.0052337    0.0007599     0.0000705    0.0000722     0.0400859    0.0021109 
   0.003850950    -0.9418730    0.2164415    -0.0053157    0.0011485     0.0000883    0.0000972     0.0394739    0.0029379 
   0.003950975    -0.9425893    0.2259253    -0.0048223    0.0006894    -0.0000334   -0.0000223     0.0404705    0.0016532 
   0.004051001    -0.9441761    0.2300753    -0.0052967    0.0018031    -0.0001032    0.0000223     0.0410526    0.0018151 
   0.004151026    -0.9313868    0.2360247    -0.0058554    0.0008642     0.0001390   -0.0001973     0.0405797    0.0007310 
   0.004251051    -0.9383920    0.2398272    -0.0064209    0.0005672     0.0000278   -0.0000628     0.0409275    0.0003479 
   0.004351076    -0.9299682    0.2389184    -0.0059328    0.0019958    -0.0000272    0.0000327     0.0429823    0.0004562 
   0.004451101    -0.9318384    0.2441714    -0.0056595    0.0019516    -0.0000956    0.0001400     0.0423614   -0.0007246 
   0.004551126    -0.9272994    0.2497011    -0.0061757    0.0017384     0.0000138   -0.0001737     0.0416204   -0.0000510 
   0.004651151    -0.9339200    0.2681254    -0.0067918    0.0027607     0.0000147    0.0001135     0.0428439   -0.0011708 
   0.004751176    -0.9320654    0.2662637    -0.0070640    0.0014564     0.0000874    0.0000203     0.0414892   -0.0014428 
   0.004851201    -0.9177358    0.2759632    -0.0064388    0.0017899    -0.0001546   -0.0000077     0.0427171   -0.0008565 
   0.004951226    -0.9184948    0.2800463    -0.0073408    0.0021823     0.0001966    0.0001447     0.0422954   -0.0025610 
   0.005051251    -0.9188365    0.2853377    -0.0079805    0.0016537     0.0001334    0.0000453     0.0425312   -0.0029255 
   0.005151276    -0.9135519    0.2982652    -0.0082073    0.0024957    -0.0000482    0.0001733     0.0422764   -0.0032254 
   0.005251301    -0.9210796    0.2939155    -0.0086083    0.0032239     0.0000274    0.0003235     0.0438519   -0.0023407 
   0.005351326    -0.9144102    0.3022989    -0.0090258    0.0024485    -0.0000230   -0.0003444     0.0427307   -0.0031621 
   0.005451351    -0.9110563    0.3036244    -0.0091935    0.0026886     0.0001646   -0.0000304     0.0430077   -0.0036397 
   0.005551376    -0.9140567    0.3057688    -0.0087322    0.0028852     0.0000531   -0.0000024     0.0431621   -0.0047390 
   0.005651401    -0.9001762    0.3138338    -0.0093472    0.0023219    -0.0002062    0.0001555     0.0430676   -0.0042864 
   0.005751426    -0.8959678    0.3359716    -0.0099709    0.0028262     0.0000414    0.0000937     0.0435124   -0.0044427 
   0.005851451    -0.9047109    0.3318884    -0.0100625    0.0029831     0.0000540   -0.0000129     0.0432770   -0.0056452 
   0.005951476    -0.8926387    0.3303942    -0.0107244    0.0036007     0.0002754   -0.0001603     0.0437987   -0.0052531 
   0.006051501    -0.8945566    0.3394750    -0.0109978    0.0036059     0.0000824    0.0003253     0.0442130   -0.0058501 
   0.006151526    -0.9059545    0.3325850    -0.0114837    0.0032302    -0.0000730   -0.0002484     0.0439790   -0.0062670 
   0.006251551    -0.8798067    0.3414585    -0.0114933    0.0037713    -0.0001551   -0.0000084     0.0437425   -0.0064552 
   0.006351576    -0.8930831    0.3490603    -0.0119392    0.0036692    -0.0003159    0.0002459     0.0431033   -0.0068472 
   0.006451601    -0.8888335    0.3656663    -0.0124420    0.0039111     0.0000138    0.0002996     0.0434898   -0.0061643 
   0.006551626    -0.8868428    0.3635672    -0.0113385    0.0031296     0.0000191   -0.0000827     0.0435318   -0.0076439 
   0.006651651    -0.8895056    0.3676991    -0.0128120    0.0043876     0.0002499    0.0002439     0.0438533   -0.0077706 
   0.006751676    -0.8899885    0.3732000    -0.0133371    0.0029896    -0.0000350    0.0001937     0.0447272   -0.0077390 
   0.006851701    -0.8853409    0.3782895    -0.0138268    0.0038235    -0.0002998   -0.0000968     0.0440522   -0.0084489 
   0.006951726    -0.8819712    0.3918528    -0.0137437    0.0038802    -0.0002837    0.0002053     0.0448792   -0.0075048 
   0.007051751    -0.8749092    0.3970243    -0.0142512    0.0056011    -0.0001553   -0.0001505     0.0439300   -0.0092180 
   0.007151776    -0.8666801    0.4025818    -0.0150405    0.0045736    -0.0002926    0.0000265     0.0440361   -0.0089418 
   0.007251801    -0.8700922    0.4053254    -0.0145082    0.0049539     0.0003354    0.0000450     0.0439025   -0.0093783 
   0.007351826    -0.8719732    0.4044676    -0.0161035    0.0058608     0.0001844    0.0001148     0.0449998   -0.0103237 
   0.007451851    -0.8504654    0.4170003    -0.0163398    0.0074833     0.0000268    0.0000797     0.0440663   -0.0101280 
   0.007551876    -0.8723890    0.4143189    -0.0174300    0.0062985     0.0000793   -0.0000331     0.0444080   -0.0104026 
   0.007651901    -0.8618595    0.4230067    -0.0170805    0.0056395     0.0000282   -0.0001540     0.0451061   -0.0110300 
   0.007751926    -0.8554853    0.4280103    -0.0170850    0.0070576     0.0000144    0.0000307     0.0442461   -0.0114782 
   0.007851951    -0.8488729    0.4337010    -0.0165874    0.0059496    -0.0001603   -0.0001413     0.0443139   -0.0114672 
   0.007951976    -0.8505980    0.4299400    -0.0179687    0.0070039     0.0002676    0.0000664     0.0445989   -0.0115684 
   0.008052001    -0.8475584    0.4342955    -0.0185855    0.0073625     0.0001470    0.0001674     0.0440715   -0.0116689 
   0.008152026    -0.8528788    0.4571055    -0.0186174    0.0077458     0.0001179    0.0002488     0.0449658   -0.0119126 
   0.008252051    -0.8369352    0.4543704    -0.0198793    0.0080063    -0.0000991   -0.0003458     0.0443248   -0.0121496 
   0.008352076    -0.8400239    0.4676187    -0.0197227    0.0080482    -0.0000462   -0.0003055     0.0448126   -0.0129110 
   0.008452101    -0.8337933    0.4610925    -0.0205153    0.0096604     0.0000511    0.0000212     0.0439859   -0.0136046 
   0.008552126    -0.8274265    0.4628890    -0.0197133    0.0089015    -0.0001086   -0.0001805     0.0449931   -0.0133335 
   0.008652151    -0.8296647    0.4506160    -0.0205465    0.0096756     0.0002253    0.0002882     0.0444349   -0.0133645 
   0.008752176    -0.8219146    0.4596730    -0.0210061    0.0091554     0.0001004   -0.0000644     0.0435722   -0.0149976 
   0.008852201    -0.8163592    0.4778962    -0.0215784    0.0093965     0.0001626   -0.0000870     0.0447489   -0.0139818 
   0.008952226    -0.8309568    0.4834409    -0.0215214    0.0102136     0.0000359    0.0001030     0.0444921   -0.0151006 
   0.009052251    -0.8169774    0.4794550    -0.0223703    0.0102326    -0.0000953    0.0000115     0.0444258   -0.0155645 
   0.009152276    -0.8241605    0.4820133    -0.0237819    0.0111222     0.0000418   -0.0000854     0.0444232   -0.0150457 
   0.009252301    -0.8015992    0.5053836    -0.0233223    0.0112521     0.0003662    0.0002162     0.0442863   -0.0158043 
   0.009352326    -0.8139830    0.4983903    -0.0233560    0.0123453    -0.0000001   -0.0001393     0.0443737   -0.0159252 
   0.009452351    -0.8136767    0.4904448    -0.0247582    0.0110842    -0.0000661   -0.0000018     0.0443203   -0.0161499 
   0.009552376    -0.8050209    0.5143535    -0.0248073    0.0116698     0.0000483    0.0002140     0.0445646   -0.0165743 
   0.009652401    -0.8071513    0.5119408    -0.0256089    0.0111138    -0.0000205    0.0001324     0.0439434   -0.0164115 
   0.009752426    -0.8039616    0.5129416    -0.0262055    0.0123953     0.0000438   -0.0000162     0.0440754   -0.0171404 
   0.009852451    -0.7975505    0.5256168    -0.0269809    0.0126741     0.0001294    0.0001311     0.0441097   -0.0173967 
   0.009952476    -0.7923318    0.5313304    -0.0279195    0.0128931    -0.0001226   -0.0000748     0.0443262   -0.0176277 
   0.010052501    -0.7809712    0.5351605    -0.0261936    0.0131588    -0.0000315    0.0001038     0.0443707   -0.0180574 
   0.010152526    -0.7753435    0.5442626    -0.0281313    0.0139429    -0.0002240   -0.0000210     0.0443730   -0.0182408 
   0.010252551    -0.7720341    0.5395032    -0.0290859    0.0153475    -0.0000295    0.0000809     0.0445502   -0.0186050 
   0.010352576    -0.7770324    0.5380919    -0.0302944    0.0142521    -0.0000724    0.0002551     0.0438212   -0.0189064 
   0.010452601    -0.7703735    0.5563787    -0.0292162    0.0155916    -0.0001410    0.0001481     0.0443733   -0.0189656 
   0.010552626    -0.7738639    0.5558583    -0.0310582    0.0150453    -0.0001997   -0.0000219     0.0442845   -0.0191700 
   0.010652651    -0.7702910    0.5579115    -0.0304467    0.0169712    -0.0000117   -0.0001027     0.0441929   -0.0199903 
   0.010752676    -0.7695642    0.5567048    -0.0314205    0.0145866    -0.0001659   -0.0002076     0.0438066   -0.0196895 
   0.010852701    -0.7590750    0.5686015    -0.0312202    0.0167037     0.0000744   -0.0001360     0.0441803   -0.0200066 
   0.010952726    -0.7572467    0.5660636    -0.0322789    0.0173421    -0.0001468   -0.0001275     0.0437185   -0.0206652 
   0.011052751    -0.7559513    0.5803822    -0.0323473    0.0174751    -0.0005098   -0.0000803     0.0441144   -0.0210106 
   0.011152776    -0.7553129    0.5794364    -0.0335171    0.0177756    -0.0000226   -0.0000712     0.0439712   -0.0212664 
   0.011252801    -0.7530870    0.5924285    -0.0329710    0.0175001     0.0003133    0.0001545     0.0436659   -0.0212690 
   0.011352826    -0.7474732    0.5732826    -0.0354735    0.0172812     0.0003744   -0.0002331     0.0440589   -0.0218971 
   0.011452851    -0.7398208    0.5897760    -0.0346012    0.0191950    -0.0000916   -0.0001851     0.0439158   -0.0219633 
   0.011552876    -0.7423019    0.6069807    -0.0360055    0.0192953    -0.0001014    0.0003407     0.0439433   -0.0226336 
   0.011652901    -0.7344760    0.6087574    -0.0348652    0.0188772     0.0000257    0.0003645     0.0435363   -0.0223669 
   0.011752926    -0.7151878    0.6206073    -0.0357013    0.0215677     0.0001451    0.0000913     0.0436359   -0.0229939 
   0.011852951    -0.7178653    0.6121002    -0.0355203    0.0218458     0.0001547    0.0001187     0.0433563   -0.0230531 
   0.011952976    -0.7214754    0.6144998    -0.0364821    0.0224986    -0.0000261   -0.0001746     0.0434975   -0.0234692 
   0.012053002    -0.7156276    0.6228661    -0.0366591    0.0228181     0.0000963    0.0002471     0.0432573   -0.0234915 
   0.012153027    -0.7143345    0.6288450    -0.0377254    0.0226509    -0.0002924    0.0001789     0.0439261   -0.0243891 
   0.012253052    -0.7021675    0.6431780    -0.0386005    0.0241470    -0.0001780   -0.0000417     0.0438460   -0.0240611 
   0.012353077    -0.7007065    0.6413403    -0.0382906    0.0247941     0.0000142    0.0002208     0.0434799   -0.0246834 
   0.012453102    -0.7006897    0.6363760    -0.0390580    0.0253023     0.0000326    0.0000567     0.0431576   -0.0255093 
   0.012553127    -0.7006630    0.6464869    -0.0398550    0.0246018    -0.0000213    0.0002471     0.0436746   -0.0252863 
   0.012653152    -0.6840127    0.6417128    -0.0407094    0.0254373     0.0001915    0.0000073     0.0428515   -0.0255410 
   0.012753177    -0.6907077    0.6517738    -0.0402253    0.0263227    -0.0000894    0.0002371     0.0434245   -0.0258329 
   0.012853202    -0.6710202    0.6391791    -0.0408781    0.0263357    -0.0000688    0.0001554     0.0431219   -0.0257654 
   0.012953227    -0.6804573    0.6591735    -0.0412209    0.0281052    -0.0000303   -0.0002321     0.0436517   -0.0264196 
   0.013053252    -0.6827447    0.6691334    -0.0421865    0.0277835    -0.0000565    0.0001428     0.0433631   -0.0264187 
   0.013153277    -0.6662365    0.6700844    -0.0432942    0.0276880     0.0000003   -0.0001014     0.0432995   -0.0264434 
   0.013253302    -0.6831478    0.6747007    -0.0445572    0.0284395     0.0000048    0.0001389     0.0431341   -0.0270891 
   0.013353327    -0.6667008    0.6887338    -0.0450341    0.0306302    -0.0003550    0.0000765     0.0427353   -0.0275023 
   0.013453352    -0.6579123    0.6843970    -0.0452580    0.0312180     0.0001995   -0.0001427     0.0427138   -0.0280845 
   0.013553377    -0.6559455    0.6847787    -0.0468693    0.0321138    -0.0000356   -0.0001696     0.0430096   -0.0284496 
   0.013653402    -0.6462610    0.6954908    -0.0461477    0.0324846    -0.0000983    0.0001999     0.0430343   -0.0284317 
   0.013753427    -0.6409216    0.6920918    -0.0467552    0.0325902     0.0000328    0.0001072     0.0425818   -0.0286669 
   0.013853452    -0.6545603    0.6967797    -0.0479680    0.0319134    -0.0000532    0.0002570     0.0426492   -0.0285118 
   0.013953477    -0.6310495    0.6938792    -0.0487125    0.0332934     0.0001749   -0.0002056     0.0425152   -0.0289812 
   0.014053502    -0.6346027    0.6975246    -0.0495491    0.0338829     0.0002121    0.0001403     0.0424340   -0.0293972 
   0.014153527    -0.6357045    0.7049758    -0.0496976    0.0339012    -0.0004202    0.0001203     0.0424271   -0.0296847 
   0.014253552    -0.6259128    0.7004262    -0.0500334    0.0355209    -0.0001457    0.0001023     0.0424056   -0.0302142 
   0.014353577    -0.6272029    0.7054152    -0.0510297    0.0344002    -0.0000078    0.0000949     0.0423301   -0.0300452 
   0.014453602    -0.6226801    0.7129796    -0.0514674    0.0347127    -0.0000229   -0.0002383     0.0415958   -0.0302285 
   0.014553627    -0.6263829    0.7158173    -0.0525943    0.0358018    -0.0000410   -0.0003938     0.0420910   -0.0312342 
   0.014653652    -0.6156456    0.7192783    -0.0536154    0.0363083    -0.0004368   -0.0001537     0.0416647   -0.0311812 
   0.014753677    -0.5951668    0.7347807    -0.0538932    0.0378948     0.0002320    0.0002709     0.0420326   -0.0311580 
   0.014853702    -0.5999223    0.7398525    -0.0536670    0.0386948     0.0002487    0.0001627     0.0419739   -0.0319856 
   0.014953727    -0.5946898    0.7307827    -0.0540330    0.0379925     0.0000567    0.0001967     0.0412805   -0.0318527 
   0.015053752    -0.5885584    0.7394820    -0.0526977    0.0384188     0.0000205    0.0000122     0.0420124   -0.0321724 
   0.015153777    -0.5782801    0.7284968    -0.0551844    0.0401376    -0.0002903   -0.0002346     0.0420381   -0.0329142 
   0.015253802    -0.5897625    0.7426443    -0.0569960    0.0412050    -0.0004065    0.0002450     0.0413840   -0.0330071 
   0.015353827    -0.5883774    0.7554348    -0.0587342    0.0433750     0.0000451   -0.0001749     0.0421195   -0.0329283 
   0.015453852    -0.5775829    0.7447008    -0.0578781    0.0425716    -0.0000127   -0.0001892     0.0415642   -0.0332767 
   0.015553877    -0.5643161    0.7520193    -0.0580686    0.0452088     0.0000534    0.0001647     0.0412731   -0.0337107 
   0.015653902    -0.5743369    0.7560887    -0.0604614    0.0450012    -0.0002769    0.0001300     0.0409446   -0.0341022 
