! 23-Mar-26 11:40:10 AM
! E:\UPDATEDVNAMEASUREMENTS\REC\RECBLOCKSDR.S2P
! CHANNEL.1
! TR.MEASUREMENT
! CORRECTED.DATA
# GHZ S RI R 50.0
! FREQ.GHZ         S11RE         S11IM         S21RE         S21IM         S12RE         S12IM         S22RE         S22IM         
!; PortSelection: Port_12
   0.000050000     0.0284149   -0.0827339     0.1753182   -0.1460789     0.0027901   -0.0025528    -0.0217273    0.0307834 
   0.000150025    -0.1589159   -0.1148260    -0.1967560    0.3210703    -0.0011688    0.0002975     0.0020918   -0.0035481 
   0.000250050     0.2239932    0.1319863     0.0544663    0.1177303     0.0006894   -0.0004636     0.0027675   -0.0028158 
   0.000350075    -0.9691367    0.0265918    -0.0002245   -0.0021269     0.0000146    0.0000285    -0.0011855    0.0014047 
   0.000450100    -0.9603350    0.0278308    -0.0009165   -0.0004783     0.0001103    0.0000789     0.0015588   -0.0017477 
   0.000550125    -0.9635881    0.0318171    -0.0015944   -0.0020997     0.0001678    0.0000837     0.0015665    0.0005711 
   0.000650150    -0.9534904    0.0400640    -0.0007227   -0.0015335    -0.0000267   -0.0001099     0.0019676   -0.0010729 
   0.000750175    -0.9776316    0.0431052    -0.0017317   -0.0021535    -0.0000135   -0.0000759     0.0013431   -0.0012758 
   0.000850200    -0.9608322    0.0476325    -0.0012859   -0.0010509    -0.0000488   -0.0002246     0.0007355    0.0006198 
   0.000950225    -0.9735442    0.0476601    -0.0008815   -0.0015061     0.0001634   -0.0000249     0.0012544    0.0013879 
   0.001050250    -0.9696640    0.0673825    -0.0026856   -0.0008357    -0.0000648    0.0001364     0.0004550    0.0002632 
   0.001150275    -0.9684495    0.0675575    -0.0021732   -0.0018823     0.0001478   -0.0002523     0.0013911    0.0010351 
   0.001250300    -0.9590362    0.0744984    -0.0010297   -0.0024954    -0.0000587    0.0000902     0.0009287    0.0012096 
   0.001350325    -0.9557148    0.0815254    -0.0017367   -0.0007575     0.0002258    0.0000709     0.0001221    0.0005314 
   0.001450350    -0.9616352    0.0857914    -0.0017221   -0.0009405     0.0000851   -0.0000551     0.0005405    0.0000958 
   0.001550375    -0.9638047    0.0924128    -0.0015240   -0.0009211     0.0000039   -0.0000677     0.0006491   -0.0003473 
   0.001650400    -0.9609848    0.0985358    -0.0012501   -0.0004299     0.0001520   -0.0000559    -0.0000152   -0.0006351 
   0.001750425    -0.9489713    0.0986743    -0.0020796   -0.0015128    -0.0000166    0.0002195     0.0006358    0.0000723 
   0.001850450    -0.9606540    0.1042597    -0.0026228   -0.0012001     0.0000372    0.0002872    -0.0000364   -0.0000511 
   0.001950475    -0.9535719    0.1084746    -0.0017768   -0.0000665     0.0000177    0.0001738     0.0016446   -0.0002827 
   0.002050500    -0.9538314    0.1106955    -0.0011094   -0.0009178    -0.0000892    0.0000944     0.0015653   -0.0003413 
   0.002150525    -0.9661194    0.1321886    -0.0013107   -0.0009479    -0.0000979   -0.0000057     0.0011318    0.0000434 
   0.002250550    -0.9536999    0.1245368    -0.0025493    0.0002869     0.0002399    0.0001218     0.0004355   -0.0004891 
   0.002350575    -0.9608673    0.1319894    -0.0015199   -0.0005083    -0.0001571    0.0000866     0.0013177   -0.0000581 
   0.002450600    -0.9595724    0.1461703    -0.0003062   -0.0004678     0.0000302    0.0001549     0.0003996    0.0008050 
   0.002550625    -0.9537846    0.1494998    -0.0013543   -0.0000697    -0.0001186    0.0002263     0.0004552    0.0009187 
   0.002650650    -0.9506571    0.1492746    -0.0015526   -0.0005186    -0.0000592   -0.0001705    -0.0002063    0.0007391 
   0.002750675    -0.9497022    0.1579168    -0.0005945   -0.0000570     0.0001500   -0.0001406     0.0003949   -0.0002042 
   0.002850700    -0.9535391    0.1659363    -0.0018038    0.0006072    -0.0000307    0.0002921    -0.0003387    0.0005009 
   0.002950725    -0.9470259    0.1631590    -0.0015431   -0.0003797     0.0001107    0.0001512     0.0014341    0.0001689 
   0.003050750    -0.9455952    0.1676223    -0.0013609   -0.0003134    -0.0000810   -0.0002492     0.0003106   -0.0004398 
   0.003150775    -0.9547578    0.1844959    -0.0005585    0.0006618    -0.0000054    0.0000332     0.0002432    0.0000987 
   0.003250800    -0.9413351    0.1874020    -0.0013936   -0.0004123     0.0002084    0.0000105     0.0006859    0.0005645 
   0.003350825    -0.9521275    0.1994173    -0.0010078    0.0002031    -0.0000031   -0.0000684     0.0004118    0.0008161 
   0.003450850    -0.9443890    0.1980208    -0.0010061    0.0010755     0.0000070   -0.0000606     0.0006850   -0.0004544 
   0.003550875    -0.9386926    0.2041438    -0.0011666    0.0005196    -0.0002021    0.0000634     0.0006008   -0.0001123 
   0.003650900    -0.9355105    0.2124387    -0.0010483    0.0000045     0.0000173   -0.0000879     0.0005756    0.0000209 
   0.003750925    -0.9422494    0.2167330     0.0004022   -0.0002152    -0.0000635    0.0000543     0.0010606    0.0001207 
   0.003850950    -0.9423918    0.2208764    -0.0002244    0.0001643     0.0001018   -0.0002520    -0.0010290    0.0005400 
   0.003950975    -0.9456773    0.2235277     0.0000481    0.0001445    -0.0002840   -0.0000272     0.0008076   -0.0001317 
   0.004051001    -0.9455644    0.2288905    -0.0003387    0.0001104     0.0000413   -0.0000461     0.0002862    0.0002604 
   0.004151026    -0.9446513    0.2266136    -0.0002914    0.0006963     0.0002137   -0.0002464    -0.0004609    0.0001703 
   0.004251051    -0.9265946    0.2352440    -0.0011746    0.0000254     0.0001479    0.0001364     0.0005088    0.0006769 
   0.004351076    -0.9246176    0.2496954     0.0000604    0.0000723    -0.0003613   -0.0001272     0.0004413    0.0009725 
   0.004451101    -0.9336780    0.2542818    -0.0001496    0.0014445     0.0001306   -0.0001941     0.0003824   -0.0003999 
   0.004551126    -0.9226451    0.2561848    -0.0004128    0.0000532    -0.0000134   -0.0000591    -0.0000738    0.0008398 
   0.004651151    -0.9230199    0.2649174    -0.0004845   -0.0003547    -0.0000600   -0.0001281     0.0010785    0.0002218 
   0.004751176    -0.9283111    0.2737906    -0.0005136    0.0004387     0.0001619   -0.0000789     0.0002781    0.0005632 
   0.004851201    -0.9187611    0.2750410    -0.0006497   -0.0001745     0.0000335    0.0000250     0.0008452    0.0009186 
   0.004951226    -0.9170431    0.2762349    -0.0000171   -0.0001223     0.0000237    0.0001081     0.0007453   -0.0000172 
   0.005051251    -0.9146957    0.2878059    -0.0001779    0.0000879     0.0000978    0.0000157     0.0012936   -0.0002847 
   0.005151276    -0.9080593    0.2936405    -0.0000475    0.0005292     0.0001296   -0.0002995     0.0008575   -0.0000081 
   0.005251301    -0.9210693    0.3005425    -0.0008895    0.0005267    -0.0000202    0.0002790     0.0011448    0.0008616 
   0.005351326    -0.9107425    0.2994711    -0.0001385    0.0007969    -0.0000781    0.0000842     0.0008760    0.0011597 
   0.005451351    -0.9094535    0.3074753    -0.0002304    0.0014748    -0.0000105    0.0001994     0.0007077    0.0001113 
   0.005551376    -0.9121347    0.3023406    -0.0001568   -0.0002016     0.0000136    0.0000738     0.0005838   -0.0000237 
   0.005651401    -0.9067907    0.3236282    -0.0000351    0.0007705    -0.0000351   -0.0002383     0.0006110   -0.0001434 
   0.005751426    -0.8878773    0.3282187    -0.0008520    0.0003905     0.0000123    0.0000767     0.0005983   -0.0000198 
   0.005851451    -0.8971675    0.3343723    -0.0003959    0.0005277    -0.0000063   -0.0000739     0.0001118    0.0007684 
   0.005951476    -0.8890945    0.3348324    -0.0005526    0.0000679     0.0000429    0.0001465     0.0011585    0.0004752 
   0.006051501    -0.8984491    0.3340691     0.0002836   -0.0006447     0.0000773   -0.0000862    -0.0001550    0.0005258 
   0.006151526    -0.9020500    0.3411061    -0.0000542   -0.0002437     0.0001501   -0.0001352     0.0008836   -0.0002267 
   0.006251551    -0.8852665    0.3440601    -0.0003247    0.0000145    -0.0002838    0.0000177     0.0004606    0.0006498 
   0.006351576    -0.8967515    0.3599525    -0.0009319   -0.0003609     0.0002386    0.0000023     0.0007713    0.0000435 
   0.006451601    -0.8903033    0.3637401     0.0000183    0.0004633    -0.0002157   -0.0000401     0.0001172    0.0008696 
   0.006551626    -0.8920572    0.3702038     0.0000355   -0.0000686    -0.0001901    0.0000054     0.0001870    0.0000741 
   0.006651651    -0.8900481    0.3732101    -0.0005093   -0.0003456    -0.0001260   -0.0000661     0.0007388    0.0009968 
   0.006751676    -0.8918675    0.3728845    -0.0004637    0.0000323     0.0002447   -0.0000458     0.0008265    0.0010241 
   0.006851701    -0.8870392    0.3750058     0.0001186   -0.0002641    -0.0000824   -0.0002341     0.0004221    0.0005909 
   0.006951726    -0.8795902    0.3901891    -0.0003588   -0.0001576    -0.0002954    0.0000108     0.0011941    0.0009964 
   0.007051751    -0.8680549    0.3880332    -0.0001633    0.0004973     0.0000094   -0.0002110     0.0006156   -0.0001840 
   0.007151776    -0.8635272    0.3982759     0.0000935   -0.0003458     0.0000144   -0.0000445     0.0010181    0.0004197 
   0.007251801    -0.8683324    0.3969440    -0.0000642    0.0008265     0.0000634    0.0000360     0.0005736    0.0001729 
   0.007351826    -0.8797128    0.4079041     0.0002471   -0.0009700    -0.0000010   -0.0001626     0.0011621    0.0008869 
   0.007451851    -0.8530910    0.4130787    -0.0010262   -0.0001444     0.0000352    0.0000175     0.0006967    0.0001284 
   0.007551876    -0.8612003    0.4176199    -0.0005931   -0.0004663    -0.0000247    0.0002518     0.0002562    0.0001967 
   0.007651901    -0.8583865    0.4187919    -0.0000770    0.0007256    -0.0001940   -0.0001233     0.0001438    0.0003887 
   0.007751926    -0.8625515    0.4298138    -0.0003029    0.0006301    -0.0000712   -0.0000165     0.0004829    0.0003237 
   0.007851951    -0.8662608    0.4326152    -0.0002834    0.0007042    -0.0000056    0.0000385     0.0006234    0.0003153 
   0.007951976    -0.8469959    0.4339009     0.0008982   -0.0005481     0.0000112    0.0001395     0.0007190    0.0009787 
   0.008052001    -0.8501903    0.4338614    -0.0003871    0.0006847     0.0001010    0.0002810     0.0010474    0.0009084 
   0.008152026    -0.8550296    0.4472718    -0.0018789   -0.0009178    -0.0000590   -0.0002124     0.0008545    0.0003457 
   0.008252051    -0.8299737    0.4562296    -0.0000904    0.0005668     0.0000680   -0.0001456     0.0009830    0.0008790 
   0.008352076    -0.8442198    0.4837051    -0.0010735   -0.0002248     0.0002410   -0.0001120     0.0007444   -0.0001627 
   0.008452101    -0.8351316    0.4591047     0.0001798    0.0001959    -0.0002753   -0.0000544     0.0001097    0.0002593 
   0.008552126    -0.8288065    0.4543042    -0.0002348   -0.0000024     0.0000421    0.0000416     0.0008061    0.0009085 
   0.008652151    -0.8367651    0.4646791     0.0005465   -0.0000600    -0.0000135   -0.0000110     0.0004637    0.0004837 
   0.008752176    -0.8186674    0.4678398    -0.0007568   -0.0000176     0.0001193   -0.0001746     0.0006374   -0.0003244 
   0.008852201    -0.8236181    0.4757069     0.0010708   -0.0000522    -0.0001648   -0.0000544     0.0002958    0.0005873 
   0.008952226    -0.8211661    0.4731906     0.0003773   -0.0001022     0.0000574   -0.0000745     0.0009661   -0.0001814 
   0.009052251    -0.8192343    0.4698764    -0.0006541   -0.0007421    -0.0000890    0.0002068     0.0003893   -0.0000251 
   0.009152276    -0.8156928    0.4905984    -0.0009949   -0.0003792    -0.0002629    0.0000340     0.0011324    0.0008447 
   0.009252301    -0.8151144    0.4978612     0.0002987    0.0002854    -0.0001440    0.0000312     0.0008748    0.0003444 
   0.009352326    -0.8219679    0.4911833     0.0006163   -0.0000296    -0.0001670   -0.0000996     0.0004817    0.0002647 
   0.009452351    -0.8121400    0.5019198    -0.0001814   -0.0004578    -0.0000199   -0.0002896     0.0003950    0.0006880 
   0.009552376    -0.8094262    0.5136881     0.0000713   -0.0002990     0.0001207    0.0000755     0.0008568    0.0008524 
   0.009652401    -0.7993617    0.5121212    -0.0008755   -0.0002224    -0.0000148   -0.0000160     0.0001311    0.0008974 
   0.009752426    -0.8033788    0.5081346    -0.0006577    0.0000627     0.0001059    0.0000311     0.0005141    0.0010965 
   0.009852451    -0.7958203    0.5174807    -0.0001431    0.0003883    -0.0000111   -0.0001155     0.0007189    0.0000258 
   0.009952476    -0.7914925    0.5333797    -0.0000771   -0.0001757    -0.0000772    0.0001545     0.0004579    0.0008255 
   0.010052501    -0.7916534    0.5344036    -0.0007082    0.0003072    -0.0002055    0.0000679     0.0005496    0.0005088 
   0.010152526    -0.7774209    0.5537125     0.0001972   -0.0002611    -0.0000727   -0.0001429     0.0003714    0.0008447 
   0.010252551    -0.7757977    0.5440407     0.0009825   -0.0001828    -0.0002230   -0.0000880     0.0003824    0.0006451 
   0.010352576    -0.7752267    0.5422345     0.0001755    0.0010740    -0.0002233    0.0000648     0.0007867    0.0004791 
   0.010452601    -0.7692915    0.5440357     0.0005090    0.0001723    -0.0000193   -0.0000283     0.0008170    0.0002752 
   0.010552626    -0.7723838    0.5647574     0.0003930   -0.0002265     0.0003635    0.0000237     0.0004123    0.0005347 
   0.010652651    -0.7712935    0.5620678     0.0005575   -0.0003534     0.0002313   -0.0001588     0.0009201    0.0002610 
   0.010752676    -0.7679344    0.5667381    -0.0004688    0.0000662     0.0000006   -0.0000603     0.0005304    0.0006324 
   0.010852701    -0.7577084    0.5614679     0.0002051    0.0001009    -0.0002883   -0.0001610     0.0003522    0.0008029 
   0.010952726    -0.7616221    0.5693040    -0.0001690   -0.0006266    -0.0000988    0.0001089     0.0000888    0.0001224 
   0.011052751    -0.7537774    0.5788313     0.0000169    0.0003374     0.0001724   -0.0000280     0.0009825    0.0005277 
   0.011152776    -0.7470502    0.5880402    -0.0000120    0.0010046     0.0003235    0.0002484     0.0001065    0.0008519 
   0.011252801    -0.7432904    0.5820427     0.0000314    0.0006944    -0.0001181   -0.0002443     0.0002354    0.0008550 
   0.011352826    -0.7423733    0.5849237    -0.0004626   -0.0004532    -0.0000701   -0.0000751     0.0001723    0.0005051 
   0.011452851    -0.7416362    0.5930548     0.0000450   -0.0000716    -0.0001931    0.0003638     0.0004228    0.0002993 
   0.011552876    -0.7410489    0.6022117     0.0007114   -0.0000634    -0.0001530    0.0000524     0.0007128    0.0001402 
   0.011652901    -0.7400612    0.6053237     0.0006386   -0.0009528    -0.0001173    0.0000942     0.0006631    0.0009643 
   0.011752926    -0.7204371    0.6189687    -0.0003262   -0.0000656    -0.0000121    0.0000762     0.0007493    0.0005421 
   0.011852951    -0.7338045    0.6069784    -0.0000925   -0.0003583    -0.0000788   -0.0000658     0.0003740    0.0000071 
   0.011952976    -0.7200602    0.6070769    -0.0004927    0.0001632     0.0000849    0.0000026     0.0006100    0.0008445 
   0.012053002    -0.7120571    0.6199052    -0.0002222    0.0003838    -0.0004397    0.0002911     0.0006619    0.0008142 
   0.012153027    -0.7037598    0.6207101     0.0001617    0.0002359     0.0001281   -0.0000712     0.0008785    0.0005338 
   0.012253052    -0.7036629    0.6308707     0.0000026    0.0001503     0.0000428    0.0000622     0.0013785    0.0005569 
   0.012353077    -0.7036619    0.6371434     0.0002156   -0.0004489     0.0002414   -0.0000086     0.0006509    0.0004654 
   0.012453102    -0.7055930    0.6334184    -0.0000616   -0.0003410     0.0001198    0.0000105     0.0005368    0.0002762 
   0.012553127    -0.6962536    0.6360738    -0.0001150    0.0000485     0.0000125   -0.0000038     0.0005128   -0.0000301 
   0.012653152    -0.7045794    0.6416582    -0.0002660    0.0011051    -0.0003495    0.0001002     0.0003025    0.0008839 
   0.012753177    -0.6833231    0.6570991     0.0008205   -0.0004684     0.0001339   -0.0000507     0.0003408    0.0009510 
   0.012853202    -0.6678410    0.6459952    -0.0008957   -0.0003322     0.0002698    0.0002026     0.0005447    0.0011153 
   0.012953227    -0.6820970    0.6641740    -0.0007943    0.0011277    -0.0001468   -0.0001006     0.0008990    0.0006118 
   0.013053252    -0.6760185    0.6758921     0.0008820   -0.0001350    -0.0000272   -0.0002288     0.0009921    0.0004261 
   0.013153277    -0.6805037    0.6571732    -0.0004141    0.0001946    -0.0003031   -0.0003626     0.0005229    0.0005308 
   0.013253302    -0.6856937    0.6637343    -0.0003570   -0.0001881     0.0001979    0.0001391     0.0005411    0.0003917 
   0.013353327    -0.6512216    0.6722685     0.0001108   -0.0003452    -0.0001092    0.0001025     0.0004519    0.0008168 
   0.013453352    -0.6563700    0.6806563     0.0000122    0.0008338    -0.0002377   -0.0000788     0.0007487    0.0005512 
   0.013553377    -0.6542951    0.6818345     0.0000195    0.0009493     0.0001531    0.0001339     0.0004778    0.0003782 
   0.013653402    -0.6500979    0.6838540     0.0006429    0.0004979     0.0002175    0.0001515     0.0007108    0.0004675 
   0.013753427    -0.6493393    0.6918005     0.0004310    0.0000473    -0.0004229   -0.0004880     0.0001762    0.0006538 
   0.013853452    -0.6538087    0.6989593     0.0000175   -0.0006533    -0.0002684    0.0000316     0.0006900    0.0006505 
   0.013953477    -0.6394487    0.6987111     0.0002728   -0.0002504     0.0001668   -0.0000297     0.0006071    0.0008732 
   0.014053502    -0.6476490    0.7055045    -0.0002059   -0.0000583    -0.0002861    0.0002836     0.0001794    0.0005993 
   0.014153527    -0.6283638    0.7067705     0.0000002   -0.0006278     0.0001495    0.0003332     0.0005333    0.0007101 
   0.014253552    -0.6368414    0.7127454     0.0007443    0.0007179    -0.0004454    0.0001421     0.0007281    0.0001321 
   0.014353577    -0.6287339    0.7121063     0.0003577   -0.0004681     0.0000910    0.0003092     0.0008858    0.0009454 
   0.014453602    -0.6111104    0.7279114    -0.0003483    0.0001548     0.0001029   -0.0000627     0.0000796    0.0008816 
   0.014553627    -0.6305529    0.7260899    -0.0004649    0.0001794    -0.0001568   -0.0000821     0.0005316    0.0003338 
   0.014653652    -0.6282961    0.7269434    -0.0006928   -0.0000019    -0.0001695    0.0000841     0.0006775    0.0001347 
   0.014753677    -0.6024429    0.7293433     0.0003472   -0.0001312     0.0000332    0.0000940     0.0005433    0.0006341 
   0.014853702    -0.5994943    0.7162327    -0.0001216    0.0001174     0.0002519    0.0001107     0.0003333    0.0005383 
   0.014953727    -0.6008324    0.7453429    -0.0012712   -0.0005174     0.0001200    0.0001271     0.0005815    0.0007380 
   0.015053752    -0.5948949    0.7433624    -0.0007668    0.0000149    -0.0003447    0.0000120     0.0005348    0.0008877 
   0.015153777    -0.5868217    0.7303123    -0.0003511    0.0000763     0.0000605   -0.0001515     0.0008906    0.0007616 
   0.015253802    -0.5857182    0.7566888    -0.0002868   -0.0005092    -0.0001045   -0.0000362     0.0005096    0.0001671 
   0.015353827    -0.5741814    0.7344097    -0.0006644   -0.0007558    -0.0001775   -0.0002051     0.0010761    0.0005048 
   0.015453852    -0.5682220    0.7437071     0.0000356    0.0003478     0.0000197   -0.0002258     0.0009824    0.0006120 
   0.015553877    -0.5738498    0.7609432    -0.0012257   -0.0003106    -0.0002219    0.0001394     0.0005970    0.0006008 
   0.015653902    -0.5617896    0.7470601    -0.0002194    0.0003808     0.0000999   -0.0000168     0.0002699    0.0006746 
