! 26-Feb-26 1:59:19 PM
! E:\VNA_MEASUREMENTS\CAL_ENDS\LOAD_2.S2P
! CHANNEL.1
! TR.MEASUREMENT
! CORRECTED.DATA
# GHZ S RI R 50.0
! FREQ.GHZ         S11RE         S11IM         S21RE         S21IM         S12RE         S12IM         S22RE         S22IM         
!; PortSelection: Port_12
   0.000050000    -0.0089470    0.0464612     0.3669043    0.1125657     0.0000750   -0.0060482     0.0058042    0.0339491 
   0.000150025    -0.2080494   -0.0315704     0.1036676    1.4906920     0.0005464   -0.0000153    -0.0002657   -0.0010216 
   0.000250050    -0.6430215   -0.8109210    -0.6771814    0.3887102    -0.0006023    0.0000037     0.0010583   -0.0019416 
   0.000350075     0.0020389   -0.0022981    -0.0006559   -0.0044038     0.0001984   -0.0001394    -0.0018248    0.0005963 
   0.000450100    -0.0100069   -0.0035432     0.0001029   -0.0067193     0.0000897   -0.0000963    -0.0015194   -0.0026004 
   0.000550125    -0.0078904   -0.0000331    -0.0031528   -0.0031395     0.0000797   -0.0001823     0.0004771   -0.0006067 
   0.000650150    -0.0121761    0.0016967    -0.0042774   -0.0044840     0.0000873   -0.0001217     0.0000534   -0.0025330 
   0.000750175    -0.0118307    0.0030302    -0.0020331   -0.0052112    -0.0000997    0.0006094     0.0000844    0.0007351 
   0.000850200    -0.0085731    0.0003757    -0.0041001   -0.0042675     0.0003280   -0.0002853    -0.0005922    0.0007849 
   0.000950225    -0.0038926   -0.0015011    -0.0028432   -0.0030382    -0.0001478   -0.0004894     0.0004822    0.0009292 
   0.001050250    -0.0074051    0.0030484    -0.0049844   -0.0036149    -0.0005778   -0.0000383     0.0011031    0.0000130 
   0.001150275    -0.0063740   -0.0010670    -0.0045147   -0.0026120    -0.0000604   -0.0000442     0.0001016    0.0005186 
   0.001250300    -0.0109302    0.0018428    -0.0043358   -0.0030386     0.0006486    0.0002829     0.0009438    0.0005419 
   0.001350325    -0.0112895    0.0004626    -0.0053410   -0.0016142     0.0000449   -0.0001405    -0.0004823    0.0000614 
   0.001450350    -0.0107023    0.0006407    -0.0082340   -0.0010512    -0.0004076    0.0002711     0.0003866    0.0002573 
   0.001550375    -0.0075754   -0.0009917    -0.0046215    0.0002498    -0.0001381    0.0004384     0.0012907   -0.0000935 
   0.001650400    -0.0063792    0.0002283    -0.0054181    0.0002069     0.0002371    0.0001588    -0.0000718    0.0002796 
   0.001750425    -0.0055756    0.0001910    -0.0041200    0.0002373    -0.0000551    0.0001154     0.0007418    0.0001200 
   0.001850450    -0.0084846   -0.0028806    -0.0065038   -0.0008959     0.0000864   -0.0004158     0.0010976    0.0006253 
   0.001950475    -0.0114785    0.0018770    -0.0042398   -0.0013271     0.0000931    0.0002054     0.0003479   -0.0006174 
   0.002050500    -0.0060559    0.0043780    -0.0040800    0.0010136    -0.0000949    0.0003878     0.0007670   -0.0003257 
   0.002150525    -0.0101096    0.0013955    -0.0044619    0.0012321     0.0002613    0.0000474     0.0010041    0.0005640 
   0.002250550    -0.0052933    0.0006877    -0.0028949    0.0007916    -0.0003871   -0.0002440    -0.0000537   -0.0001681 
   0.002350575    -0.0074126   -0.0020071    -0.0038093   -0.0000055     0.0004251    0.0001631     0.0007763   -0.0001226 
   0.002450600    -0.0096188   -0.0006573    -0.0035403    0.0011845     0.0002498    0.0003816    -0.0004965   -0.0005745 
   0.002550625    -0.0105293   -0.0037666    -0.0038435    0.0005776    -0.0002890   -0.0002312     0.0002814    0.0000427 
   0.002650650    -0.0083335    0.0011149    -0.0020408    0.0022572    -0.0006346   -0.0001121    -0.0002483    0.0004241 
   0.002750675    -0.0097967    0.0004151    -0.0002281    0.0004068     0.0000313   -0.0001864    -0.0001654   -0.0004998 
   0.002850700    -0.0079617    0.0007679    -0.0029456    0.0012899    -0.0003337    0.0000673     0.0001342    0.0006761 
   0.002950725    -0.0071432    0.0013143    -0.0003846    0.0018308     0.0000854   -0.0000044     0.0007648    0.0002211 
   0.003050750    -0.0072417   -0.0003319    -0.0001301    0.0014961    -0.0003003    0.0001123    -0.0001588   -0.0002473 
   0.003150775    -0.0102948   -0.0035379    -0.0027170    0.0024077     0.0001280   -0.0004076     0.0004469   -0.0000412 
   0.003250800    -0.0061738   -0.0014030    -0.0017524    0.0019009     0.0003112    0.0002173     0.0003847    0.0002390 
   0.003350825    -0.0080835   -0.0006963    -0.0010470    0.0002865     0.0003010   -0.0002431    -0.0002605    0.0007098 
   0.003450850    -0.0049700   -0.0019869    -0.0003043    0.0020331    -0.0001866   -0.0001472     0.0003535   -0.0001440 
   0.003550875    -0.0073877    0.0011266    -0.0018342   -0.0002157    -0.0004306   -0.0001872     0.0001923   -0.0006670 
   0.003650900    -0.0087439   -0.0007113    -0.0007834    0.0010655     0.0000725    0.0001780     0.0006895    0.0004826 
   0.003750925    -0.0103770   -0.0034018    -0.0012352    0.0009997    -0.0001421    0.0004379     0.0011464   -0.0002239 
   0.003850950    -0.0061105    0.0005357    -0.0005493    0.0011776     0.0000498   -0.0003582    -0.0001401    0.0004519 
   0.003950975    -0.0100741    0.0010637    -0.0013092    0.0011717     0.0000396   -0.0001776    -0.0002352   -0.0006021 
   0.004051001    -0.0076124   -0.0011298    -0.0000658    0.0023109     0.0004759   -0.0003960     0.0005367    0.0009362 
   0.004151026    -0.0086278    0.0032634    -0.0020441    0.0009615    -0.0000697    0.0000545     0.0000920   -0.0002941 
   0.004251051    -0.0113000    0.0007353    -0.0007156   -0.0005381     0.0002615    0.0000626     0.0000667   -0.0008088 
   0.004351076    -0.0081143    0.0005957    -0.0005561    0.0020717    -0.0001371   -0.0002072     0.0004287    0.0003658 
   0.004451101    -0.0086274    0.0005042    -0.0007517    0.0009630    -0.0001377    0.0001893     0.0003662   -0.0008359 
   0.004551126    -0.0076550   -0.0036905     0.0000942    0.0008336    -0.0000551   -0.0003490    -0.0005981    0.0000292 
   0.004651151    -0.0066449   -0.0001548    -0.0007857    0.0015985     0.0000160    0.0000521     0.0004537    0.0001110 
   0.004751176    -0.0087595   -0.0003087    -0.0011561    0.0006490     0.0000878    0.0000310     0.0009075   -0.0002678 
   0.004851201    -0.0068636   -0.0003706    -0.0000054    0.0000173    -0.0004165   -0.0002433     0.0005041    0.0002735 
   0.004951226    -0.0082055   -0.0029264    -0.0010813    0.0015540     0.0002830   -0.0000341     0.0007635   -0.0002507 
   0.005051251    -0.0093376    0.0019581    -0.0009126    0.0000707     0.0001910    0.0001105     0.0001993   -0.0003781 
   0.005151276    -0.0087876    0.0005150    -0.0001738    0.0003161    -0.0001716    0.0001937     0.0003813   -0.0000809 
   0.005251301    -0.0098498   -0.0006356    -0.0000263    0.0007900    -0.0000907   -0.0002632     0.0007003    0.0001552 
   0.005351326    -0.0069279    0.0011798    -0.0002748    0.0012537     0.0002998   -0.0002379     0.0004286    0.0001747 
   0.005451351    -0.0050391    0.0005092    -0.0003048    0.0006354    -0.0001936    0.0000515     0.0001260   -0.0001960 
   0.005551376    -0.0087104    0.0015240    -0.0015578   -0.0011708    -0.0001134   -0.0001492     0.0001546   -0.0003410 
   0.005651401    -0.0050455   -0.0001665     0.0003316    0.0002028    -0.0001944   -0.0004150     0.0000649   -0.0003989 
   0.005751426    -0.0076817    0.0013486    -0.0009030    0.0007675     0.0000282    0.0001214     0.0003917    0.0002670 
   0.005851451    -0.0065499    0.0021797    -0.0006582    0.0005342    -0.0000790    0.0000479    -0.0000480   -0.0001798 
   0.005951476    -0.0094023   -0.0003319     0.0003061    0.0006861     0.0000234   -0.0000137     0.0005318    0.0003983 
   0.006051501    -0.0088025    0.0004661    -0.0000278   -0.0000209     0.0001817    0.0002091     0.0002138    0.0000850 
   0.006151526    -0.0081749   -0.0007129    -0.0015745    0.0002758    -0.0000759    0.0002047     0.0007101   -0.0004427 
   0.006251551    -0.0078182   -0.0000078    -0.0017700    0.0009662    -0.0001996   -0.0002037     0.0000947   -0.0000439 
   0.006351576    -0.0083516    0.0024165     0.0003479    0.0009330    -0.0003637    0.0004054    -0.0000235    0.0000457 
   0.006451601    -0.0109722    0.0014105    -0.0001796    0.0006598    -0.0001648   -0.0000464     0.0003515    0.0002424 
   0.006551626    -0.0086622   -0.0016848     0.0005551   -0.0001169    -0.0000786   -0.0001864    -0.0002806   -0.0001929 
   0.006651651    -0.0092733    0.0017396    -0.0000747    0.0002240    -0.0002333   -0.0003086    -0.0002629   -0.0004194 
   0.006751676    -0.0080772   -0.0005553    -0.0018402   -0.0000168    -0.0000049    0.0001134     0.0007971    0.0003994 
   0.006851701    -0.0069639   -0.0000843     0.0000882    0.0003509    -0.0000700   -0.0003027    -0.0002463   -0.0000665 
   0.006951726    -0.0077361   -0.0009092    -0.0000608   -0.0000297    -0.0000203   -0.0000159     0.0006204    0.0015509 
   0.007051751    -0.0067803   -0.0010212     0.0000388    0.0001896    -0.0001977    0.0000115     0.0003774    0.0001749 
   0.007151776    -0.0066077   -0.0000895    -0.0008513   -0.0001556     0.0003375   -0.0000539     0.0007928   -0.0000570 
   0.007251801    -0.0076303    0.0009353     0.0000673   -0.0008009    -0.0001031    0.0001424     0.0005139   -0.0002203 
   0.007351826    -0.0061065   -0.0001967    -0.0004013   -0.0002438    -0.0000917   -0.0001569     0.0007500    0.0004338 
   0.007451851    -0.0063553    0.0022718     0.0002231   -0.0004621    -0.0001472   -0.0002767     0.0008908   -0.0003706 
   0.007551876    -0.0077286    0.0020847    -0.0014264    0.0006818     0.0000954    0.0000630     0.0008011   -0.0005108 
   0.007651901    -0.0079009   -0.0015932     0.0001437   -0.0009547    -0.0001713    0.0000031    -0.0002940   -0.0000331 
   0.007751926    -0.0071231   -0.0020748     0.0006562    0.0004096     0.0000379   -0.0003396     0.0001490   -0.0007093 
   0.007851951    -0.0085565    0.0023152     0.0006011    0.0001559     0.0001219    0.0000758     0.0003908   -0.0005063 
   0.007951976    -0.0064816   -0.0005533    -0.0004088   -0.0000266    -0.0001823    0.0000634     0.0000835   -0.0001149 
   0.008052001    -0.0077079   -0.0009545    -0.0003253    0.0008774     0.0002083    0.0001407     0.0004640    0.0002432 
   0.008152026    -0.0071129    0.0005524    -0.0006595   -0.0001571     0.0000195   -0.0001497     0.0002581   -0.0000055 
   0.008252051    -0.0069878   -0.0021460    -0.0004439   -0.0003536    -0.0002655    0.0004285     0.0004197    0.0002921 
   0.008352076    -0.0077662   -0.0007930    -0.0000642    0.0000641    -0.0000464   -0.0000882     0.0007472   -0.0000925 
   0.008452101    -0.0067075   -0.0007444    -0.0005238    0.0014983     0.0001230   -0.0001727    -0.0000009   -0.0003225 
   0.008552126    -0.0082654    0.0004238     0.0001043    0.0002177    -0.0001228   -0.0001713     0.0003134    0.0002893 
   0.008652151    -0.0078987    0.0001769     0.0003531   -0.0001641    -0.0003442    0.0003221     0.0004785   -0.0000753 
   0.008752176    -0.0061390   -0.0006722    -0.0003791   -0.0001384    -0.0000347   -0.0001634    -0.0003426   -0.0005854 
   0.008852201    -0.0075433   -0.0015643    -0.0007033    0.0011357     0.0000531   -0.0001029     0.0004928    0.0001819 
   0.008952226    -0.0063761   -0.0000806    -0.0005322    0.0000665     0.0000436   -0.0000396     0.0004848   -0.0004331 
   0.009052251    -0.0086798    0.0008062    -0.0002170   -0.0011197     0.0002262    0.0000522     0.0002476   -0.0003108 
   0.009152276    -0.0055193   -0.0001721    -0.0002522    0.0011475     0.0001272    0.0001329     0.0006943    0.0001237 
   0.009252301    -0.0079633   -0.0011098    -0.0009476   -0.0004498     0.0000988   -0.0000329     0.0002751   -0.0002154 
   0.009352326    -0.0092404    0.0003869     0.0010600   -0.0004379    -0.0000357    0.0002528     0.0001262   -0.0001005 
   0.009452351    -0.0081975    0.0001388     0.0000025    0.0007460    -0.0000052   -0.0001849     0.0002694   -0.0002513 
   0.009552376    -0.0072530   -0.0010497    -0.0000419   -0.0003445     0.0000359   -0.0000815     0.0000952    0.0000979 
   0.009652401    -0.0089175    0.0002108     0.0005734    0.0000412    -0.0001321   -0.0001816     0.0001470    0.0003477 
   0.009752426    -0.0074663    0.0002639     0.0001501    0.0002521    -0.0001011   -0.0000699     0.0001509    0.0001385 
   0.009852451    -0.0065838   -0.0005859    -0.0002897    0.0003552    -0.0000786   -0.0001781     0.0004153    0.0001800 
   0.009952476    -0.0065504    0.0011231    -0.0005963    0.0000650    -0.0000225    0.0000785     0.0003439    0.0001210 
   0.010052501    -0.0069492   -0.0013058    -0.0000427   -0.0006031     0.0000850    0.0001129     0.0002695   -0.0001555 
   0.010152526    -0.0069579    0.0009133    -0.0000338    0.0007286    -0.0000362    0.0000548     0.0001495    0.0001376 
   0.010252551    -0.0072028    0.0009723     0.0003715   -0.0003403    -0.0001732    0.0001376     0.0002756   -0.0001594 
   0.010352576    -0.0084959   -0.0002536    -0.0000052    0.0003379     0.0000058    0.0001428     0.0005332    0.0001871 
   0.010452601    -0.0072897    0.0012046    -0.0002910   -0.0003779     0.0000185   -0.0002209     0.0000566   -0.0005510 
   0.010552626    -0.0089419   -0.0001460    -0.0008031   -0.0012521     0.0001901    0.0001489     0.0005108    0.0000815 
   0.010652651    -0.0076076   -0.0003645     0.0005864    0.0009352    -0.0000552    0.0001043     0.0006870   -0.0005133 
   0.010752676    -0.0081385   -0.0000339    -0.0001865   -0.0003354    -0.0000470    0.0002359     0.0003310    0.0000702 
   0.010852701    -0.0073186   -0.0001756     0.0004656    0.0006594    -0.0000297   -0.0001224    -0.0000881    0.0002152 
   0.010952726    -0.0074243    0.0004012    -0.0000867    0.0003159    -0.0001461   -0.0001754     0.0002668   -0.0003686 
   0.011052751    -0.0072040    0.0000174    -0.0003459   -0.0002998     0.0000049   -0.0000648     0.0004702    0.0002502 
   0.011152776    -0.0077937    0.0005467     0.0001443   -0.0000070     0.0000544    0.0002505     0.0001495   -0.0000148 
   0.011252801    -0.0069551    0.0004005    -0.0007060    0.0001937    -0.0000073   -0.0000716     0.0001997    0.0003534 
   0.011352826    -0.0075305    0.0000186     0.0005416   -0.0001969     0.0000283    0.0000061     0.0003772    0.0003528 
   0.011452851    -0.0082905    0.0005593    -0.0006627    0.0004270    -0.0001726   -0.0000870     0.0002017    0.0000792 
   0.011552876    -0.0077705    0.0019803    -0.0002319   -0.0002926     0.0000713    0.0002771     0.0004563   -0.0000394 
   0.011652901    -0.0083138    0.0001548    -0.0000223   -0.0008140     0.0001805    0.0000141     0.0003679    0.0002780 
   0.011752926    -0.0082802   -0.0002021    -0.0000473   -0.0002401    -0.0000033   -0.0001143     0.0002670   -0.0001468 
   0.011852951    -0.0067275   -0.0009210    -0.0004759    0.0000294     0.0000150    0.0003411     0.0000902   -0.0004664 
   0.011952976    -0.0074784   -0.0006204    -0.0005130    0.0008738    -0.0003134   -0.0002867     0.0005149    0.0004172 
   0.012053002    -0.0082429    0.0004815     0.0002799    0.0000435    -0.0000389   -0.0001524    -0.0000391    0.0004590 
   0.012153027    -0.0072097    0.0000674     0.0001748   -0.0001192     0.0002138   -0.0000542     0.0004272   -0.0002515 
   0.012253052    -0.0083631    0.0022937     0.0000499   -0.0000223    -0.0001020    0.0000248     0.0007293    0.0002560 
   0.012353077    -0.0078838    0.0001146     0.0002702    0.0001061    -0.0000108    0.0000773     0.0000277    0.0002696 
   0.012453102    -0.0092645    0.0007327    -0.0000797   -0.0006202     0.0000445    0.0000775     0.0003376   -0.0000340 
   0.012553127    -0.0064056    0.0001484     0.0000653    0.0000647    -0.0001618   -0.0001904     0.0004411   -0.0005809 
   0.012653152    -0.0085778   -0.0009735    -0.0003906   -0.0012341     0.0000114    0.0000802     0.0000869   -0.0002897 
   0.012753177    -0.0083741    0.0004388     0.0000954   -0.0004886    -0.0002438   -0.0000025     0.0000990   -0.0002314 
   0.012853202    -0.0084592    0.0003459    -0.0000209   -0.0003447    -0.0000485   -0.0001258     0.0006416    0.0005168 
   0.012953227    -0.0075092   -0.0004550    -0.0006198   -0.0004095    -0.0000579   -0.0001436     0.0008601    0.0001314 
   0.013053252    -0.0090853   -0.0004843    -0.0006049   -0.0002998    -0.0000239    0.0000275     0.0007215    0.0001801 
   0.013153277    -0.0062450   -0.0000422     0.0000256   -0.0000854     0.0001364    0.0000053     0.0001052    0.0000453 
   0.013253302    -0.0090196    0.0022371     0.0006015   -0.0005040    -0.0002313   -0.0000846    -0.0000176   -0.0003126 
   0.013353327    -0.0088740    0.0007373     0.0001197    0.0004217    -0.0003548   -0.0000469    -0.0000972   -0.0000393 
   0.013453352    -0.0068335    0.0000929     0.0000313    0.0000145    -0.0000307    0.0001824     0.0009105   -0.0002229 
   0.013553377    -0.0075781   -0.0002313     0.0003880   -0.0002988    -0.0000733   -0.0000500     0.0002190   -0.0004290 
   0.013653402    -0.0060599   -0.0007483     0.0000676    0.0002278     0.0001657    0.0000669     0.0006808   -0.0000944 
   0.013753427    -0.0078991   -0.0006291     0.0001577   -0.0001001    -0.0002205    0.0000058     0.0004329    0.0002911 
   0.013853452    -0.0062558    0.0005885     0.0002111    0.0001052     0.0000864    0.0000510     0.0005609    0.0005512 
   0.013953477    -0.0058540    0.0001930    -0.0003769   -0.0000864     0.0001171   -0.0000698     0.0007389   -0.0000257 
   0.014053502    -0.0076029   -0.0019468     0.0000989    0.0000579     0.0000253   -0.0000601     0.0001738   -0.0004331 
   0.014153527    -0.0068868    0.0002043     0.0005594   -0.0000766     0.0000665   -0.0002677     0.0003686   -0.0000943 
   0.014253552    -0.0089255    0.0004419     0.0004240   -0.0000524    -0.0001764   -0.0000209     0.0003818   -0.0003335 
   0.014353577    -0.0077138   -0.0005662     0.0003250   -0.0001596     0.0000243   -0.0000564     0.0006779    0.0002371 
   0.014453602    -0.0081000   -0.0004278     0.0002548   -0.0004984    -0.0001796   -0.0000839     0.0001403    0.0000263 
   0.014553627    -0.0086806   -0.0008187     0.0005005    0.0000759    -0.0001419    0.0000515     0.0000028   -0.0001174 
   0.014653652    -0.0068590    0.0008433     0.0000202   -0.0003150     0.0002014    0.0000279     0.0006050   -0.0002053 
   0.014753677    -0.0076074   -0.0003492     0.0000411   -0.0006894    -0.0000182    0.0001851     0.0003277    0.0000788 
   0.014853702    -0.0053011   -0.0004124    -0.0003321   -0.0010012    -0.0000138    0.0000154     0.0003389    0.0002027 
   0.014953727    -0.0064353    0.0011295    -0.0006562    0.0002334    -0.0000723    0.0001991     0.0004247    0.0004035 
   0.015053752    -0.0075448   -0.0006485     0.0003967    0.0003823     0.0000340   -0.0001606     0.0001519    0.0002324 
   0.015153777    -0.0087088    0.0006067    -0.0000615    0.0003305    -0.0002679   -0.0002018     0.0005289    0.0001105 
   0.015253802    -0.0088602    0.0010620     0.0001099    0.0006099     0.0001209    0.0001350     0.0000574    0.0001283 
   0.015353827    -0.0086672   -0.0003784    -0.0001739   -0.0003130     0.0000010   -0.0000325     0.0006778   -0.0002168 
   0.015453852    -0.0075294   -0.0004120    -0.0001674   -0.0004732     0.0001804    0.0001407     0.0004605    0.0003109 
   0.015553877    -0.0082768    0.0016922    -0.0001360    0.0004116    -0.0002255   -0.0001491     0.0003212    0.0005819 
   0.015653902    -0.0057767    0.0004003    -0.0005156    0.0005057     0.0001294   -0.0000413    -0.0000918    0.0002499 
