! 26-Feb-26 1:58:38 PM
! E:\VNA_MEASUREMENTS\CAL_ENDS\LOAD_1.S2P
! CHANNEL.1
! TR.MEASUREMENT
! CORRECTED.DATA
# GHZ S RI R 50.0
! FREQ.GHZ         S11RE         S11IM         S21RE         S21IM         S12RE         S12IM         S22RE         S22IM         
!; PortSelection: Port_12
   0.000050000     2.1479640   -1.8246800     1.2282380   -1.2008860     0.0077562   -0.0010293    -0.0184421    0.0400602 
   0.000150025     0.5206822   -0.1797570     0.7548232    1.1437220     0.0005228   -0.0001296     0.0011311   -0.0026789 
   0.000250050    -0.4723623    0.0865981    -0.1240057    0.0690095    -0.0003747   -0.0007351    -0.0014916   -0.0028248 
   0.000350075    -0.0045810    0.0002251     0.0016339   -0.0036884     0.0008181   -0.0000521    -0.0005970   -0.0023396 
   0.000450100    -0.0034396    0.0008691     0.0006994   -0.0068517    -0.0003124    0.0000546    -0.0006118   -0.0022660 
   0.000550125    -0.0125547   -0.0013870    -0.0019505   -0.0057441     0.0001569    0.0003829    -0.0002463   -0.0007235 
   0.000650150    -0.0090018    0.0025392    -0.0043983   -0.0053863    -0.0006970    0.0001131    -0.0010210   -0.0014828 
   0.000750175    -0.0124271    0.0009802    -0.0043385   -0.0052985     0.0009029   -0.0005830    -0.0010858   -0.0002065 
   0.000850200    -0.0094883   -0.0024513    -0.0037408   -0.0052524    -0.0001731    0.0003495    -0.0002488    0.0005843 
   0.000950225    -0.0019458    0.0011860    -0.0032487   -0.0038477     0.0001671    0.0000790     0.0002308    0.0015100 
   0.001050250    -0.0077480    0.0018675    -0.0058172   -0.0018571    -0.0003276   -0.0002155    -0.0002356   -0.0007742 
   0.001150275    -0.0077026    0.0021708    -0.0061559   -0.0025473    -0.0003858   -0.0002430     0.0001376   -0.0000713 
   0.001250300    -0.0094867   -0.0008801    -0.0043677   -0.0032803    -0.0002774    0.0001291     0.0010589    0.0002513 
   0.001350325    -0.0137370   -0.0019027    -0.0053743   -0.0024310    -0.0003004    0.0001849    -0.0005778   -0.0001149 
   0.001450350    -0.0113745   -0.0010218    -0.0055351   -0.0022003     0.0004470    0.0000620    -0.0006630   -0.0005135 
   0.001550375    -0.0022365    0.0005843    -0.0064144   -0.0012281    -0.0004369    0.0001730     0.0011751   -0.0000722 
   0.001650400    -0.0101350    0.0000607    -0.0034391   -0.0004271     0.0000499   -0.0000074    -0.0001579   -0.0000791 
   0.001750425    -0.0051050   -0.0018193    -0.0036153    0.0005734    -0.0001131    0.0000969    -0.0003863   -0.0000920 
   0.001850450    -0.0065235    0.0010791    -0.0021898    0.0000623    -0.0001998    0.0002480    -0.0006929    0.0011013 
   0.001950475    -0.0103529    0.0018578    -0.0049803    0.0013331     0.0003137    0.0001715     0.0010260   -0.0003231 
   0.002050500    -0.0076398    0.0043621    -0.0046773    0.0007779    -0.0004274    0.0002175     0.0000100   -0.0008348 
   0.002150525    -0.0082155    0.0011042    -0.0041896   -0.0011184    -0.0002319   -0.0000339     0.0001088    0.0002958 
   0.002250550    -0.0067444    0.0001089    -0.0021992    0.0004239    -0.0002091    0.0004656    -0.0004132    0.0000406 
   0.002350575    -0.0062185   -0.0009084    -0.0013439    0.0022120     0.0005767   -0.0001565     0.0009280   -0.0008333 
   0.002450600    -0.0105096   -0.0020898    -0.0029806    0.0008642    -0.0001612    0.0006485    -0.0009177    0.0004814 
   0.002550625    -0.0105960   -0.0046349    -0.0034881    0.0018500     0.0002897   -0.0006323    -0.0003517    0.0003150 
   0.002650650    -0.0076930    0.0000325    -0.0016981    0.0005897    -0.0005210   -0.0001127     0.0001056    0.0003071 
   0.002750675    -0.0097106   -0.0004563    -0.0023752    0.0020967     0.0001775   -0.0000936    -0.0002870   -0.0002735 
   0.002850700    -0.0076547    0.0015367    -0.0031253    0.0028691     0.0002171   -0.0000810    -0.0008968   -0.0005192 
   0.002950725    -0.0065379    0.0016494    -0.0033519    0.0033715     0.0000394    0.0001172     0.0006605   -0.0006349 
   0.003050750    -0.0081839    0.0008722    -0.0010231    0.0030393    -0.0003127    0.0002179    -0.0005338   -0.0004384 
   0.003150775    -0.0093878   -0.0021107    -0.0011359   -0.0000561     0.0001251   -0.0001627    -0.0006394    0.0002627 
   0.003250800    -0.0095212   -0.0013935    -0.0018396    0.0013996    -0.0001169   -0.0000073     0.0004891    0.0006408 
   0.003350825    -0.0084570   -0.0013588    -0.0002724    0.0001476     0.0001536    0.0000686     0.0002544    0.0006072 
   0.003450850    -0.0082939   -0.0015456    -0.0018851    0.0018032     0.0000643    0.0000261     0.0004923   -0.0007362 
   0.003550875    -0.0052330    0.0006072    -0.0008606    0.0009276    -0.0003115   -0.0001896     0.0001070    0.0001048 
   0.003650900    -0.0081505    0.0007953    -0.0011069   -0.0002753    -0.0000661    0.0000774     0.0003443   -0.0003554 
   0.003750925    -0.0097389   -0.0030734    -0.0009775    0.0000291     0.0000810    0.0000018     0.0002625   -0.0002870 
   0.003850950    -0.0061176   -0.0011560    -0.0013583    0.0010816     0.0001462    0.0005111    -0.0000264    0.0005534 
   0.003950975    -0.0075035    0.0041877     0.0001817    0.0005376    -0.0000017    0.0001868     0.0003435   -0.0004343 
   0.004051001    -0.0075244   -0.0020037    -0.0011532    0.0005302     0.0002224    0.0001408     0.0008764    0.0006804 
   0.004151026    -0.0088434    0.0030370    -0.0017816    0.0010552    -0.0001141    0.0000888     0.0001845   -0.0008800 
   0.004251051    -0.0121851    0.0023465    -0.0014873    0.0006375     0.0000051   -0.0002188    -0.0002285   -0.0004672 
   0.004351076    -0.0107462   -0.0011549    -0.0008043    0.0009506     0.0002602    0.0002213     0.0009226    0.0004014 
   0.004451101    -0.0087439   -0.0002430    -0.0011002    0.0007750     0.0000418    0.0001960     0.0010038   -0.0001546 
   0.004551126    -0.0076181   -0.0015516     0.0008214    0.0005195     0.0005696    0.0003608    -0.0005432    0.0003178 
   0.004651151    -0.0076127    0.0010167    -0.0000748   -0.0000102    -0.0003791    0.0004066     0.0000698    0.0000787 
   0.004751176    -0.0067621    0.0001657     0.0012540    0.0001597     0.0000029   -0.0001497     0.0003238   -0.0000545 
   0.004851201    -0.0090291   -0.0014434    -0.0002750    0.0008762     0.0000442    0.0001763     0.0002649    0.0003891 
   0.004951226    -0.0089302    0.0001836    -0.0005276   -0.0001958     0.0002704    0.0002334     0.0007623   -0.0005726 
   0.005051251    -0.0072609    0.0002698    -0.0008139    0.0009732    -0.0000024   -0.0002057     0.0000841   -0.0006060 
   0.005151276    -0.0081174   -0.0000438     0.0005119    0.0003970     0.0001543    0.0001400     0.0005935   -0.0003969 
   0.005251301    -0.0085649   -0.0005625    -0.0007436    0.0017072    -0.0002293    0.0003416     0.0008648    0.0008339 
   0.005351326    -0.0072013    0.0011369    -0.0012251    0.0006994     0.0000719    0.0000253     0.0002257    0.0003578 
   0.005451351    -0.0053839   -0.0009217    -0.0001320    0.0008428    -0.0000366    0.0002548     0.0001659    0.0000539 
   0.005551376    -0.0115972    0.0021530     0.0002691    0.0010092     0.0000458   -0.0000205     0.0000101   -0.0000546 
   0.005651401    -0.0058036    0.0017326     0.0004568    0.0005342     0.0002420    0.0003264     0.0003506   -0.0003994 
   0.005751426    -0.0086069    0.0004146    -0.0002428    0.0007671    -0.0002180   -0.0001788     0.0001699   -0.0003693 
   0.005851451    -0.0079888   -0.0006063    -0.0009699   -0.0010735    -0.0000735    0.0000016    -0.0007603   -0.0001974 
   0.005951476    -0.0080502   -0.0003303     0.0005825    0.0014794    -0.0000093   -0.0004994     0.0000153    0.0006372 
   0.006051501    -0.0064979    0.0017096    -0.0010628   -0.0002690    -0.0000923   -0.0002267    -0.0003817    0.0004951 
   0.006151526    -0.0070549   -0.0017481     0.0001693   -0.0007728     0.0000518   -0.0000975     0.0007653   -0.0009198 
   0.006251551    -0.0083354   -0.0006191    -0.0003580    0.0005517     0.0000875   -0.0001575     0.0002589    0.0003392 
   0.006351576    -0.0086667   -0.0003027    -0.0013866    0.0001291     0.0001119   -0.0004363    -0.0000556   -0.0001081 
   0.006451601    -0.0099529    0.0018797     0.0002297    0.0014024    -0.0000840    0.0001541     0.0005600    0.0007771 
   0.006551626    -0.0086468   -0.0015617    -0.0001730    0.0001196    -0.0002652   -0.0001296    -0.0002821   -0.0000307 
   0.006651651    -0.0085234    0.0012377    -0.0010932    0.0000365    -0.0003029    0.0000490     0.0004609   -0.0001182 
   0.006751676    -0.0063892   -0.0007030     0.0001008    0.0002981     0.0002140    0.0000999     0.0009982   -0.0002053 
   0.006851701    -0.0068369    0.0005197    -0.0001654   -0.0000637    -0.0000391   -0.0000544     0.0003855    0.0000303 
   0.006951726    -0.0074756   -0.0010410     0.0003137   -0.0001981    -0.0001719   -0.0002525     0.0009305    0.0006580 
   0.007051751    -0.0071421   -0.0007437    -0.0000249   -0.0001757     0.0000880   -0.0001301     0.0002853   -0.0004746 
   0.007151776    -0.0076465    0.0007903     0.0005185   -0.0010898    -0.0000374    0.0001629     0.0006950   -0.0002453 
   0.007251801    -0.0081785    0.0017236    -0.0006501    0.0000541    -0.0002753    0.0000714     0.0002880   -0.0001168 
   0.007351826    -0.0053222    0.0002379    -0.0003130   -0.0004599    -0.0000399    0.0003751     0.0011662    0.0003932 
   0.007451851    -0.0087070    0.0030610    -0.0001101   -0.0000195    -0.0000136   -0.0000478     0.0006612   -0.0000317 
   0.007551876    -0.0061360    0.0008990     0.0006455    0.0001222    -0.0001923   -0.0003632     0.0002776   -0.0000113 
   0.007651901    -0.0081963   -0.0004773    -0.0004791   -0.0004313    -0.0002245    0.0001021     0.0002931    0.0002898 
   0.007751926    -0.0084143   -0.0017201    -0.0005761   -0.0003360    -0.0002474   -0.0001350    -0.0002285   -0.0010276 
   0.007851951    -0.0083983    0.0014350    -0.0004256   -0.0011828    -0.0001967   -0.0000235    -0.0000524   -0.0000287 
   0.007951976    -0.0077622    0.0002644    -0.0002005    0.0001089     0.0005018    0.0001155     0.0002904   -0.0000226 
   0.008052001    -0.0099949   -0.0010540    -0.0001097    0.0001982     0.0002204    0.0000460     0.0004705    0.0003172 
   0.008152026    -0.0074171   -0.0005740     0.0002118   -0.0000497    -0.0002764   -0.0000400     0.0002209   -0.0001048 
   0.008252051    -0.0075051   -0.0017362    -0.0007119   -0.0004838    -0.0001032    0.0000946     0.0007764    0.0000524 
   0.008352076    -0.0085297    0.0005127     0.0003243    0.0000290     0.0000091    0.0001651     0.0004710   -0.0001070 
   0.008452101    -0.0078233   -0.0002767     0.0005543    0.0007611    -0.0000395   -0.0000237     0.0003869   -0.0003162 
   0.008552126    -0.0057126   -0.0000353    -0.0000452   -0.0001929    -0.0002472    0.0002780     0.0002201    0.0004376 
   0.008652151    -0.0062121   -0.0017816     0.0007093   -0.0010657     0.0000194   -0.0001036     0.0005786   -0.0000510 
   0.008752176    -0.0094300    0.0002576    -0.0005409   -0.0008137    -0.0000600   -0.0001611     0.0000203   -0.0002914 
   0.008852201    -0.0074964   -0.0002802    -0.0004100   -0.0001044     0.0001804    0.0001353     0.0003496   -0.0000040 
   0.008952226    -0.0074434   -0.0004389    -0.0001575    0.0000716     0.0003679   -0.0000188     0.0004193   -0.0002837 
   0.009052251    -0.0079322    0.0010650    -0.0010467    0.0000606    -0.0000402   -0.0000468     0.0004861   -0.0004806 
   0.009152276    -0.0074289   -0.0002320     0.0007023    0.0002944     0.0000876    0.0001309     0.0006406   -0.0000596 
   0.009252301    -0.0087378   -0.0019115     0.0001652   -0.0000349    -0.0001355   -0.0000061     0.0000174   -0.0003789 
   0.009352326    -0.0089987   -0.0000522    -0.0002038    0.0004164    -0.0002757   -0.0002796     0.0000125   -0.0007026 
   0.009452351    -0.0064696   -0.0005491     0.0002632   -0.0000566    -0.0000257   -0.0001740     0.0004438    0.0002247 
   0.009552376    -0.0074087   -0.0003184     0.0001994   -0.0001819    -0.0001148    0.0001410     0.0004494    0.0000858 
   0.009652401    -0.0085143   -0.0003543    -0.0007295    0.0004162    -0.0000234    0.0002020     0.0001854    0.0001334 
   0.009752426    -0.0075535    0.0007777    -0.0000057   -0.0001765    -0.0000249    0.0001539     0.0005129    0.0005235 
   0.009852451    -0.0068885    0.0004156     0.0002523    0.0005191     0.0000950   -0.0000117     0.0003307    0.0002617 
   0.009952476    -0.0069448    0.0001707    -0.0007227    0.0001817    -0.0000102   -0.0003003     0.0001231   -0.0000115 
   0.010052501    -0.0078580   -0.0015796    -0.0004239    0.0003511    -0.0000196   -0.0001951    -0.0000718    0.0003665 
   0.010152526    -0.0074837   -0.0004163    -0.0003524    0.0000298    -0.0000536   -0.0000323    -0.0000019    0.0001262 
   0.010252551    -0.0074458    0.0015689     0.0003600    0.0004741     0.0001658   -0.0002702     0.0004594    0.0002637 
   0.010352576    -0.0063834   -0.0016620    -0.0004646    0.0004488    -0.0001161    0.0002024     0.0001032    0.0003505 
   0.010452601    -0.0068686   -0.0005612     0.0009628    0.0007610    -0.0000058    0.0001746     0.0000856   -0.0000262 
   0.010552626    -0.0082668    0.0008312    -0.0009120    0.0000582     0.0000042   -0.0001788     0.0002295    0.0001586 
   0.010652651    -0.0076312   -0.0006214    -0.0003115    0.0001462     0.0001427    0.0001661     0.0007191    0.0003347 
   0.010752676    -0.0083278   -0.0005195    -0.0002638    0.0000332    -0.0000071    0.0001744     0.0004425    0.0005048 
   0.010852701    -0.0077185   -0.0003489     0.0006380    0.0003495     0.0000705   -0.0000726     0.0001591    0.0000352 
   0.010952726    -0.0079100    0.0003494    -0.0003865    0.0006991    -0.0002990   -0.0000444    -0.0000677    0.0000302 
   0.011052751    -0.0066481    0.0006647    -0.0005089   -0.0000541    -0.0001347   -0.0000971     0.0004860    0.0004249 
   0.011152776    -0.0074354    0.0009246    -0.0004263    0.0003468    -0.0001998    0.0000683     0.0000085   -0.0000167 
   0.011252801    -0.0053616    0.0003881    -0.0006657    0.0002178     0.0000161   -0.0001634    -0.0001525    0.0002242 
   0.011352826    -0.0075737    0.0003075    -0.0003031    0.0001188    -0.0003117   -0.0001527     0.0004586   -0.0000751 
   0.011452851    -0.0078928   -0.0009070    -0.0001475   -0.0008487     0.0001063   -0.0002295     0.0004195   -0.0002171 
   0.011552876    -0.0075009    0.0012271     0.0009308   -0.0000560    -0.0001004    0.0000157     0.0001351   -0.0002082 
   0.011652901    -0.0065733   -0.0000235     0.0004288    0.0003724     0.0000746   -0.0000553    -0.0001482    0.0003051 
   0.011752926    -0.0069848    0.0004593    -0.0002033   -0.0011090    -0.0000828    0.0002955     0.0004391   -0.0003549 
   0.011852951    -0.0072967   -0.0003637     0.0003233    0.0001558    -0.0000757   -0.0001270    -0.0000408   -0.0001423 
   0.011952976    -0.0071775    0.0001251    -0.0006368   -0.0004760     0.0000096    0.0001589     0.0002164    0.0002785 
   0.012053002    -0.0076618    0.0008128    -0.0000406    0.0006385    -0.0000031   -0.0000423     0.0004383    0.0004530 
   0.012153027    -0.0059623    0.0006738     0.0004986    0.0004924    -0.0000093    0.0001921     0.0005670   -0.0001583 
   0.012253052    -0.0077968    0.0018526     0.0004991   -0.0001455     0.0000429    0.0000316     0.0005397    0.0001380 
   0.012353077    -0.0072817   -0.0008915    -0.0000293    0.0000272    -0.0000285   -0.0000171     0.0002200   -0.0001023 
   0.012453102    -0.0085975   -0.0000623    -0.0002989   -0.0003263    -0.0000365    0.0000444     0.0006518   -0.0001256 
   0.012553127    -0.0068933   -0.0003010    -0.0002729    0.0001197     0.0000058    0.0001123     0.0003559   -0.0002331 
   0.012653152    -0.0073140   -0.0004665    -0.0005080   -0.0001449     0.0001954    0.0000121    -0.0000685    0.0000374 
   0.012753177    -0.0066853   -0.0002517     0.0002968    0.0001710    -0.0000196   -0.0001022     0.0001639    0.0000221 
   0.012853202    -0.0086799   -0.0004215    -0.0000362   -0.0005902    -0.0001414   -0.0001242     0.0001220    0.0000269 
   0.012953227    -0.0076997   -0.0008400     0.0004003   -0.0005256     0.0000632    0.0002533     0.0005796   -0.0000379 
   0.013053252    -0.0078031    0.0015129     0.0000686   -0.0002091     0.0001606   -0.0000083     0.0004588    0.0006589 
   0.013153277    -0.0076534   -0.0005995     0.0011154   -0.0002803     0.0002444    0.0000580     0.0002990    0.0000518 
   0.013253302    -0.0090452    0.0005993    -0.0003941   -0.0002874    -0.0000727   -0.0002531     0.0003934    0.0001369 
   0.013353327    -0.0082971   -0.0002274    -0.0001945    0.0001499     0.0000741   -0.0002040     0.0002236   -0.0003757 
   0.013453352    -0.0083761    0.0014057     0.0004813   -0.0002541     0.0000424    0.0001011     0.0007895    0.0001964 
   0.013553377    -0.0066896    0.0004872    -0.0000551    0.0008162    -0.0002364   -0.0001689     0.0000131   -0.0000742 
   0.013653402    -0.0065587   -0.0003996    -0.0002810    0.0001699    -0.0000739   -0.0000756     0.0002612   -0.0000746 
   0.013753427    -0.0082648   -0.0006108    -0.0004261    0.0008000     0.0000897    0.0000479     0.0002874    0.0003451 
   0.013853452    -0.0068361    0.0005456     0.0000726   -0.0009447    -0.0000379    0.0001302     0.0003379    0.0001690 
   0.013953477    -0.0071967    0.0002075     0.0005600    0.0006097     0.0001786    0.0001679     0.0003033    0.0001644 
   0.014053502    -0.0082949   -0.0005684    -0.0000855   -0.0003619    -0.0001059   -0.0000585    -0.0001623   -0.0001139 
   0.014153527    -0.0060680    0.0001987    -0.0004521   -0.0005518     0.0000263    0.0001471     0.0002131    0.0004934 
   0.014253552    -0.0083052    0.0009683    -0.0001898   -0.0004566     0.0000585    0.0001690     0.0007398   -0.0001747 
   0.014353577    -0.0082914   -0.0002100     0.0004812   -0.0000574    -0.0000973   -0.0000826     0.0008753    0.0001897 
   0.014453602    -0.0081802   -0.0006004     0.0005123   -0.0008066    -0.0002012   -0.0001127     0.0001984   -0.0000452 
   0.014553627    -0.0074283   -0.0007197    -0.0004525    0.0000233    -0.0001663   -0.0001095     0.0002419    0.0000377 
   0.014653652    -0.0069450   -0.0004761    -0.0000367   -0.0008690    -0.0000471    0.0000390     0.0003235   -0.0005034 
   0.014753677    -0.0086731   -0.0002002     0.0001271   -0.0008797    -0.0000449   -0.0000210     0.0004548   -0.0000825 
   0.014853702    -0.0052292   -0.0006255    -0.0007850   -0.0002042     0.0000588    0.0000231     0.0007367    0.0001057 
   0.014953727    -0.0056179    0.0007700     0.0002903    0.0005317     0.0000539    0.0000475     0.0006829    0.0001087 
   0.015053752    -0.0077511   -0.0000927     0.0005476    0.0000535    -0.0000641   -0.0000279     0.0004550    0.0003490 
   0.015153777    -0.0090186    0.0004206     0.0002939   -0.0002900    -0.0000923    0.0000193     0.0001470   -0.0003470 
   0.015253802    -0.0079647    0.0000173    -0.0002121   -0.0002490    -0.0000098   -0.0000532     0.0003178   -0.0002348 
   0.015353827    -0.0082570   -0.0009840    -0.0004364    0.0010645    -0.0001515    0.0002111     0.0008023   -0.0000018 
   0.015453852    -0.0082691   -0.0005268    -0.0004801    0.0001744     0.0000160   -0.0000323     0.0004911    0.0000275 
   0.015553877    -0.0072014    0.0006721    -0.0006205   -0.0000864    -0.0001441   -0.0000878     0.0005450    0.0000361 
   0.015653902    -0.0053574   -0.0006014    -0.0001318   -0.0007405     0.0002893    0.0000234     0.0002019    0.0003699 
