! 26-Feb-26 1:57:40 PM
! E:\VNA_MEASUREMENTS\CAL_ENDS\LOAD_0.S2P
! CHANNEL.1
! TR.MEASUREMENT
! CORRECTED.DATA
# GHZ S RI R 50.0
! FREQ.GHZ         S11RE         S11IM         S21RE         S21IM         S12RE         S12IM         S22RE         S22IM         
!; PortSelection: Port_12
   0.000050000     0.4405085    0.6402368     0.6621121    0.1444465    -0.0063678   -0.0008406    -0.0167522    0.0416614 
   0.000150025    -0.2498914    0.1061133     0.0331278    0.4158208     0.0002009    0.0014129     0.0054210   -0.0026623 
   0.000250050     0.0992079   -0.2779758     0.2171774    0.1689374    -0.0006819    0.0005250     0.0020985   -0.0027421 
   0.000350075     0.0001792    0.0024708    -0.0028314   -0.0020516    -0.0005809   -0.0004359    -0.0012763   -0.0020459 
   0.000450100    -0.0134849   -0.0043507    -0.0024108   -0.0030109    -0.0006891   -0.0004413    -0.0013076   -0.0001703 
   0.000550125    -0.0085036    0.0029025    -0.0022209   -0.0057315     0.0005920   -0.0006277    -0.0000077   -0.0005556 
   0.000650150    -0.0096488   -0.0006281    -0.0026562   -0.0062860     0.0000088   -0.0005460     0.0011311   -0.0013046 
   0.000750175    -0.0089082    0.0002622    -0.0031839   -0.0039448    -0.0000948   -0.0000007    -0.0003542    0.0010271 
   0.000850200    -0.0102125   -0.0025908    -0.0037680   -0.0060735    -0.0002040    0.0005084    -0.0012711    0.0010945 
   0.000950225    -0.0055927    0.0021831    -0.0057143   -0.0039029    -0.0005571   -0.0002147     0.0014590    0.0004508 
   0.001050250    -0.0085207    0.0031681    -0.0078589   -0.0016132    -0.0003208    0.0002020     0.0000416    0.0008517 
   0.001150275    -0.0074714   -0.0015002    -0.0060917   -0.0039925     0.0000585    0.0002158     0.0016691    0.0005588 
   0.001250300    -0.0112670    0.0025919    -0.0067693   -0.0013630    -0.0002080    0.0002094     0.0002376    0.0011372 
   0.001350325    -0.0095026   -0.0008363    -0.0069110   -0.0009218     0.0003184   -0.0002585    -0.0005737    0.0007033 
   0.001450350    -0.0138923    0.0037427    -0.0052267   -0.0022210    -0.0000418   -0.0004234     0.0001647    0.0006086 
   0.001550375    -0.0065143   -0.0040032    -0.0049115   -0.0013683     0.0000888   -0.0001839     0.0008393    0.0009766 
   0.001650400    -0.0083699   -0.0015337    -0.0035802    0.0021075     0.0000569    0.0002086    -0.0003063    0.0000425 
   0.001750425    -0.0038687   -0.0018186    -0.0046446    0.0002575    -0.0000224    0.0000391     0.0000445    0.0000061 
   0.001850450    -0.0046087    0.0017374    -0.0047777    0.0013197     0.0000716    0.0000104    -0.0000471    0.0003742 
   0.001950475    -0.0109207    0.0028340    -0.0052970    0.0000921    -0.0003847   -0.0002707     0.0008599   -0.0002995 
   0.002050500    -0.0060423    0.0064743    -0.0023390    0.0012367    -0.0000018   -0.0000451     0.0010287   -0.0004331 
   0.002150525    -0.0073406   -0.0004917    -0.0026209    0.0004665    -0.0006813    0.0007104    -0.0000363    0.0006453 
   0.002250550    -0.0046818   -0.0029346    -0.0011469    0.0019370    -0.0002269   -0.0003546     0.0005097   -0.0005343 
   0.002350575    -0.0073119    0.0001364    -0.0034275    0.0018272    -0.0000740   -0.0001747     0.0013805   -0.0003353 
   0.002450600    -0.0099325    0.0000620    -0.0019020    0.0013923     0.0001375    0.0003503     0.0000727    0.0006709 
   0.002550625    -0.0097081   -0.0038313    -0.0027273    0.0031508    -0.0001259   -0.0001653    -0.0004772    0.0002428 
   0.002650650    -0.0080054    0.0029005    -0.0026905    0.0019175     0.0001659   -0.0002162    -0.0000535    0.0008785 
   0.002750675    -0.0087548    0.0009224    -0.0012691    0.0013397    -0.0003335    0.0002128    -0.0003869    0.0005382 
   0.002850700    -0.0055023    0.0000587    -0.0010059    0.0009933     0.0001676    0.0000166    -0.0004408    0.0000686 
   0.002950725    -0.0070645    0.0024898    -0.0010230    0.0011114     0.0001189    0.0001013     0.0014714   -0.0002088 
   0.003050750    -0.0101265    0.0007413    -0.0023636    0.0029737     0.0004549   -0.0002927     0.0005479   -0.0000905 
   0.003150775    -0.0094993   -0.0009967    -0.0017189   -0.0000506    -0.0003024   -0.0002807    -0.0004122    0.0003770 
   0.003250800    -0.0068281   -0.0002158    -0.0006273    0.0022733    -0.0001951    0.0002773     0.0007528   -0.0004933 
   0.003350825    -0.0099969    0.0004130    -0.0023624    0.0029700    -0.0002666    0.0002621    -0.0004338   -0.0003040 
   0.003450850    -0.0073174    0.0001002    -0.0004848    0.0024560     0.0000814   -0.0001024    -0.0000326   -0.0014737 
   0.003550875    -0.0062210    0.0012293    -0.0005718    0.0002115     0.0001995   -0.0000972     0.0000809    0.0004550 
   0.003650900    -0.0084627    0.0014079    -0.0020785    0.0014120     0.0002047   -0.0002607     0.0009144   -0.0003724 
   0.003750925    -0.0108328   -0.0019992    -0.0009650    0.0020073     0.0001028    0.0002125     0.0008347   -0.0005732 
   0.003850950    -0.0061782   -0.0020799    -0.0006947    0.0015521    -0.0003787   -0.0003854    -0.0002585    0.0003842 
   0.003950975    -0.0091444    0.0024633    -0.0011211    0.0010061    -0.0000218   -0.0002781    -0.0003638   -0.0005109 
   0.004051001    -0.0092027   -0.0026550    -0.0011733    0.0011164    -0.0000640   -0.0001382     0.0003402    0.0002909 
   0.004151026    -0.0093017    0.0024729    -0.0008696    0.0010629     0.0001275   -0.0002139    -0.0001224    0.0001537 
   0.004251051    -0.0100201    0.0000991    -0.0009937    0.0000105     0.0001572   -0.0000900    -0.0003401    0.0001685 
   0.004351076    -0.0063603   -0.0007207     0.0001956   -0.0001390     0.0000539    0.0002560     0.0006089    0.0007386 
   0.004451101    -0.0083224   -0.0011767    -0.0011064    0.0006988    -0.0001384    0.0003247     0.0010008   -0.0007619 
   0.004551126    -0.0069282   -0.0015839     0.0007781    0.0006691     0.0002429    0.0000234    -0.0008132    0.0000504 
   0.004651151    -0.0085610   -0.0009142    -0.0006677   -0.0007896    -0.0000546    0.0001621     0.0003505   -0.0000947 
   0.004751176    -0.0070828   -0.0010418    -0.0007391   -0.0007051    -0.0001465   -0.0000747    -0.0001195   -0.0005922 
   0.004851201    -0.0064522   -0.0007414     0.0011494   -0.0004321    -0.0002887   -0.0000911     0.0006417   -0.0001969 
   0.004951226    -0.0098694   -0.0017937    -0.0001073   -0.0002029    -0.0003367    0.0001787     0.0002648   -0.0002906 
   0.005051251    -0.0067518    0.0002016    -0.0004692    0.0001155     0.0001778    0.0002623     0.0009852   -0.0003052 
   0.005151276    -0.0094867   -0.0002014    -0.0004888    0.0003003     0.0000738    0.0000212     0.0003798   -0.0006573 
   0.005251301    -0.0113313    0.0004139     0.0003134    0.0008019     0.0000785   -0.0001405     0.0008055    0.0006140 
   0.005351326    -0.0084941    0.0014620    -0.0012251    0.0007641     0.0003845    0.0001314     0.0004018    0.0001473 
   0.005451351    -0.0069572   -0.0006634    -0.0010898    0.0009659    -0.0000892    0.0001561     0.0005745   -0.0004898 
   0.005551376    -0.0102232   -0.0005720    -0.0001308    0.0006887     0.0003311   -0.0002321     0.0005971   -0.0003617 
   0.005651401    -0.0033897   -0.0001747     0.0009775    0.0006603    -0.0000400   -0.0003088    -0.0003737   -0.0004427 
   0.005751426    -0.0064549   -0.0003365    -0.0002061    0.0010138     0.0001135   -0.0001609     0.0005969    0.0003295 
   0.005851451    -0.0072279    0.0019463    -0.0000874    0.0018225    -0.0000966    0.0000485    -0.0000540   -0.0004015 
   0.005951476    -0.0065314    0.0001823     0.0014434   -0.0002329    -0.0002248   -0.0003999     0.0001247   -0.0000212 
   0.006051501    -0.0082648    0.0006889     0.0003459   -0.0008900    -0.0000775    0.0002050    -0.0006238   -0.0000662 
   0.006151526    -0.0073263    0.0005392    -0.0005506    0.0019438     0.0000148    0.0000227     0.0008069   -0.0003505 
   0.006251551    -0.0091354   -0.0000780    -0.0010361   -0.0002041     0.0000027    0.0002075     0.0002574    0.0002523 
   0.006351576    -0.0094569   -0.0010168    -0.0000318   -0.0004099     0.0000691   -0.0000663     0.0001372   -0.0003382 
   0.006451601    -0.0087920    0.0003034     0.0002192   -0.0009535     0.0000955   -0.0000357    -0.0000090    0.0005518 
   0.006551626    -0.0095956   -0.0001110     0.0001812    0.0001102     0.0002522   -0.0001563    -0.0004889   -0.0002293 
   0.006651651    -0.0076818    0.0017275     0.0005569   -0.0003451     0.0000465   -0.0000894     0.0001440   -0.0000059 
   0.006751676    -0.0086559   -0.0014816    -0.0000802    0.0005558    -0.0000127    0.0001139     0.0006970    0.0005384 
   0.006851701    -0.0070293    0.0007257     0.0012635    0.0000602    -0.0001118    0.0000939     0.0002265    0.0001744 
   0.006951726    -0.0077857   -0.0012921    -0.0003329    0.0007056    -0.0004467   -0.0000420     0.0006504    0.0012420 
   0.007051751    -0.0081440   -0.0012983     0.0006617    0.0001519    -0.0000047    0.0002718     0.0010820    0.0001054 
   0.007151776    -0.0073278   -0.0000649    -0.0000159    0.0002469    -0.0001568   -0.0001740     0.0005774    0.0003333 
   0.007251801    -0.0080996    0.0009916     0.0007270   -0.0005520    -0.0001253    0.0000226     0.0002543   -0.0002256 
   0.007351826    -0.0059650   -0.0008503     0.0004308    0.0005338     0.0001787   -0.0000735     0.0008768    0.0004433 
   0.007451851    -0.0084270    0.0019225    -0.0001265    0.0003333     0.0002642   -0.0000217     0.0007748   -0.0000723 
   0.007551876    -0.0062193   -0.0003524     0.0000733    0.0004924    -0.0000669    0.0000282     0.0005919   -0.0001403 
   0.007651901    -0.0070485    0.0001939     0.0010492   -0.0007299     0.0001053   -0.0000083     0.0003817    0.0000890 
   0.007751926    -0.0086237    0.0008357     0.0003708    0.0002504    -0.0000152   -0.0002332     0.0002406   -0.0004406 
   0.007851951    -0.0059856    0.0014207    -0.0004151    0.0003107     0.0002537    0.0000792     0.0005774    0.0001422 
   0.007951976    -0.0074539   -0.0007971    -0.0000953    0.0000113     0.0001292    0.0000086    -0.0001213   -0.0001636 
   0.008052001    -0.0078700   -0.0006249    -0.0000772   -0.0002243     0.0003213   -0.0002220     0.0000760    0.0000882 
   0.008152026    -0.0087141    0.0003116    -0.0006197   -0.0009545    -0.0004430    0.0000608     0.0005812    0.0002126 
   0.008252051    -0.0071631   -0.0029003    -0.0004229   -0.0001751    -0.0000769    0.0000338     0.0007470    0.0006469 
   0.008352076    -0.0090006   -0.0013038     0.0003426   -0.0006678     0.0001636   -0.0002895     0.0006112   -0.0002280 
   0.008452101    -0.0083061   -0.0005639     0.0003172   -0.0004976    -0.0002201    0.0001535    -0.0000573   -0.0001324 
   0.008552126    -0.0080712   -0.0000522    -0.0002052    0.0002119    -0.0001904   -0.0000614     0.0004979    0.0004709 
   0.008652151    -0.0085548   -0.0000512    -0.0002186    0.0005327     0.0000282   -0.0000518     0.0008236   -0.0003472 
   0.008752176    -0.0070434    0.0001478    -0.0002339   -0.0007911    -0.0000922    0.0001268     0.0000743   -0.0007089 
   0.008852201    -0.0084547   -0.0004322     0.0006293    0.0011377     0.0001109   -0.0000592     0.0002918    0.0001339 
   0.008952226    -0.0066122    0.0001072     0.0003701   -0.0007713     0.0002354   -0.0001295     0.0005192   -0.0002385 
   0.009052251    -0.0072295    0.0012768     0.0002186   -0.0003183     0.0000490   -0.0000030     0.0005181   -0.0001001 
   0.009152276    -0.0069130   -0.0003593    -0.0000128   -0.0001478     0.0001306   -0.0001432     0.0006961   -0.0000977 
   0.009252301    -0.0083240   -0.0001578    -0.0002776   -0.0000374     0.0000071    0.0001704     0.0002704   -0.0001519 
   0.009352326    -0.0095169   -0.0009329    -0.0005309    0.0001843     0.0000768    0.0002107     0.0002632    0.0001966 
   0.009452351    -0.0077321    0.0002570    -0.0001341   -0.0006703    -0.0001425   -0.0001423     0.0006071    0.0000480 
   0.009552376    -0.0074321   -0.0004404     0.0005504   -0.0006337     0.0003460   -0.0000245     0.0002950    0.0001502 
   0.009652401    -0.0065061    0.0013925    -0.0000972   -0.0004543    -0.0000715   -0.0000931     0.0000379    0.0003733 
   0.009752426    -0.0077276    0.0000005     0.0003349   -0.0000870     0.0000521    0.0000494     0.0003852    0.0000621 
   0.009852451    -0.0062600   -0.0002372    -0.0006609   -0.0001776     0.0000398    0.0001238     0.0003910    0.0001091 
   0.009952476    -0.0070813   -0.0000370     0.0004292    0.0008518    -0.0000612    0.0001908     0.0003020    0.0001163 
   0.010052501    -0.0080792   -0.0007049     0.0000746    0.0002485    -0.0000544   -0.0000145     0.0001370   -0.0001654 
   0.010152526    -0.0071538    0.0002839    -0.0005901   -0.0001505    -0.0002243   -0.0000422    -0.0002810    0.0002649 
   0.010252551    -0.0076643    0.0006621    -0.0003370    0.0000688     0.0000866    0.0000603     0.0004559   -0.0000338 
   0.010352576    -0.0067817   -0.0006607     0.0000293    0.0000468    -0.0000143   -0.0002019     0.0003703   -0.0000323 
   0.010452601    -0.0063365    0.0007383     0.0000397    0.0001915     0.0001288   -0.0000523     0.0002334   -0.0004813 
   0.010552626    -0.0083749   -0.0006716    -0.0004716    0.0002889     0.0000235    0.0000561    -0.0000579    0.0005174 
   0.010652651    -0.0078819   -0.0005327    -0.0000254    0.0009060    -0.0001944    0.0000939     0.0006577   -0.0000344 
   0.010752676    -0.0077431   -0.0006681    -0.0000460   -0.0002935     0.0000366    0.0000329     0.0001074   -0.0000630 
   0.010852701    -0.0077868    0.0000610    -0.0001105   -0.0008575    -0.0001875   -0.0002370     0.0003115    0.0002668 
   0.010952726    -0.0076253   -0.0013232    -0.0003357    0.0002948     0.0001960   -0.0001037    -0.0002284   -0.0003220 
   0.011052751    -0.0075550    0.0013217    -0.0005090    0.0006648     0.0003173   -0.0002865     0.0004241    0.0003370 
   0.011152776    -0.0075573    0.0006579     0.0003117    0.0008447    -0.0002011   -0.0000419    -0.0001075   -0.0000752 
   0.011252801    -0.0066120    0.0006482     0.0001398    0.0004614     0.0000559   -0.0000258     0.0001498    0.0002553 
   0.011352826    -0.0067971   -0.0009446     0.0003887   -0.0005066    -0.0000868    0.0001364     0.0005989   -0.0000735 
   0.011452851    -0.0087260   -0.0007245     0.0006454    0.0000034     0.0002141   -0.0000806     0.0001853    0.0003229 
   0.011552876    -0.0058266    0.0013107    -0.0001927    0.0000076     0.0001054    0.0001437     0.0002784   -0.0000075 
   0.011652901    -0.0077631    0.0004911    -0.0005247   -0.0000317    -0.0000948    0.0000364     0.0001836    0.0007945 
   0.011752926    -0.0077846   -0.0000480     0.0003343    0.0001943    -0.0000503    0.0003811    -0.0000840    0.0001677 
   0.011852951    -0.0068948   -0.0016609     0.0000391   -0.0007890    -0.0000744    0.0000356     0.0000017   -0.0001314 
   0.011952976    -0.0076198   -0.0008061    -0.0007551   -0.0000019     0.0000836   -0.0000664     0.0003154    0.0000056 
   0.012053002    -0.0088286    0.0001094     0.0004844   -0.0005504     0.0000655    0.0000908    -0.0000188    0.0001291 
   0.012153027    -0.0073769   -0.0012140     0.0006241    0.0003008     0.0001593    0.0003015     0.0003577   -0.0004748 
   0.012253052    -0.0072692    0.0012701     0.0000136   -0.0003475     0.0000367   -0.0000359     0.0008484    0.0000206 
   0.012353077    -0.0078621   -0.0001992     0.0001674   -0.0005975    -0.0001496   -0.0002308    -0.0000048    0.0000118 
   0.012453102    -0.0090482    0.0004574     0.0008304   -0.0006779    -0.0000410   -0.0001131     0.0006795   -0.0000617 
   0.012553127    -0.0060947    0.0003413     0.0007555   -0.0002373     0.0000627   -0.0001204     0.0007019   -0.0000356 
   0.012653152    -0.0072497    0.0002652     0.0001257    0.0001723     0.0000953    0.0000338     0.0004945   -0.0002570 
   0.012753177    -0.0076458   -0.0002376    -0.0008495    0.0007081    -0.0000045   -0.0003244     0.0002802   -0.0002245 
   0.012853202    -0.0077331    0.0003031    -0.0001356   -0.0000936    -0.0001161   -0.0000990     0.0003758    0.0006590 
   0.012953227    -0.0074118   -0.0002165    -0.0006769    0.0002123     0.0000337   -0.0001515     0.0005296    0.0003042 
   0.013053252    -0.0089531   -0.0002854     0.0005334    0.0002446     0.0000687   -0.0000998     0.0005724    0.0000087 
   0.013153277    -0.0062085    0.0004369    -0.0005389    0.0002758     0.0002343    0.0003704     0.0003167   -0.0003073 
   0.013253302    -0.0080878    0.0009123     0.0005854   -0.0000966     0.0001577   -0.0000184     0.0005029    0.0001634 
   0.013353327    -0.0094005    0.0008408    -0.0001390    0.0003171     0.0000308   -0.0000164     0.0003913    0.0000651 
   0.013453352    -0.0080254   -0.0005569    -0.0003260    0.0004857    -0.0000626    0.0001202     0.0007686    0.0000547 
   0.013553377    -0.0075359    0.0008467     0.0002911    0.0000758     0.0000452   -0.0000970     0.0001267   -0.0003769 
   0.013653402    -0.0061523   -0.0004276     0.0001834   -0.0010614    -0.0002071    0.0001072     0.0002834    0.0001255 
   0.013753427    -0.0078764    0.0006263     0.0003381   -0.0003345    -0.0001635   -0.0002052     0.0001631    0.0001000 
   0.013853452    -0.0074602    0.0002281    -0.0001584   -0.0003575    -0.0000800   -0.0000721     0.0002647    0.0001991 
   0.013953477    -0.0071719    0.0007830     0.0001747   -0.0001143     0.0002560   -0.0000581     0.0006295   -0.0000516 
   0.014053502    -0.0071732   -0.0007701    -0.0004202    0.0007251     0.0000264   -0.0000679     0.0004425   -0.0000488 
   0.014153527    -0.0060703   -0.0001871     0.0002913    0.0001793    -0.0001269   -0.0001245     0.0005456    0.0001546 
   0.014253552    -0.0082303   -0.0009926     0.0000686   -0.0007799    -0.0000766    0.0000476     0.0002115   -0.0002988 
   0.014353577    -0.0072468    0.0001262    -0.0000968    0.0000112    -0.0000346    0.0000873     0.0007615    0.0004261 
   0.014453602    -0.0095463    0.0000222     0.0001661    0.0000217     0.0000296   -0.0001512    -0.0001948    0.0003736 
   0.014553627    -0.0064551    0.0000538    -0.0003109   -0.0001008    -0.0002091    0.0000548     0.0002184   -0.0001954 
   0.014653652    -0.0072691   -0.0016182     0.0002566    0.0007158    -0.0001390   -0.0000687     0.0003336   -0.0002054 
   0.014753677    -0.0080006    0.0008396    -0.0008566    0.0000062    -0.0000792   -0.0001579     0.0004462    0.0004019 
   0.014853702    -0.0052178   -0.0008635    -0.0001904    0.0004538    -0.0002621    0.0000135     0.0002790    0.0004389 
   0.014953727    -0.0061291    0.0001251     0.0002711   -0.0003443     0.0001461    0.0000212     0.0008124   -0.0000710 
   0.015053752    -0.0081227    0.0002323    -0.0003971   -0.0004335     0.0000720   -0.0000579     0.0004146    0.0001844 
   0.015153777    -0.0083733    0.0003553     0.0000778   -0.0003034    -0.0000009    0.0001235     0.0002851   -0.0000613 
   0.015253802    -0.0093151    0.0002536     0.0002946    0.0005449    -0.0000443   -0.0001027     0.0001613   -0.0001556 
   0.015353827    -0.0081582    0.0007325     0.0004536   -0.0003609     0.0000919    0.0002497     0.0005742    0.0001072 
   0.015453852    -0.0066732   -0.0006440    -0.0002524    0.0003572    -0.0001259    0.0000253     0.0006001    0.0001895 
   0.015553877    -0.0076284    0.0005221     0.0001014   -0.0009619    -0.0001159    0.0000811     0.0003169    0.0002843 
   0.015653902    -0.0056039   -0.0007202    -0.0006428    0.0000671     0.0001071    0.0000377     0.0000197    0.0002667 
