! 26-Feb-26 2:02:30 PM
! E:\VNA_MEASUREMENTS\CAL_ENDS\NOISEDIODE_1.S2P
! CHANNEL.1
! TR.MEASUREMENT
! CORRECTED.DATA
# GHZ S RI R 50.0
! FREQ.GHZ         S11RE         S11IM         S21RE         S21IM         S12RE         S12IM         S22RE         S22IM         
!; PortSelection: Port_12
   0.000050000    -0.1062728    0.1151959     0.0730329   -0.1356199     0.0040341    0.0003194    -0.0235670    0.0118772 
   0.000150025    -0.0903239    0.1025303    -0.1049730    0.0622260    -0.0014601    0.0009564     0.0021161   -0.0001857 
   0.000250050    -0.1073258   -0.2813405    -0.1576383   -0.1260437     0.0000430    0.0008453    -0.0001861   -0.0025696 
   0.000350075     0.0760753   -0.0026661     0.0019117   -0.0054272     0.0007344    0.0002780    -0.0009114   -0.0016757 
   0.000450100     0.0690553   -0.0030007    -0.0011705   -0.0085329    -0.0008113   -0.0003104    -0.0012500   -0.0008639 
   0.000550125     0.0680546    0.0028663    -0.0011253   -0.0069307     0.0005291    0.0005010    -0.0000194   -0.0003370 
   0.000650150     0.0652515   -0.0053189    -0.0031201   -0.0038696     0.0004496    0.0000744     0.0008161   -0.0015238 
   0.000750175     0.0656459   -0.0018691    -0.0053609   -0.0059037    -0.0000640   -0.0000502     0.0003985    0.0013906 
   0.000850200     0.0689780   -0.0030354    -0.0026571   -0.0053438     0.0001153   -0.0000189    -0.0008158    0.0001394 
   0.000950225     0.0746573    0.0023249    -0.0088478   -0.0048342     0.0000300   -0.0002496     0.0004560    0.0010913 
   0.001050250     0.0707011   -0.0008920    -0.0063241   -0.0068080    -0.0000270    0.0000927     0.0001450   -0.0007760 
   0.001150275     0.0720502    0.0042392    -0.0031229   -0.0039085    -0.0000397   -0.0002631     0.0003615    0.0003216 
   0.001250300     0.0658199    0.0008300    -0.0050300   -0.0027914     0.0000474   -0.0006308     0.0004533    0.0008059 
   0.001350325     0.0678852   -0.0044758    -0.0057499   -0.0026849    -0.0002377   -0.0002018     0.0004105   -0.0005134 
   0.001450350     0.0608772   -0.0019250    -0.0056832   -0.0010529     0.0003197   -0.0000972     0.0003811    0.0012229 
   0.001550375     0.0709483   -0.0004145    -0.0074188   -0.0021824     0.0001591   -0.0001234     0.0002760    0.0001824 
   0.001650400     0.0691660    0.0022122    -0.0052454    0.0004406    -0.0001223    0.0001569     0.0003350    0.0002445 
   0.001750425     0.0725795    0.0018133    -0.0035479    0.0012983     0.0002443   -0.0002402    -0.0003078   -0.0000277 
   0.001850450     0.0678024    0.0031375    -0.0063726    0.0022053    -0.0007473   -0.0001653    -0.0002930    0.0004110 
   0.001950475     0.0693696    0.0013340    -0.0045651    0.0013210     0.0001188   -0.0000009     0.0010252   -0.0007987 
   0.002050500     0.0692353    0.0052543    -0.0063590    0.0013484     0.0000802    0.0001926     0.0010737    0.0011865 
   0.002150525     0.0647974   -0.0000897    -0.0030237   -0.0008787    -0.0000601    0.0002724     0.0000867   -0.0002058 
   0.002250550     0.0706908   -0.0024236    -0.0034869    0.0009398     0.0002049   -0.0003333    -0.0006407    0.0001942 
   0.002350575     0.0694079    0.0015126    -0.0018836    0.0004518     0.0002456    0.0003504     0.0008334   -0.0008142 
   0.002450600     0.0710833   -0.0030938    -0.0033920    0.0032865     0.0001210    0.0000833     0.0004179    0.0002102 
   0.002550625     0.0683010   -0.0009939    -0.0029239    0.0003344    -0.0000594    0.0006743    -0.0000163    0.0006526 
   0.002650650     0.0655124    0.0021302    -0.0030358    0.0029068    -0.0004312    0.0001260    -0.0002504    0.0002520 
   0.002750675     0.0691315    0.0015942    -0.0014474    0.0006049     0.0000791    0.0006092     0.0000435    0.0004808 
   0.002850700     0.0683447    0.0013977    -0.0017129    0.0014510    -0.0000222    0.0003469    -0.0002172    0.0000039 
   0.002950725     0.0703713    0.0005133    -0.0012782    0.0022937     0.0003538   -0.0001238     0.0004725   -0.0003772 
   0.003050750     0.0698586    0.0017988    -0.0016068    0.0023467     0.0000408   -0.0001326     0.0004131   -0.0003801 
   0.003150775     0.0653254   -0.0015915    -0.0022971    0.0022580    -0.0001827   -0.0003801    -0.0006167    0.0001866 
   0.003250800     0.0681945   -0.0017418    -0.0027119    0.0004909    -0.0000305    0.0000192     0.0005783    0.0004165 
   0.003350825     0.0690391    0.0020493    -0.0011779   -0.0000157     0.0001828    0.0001192    -0.0001247    0.0004229 
   0.003450850     0.0697084   -0.0040858     0.0009713    0.0009380    -0.0006251   -0.0001056    -0.0006850   -0.0005942 
   0.003550875     0.0692075    0.0010716    -0.0015353    0.0006767    -0.0003683   -0.0000011     0.0000444   -0.0004722 
   0.003650900     0.0706942   -0.0015462    -0.0012816    0.0008465    -0.0002015   -0.0001011     0.0000983    0.0000259 
   0.003750925     0.0668110   -0.0014208     0.0006070    0.0001977     0.0003511   -0.0002450     0.0003849   -0.0003556 
   0.003850950     0.0682496   -0.0025379     0.0001989    0.0000119     0.0000193   -0.0000958    -0.0002310    0.0001892 
   0.003950975     0.0675651    0.0029918    -0.0012732    0.0000448    -0.0000693    0.0005329    -0.0002828   -0.0006309 
   0.004051001     0.0682793   -0.0026564     0.0004177    0.0017613    -0.0001443   -0.0001473    -0.0002110    0.0004112 
   0.004151026     0.0670108    0.0012395    -0.0004458    0.0013887     0.0001908   -0.0004235    -0.0000463   -0.0005564 
   0.004251051     0.0666169    0.0004355    -0.0027404    0.0014173    -0.0001993    0.0000551    -0.0002710   -0.0002402 
   0.004351076     0.0688376   -0.0010875     0.0003050    0.0009984    -0.0001113   -0.0000163     0.0015229    0.0002447 
   0.004451101     0.0690423   -0.0050124    -0.0008365    0.0001483    -0.0002660   -0.0001884     0.0004756   -0.0005610 
   0.004551126     0.0699628   -0.0039415     0.0004908    0.0012475     0.0002531    0.0000029    -0.0010015   -0.0000413 
   0.004651151     0.0702762    0.0006926     0.0027069   -0.0007001    -0.0000908   -0.0000286     0.0003282    0.0004832 
   0.004751176     0.0713386   -0.0033591     0.0000026    0.0008160    -0.0002276    0.0000092    -0.0006734   -0.0000638 
   0.004851201     0.0700556    0.0006918    -0.0007335    0.0007807    -0.0000118   -0.0001140     0.0000854    0.0001240 
   0.004951226     0.0683625   -0.0023191    -0.0006580    0.0000606    -0.0000832    0.0000471     0.0003730   -0.0001867 
   0.005051251     0.0694953   -0.0019532     0.0003118    0.0002519     0.0000497   -0.0002586     0.0002764   -0.0005744 
   0.005151276     0.0658492   -0.0003069    -0.0005324    0.0001452    -0.0001780    0.0001793     0.0001706   -0.0002682 
   0.005251301     0.0676193   -0.0030049    -0.0008308    0.0001130     0.0002743   -0.0003386     0.0010863    0.0006311 
   0.005351326     0.0693482    0.0018640     0.0001264   -0.0002285    -0.0001090    0.0004516     0.0008330    0.0004919 
   0.005451351     0.0707261   -0.0034611    -0.0008008   -0.0006223    -0.0001429   -0.0000127     0.0003122    0.0001458 
   0.005551376     0.0708928   -0.0000760    -0.0009787   -0.0001504    -0.0000530    0.0004870    -0.0000867   -0.0004093 
   0.005651401     0.0717181   -0.0009371     0.0002924    0.0010435     0.0000316    0.0002858     0.0001708   -0.0005180 
   0.005751426     0.0689955   -0.0000712     0.0010358   -0.0001642    -0.0001826    0.0002155     0.0008307    0.0003084 
   0.005851451     0.0697900   -0.0007964     0.0006382    0.0002738    -0.0001711   -0.0004103    -0.0005633   -0.0002238 
   0.005951476     0.0697234   -0.0001452    -0.0001579   -0.0002239     0.0001036    0.0000357     0.0001936    0.0003871 
   0.006051501     0.0675415   -0.0025220    -0.0011459   -0.0004403     0.0000787   -0.0002180    -0.0002544    0.0002878 
   0.006151526     0.0719818   -0.0003543     0.0007829   -0.0008299    -0.0001873    0.0002509     0.0010492   -0.0005141 
   0.006251551     0.0698461   -0.0016563    -0.0008304   -0.0001121     0.0001833   -0.0000366     0.0004600    0.0005589 
   0.006351576     0.0669125    0.0013255     0.0005575    0.0009434    -0.0000723    0.0000051    -0.0003074   -0.0003137 
   0.006451601     0.0662404   -0.0011829    -0.0004273    0.0001252     0.0002732    0.0002748     0.0004170    0.0002346 
   0.006551626     0.0670018   -0.0037979    -0.0019583    0.0002623    -0.0001659   -0.0000565    -0.0005508   -0.0002209 
   0.006651651     0.0697410   -0.0018200    -0.0001581   -0.0001755     0.0001743    0.0002247     0.0002356   -0.0000877 
   0.006751676     0.0682089   -0.0022502    -0.0009124    0.0004345     0.0000482    0.0000414     0.0009450    0.0006536 
   0.006851701     0.0694807   -0.0029582    -0.0000713    0.0003640    -0.0002915    0.0000657    -0.0002521    0.0000774 
   0.006951726     0.0688264   -0.0015535    -0.0004911    0.0008370     0.0001140   -0.0000567     0.0004977    0.0010685 
   0.007051751     0.0710931   -0.0014552     0.0001168   -0.0012098     0.0001608    0.0000582     0.0004397    0.0001992 
   0.007151776     0.0686372   -0.0022439    -0.0000045   -0.0002479     0.0001219    0.0002733     0.0009326   -0.0001091 
   0.007251801     0.0701922    0.0013120    -0.0007215    0.0010668     0.0005205    0.0005074     0.0004076    0.0000464 
   0.007351826     0.0711680   -0.0024439     0.0000206   -0.0007910    -0.0004553    0.0000319     0.0005476    0.0003770 
   0.007451851     0.0673427    0.0000882    -0.0002037   -0.0006131    -0.0003848    0.0000991     0.0009520   -0.0001173 
   0.007551876     0.0701290   -0.0006317    -0.0009059   -0.0002022     0.0001846    0.0001145     0.0005787   -0.0001592 
   0.007651901     0.0702745   -0.0042453     0.0001026    0.0001682    -0.0000382    0.0002351     0.0000802    0.0002434 
   0.007751926     0.0679358   -0.0024167    -0.0003008    0.0002585     0.0001073    0.0000130    -0.0000745   -0.0003924 
   0.007851951     0.0684132   -0.0001250     0.0005308    0.0012668    -0.0002076   -0.0002534     0.0007000   -0.0003342 
   0.007951976     0.0701854   -0.0014355    -0.0007496    0.0003507     0.0001678   -0.0001806     0.0006591   -0.0001376 
   0.008052001     0.0698782   -0.0013064     0.0003699   -0.0001895    -0.0004002    0.0003821     0.0004295    0.0003558 
   0.008152026     0.0689734   -0.0031099    -0.0010940   -0.0004184     0.0001616    0.0000267     0.0003332    0.0001011 
   0.008252051     0.0674585   -0.0021378     0.0005086    0.0005161     0.0000143   -0.0000699     0.0006888    0.0002354 
   0.008352076     0.0692655   -0.0033810     0.0000850   -0.0015192    -0.0005139   -0.0000278     0.0007206   -0.0001108 
   0.008452101     0.0690216    0.0001519    -0.0006457    0.0004973    -0.0000830   -0.0000873     0.0001350   -0.0002796 
   0.008552126     0.0702897   -0.0040720     0.0006102    0.0001039     0.0000945   -0.0001961     0.0000975    0.0001319 
   0.008652151     0.0698648   -0.0017917    -0.0000850    0.0004658    -0.0002854    0.0003817     0.0001304    0.0000036 
   0.008752176     0.0705748   -0.0016325     0.0004656    0.0008865    -0.0002745    0.0000207    -0.0001212   -0.0005494 
   0.008852201     0.0695485   -0.0040151    -0.0002739   -0.0002604    -0.0001510    0.0002360     0.0008448    0.0003187 
   0.008952226     0.0710119   -0.0011014     0.0007420   -0.0011424     0.0000268    0.0000482     0.0002697   -0.0008853 
   0.009052251     0.0692130    0.0008742     0.0008591   -0.0009006    -0.0000345    0.0001088     0.0001887   -0.0003688 
   0.009152276     0.0690335   -0.0009351    -0.0001167   -0.0002988     0.0000264    0.0002056     0.0006983   -0.0004571 
   0.009252301     0.0701394   -0.0016625     0.0003765    0.0001258    -0.0001843   -0.0001701     0.0000364   -0.0003786 
   0.009352326     0.0698591   -0.0029822    -0.0003305    0.0004404    -0.0001054   -0.0000532     0.0001764    0.0000214 
   0.009452351     0.0705659   -0.0017784    -0.0000344   -0.0002977    -0.0000176   -0.0000228     0.0002844    0.0000253 
   0.009552376     0.0692109   -0.0025396    -0.0013214    0.0005528     0.0001072    0.0000470     0.0008629    0.0000905 
   0.009652401     0.0696967    0.0007917     0.0005570    0.0004066    -0.0001056    0.0000217     0.0004208    0.0002978 
   0.009752426     0.0708508    0.0000315     0.0002417    0.0001540     0.0000907   -0.0003353     0.0000883    0.0006501 
   0.009852451     0.0714831   -0.0029505    -0.0011274   -0.0001586     0.0001171   -0.0000675     0.0000883   -0.0003540 
   0.009952476     0.0692867   -0.0018207    -0.0009455   -0.0006363    -0.0001546    0.0002538     0.0002929    0.0000531 
   0.010052501     0.0701129   -0.0024723    -0.0005676   -0.0004354     0.0001237   -0.0002127     0.0000999   -0.0004663 
   0.010152526     0.0721910    0.0002845     0.0001392   -0.0011298    -0.0001385   -0.0001946     0.0004008    0.0002446 
   0.010252551     0.0709860   -0.0008320     0.0005764   -0.0002422    -0.0000709   -0.0001223     0.0003901    0.0000352 
   0.010352576     0.0688471   -0.0023983    -0.0003516    0.0004429     0.0001215    0.0001326    -0.0001532    0.0000121 
   0.010452601     0.0698063   -0.0003803    -0.0006908   -0.0005397    -0.0000482    0.0000184    -0.0000446   -0.0001745 
   0.010552626     0.0687982   -0.0028987     0.0000623   -0.0002631    -0.0000763   -0.0001250     0.0002034    0.0001244 
   0.010652651     0.0704289   -0.0021689     0.0011289    0.0006191    -0.0000472    0.0000199     0.0006192   -0.0002570 
   0.010752676     0.0694074   -0.0016863    -0.0000396   -0.0003968    -0.0000858   -0.0001348     0.0001391    0.0000113 
   0.010852701     0.0701253   -0.0002303    -0.0010537   -0.0001870    -0.0002284    0.0001687     0.0001752    0.0000216 
   0.010952726     0.0688056   -0.0021316     0.0003841    0.0009222     0.0001844    0.0001496    -0.0000485   -0.0005545 
   0.011052751     0.0693588   -0.0028345     0.0003664   -0.0002683     0.0000499    0.0000979     0.0005230    0.0003027 
   0.011152776     0.0695726   -0.0033687     0.0003279   -0.0003259     0.0000415   -0.0001614    -0.0000486   -0.0001212 
   0.011252801     0.0711606   -0.0019173    -0.0004323    0.0003343     0.0001260   -0.0000416    -0.0001149    0.0005932 
   0.011352826     0.0709532   -0.0024399     0.0002496    0.0001114    -0.0000524    0.0000483     0.0000621   -0.0001783 
   0.011452851     0.0692970   -0.0044342     0.0003162    0.0003948    -0.0002554   -0.0000645     0.0004137    0.0000493 
   0.011552876     0.0710394   -0.0006212     0.0003173   -0.0003501     0.0000134   -0.0003033     0.0005888   -0.0001639 
   0.011652901     0.0690483   -0.0023063     0.0001394    0.0002741    -0.0000280    0.0000133     0.0001193    0.0006332 
   0.011752926     0.0693814   -0.0019430    -0.0002422   -0.0004630     0.0000531   -0.0002090     0.0000437    0.0000487 
   0.011852951     0.0726873   -0.0037220    -0.0012642   -0.0000571     0.0000087    0.0001679    -0.0001748   -0.0000965 
   0.011952976     0.0701963   -0.0028855    -0.0000452    0.0003226    -0.0001572    0.0000069     0.0002053    0.0002349 
   0.012053002     0.0687790   -0.0034062    -0.0001341   -0.0004208    -0.0000894   -0.0002131     0.0003390    0.0002495 
   0.012153027     0.0708808   -0.0033099     0.0002323    0.0000961     0.0001539   -0.0003965     0.0003933   -0.0002323 
   0.012253052     0.0709743   -0.0026821    -0.0011561    0.0000601     0.0001929    0.0001959     0.0008677   -0.0000249 
   0.012353077     0.0721957   -0.0019187    -0.0000316   -0.0000212    -0.0000868    0.0001426     0.0002267    0.0001677 
   0.012453102     0.0692156    0.0000480    -0.0002136   -0.0010395     0.0002416   -0.0001195     0.0005159   -0.0000110 
   0.012553127     0.0705230   -0.0032942    -0.0001045    0.0005731     0.0004335    0.0002185     0.0005577    0.0004314 
   0.012653152     0.0676210   -0.0021159    -0.0003554   -0.0001748    -0.0001092   -0.0000263     0.0000476    0.0000146 
   0.012753177     0.0671323   -0.0023828     0.0006103    0.0004409     0.0000951   -0.0000010    -0.0000911    0.0007028 
   0.012853202     0.0676004   -0.0011011    -0.0016494    0.0000027    -0.0000255    0.0001321     0.0002790    0.0007360 
   0.012953227     0.0714868   -0.0015532     0.0002751   -0.0003465     0.0002330   -0.0000745     0.0005194    0.0003088 
   0.013053252     0.0714496   -0.0023256     0.0003778    0.0005197    -0.0001381   -0.0003337     0.0003756   -0.0002407 
   0.013153277     0.0689134   -0.0015511    -0.0004325   -0.0004536     0.0003033   -0.0000779     0.0004938   -0.0000385 
   0.013253302     0.0669074   -0.0017078     0.0001699   -0.0009776    -0.0002148    0.0001373     0.0000248   -0.0000063 
   0.013353327     0.0688311   -0.0014310     0.0001663   -0.0000075    -0.0000002    0.0002117     0.0007139   -0.0002555 
   0.013453352     0.0698372   -0.0019775     0.0006329   -0.0000184    -0.0002050   -0.0000914     0.0003813   -0.0000200 
   0.013553377     0.0685189   -0.0029175    -0.0000984   -0.0002185     0.0002127   -0.0001338     0.0001940   -0.0000996 
   0.013653402     0.0701339   -0.0027448     0.0002822    0.0002713     0.0002598   -0.0000802     0.0006300    0.0003046 
   0.013753427     0.0701179   -0.0014784     0.0006428   -0.0006672     0.0000974   -0.0000808     0.0001824    0.0004471 
   0.013853452     0.0708143   -0.0031761    -0.0000664   -0.0002772     0.0002845    0.0001962     0.0003466    0.0001053 
   0.013953477     0.0724763   -0.0016432    -0.0004853   -0.0010244     0.0001495   -0.0000761     0.0008009    0.0000767 
   0.014053502     0.0693323   -0.0051773    -0.0003999   -0.0003214    -0.0001905    0.0002118     0.0001241   -0.0000217 
   0.014153527     0.0700322   -0.0035941    -0.0003054   -0.0008288    -0.0002092    0.0000994     0.0004451    0.0005584 
   0.014253552     0.0688023   -0.0009474     0.0004311    0.0002171     0.0000058    0.0003745     0.0007046   -0.0003117 
   0.014353577     0.0692957   -0.0023158    -0.0005556   -0.0003251     0.0001021   -0.0000544     0.0004162    0.0002756 
   0.014453602     0.0689990   -0.0028745    -0.0000929    0.0006581    -0.0001068    0.0000200     0.0000043   -0.0002646 
   0.014553627     0.0685991   -0.0039953    -0.0002957   -0.0006033     0.0001591    0.0001180     0.0002520    0.0000426 
   0.014653652     0.0701468   -0.0035487    -0.0000121    0.0002897     0.0002780   -0.0002430     0.0001891   -0.0004268 
   0.014753677     0.0705062   -0.0022781     0.0008472    0.0001072    -0.0000623    0.0000982     0.0003778   -0.0000228 
   0.014853702     0.0723799   -0.0028973     0.0005025    0.0004314    -0.0001125   -0.0000333     0.0004986    0.0004017 
   0.014953727     0.0714933   -0.0037447    -0.0000519   -0.0004455    -0.0003003    0.0001162     0.0005493    0.0001771 
   0.015053752     0.0698280   -0.0018903    -0.0005589    0.0005375    -0.0001497   -0.0002008     0.0002034    0.0003699 
   0.015153777     0.0686174   -0.0019620    -0.0006095    0.0002503     0.0000158   -0.0002982     0.0000756    0.0003068 
   0.015253802     0.0683720   -0.0028839     0.0006494   -0.0005085     0.0001888    0.0000763     0.0006659   -0.0003312 
   0.015353827     0.0696065   -0.0032101    -0.0006003    0.0005413     0.0000951   -0.0000348     0.0007292   -0.0002316 
   0.015453852     0.0699625   -0.0022442    -0.0003242   -0.0000248    -0.0000958    0.0000359     0.0006935    0.0001094 
   0.015553877     0.0709385   -0.0043808    -0.0008174    0.0001993    -0.0002646    0.0002235     0.0003146   -0.0000811 
   0.015653902     0.0700552   -0.0026679     0.0001060   -0.0001858     0.0000456    0.0000200    -0.0000804    0.0001061 
