! 26-Feb-26 2:01:13 PM
! E:\VNA_MEASUREMENTS\CAL_ENDS\NOISEDIODE_0.S2P
! CHANNEL.1
! TR.MEASUREMENT
! CORRECTED.DATA
# GHZ S RI R 50.0
! FREQ.GHZ         S11RE         S11IM         S21RE         S21IM         S12RE         S12IM         S22RE         S22IM         
!; PortSelection: Port_12
   0.000050000    -1.4565660   -0.4125158     1.0109390    0.5286821    -0.0001340    0.0049692    -0.0009471    0.0275861 
   0.000150025    -0.0623234   -0.0585241    -1.0732980   -1.6448890     0.0000724   -0.0009647     0.0050478   -0.0001841 
   0.000250050    -0.0501859   -2.2272810    -1.1715670    0.2949516     0.0014860   -0.0015798    -0.0025252   -0.0021202 
   0.000350075     0.0806311   -0.0043957     0.0010347   -0.0063947     0.0001963    0.0006727    -0.0011403    0.0000022 
   0.000450100     0.0701321   -0.0040565    -0.0023551   -0.0068116     0.0000584   -0.0003781    -0.0010048   -0.0020191 
   0.000550125     0.0693309   -0.0024421    -0.0006009   -0.0048590     0.0004547   -0.0003917     0.0018712    0.0006613 
   0.000650150     0.0662640    0.0007379    -0.0023601   -0.0062066     0.0004588   -0.0007004     0.0009248   -0.0016637 
   0.000750175     0.0651780   -0.0009010    -0.0047686   -0.0055417    -0.0001729    0.0002176    -0.0003830    0.0005287 
   0.000850200     0.0667302   -0.0009401    -0.0038834   -0.0058463    -0.0002659    0.0002873    -0.0006546   -0.0009667 
   0.000950225     0.0698054   -0.0014381    -0.0045048   -0.0030246    -0.0000748    0.0006347     0.0008159    0.0015758 
   0.001050250     0.0676806    0.0029419    -0.0054998   -0.0039184    -0.0002181    0.0000904    -0.0006185   -0.0010965 
   0.001150275     0.0733484   -0.0023280    -0.0063353   -0.0004186     0.0000369    0.0004446     0.0007371    0.0002724 
   0.001250300     0.0659322   -0.0030719    -0.0062208   -0.0017286    -0.0001843    0.0006118     0.0002151    0.0006593 
   0.001350325     0.0670579   -0.0005456    -0.0055407   -0.0005410     0.0002781    0.0003433    -0.0005593    0.0002800 
   0.001450350     0.0657161    0.0034077    -0.0055861   -0.0011762     0.0003614   -0.0000633     0.0003091    0.0006996 
   0.001550375     0.0685130   -0.0002394    -0.0059605   -0.0014697    -0.0002786   -0.0000113     0.0012936    0.0002711 
   0.001650400     0.0703408    0.0014284    -0.0043590   -0.0001955    -0.0002364    0.0001116     0.0001062   -0.0005580 
   0.001750425     0.0706377   -0.0039281    -0.0035756   -0.0002827     0.0003099    0.0000982    -0.0006039    0.0003362 
   0.001850450     0.0670201   -0.0000860    -0.0028282    0.0022333     0.0002813   -0.0000332    -0.0001317    0.0008281 
   0.001950475     0.0699228    0.0015659    -0.0035042    0.0009365     0.0000026    0.0000714     0.0014067   -0.0000253 
   0.002050500     0.0675503    0.0019905    -0.0045963   -0.0007145    -0.0000229    0.0002820     0.0006111   -0.0002067 
   0.002150525     0.0664918    0.0003916    -0.0035579   -0.0009526     0.0003277   -0.0000208     0.0004775    0.0007626 
   0.002250550     0.0697468    0.0007479    -0.0034345    0.0022949     0.0003015    0.0000074     0.0002902   -0.0007094 
   0.002350575     0.0720122   -0.0013900    -0.0032722    0.0019787    -0.0005261   -0.0000519     0.0000027   -0.0010431 
   0.002450600     0.0696429   -0.0026157    -0.0013091    0.0013129    -0.0004357    0.0003758    -0.0006961    0.0003360 
   0.002550625     0.0646079   -0.0031692    -0.0025953    0.0014581     0.0000608    0.0000424     0.0001178    0.0010033 
   0.002650650     0.0707041    0.0053215    -0.0027118    0.0013657    -0.0001193    0.0003775     0.0002928    0.0007296 
   0.002750675     0.0645451   -0.0006985    -0.0008526    0.0019131     0.0006606    0.0000560     0.0004060   -0.0001769 
   0.002850700     0.0747353   -0.0052216    -0.0023938    0.0002036     0.0004609    0.0003688     0.0001946    0.0005418 
   0.002950725     0.0698542   -0.0005876    -0.0033974    0.0013506     0.0000439   -0.0003239     0.0006660    0.0003539 
   0.003050750     0.0662470   -0.0009165    -0.0011877    0.0007553    -0.0000699    0.0002765     0.0000595   -0.0009685 
   0.003150775     0.0683791   -0.0041092    -0.0006819    0.0003844    -0.0000891   -0.0003128    -0.0000217   -0.0001143 
   0.003250800     0.0688407   -0.0032629    -0.0013903    0.0008727    -0.0003512   -0.0004663    -0.0001562    0.0001940 
   0.003350825     0.0671064    0.0003694    -0.0006051    0.0016010     0.0003408   -0.0000537     0.0004741    0.0006255 
   0.003450850     0.0685822   -0.0006135    -0.0002572    0.0020326     0.0004605    0.0000964     0.0007335   -0.0006745 
   0.003550875     0.0714445    0.0004249    -0.0039515    0.0007151     0.0002532    0.0000466     0.0005464   -0.0001226 
   0.003650900     0.0663732    0.0012369    -0.0020914    0.0002093     0.0001112    0.0005394     0.0001062   -0.0000526 
   0.003750925     0.0665421   -0.0009420    -0.0015906    0.0030324     0.0001046   -0.0001815     0.0008368   -0.0003433 
   0.003850950     0.0722728    0.0000469    -0.0012166    0.0008449     0.0000885   -0.0000503    -0.0003539    0.0011262 
   0.003950975     0.0676060    0.0036525    -0.0000343    0.0012547     0.0002613    0.0002950     0.0004226   -0.0003728 
   0.004051001     0.0731067   -0.0031768    -0.0010228   -0.0000923     0.0001339    0.0003597     0.0000123   -0.0002849 
   0.004151026     0.0676549    0.0015138    -0.0009055   -0.0001343     0.0001771    0.0000902    -0.0001279   -0.0001158 
   0.004251051     0.0642441    0.0028528    -0.0008486    0.0004431     0.0003267   -0.0005261    -0.0004841   -0.0006314 
   0.004351076     0.0676326    0.0004445    -0.0018337   -0.0000258    -0.0002774   -0.0002460     0.0010553    0.0004182 
   0.004451101     0.0706260   -0.0038207    -0.0004127    0.0004801     0.0000149   -0.0002290     0.0004537   -0.0001986 
   0.004551126     0.0683074   -0.0013618     0.0005624   -0.0002926    -0.0001421    0.0001200    -0.0007301    0.0002950 
   0.004651151     0.0706426   -0.0036750     0.0017408    0.0011067     0.0002334    0.0004496     0.0009431   -0.0008218 
   0.004751176     0.0696558   -0.0017337    -0.0014645    0.0011567    -0.0001648    0.0000906     0.0005581    0.0003231 
   0.004851201     0.0686710   -0.0003436    -0.0012841    0.0013884    -0.0001913   -0.0001414     0.0005636    0.0002712 
   0.004951226     0.0686396   -0.0013701     0.0006353    0.0001629    -0.0002176    0.0002615     0.0002005   -0.0006798 
   0.005051251     0.0725765   -0.0003106     0.0002909    0.0008561     0.0005638    0.0002944     0.0001902   -0.0006906 
   0.005151276     0.0672520   -0.0015532    -0.0006307    0.0001520    -0.0000360   -0.0000279     0.0005414   -0.0000549 
   0.005251301     0.0630887   -0.0004432    -0.0009019   -0.0010973     0.0000775    0.0001097     0.0006687    0.0008127 
   0.005351326     0.0691698   -0.0000516    -0.0016174    0.0018465    -0.0001667    0.0001842     0.0008955    0.0005773 
   0.005451351     0.0714664   -0.0025536    -0.0000233    0.0002313    -0.0000268    0.0000540     0.0003557    0.0003278 
   0.005551376     0.0679991   -0.0025981    -0.0012183    0.0001896     0.0000743    0.0001231     0.0006595   -0.0004382 
   0.005651401     0.0708720   -0.0020739     0.0005778    0.0005053    -0.0000861    0.0001323     0.0003374   -0.0002047 
   0.005751426     0.0675366   -0.0013996     0.0004003    0.0005130    -0.0005112    0.0002661     0.0004672   -0.0001112 
   0.005851451     0.0714969    0.0009952     0.0006320    0.0008054    -0.0000814   -0.0003252    -0.0001609   -0.0003692 
   0.005951476     0.0711288   -0.0024433    -0.0008144    0.0009569     0.0000422   -0.0001850     0.0002299    0.0001356 
   0.006051501     0.0711559   -0.0000733    -0.0001245    0.0008013    -0.0000466   -0.0001088     0.0000221    0.0001569 
   0.006151526     0.0671382   -0.0016139    -0.0012078   -0.0001961    -0.0001386   -0.0002100     0.0009302   -0.0002088 
   0.006251551     0.0696438    0.0013309    -0.0005252    0.0003122     0.0002822    0.0001262     0.0004772    0.0005704 
   0.006351576     0.0669685   -0.0021721     0.0006182   -0.0001928    -0.0001075    0.0002845     0.0002249    0.0004331 
   0.006451601     0.0693429    0.0020881     0.0007469   -0.0008177    -0.0001428    0.0002568    -0.0003365    0.0002610 
   0.006551626     0.0693040   -0.0031637    -0.0009313    0.0005222     0.0000233    0.0002069     0.0004448   -0.0006140 
   0.006651651     0.0664438    0.0003579    -0.0000785    0.0006727    -0.0001175    0.0001098     0.0001739   -0.0000914 
   0.006751676     0.0711995   -0.0016051     0.0003194   -0.0003741    -0.0000682   -0.0002881     0.0004611    0.0004095 
   0.006851701     0.0700654   -0.0019409     0.0004668   -0.0000836    -0.0002514   -0.0001951    -0.0001983   -0.0001079 
   0.006951726     0.0677849   -0.0032500     0.0008508    0.0000946     0.0003024   -0.0001068     0.0007892    0.0010488 
   0.007051751     0.0697608   -0.0036984     0.0001259    0.0010570    -0.0002729    0.0001795     0.0003182   -0.0002720 
   0.007151776     0.0697350   -0.0006881     0.0006147    0.0007882    -0.0002444    0.0002359     0.0005491    0.0002554 
   0.007251801     0.0698340   -0.0004963     0.0002773    0.0001260     0.0002289   -0.0002224    -0.0000094   -0.0000808 
   0.007351826     0.0684029   -0.0019351    -0.0003822   -0.0000531     0.0000841   -0.0002532     0.0006751    0.0000583 
   0.007451851     0.0697679    0.0009454    -0.0001945    0.0005142    -0.0001077    0.0000968     0.0004698   -0.0008644 
   0.007551876     0.0702847    0.0001125     0.0007300    0.0003141     0.0001049    0.0000140     0.0000981   -0.0001081 
   0.007651901     0.0696025   -0.0017408    -0.0000118    0.0002777    -0.0002367   -0.0000040     0.0000610    0.0002678 
   0.007751926     0.0684464   -0.0001943     0.0002046   -0.0003819    -0.0001425   -0.0002500    -0.0000326   -0.0005996 
   0.007851951     0.0701099    0.0014281    -0.0002085   -0.0003429    -0.0000111   -0.0001600     0.0004305    0.0000394 
   0.007951976     0.0696160   -0.0030679     0.0009876    0.0012523    -0.0002349   -0.0005202     0.0004120    0.0000072 
   0.008052001     0.0674798   -0.0008829    -0.0005961    0.0009279     0.0000161    0.0001535     0.0003669    0.0005209 
   0.008152026     0.0713674   -0.0018546    -0.0001037    0.0000562     0.0000075    0.0001562     0.0005718    0.0001213 
   0.008252051     0.0690923   -0.0031961     0.0003065   -0.0002600    -0.0000495   -0.0002300     0.0001036    0.0008182 
   0.008352076     0.0712277   -0.0028963     0.0009230   -0.0001612     0.0004600   -0.0000843     0.0002888   -0.0002006 
   0.008452101     0.0673498   -0.0009344     0.0002017    0.0004236    -0.0000524   -0.0000504    -0.0000117   -0.0000416 
   0.008552126     0.0689456   -0.0009541    -0.0007057    0.0008167    -0.0001021   -0.0003356     0.0001556    0.0007059 
   0.008652151     0.0693079    0.0006936    -0.0000924   -0.0000648    -0.0000007    0.0000921    -0.0000723    0.0001687 
   0.008752176     0.0701007   -0.0014670     0.0003087   -0.0009358    -0.0002026    0.0001711    -0.0000039   -0.0004816 
   0.008852201     0.0705132   -0.0007794     0.0002626   -0.0003692     0.0000417   -0.0002215     0.0007284    0.0006784 
   0.008952226     0.0706926   -0.0016310     0.0005252    0.0005362     0.0000260    0.0003308     0.0003111   -0.0001966 
   0.009052251     0.0698535   -0.0001266    -0.0004300    0.0001059    -0.0000813    0.0000484     0.0001878    0.0000282 
   0.009152276     0.0685956   -0.0007403     0.0002698   -0.0000159    -0.0000660   -0.0002236     0.0006626    0.0002954 
   0.009252301     0.0683930   -0.0017621    -0.0009501    0.0003998    -0.0000283   -0.0000280     0.0004634    0.0001948 
   0.009352326     0.0682725    0.0002953     0.0000378   -0.0006770     0.0002854    0.0002555     0.0002606   -0.0002367 
   0.009452351     0.0698778    0.0003318    -0.0000875    0.0002946     0.0001534    0.0000309     0.0004759    0.0001015 
   0.009552376     0.0701982   -0.0026125     0.0006713    0.0000669    -0.0002055    0.0001131     0.0005902    0.0002203 
   0.009652401     0.0690765   -0.0012073     0.0008859    0.0003568     0.0000963    0.0000697     0.0002813    0.0003180 
   0.009752426     0.0688900   -0.0018234    -0.0003956   -0.0004217     0.0000361    0.0000009     0.0004893    0.0000398 
   0.009852451     0.0703897   -0.0026191    -0.0000512   -0.0000210     0.0001930    0.0000539     0.0001138    0.0004720 
   0.009952476     0.0693252   -0.0027341     0.0000938   -0.0000007     0.0002370   -0.0002105     0.0005200    0.0001881 
   0.010052501     0.0702899   -0.0031632    -0.0004022   -0.0005353    -0.0000243    0.0000829    -0.0000107    0.0000874 
   0.010152526     0.0707936   -0.0009522    -0.0000480    0.0006348    -0.0000659   -0.0001420    -0.0000358    0.0000069 
   0.010252551     0.0699414    0.0010305    -0.0005942   -0.0002652    -0.0000131   -0.0000605     0.0003536   -0.0000288 
   0.010352576     0.0699260   -0.0035394    -0.0004056   -0.0009217    -0.0002490    0.0000091     0.0003044    0.0002412 
   0.010452601     0.0684201   -0.0007344    -0.0000421    0.0002524     0.0000461   -0.0000184     0.0003261   -0.0004695 
   0.010552626     0.0699685   -0.0033130     0.0001516    0.0003981     0.0000681    0.0001585     0.0003626    0.0002536 
   0.010652651     0.0701631   -0.0016372    -0.0001605   -0.0006853    -0.0001513    0.0000178     0.0009711    0.0001304 
   0.010752676     0.0692385   -0.0028512     0.0005395   -0.0002975     0.0001539   -0.0000386    -0.0000963    0.0001218 
   0.010852701     0.0681727   -0.0021383    -0.0002244   -0.0002573    -0.0000593   -0.0001228     0.0004295    0.0002259 
   0.010952726     0.0694462   -0.0020643    -0.0002978   -0.0002352    -0.0001295    0.0001943    -0.0002223   -0.0003071 
   0.011052751     0.0706767   -0.0014004     0.0003714    0.0003514     0.0002360   -0.0000869     0.0004695    0.0000280 
   0.011152776     0.0718424   -0.0020648     0.0000542   -0.0003436    -0.0000794    0.0000987     0.0000682   -0.0000450 
   0.011252801     0.0715445   -0.0020561    -0.0004491    0.0001735    -0.0001648    0.0001160     0.0000662    0.0005355 
   0.011352826     0.0700680   -0.0019243    -0.0006243   -0.0005302    -0.0000772   -0.0001554     0.0002747   -0.0002303 
   0.011452851     0.0673075   -0.0026348    -0.0002064   -0.0007956     0.0000376   -0.0000601     0.0004836   -0.0002959 
   0.011552876     0.0692116   -0.0014067     0.0000349   -0.0006766     0.0000585    0.0000185     0.0007375    0.0000277 
   0.011652901     0.0686685   -0.0012479    -0.0006644   -0.0001927    -0.0000656   -0.0000450     0.0002760    0.0005491 
   0.011752926     0.0669563   -0.0010497     0.0011919    0.0003728    -0.0001139    0.0001258     0.0002488    0.0001365 
   0.011852951     0.0720908   -0.0017198     0.0000777    0.0001558    -0.0003797    0.0002326     0.0003449   -0.0001735 
   0.011952976     0.0691446   -0.0012954    -0.0004019    0.0004126    -0.0001538    0.0000379     0.0000218    0.0001315 
   0.012053002     0.0693332   -0.0008619     0.0000537   -0.0010367    -0.0002242   -0.0000566     0.0005753    0.0001943 
   0.012153027     0.0698963   -0.0044288     0.0006340    0.0006733    -0.0000965   -0.0003176     0.0006293   -0.0000638 
   0.012253052     0.0696087   -0.0016972     0.0003642    0.0003856    -0.0000497    0.0001141     0.0007335    0.0002144 
   0.012353077     0.0693122   -0.0030967     0.0001203   -0.0000334    -0.0000213   -0.0000362     0.0003958   -0.0000712 
   0.012453102     0.0686103   -0.0009775    -0.0007337    0.0005016     0.0000314   -0.0000077     0.0003371   -0.0001113 
   0.012553127     0.0711175   -0.0026520     0.0003723    0.0000664    -0.0003031   -0.0001553     0.0004190   -0.0002424 
   0.012653152     0.0694104   -0.0025136     0.0000199    0.0003419     0.0001571    0.0001041     0.0002103    0.0001538 
   0.012753177     0.0681170   -0.0035300     0.0001030   -0.0002242     0.0001135    0.0001330     0.0000913    0.0000428 
   0.012853202     0.0693906   -0.0029663     0.0005508    0.0011908     0.0001917   -0.0000875     0.0003401    0.0002056 
   0.012953227     0.0695994   -0.0025749    -0.0003695    0.0006727     0.0000617   -0.0000194     0.0008059    0.0000985 
   0.013053252     0.0688136   -0.0034363     0.0002268    0.0003544    -0.0000121   -0.0000644     0.0003666    0.0002392 
   0.013153277     0.0706140   -0.0033290     0.0008593   -0.0011683    -0.0000556    0.0001314     0.0006894    0.0003721 
   0.013253302     0.0691831   -0.0000325    -0.0002506    0.0003477    -0.0000920    0.0000697     0.0004405   -0.0000547 
   0.013353327     0.0697346   -0.0006568     0.0001932   -0.0001852    -0.0001491    0.0002234     0.0002152   -0.0002436 
   0.013453352     0.0696543   -0.0025346     0.0002108    0.0002034     0.0000215   -0.0000318     0.0009276    0.0003039 
   0.013553377     0.0692064   -0.0024938     0.0007203    0.0010803     0.0000942   -0.0000578     0.0004363   -0.0004979 
   0.013653402     0.0696595   -0.0024912     0.0004974    0.0003642    -0.0002907    0.0000835     0.0002701    0.0001405 
   0.013753427     0.0706518   -0.0016862     0.0001609    0.0002117     0.0000887   -0.0002474     0.0001414   -0.0000144 
   0.013853452     0.0701198   -0.0026719    -0.0007608    0.0006342     0.0001112   -0.0001159     0.0003706   -0.0000041 
   0.013953477     0.0698730   -0.0017072     0.0002645    0.0004782     0.0000825   -0.0001647     0.0004394    0.0001179 
   0.014053502     0.0708358   -0.0033419     0.0000447   -0.0001414     0.0001398    0.0001548    -0.0005218   -0.0001445 
   0.014153527     0.0697745   -0.0029328    -0.0003379   -0.0005269     0.0001045    0.0003718     0.0007296   -0.0001212 
   0.014253552     0.0709790   -0.0012677     0.0010362    0.0002193    -0.0000999    0.0001250     0.0001581   -0.0002111 
   0.014353577     0.0687166   -0.0034391     0.0003779    0.0004175     0.0000335    0.0000644     0.0004900   -0.0000156 
   0.014453602     0.0681316   -0.0024616     0.0006753   -0.0006456     0.0000054   -0.0000615    -0.0000054   -0.0000101 
   0.014553627     0.0690593   -0.0019153    -0.0000547   -0.0002110    -0.0000371   -0.0003462     0.0000903   -0.0001927 
   0.014653652     0.0696201   -0.0026345    -0.0003858    0.0004025    -0.0000162    0.0000955     0.0000624   -0.0000576 
   0.014753677     0.0688879   -0.0027845    -0.0002933    0.0001261    -0.0000754   -0.0000700     0.0003649   -0.0001240 
   0.014853702     0.0726192   -0.0019083     0.0015001    0.0003070    -0.0000685   -0.0000542     0.0004944    0.0000859 
   0.014953727     0.0708258   -0.0038080    -0.0009513   -0.0002025    -0.0000290   -0.0000347     0.0008229    0.0003432 
   0.015053752     0.0702956   -0.0033405     0.0001837   -0.0009862     0.0001692   -0.0001385     0.0002841    0.0001782 
   0.015153777     0.0695232   -0.0027514    -0.0001594    0.0005178    -0.0000147    0.0000459     0.0003652   -0.0000102 
   0.015253802     0.0683602   -0.0023520    -0.0002244    0.0001994    -0.0001360   -0.0000937     0.0005073   -0.0002104 
   0.015353827     0.0694351   -0.0017024     0.0001645    0.0004686     0.0000176    0.0001300     0.0009093   -0.0002321 
   0.015453852     0.0695331   -0.0026713    -0.0000905   -0.0008057    -0.0000726   -0.0000061     0.0007321   -0.0004079 
   0.015553877     0.0688325   -0.0035576    -0.0001083   -0.0004118     0.0000345   -0.0000800     0.0004952   -0.0000996 
   0.015653902     0.0696344   -0.0023955     0.0005409   -0.0011670    -0.0000501   -0.0000987     0.0003593   -0.0002836 
