! 26-Feb-26 2:03:41 PM
! E:\VNA_MEASUREMENTS\CAL_ENDS\NOISEDIODE_2.S2P
! CHANNEL.1
! TR.MEASUREMENT
! CORRECTED.DATA
# GHZ S RI R 50.0
! FREQ.GHZ         S11RE         S11IM         S21RE         S21IM         S12RE         S12IM         S22RE         S22IM         
!; PortSelection: Port_12
   0.000050000    -0.2998981    0.1919920     0.3307104    0.2081915    -0.0022006    0.0043703    -0.0071598    0.0354065 
   0.000150025     0.3913351    0.1046055    -0.1894660   -0.2730285    -0.0008248   -0.0005133     0.0022187   -0.0022381 
   0.000250050     0.0003088    0.0502026     0.2240533   -0.0796212     0.0002050   -0.0008822    -0.0012900   -0.0016883 
   0.000350075     0.0677027   -0.0037241    -0.0002304   -0.0082194    -0.0008486   -0.0006863    -0.0017664   -0.0023969 
   0.000450100     0.0728158   -0.0040779    -0.0031062   -0.0081449    -0.0007378    0.0002192     0.0005840   -0.0014596 
   0.000550125     0.0760380    0.0042378    -0.0017918   -0.0054291     0.0001251    0.0000821     0.0011134    0.0012481 
   0.000650150     0.0616675   -0.0052319    -0.0017466   -0.0084028    -0.0002363   -0.0004571     0.0002954   -0.0010260 
   0.000750175     0.0679735    0.0001417    -0.0072703   -0.0064125    -0.0005699   -0.0002355    -0.0009307    0.0001764 
   0.000850200     0.0655881   -0.0057069    -0.0042679   -0.0044731    -0.0002131   -0.0000936    -0.0009851   -0.0003994 
   0.000950225     0.0712962   -0.0017011    -0.0044772   -0.0047862    -0.0004636   -0.0000411    -0.0001297    0.0016084 
   0.001050250     0.0698090   -0.0033968    -0.0052488   -0.0066666    -0.0006717   -0.0000810     0.0000280   -0.0002933 
   0.001150275     0.0713694   -0.0032993    -0.0045598   -0.0007719    -0.0003452    0.0003589     0.0004784   -0.0003235 
   0.001250300     0.0700835    0.0019011    -0.0034293   -0.0043769     0.0000644    0.0000499    -0.0001076    0.0011927 
   0.001350325     0.0687871   -0.0037171    -0.0044363    0.0004002     0.0000976    0.0003451     0.0001175   -0.0007193 
   0.001450350     0.0625523   -0.0001583    -0.0047069   -0.0026151    -0.0003339   -0.0002263    -0.0005537    0.0004333 
   0.001550375     0.0701154   -0.0047293    -0.0050140    0.0004079     0.0000682   -0.0001385     0.0014623    0.0004844 
   0.001650400     0.0677836    0.0025972    -0.0057892   -0.0016325    -0.0001863    0.0002026    -0.0008302   -0.0004741 
   0.001750425     0.0704423   -0.0018626    -0.0042350   -0.0007704     0.0002313    0.0004322     0.0005150    0.0006597 
   0.001850450     0.0726097   -0.0027642    -0.0025921   -0.0015850     0.0000014    0.0000045     0.0002525    0.0007929 
   0.001950475     0.0655722    0.0022940    -0.0055428    0.0001634    -0.0005023   -0.0005937     0.0010797   -0.0006003 
   0.002050500     0.0732083    0.0058784    -0.0046846    0.0017119     0.0000636    0.0001336     0.0008547   -0.0004760 
   0.002150525     0.0685725    0.0006715    -0.0042569    0.0023497     0.0001683   -0.0002236     0.0011560    0.0007372 
   0.002250550     0.0705861    0.0030527    -0.0016860   -0.0009760     0.0006318    0.0003962    -0.0006015   -0.0012486 
   0.002350575     0.0653567   -0.0020729    -0.0026474    0.0011401    -0.0003462    0.0000180     0.0003242    0.0000147 
   0.002450600     0.0675384   -0.0026733    -0.0020642    0.0005589     0.0000510   -0.0004667     0.0004611    0.0000550 
   0.002550625     0.0658907   -0.0033196    -0.0012123    0.0013069     0.0004910    0.0000410    -0.0001003    0.0002394 
   0.002650650     0.0683142    0.0046030    -0.0020827   -0.0007008    -0.0000652   -0.0001558     0.0004227    0.0009012 
   0.002750675     0.0710045    0.0008630    -0.0037608    0.0012397    -0.0000144   -0.0004280    -0.0003213   -0.0000019 
   0.002850700     0.0707784   -0.0007130    -0.0025041    0.0008561    -0.0000426   -0.0001119     0.0001205   -0.0000973 
   0.002950725     0.0690071   -0.0005441    -0.0014260    0.0010699    -0.0006030   -0.0001136     0.0008203    0.0005697 
   0.003050750     0.0699604    0.0003535    -0.0036321    0.0003747    -0.0003568   -0.0000507     0.0004767    0.0000603 
   0.003150775     0.0676326   -0.0035895    -0.0019500    0.0007376     0.0006400   -0.0002966    -0.0005133    0.0001464 
   0.003250800     0.0676232    0.0018489    -0.0023244    0.0012279     0.0000726   -0.0000661     0.0009372    0.0000865 
   0.003350825     0.0692267    0.0016643    -0.0009453    0.0026487     0.0000407   -0.0002395    -0.0000860    0.0005000 
   0.003450850     0.0722491   -0.0044734    -0.0008136    0.0005039    -0.0000662   -0.0002150     0.0000932   -0.0008720 
   0.003550875     0.0678019    0.0011712     0.0001355    0.0009795    -0.0001696    0.0000051     0.0000598   -0.0011227 
   0.003650900     0.0704761   -0.0015399     0.0004554    0.0005035    -0.0000472    0.0002892     0.0006739   -0.0001281 
   0.003750925     0.0645006    0.0006170    -0.0008329    0.0010193    -0.0000312    0.0001267    -0.0005315   -0.0001488 
   0.003850950     0.0735501   -0.0018455    -0.0022224    0.0004115     0.0001280   -0.0002952    -0.0001733   -0.0000607 
   0.003950975     0.0705765    0.0014216    -0.0004548    0.0001758     0.0002642    0.0000250     0.0002214   -0.0003697 
   0.004051001     0.0699730   -0.0050185    -0.0010687    0.0010700    -0.0001784    0.0000367     0.0002573    0.0003811 
   0.004151026     0.0722065    0.0000043    -0.0010776    0.0010900    -0.0003597    0.0001166     0.0002032    0.0001187 
   0.004251051     0.0692135    0.0012251    -0.0009861    0.0018750     0.0001519   -0.0004643    -0.0002828    0.0000083 
   0.004351076     0.0678322   -0.0003412    -0.0012290    0.0009612    -0.0003408    0.0001761     0.0004726    0.0005154 
   0.004451101     0.0718446    0.0017653    -0.0002789    0.0000634    -0.0003357   -0.0002201     0.0009956   -0.0001380 
   0.004551126     0.0701810   -0.0034612     0.0008544    0.0010947     0.0000042   -0.0003222    -0.0002856   -0.0000034 
   0.004651151     0.0701516    0.0007582     0.0023388   -0.0017335    -0.0000748    0.0000596     0.0004164   -0.0004669 
   0.004751176     0.0733365   -0.0022737    -0.0009160    0.0012068     0.0001742    0.0003043    -0.0000289   -0.0002570 
   0.004851201     0.0697151   -0.0011413    -0.0003541    0.0005663    -0.0003169    0.0001504     0.0001210    0.0005067 
   0.004951226     0.0682054   -0.0035359     0.0004914    0.0003412    -0.0001347   -0.0003717     0.0003525   -0.0003834 
   0.005051251     0.0715197    0.0003755     0.0003159    0.0007998     0.0004083   -0.0000719     0.0002079   -0.0004223 
   0.005151276     0.0677453   -0.0000647     0.0001442    0.0001896    -0.0000286    0.0001545     0.0006015   -0.0000539 
   0.005251301     0.0655948   -0.0020799    -0.0020391    0.0008300    -0.0000362   -0.0001149     0.0012992    0.0000872 
   0.005351326     0.0718339    0.0006615    -0.0008925    0.0004522     0.0001163    0.0005117     0.0010972    0.0000728 
   0.005451351     0.0711878   -0.0033335    -0.0002289    0.0011872    -0.0001703   -0.0000134     0.0005535    0.0008427 
   0.005551376     0.0692600   -0.0011660    -0.0003704    0.0010305    -0.0000982    0.0002873     0.0005680   -0.0002222 
   0.005651401     0.0693876   -0.0012119    -0.0018111    0.0008857     0.0000032   -0.0001393     0.0002797   -0.0006806 
   0.005751426     0.0680001    0.0019616     0.0002274    0.0013130    -0.0000179    0.0001219     0.0003541   -0.0005238 
   0.005851451     0.0724452    0.0004941    -0.0012590    0.0005258    -0.0000215   -0.0000376    -0.0001607   -0.0000821 
   0.005951476     0.0683328   -0.0027160     0.0008266   -0.0003694    -0.0001915    0.0000821     0.0002235   -0.0000701 
   0.006051501     0.0694705   -0.0000819    -0.0012988    0.0007408    -0.0000580    0.0000331    -0.0007538    0.0000068 
   0.006151526     0.0702637   -0.0010202     0.0000040    0.0000751    -0.0001368    0.0000993     0.0004963   -0.0003022 
   0.006251551     0.0697253   -0.0024636    -0.0001753    0.0010856     0.0002023   -0.0000433     0.0004692    0.0000537 
   0.006351576     0.0680558    0.0000044     0.0003811    0.0002926    -0.0002069    0.0003239     0.0002398    0.0002676 
   0.006451601     0.0682269    0.0012912     0.0005575    0.0011872    -0.0002735   -0.0003161    -0.0002018    0.0002857 
   0.006551626     0.0674625   -0.0019843    -0.0002707    0.0000998    -0.0002400   -0.0004168     0.0000736   -0.0004476 
   0.006651651     0.0676979   -0.0016804     0.0000672    0.0003980     0.0001987    0.0002501     0.0000052    0.0000561 
   0.006751676     0.0690782   -0.0005202    -0.0008949    0.0008099     0.0000934   -0.0001449     0.0008501    0.0004431 
   0.006851701     0.0709432   -0.0015011     0.0003705    0.0005688     0.0002458   -0.0001038     0.0004143    0.0001453 
   0.006951726     0.0716821   -0.0026782     0.0001836   -0.0003965     0.0001382    0.0001765     0.0013897    0.0011105 
   0.007051751     0.0700912   -0.0030456     0.0000963   -0.0000872    -0.0000295   -0.0003511     0.0004592   -0.0000652 
   0.007151776     0.0688075   -0.0005707     0.0009684   -0.0000291    -0.0000871    0.0003152     0.0006269    0.0003284 
   0.007251801     0.0706772   -0.0001984    -0.0001822   -0.0003534     0.0002776   -0.0000324    -0.0000949    0.0000166 
   0.007351826     0.0704464   -0.0048456    -0.0005944   -0.0005017    -0.0001061   -0.0000234     0.0011733    0.0001050 
   0.007451851     0.0695113    0.0013975    -0.0004837   -0.0006218     0.0002134    0.0000106     0.0003798   -0.0001416 
   0.007551876     0.0692704   -0.0018446    -0.0004332    0.0000575     0.0001696    0.0000513     0.0006837   -0.0004584 
   0.007651901     0.0698255    0.0001630    -0.0005169   -0.0008947     0.0004274    0.0000685    -0.0000224    0.0006413 
   0.007751926     0.0679422   -0.0014659    -0.0002336    0.0000290     0.0001129   -0.0000012     0.0002825   -0.0006802 
   0.007851951     0.0709987   -0.0013739    -0.0005276   -0.0007736     0.0001821   -0.0000393     0.0002996    0.0000973 
   0.007951976     0.0719580   -0.0022906     0.0007575   -0.0008369     0.0000467   -0.0001141     0.0004060   -0.0000803 
   0.008052001     0.0679850   -0.0013466    -0.0006101    0.0003683    -0.0002336   -0.0000478     0.0002812    0.0005983 
   0.008152026     0.0694530   -0.0019621     0.0003021    0.0008593    -0.0000784    0.0002774     0.0003805    0.0003130 
   0.008252051     0.0686174   -0.0029319    -0.0002032   -0.0003709     0.0003520    0.0003310     0.0004195    0.0005311 
   0.008352076     0.0699287   -0.0020146     0.0003311   -0.0008523    -0.0000286    0.0002400     0.0008819   -0.0002027 
   0.008452101     0.0680693   -0.0007507     0.0006021   -0.0001900    -0.0000393    0.0000828     0.0003979   -0.0003329 
   0.008552126     0.0702576   -0.0019140     0.0001895   -0.0005243    -0.0003057   -0.0000346     0.0001985    0.0000489 
   0.008652151     0.0697324   -0.0006549    -0.0003267    0.0001018     0.0000654    0.0004249    -0.0000645   -0.0002635 
   0.008752176     0.0694516   -0.0007624    -0.0003980    0.0005735     0.0000137   -0.0000647    -0.0000669   -0.0004296 
   0.008852201     0.0697163   -0.0029534     0.0010457    0.0000042    -0.0000827   -0.0000063    -0.0000355    0.0003496 
   0.008952226     0.0692405    0.0000001    -0.0008439    0.0003721     0.0000478    0.0000941     0.0004216   -0.0004788 
   0.009052251     0.0709841    0.0002035     0.0000521   -0.0003443    -0.0001025   -0.0002100     0.0004720   -0.0002055 
   0.009152276     0.0705650   -0.0005243    -0.0006384    0.0005021     0.0001017    0.0001416     0.0009426    0.0005599 
   0.009252301     0.0701331   -0.0012946    -0.0000924   -0.0007346    -0.0000927    0.0000608    -0.0000642    0.0000496 
   0.009352326     0.0686215    0.0001633    -0.0000969    0.0003838    -0.0002628    0.0001803     0.0003803   -0.0006574 
   0.009452351     0.0714115   -0.0005223    -0.0002070    0.0000838     0.0001340    0.0000439     0.0001249   -0.0000021 
   0.009552376     0.0709174   -0.0014894    -0.0005466    0.0001828     0.0001860    0.0001261     0.0005749    0.0001228 
   0.009652401     0.0685791   -0.0010129    -0.0000870   -0.0004285     0.0000016    0.0001819     0.0002829   -0.0001277 
   0.009752426     0.0707771   -0.0017862    -0.0001327    0.0001312    -0.0000309   -0.0000642     0.0003342    0.0002143 
   0.009852451     0.0711907   -0.0032557    -0.0001012   -0.0006182    -0.0002244    0.0002202    -0.0002164    0.0000714 
   0.009952476     0.0702375   -0.0029447     0.0008888   -0.0004394     0.0000723    0.0000053     0.0004445   -0.0000977 
   0.010052501     0.0688502   -0.0001118     0.0002709    0.0003560     0.0000727    0.0003058    -0.0000129   -0.0000914 
   0.010152526     0.0723087   -0.0000433     0.0008175    0.0001873     0.0002482    0.0002149     0.0005048    0.0002117 
   0.010252551     0.0708950   -0.0006685    -0.0008104   -0.0004563     0.0000900    0.0001981     0.0001555   -0.0002850 
   0.010352576     0.0694676   -0.0019713    -0.0001726   -0.0000415    -0.0001344    0.0000971     0.0000404    0.0000068 
   0.010452601     0.0723606   -0.0013166    -0.0003584   -0.0002136     0.0001646    0.0001347     0.0003699   -0.0001648 
   0.010552626     0.0695790   -0.0025478    -0.0008388    0.0000698    -0.0000159   -0.0001173     0.0002164   -0.0001948 
   0.010652651     0.0708293   -0.0010860    -0.0001353   -0.0000573    -0.0000600    0.0001078     0.0004414    0.0000924 
   0.010752676     0.0686133   -0.0029184     0.0000612   -0.0006157     0.0000976    0.0001004     0.0000766    0.0003981 
   0.010852701     0.0680506   -0.0029676    -0.0002569   -0.0000397    -0.0001980   -0.0000795     0.0002873   -0.0000332 
   0.010952726     0.0694202   -0.0022096     0.0002757    0.0002620    -0.0002535   -0.0000485     0.0000515   -0.0001523 
   0.011052751     0.0708997   -0.0006478     0.0001420    0.0000511    -0.0001381   -0.0001087     0.0002246    0.0000267 
   0.011152776     0.0681513   -0.0011668    -0.0007251   -0.0007751    -0.0002287    0.0000825    -0.0000462    0.0000565 
   0.011252801     0.0697459    0.0002659     0.0001714    0.0001410     0.0000130    0.0000385     0.0000656   -0.0000008 
   0.011352826     0.0704042   -0.0031098    -0.0000035   -0.0008737    -0.0001937    0.0001662     0.0002290   -0.0000249 
   0.011452851     0.0681319   -0.0017587    -0.0007008   -0.0003671    -0.0001479   -0.0003250     0.0000690   -0.0002915 
   0.011552876     0.0705082   -0.0017808     0.0008081    0.0007865     0.0000291    0.0002019     0.0001296   -0.0001776 
   0.011652901     0.0696430   -0.0026390    -0.0004630    0.0001387    -0.0000233    0.0002964     0.0003553    0.0003848 
   0.011752926     0.0699103   -0.0011617    -0.0009257    0.0009340     0.0000847    0.0001131     0.0004097    0.0003508 
   0.011852951     0.0719399   -0.0017658     0.0000079    0.0010196     0.0001390   -0.0000392     0.0004325   -0.0001340 
   0.011952976     0.0692806   -0.0017514    -0.0000583    0.0009887    -0.0000912    0.0001805     0.0000479    0.0002789 
   0.012053002     0.0696090   -0.0014791    -0.0001452    0.0001259    -0.0000439    0.0000763     0.0004122    0.0004020 
   0.012153027     0.0723229   -0.0032162    -0.0003245    0.0001114    -0.0001125   -0.0000890     0.0003813    0.0002611 
   0.012253052     0.0707486   -0.0007646     0.0000954    0.0001557    -0.0001011    0.0001739     0.0004472    0.0004081 
   0.012353077     0.0706836   -0.0029795     0.0010541   -0.0006248     0.0001802    0.0001397     0.0002855   -0.0000386 
   0.012453102     0.0692553   -0.0013525    -0.0000179   -0.0006744    -0.0003038    0.0000503     0.0005184   -0.0000231 
   0.012553127     0.0705532   -0.0031622    -0.0005908   -0.0005104    -0.0001180    0.0000856     0.0004383   -0.0000134 
   0.012653152     0.0679236   -0.0015401    -0.0000044    0.0007841    -0.0000070    0.0001050     0.0000928    0.0002674 
   0.012753177     0.0692745   -0.0016139    -0.0003144    0.0007217    -0.0000306    0.0000489    -0.0000079    0.0001230 
   0.012853202     0.0692426   -0.0028328     0.0002463    0.0000397    -0.0000026    0.0001183     0.0006425    0.0002062 
   0.012953227     0.0704100   -0.0011202     0.0001251    0.0000501    -0.0001219   -0.0000126     0.0006368    0.0003224 
   0.013053252     0.0703018   -0.0035231     0.0001820    0.0008555    -0.0000730   -0.0000585     0.0002496   -0.0000042 
   0.013153277     0.0705132   -0.0021950     0.0000998   -0.0003323     0.0000401    0.0000566     0.0003159    0.0000024 
   0.013253302     0.0681528   -0.0020520    -0.0003869    0.0006181     0.0000952    0.0001076     0.0002679   -0.0002660 
   0.013353327     0.0659584   -0.0032591    -0.0004785   -0.0004992     0.0000882    0.0002647     0.0002720   -0.0001252 
   0.013453352     0.0698852   -0.0020292    -0.0001993   -0.0005848    -0.0000921    0.0000243     0.0007242    0.0001319 
   0.013553377     0.0694923   -0.0025550     0.0001922   -0.0002249     0.0001623   -0.0000705     0.0006126   -0.0000273 
   0.013653402     0.0724179   -0.0024408     0.0002393    0.0005664    -0.0002169   -0.0000368     0.0005791   -0.0000783 
   0.013753427     0.0692741   -0.0030575    -0.0002842   -0.0002125    -0.0000512    0.0002721     0.0003013    0.0000168 
   0.013853452     0.0716326   -0.0023937    -0.0004500    0.0002120    -0.0000461   -0.0000355     0.0003920    0.0000899 
   0.013953477     0.0692477   -0.0021818     0.0000011    0.0000966    -0.0000854   -0.0002714     0.0001442    0.0000137 
   0.014053502     0.0708890   -0.0057610     0.0004238   -0.0001758    -0.0000058   -0.0002132    -0.0001982   -0.0002753 
   0.014153527     0.0700619   -0.0019701    -0.0004197    0.0004271     0.0000317    0.0000264     0.0006304    0.0003928 
   0.014253552     0.0693308   -0.0000274     0.0003236   -0.0008880    -0.0001908    0.0000811     0.0004418   -0.0001697 
   0.014353577     0.0684393   -0.0022280    -0.0000185   -0.0001610    -0.0000252    0.0002148     0.0005441    0.0003306 
   0.014453602     0.0686267   -0.0040020     0.0001403    0.0000452    -0.0000788   -0.0001344     0.0001217    0.0002988 
   0.014553627     0.0676919   -0.0025660    -0.0000276   -0.0003044     0.0000579   -0.0000808     0.0002485   -0.0000610 
   0.014653652     0.0707051   -0.0019729     0.0005551    0.0000389    -0.0001931    0.0003385     0.0004647   -0.0001005 
   0.014753677     0.0687526   -0.0022879    -0.0006066   -0.0003701    -0.0000925   -0.0000205     0.0006862    0.0000751 
   0.014853702     0.0729279   -0.0009242     0.0003142   -0.0002271    -0.0000837   -0.0000394     0.0000645    0.0001481 
   0.014953727     0.0709387   -0.0041561     0.0000279    0.0005464    -0.0000584    0.0000975     0.0003394    0.0002306 
   0.015053752     0.0696496   -0.0032150     0.0006129    0.0010570     0.0001681   -0.0000864     0.0002050    0.0004830 
   0.015153777     0.0688677   -0.0030917    -0.0002901   -0.0000622    -0.0000863   -0.0001164     0.0004326   -0.0000509 
   0.015253802     0.0689538   -0.0009106    -0.0000098    0.0001867    -0.0000107    0.0000221     0.0004158   -0.0000919 
   0.015353827     0.0690594   -0.0016317     0.0001759   -0.0000208    -0.0001820    0.0001698     0.0010881   -0.0002270 
   0.015453852     0.0689573   -0.0021500    -0.0003872    0.0006832    -0.0000261    0.0000352     0.0007679    0.0003531 
   0.015553877     0.0698340   -0.0018904    -0.0004705   -0.0006694    -0.0000271   -0.0000003     0.0002657    0.0002322 
   0.015653902     0.0703098   -0.0023518     0.0001088    0.0004958    -0.0000353   -0.0000719     0.0001451   -0.0001319 
