! 26-Feb-26 2:11:06 PM
! E:\VNA_MEASUREMENTS\CAL_ENDS\OPEN_0.S2P
! CHANNEL.1
! TR.MEASUREMENT
! CORRECTED.DATA
# GHZ S RI R 50.0
! FREQ.GHZ         S11RE         S11IM         S21RE         S21IM         S12RE         S12IM         S22RE         S22IM         
!; PortSelection: Port_12
   0.000050000     0.1996958    0.1355428     0.1983158   -0.1060801    -0.0019154    0.0005899    -0.0222252    0.0089620 
   0.000150025     0.2666109    0.2593605     0.8287129   -1.0595480     0.0000000    0.0000935     0.0017650   -0.0046334 
   0.000250050    -0.5836349   -0.4031083     0.2829508   -0.1404160    -0.0003632   -0.0003899    -0.0007719   -0.0035814 
   0.000350075     0.9863992   -0.0397356    -0.0024481   -0.0063275    -0.0018755   -0.0006567    -0.0028054   -0.0025513 
   0.000450100     0.9860789   -0.0687485    -0.0006395   -0.0117977     0.0005575   -0.0001251    -0.0014290   -0.0018420 
   0.000550125     1.0170810   -0.0528079    -0.0075436   -0.0102325     0.0008682    0.0002726     0.0012313    0.0009773 
   0.000650150     1.0154590   -0.0526002    -0.0037547   -0.0074909     0.0006601   -0.0007120     0.0010978   -0.0021687 
   0.000750175     0.9678664   -0.0196781    -0.0132339   -0.0072186     0.0000241   -0.0005234    -0.0002663    0.0014915 
   0.000850200     0.9790322   -0.0454776    -0.0087243   -0.0110815    -0.0003792    0.0001162    -0.0018688   -0.0000063 
   0.000950225     1.0323410    0.0379982    -0.0056803   -0.0085745    -0.0005320    0.0008205    -0.0004676    0.0014642 
   0.001050250     0.9875444   -0.0073837    -0.0055553   -0.0060424    -0.0006944    0.0008243     0.0002055   -0.0002082 
   0.001150275     0.9846854   -0.0054862    -0.0104617   -0.0076479    -0.0002197    0.0000098     0.0008591    0.0005604 
   0.001250300     0.9840996   -0.0184885    -0.0059255   -0.0061167     0.0004654   -0.0001943     0.0003983    0.0007702 
   0.001350325     0.9756604   -0.0298449    -0.0091550   -0.0010649    -0.0000995    0.0001991     0.0002627   -0.0001970 
   0.001450350     0.9804400   -0.0207467    -0.0097406   -0.0032335     0.0001817    0.0001047    -0.0001238    0.0004614 
   0.001550375     1.0092550   -0.0157626    -0.0075115    0.0045714    -0.0002462    0.0003171     0.0003926    0.0000923 
   0.001650400     1.0358370    0.0002571    -0.0091148   -0.0002844     0.0000949   -0.0007628    -0.0007299   -0.0002506 
   0.001750425     0.9800148   -0.0033101    -0.0085094    0.0030897    -0.0009075   -0.0002725     0.0005639    0.0002404 
   0.001850450     1.0044500   -0.0137280    -0.0094299    0.0007868    -0.0002618   -0.0006001    -0.0004195    0.0005919 
   0.001950475     1.0168340    0.0749102    -0.0092472    0.0006859    -0.0002064    0.0013438     0.0010476   -0.0002042 
   0.002050500     0.9945900   -0.0032258    -0.0088913   -0.0007018     0.0002583   -0.0001492     0.0010723    0.0007284 
   0.002150525     1.0164700    0.0375379    -0.0089919    0.0006722     0.0006793    0.0006415     0.0005636   -0.0000383 
   0.002250550     0.9743519    0.0041111    -0.0053136    0.0018233     0.0000215    0.0003628     0.0003944   -0.0008668 
   0.002350575     0.9944044   -0.0420013    -0.0054746    0.0004817     0.0012364    0.0007375     0.0004678   -0.0002597 
   0.002450600     0.9778174   -0.0102375    -0.0055072    0.0008827    -0.0003550    0.0002858    -0.0006817   -0.0001900 
   0.002550625     1.0288030   -0.0081109    -0.0025140    0.0000667    -0.0007087   -0.0003851     0.0003841    0.0004578 
   0.002650650     1.0544890    0.0286934     0.0021899    0.0022219    -0.0000254   -0.0006247     0.0001934    0.0003417 
   0.002750675     0.9895757    0.0539970    -0.0031653    0.0025927     0.0007235    0.0003766    -0.0006876   -0.0001793 
   0.002850700     0.9944158   -0.0073910    -0.0040768    0.0011517     0.0001340   -0.0003313    -0.0000392    0.0003196 
   0.002950725     0.9854648   -0.0105794    -0.0008743    0.0020427     0.0004126   -0.0001634     0.0007112   -0.0003371 
   0.003050750     1.0343030    0.0036652    -0.0010068    0.0016770    -0.0002629    0.0000372     0.0003110   -0.0003727 
   0.003150775     1.0028550   -0.0153055    -0.0022309    0.0031479     0.0000772   -0.0005172    -0.0001575    0.0000735 
   0.003250800     1.0264900    0.0311990    -0.0039139    0.0018473     0.0003535    0.0007186     0.0005538    0.0003475 
   0.003350825     0.9961066    0.0030517    -0.0009188    0.0055899    -0.0001761   -0.0003177    -0.0001386    0.0001775 
   0.003450850     0.9750239   -0.0277127    -0.0036818    0.0026839    -0.0001099    0.0003719     0.0000896   -0.0004107 
   0.003550875     0.9507488   -0.0031014     0.0002420    0.0019757    -0.0004952    0.0002346     0.0002928   -0.0004714 
   0.003650900     1.0063740    0.0122299    -0.0016838    0.0014149    -0.0007648    0.0000283     0.0003779   -0.0001799 
   0.003750925     0.9954746   -0.0151373     0.0001225    0.0041095    -0.0003455   -0.0001757     0.0003647   -0.0007235 
   0.003850950     1.0016090   -0.0167156    -0.0018163    0.0020779    -0.0005932   -0.0000289    -0.0004068    0.0004865 
   0.003950975     1.0324310    0.0301061    -0.0002247    0.0026488     0.0000502    0.0001000    -0.0003684   -0.0006582 
   0.004051001     0.9749208   -0.0390115    -0.0011179    0.0017444     0.0004767    0.0001518    -0.0002889    0.0005981 
   0.004151026     1.0169620   -0.0113223    -0.0005793    0.0017035     0.0006178    0.0002505     0.0003514   -0.0004535 
   0.004251051     1.0131040    0.0352831    -0.0026903    0.0019896     0.0004497    0.0002165    -0.0004540   -0.0006185 
   0.004351076     0.9831896    0.0081015    -0.0014732    0.0025953    -0.0005691   -0.0000960     0.0003723    0.0002611 
   0.004451101     1.0208400   -0.0323198    -0.0001739   -0.0002061     0.0001651    0.0000364     0.0008061   -0.0002297 
   0.004551126     1.0331830    0.0114474    -0.0008123    0.0031953    -0.0001629   -0.0000022    -0.0009738    0.0003310 
   0.004651151     0.9730234   -0.0123036    -0.0002667    0.0007242     0.0005622   -0.0002864     0.0004873    0.0004778 
   0.004751176     0.9948924   -0.0330248    -0.0014573    0.0014784    -0.0004723   -0.0001041     0.0004957   -0.0001161 
   0.004851201     0.9756591    0.0041330    -0.0005356    0.0028584    -0.0002136    0.0004233     0.0010432    0.0006339 
   0.004951226     0.9804358   -0.0001279    -0.0001150    0.0008401    -0.0000772    0.0002379     0.0003264   -0.0001007 
   0.005051251     1.0289870   -0.0027770     0.0009686   -0.0000981     0.0001412   -0.0001524     0.0005140   -0.0000707 
   0.005151276     0.9836805    0.0009267     0.0007906   -0.0002492    -0.0004294   -0.0000915     0.0008255   -0.0004204 
   0.005251301     0.9617033   -0.0060842    -0.0003410   -0.0002834     0.0007816   -0.0003143     0.0006086    0.0006321 
   0.005351326     0.9790692    0.0042374    -0.0000387    0.0014315    -0.0000304    0.0005339     0.0010713    0.0003374 
   0.005451351     1.0021940    0.0070571    -0.0009276    0.0030561     0.0001379    0.0002276     0.0006780    0.0007391 
   0.005551376     1.0309950    0.0012534     0.0004049    0.0028406    -0.0004552    0.0008532     0.0008702   -0.0008043 
   0.005651401     1.0106250    0.0146168    -0.0018795    0.0015555    -0.0011597    0.0000579     0.0003239   -0.0004710 
   0.005751426     0.9772136   -0.0062394     0.0014332    0.0005166     0.0005811    0.0004890     0.0006324   -0.0001850 
   0.005851451     1.0288440   -0.0170409     0.0008335    0.0005675     0.0000467   -0.0000157     0.0001158   -0.0005450 
   0.005951476     0.9720087    0.0044854    -0.0014423   -0.0012896     0.0002495   -0.0000819     0.0006221    0.0006134 
   0.006051501     0.9999027   -0.0201951    -0.0010355    0.0001802    -0.0002023    0.0000301    -0.0002442    0.0004216 
   0.006151526     0.9922684   -0.0178362    -0.0010450   -0.0002053     0.0004955   -0.0001881     0.0002927   -0.0000753 
   0.006251551     0.9805626    0.0229963    -0.0020873    0.0009938     0.0002192   -0.0003343     0.0005778    0.0003171 
   0.006351576     1.0006110   -0.0094718     0.0012274    0.0016712     0.0000785   -0.0004142     0.0000800    0.0001811 
   0.006451601     1.0035460    0.0099081    -0.0010751   -0.0004327     0.0000323   -0.0000213    -0.0000182    0.0005855 
   0.006551626     1.0017370    0.0082339    -0.0007351   -0.0000976    -0.0001156   -0.0001437    -0.0005219   -0.0004906 
   0.006651651     0.9815907    0.0007265    -0.0009853   -0.0009494    -0.0001935   -0.0003727    -0.0003987    0.0001111 
   0.006751676     1.0107140   -0.0125451     0.0006460    0.0012740    -0.0002655    0.0002945     0.0004522    0.0001378 
   0.006851701     0.9962859   -0.0197527    -0.0007860    0.0010139    -0.0000320    0.0006464    -0.0004001    0.0001738 
   0.006951726     1.0016720   -0.0087553     0.0010504   -0.0014817    -0.0004307    0.0000690     0.0008294    0.0009216 
   0.007051751     1.0114200   -0.0118698    -0.0003261    0.0001895    -0.0000250   -0.0001753     0.0002642   -0.0001486 
   0.007151776     0.9804226   -0.0184294     0.0000820    0.0002745     0.0000313   -0.0002900     0.0009770    0.0000577 
   0.007251801     1.0352840    0.0123082    -0.0003199    0.0010267    -0.0001795    0.0000071    -0.0004123    0.0001927 
   0.007351826     1.0097860   -0.0104315    -0.0001032    0.0004802    -0.0004915    0.0003924     0.0009062    0.0002478 
   0.007451851     0.9998270   -0.0158558    -0.0005671   -0.0012899    -0.0004516    0.0005583     0.0006336   -0.0002562 
   0.007551876     1.0061240   -0.0052626    -0.0020617   -0.0008200    -0.0002538    0.0003680     0.0005660   -0.0004949 
   0.007651901     1.0073610   -0.0115438     0.0009931    0.0015793    -0.0001684   -0.0000465    -0.0001440   -0.0002726 
   0.007751926     0.9957336   -0.0116181     0.0009245   -0.0000400     0.0001502   -0.0004127    -0.0000407   -0.0005502 
   0.007851951     0.9921994   -0.0045552     0.0001381   -0.0005433     0.0005282   -0.0004995     0.0005723   -0.0001988 
   0.007951976     1.0102870   -0.0282421    -0.0003079    0.0010627    -0.0000945    0.0001153    -0.0001242    0.0003866 
   0.008052001     1.0137020   -0.0028577    -0.0006068    0.0008802     0.0001246   -0.0002022     0.0008794    0.0004200 
   0.008152026     1.0050410   -0.0246666     0.0001040    0.0007925     0.0000812    0.0000136     0.0001558   -0.0000303 
   0.008252051     0.9771583    0.0100976    -0.0001137    0.0003055    -0.0005780   -0.0000429     0.0005411    0.0003645 
   0.008352076     0.9928877   -0.0269084     0.0007651   -0.0000280     0.0000953    0.0000025     0.0009497   -0.0002562 
   0.008452101     1.0039140   -0.0020927    -0.0006193   -0.0010434     0.0001722    0.0002854     0.0002532   -0.0001272 
   0.008552126     0.9922097   -0.0096334    -0.0004968    0.0007706    -0.0003129    0.0000547     0.0001390    0.0002352 
   0.008652151     0.9953889    0.0268137     0.0000524   -0.0016189    -0.0008062   -0.0003653    -0.0002633   -0.0001413 
   0.008752176     1.0124740    0.0276662    -0.0020326    0.0011198    -0.0001080   -0.0001394     0.0000947   -0.0002821 
   0.008852201     0.9823332    0.0142043     0.0001230    0.0001455     0.0000127    0.0001043     0.0003090    0.0003165 
   0.008952226     1.0091580    0.0045620     0.0011391   -0.0001007    -0.0002043    0.0003742     0.0007159   -0.0005987 
   0.009052251     0.9935022    0.0022365     0.0001377    0.0004454    -0.0002768   -0.0000328     0.0001858   -0.0003868 
   0.009152276     1.0048370    0.0125160    -0.0009459   -0.0002765    -0.0000111    0.0000557     0.0005058   -0.0001145 
   0.009252301     1.0034030   -0.0038155     0.0003885    0.0011701     0.0002448   -0.0001014     0.0005069    0.0000037 
   0.009352326     1.0031850   -0.0012720    -0.0004465   -0.0012993     0.0003558   -0.0000010    -0.0000753   -0.0003800 
   0.009452351     1.0065630   -0.0091260    -0.0007178   -0.0016402    -0.0003037    0.0000208     0.0002632    0.0001312 
   0.009552376     1.0005840   -0.0052542     0.0006999    0.0008480     0.0000605    0.0001985     0.0005490    0.0002316 
   0.009652401     0.9905708    0.0004409    -0.0014471    0.0013137     0.0000576    0.0002080    -0.0001305    0.0004193 
   0.009752426     1.0046540    0.0061843    -0.0007151    0.0009201    -0.0000013    0.0001158     0.0002984    0.0002089 
   0.009852451     0.9976110   -0.0247770    -0.0001432    0.0004444    -0.0001089    0.0000283     0.0003450   -0.0001793 
   0.009952476     0.9946310   -0.0250763    -0.0000960    0.0004470    -0.0001212    0.0002061     0.0003158   -0.0000656 
   0.010052501     0.9883732   -0.0035764    -0.0007401   -0.0007973     0.0001594    0.0005456    -0.0001017   -0.0002707 
   0.010152526     0.9796720   -0.0040868    -0.0004078    0.0001102    -0.0001978    0.0003769     0.0001703    0.0001419 
   0.010252551     0.9950335   -0.0117723     0.0002164   -0.0009103     0.0001269    0.0003413     0.0007480    0.0002237 
   0.010352576     1.0127750   -0.0104328    -0.0004965   -0.0027157     0.0000395   -0.0001961     0.0004467    0.0001365 
   0.010452601     1.0073540    0.0106390    -0.0003464    0.0009413    -0.0000040    0.0004160     0.0003166   -0.0001123 
   0.010552626     0.9851019   -0.0005685     0.0010912    0.0000200    -0.0002682    0.0001120    -0.0001091    0.0004573 
   0.010652651     0.9975588    0.0016593     0.0000681   -0.0005833     0.0002533   -0.0000341     0.0002203   -0.0002938 
   0.010752676     1.0060320   -0.0180197     0.0004128    0.0001259     0.0002597    0.0001011    -0.0000609    0.0001995 
   0.010852701     1.0084140    0.0095872     0.0010727    0.0002801    -0.0000174    0.0000314     0.0004076    0.0002930 
   0.010952726     1.0146290    0.0024005    -0.0012688   -0.0007562    -0.0004014    0.0000042    -0.0004333   -0.0000798 
   0.011052751     1.0068690    0.0026155     0.0000681   -0.0000539    -0.0001299   -0.0000120     0.0000921    0.0000577 
   0.011152776     1.0007890   -0.0072038     0.0001318   -0.0015053     0.0000277   -0.0000558     0.0000799    0.0002301 
   0.011252801     1.0101790   -0.0059941     0.0000715    0.0011297     0.0002595   -0.0000083    -0.0000868    0.0003135 
   0.011352826     1.0072340   -0.0160857    -0.0000334    0.0000087    -0.0000707    0.0000887     0.0003380    0.0000178 
   0.011452851     0.9888912   -0.0060393     0.0005752   -0.0003595     0.0001591   -0.0002570     0.0002648    0.0000410 
   0.011552876     0.9957719   -0.0171552    -0.0002752    0.0015449    -0.0002770   -0.0003398     0.0005491   -0.0000803 
   0.011652901     1.0087740   -0.0185008     0.0003296    0.0007107    -0.0000982    0.0003424     0.0005632    0.0006391 
   0.011752926     0.9912407   -0.0140085    -0.0011059   -0.0002727    -0.0002671   -0.0001218     0.0002653   -0.0002352 
   0.011852951     0.9908016    0.0021313    -0.0001453   -0.0004221    -0.0001121    0.0000171    -0.0001489   -0.0002057 
   0.011952976     0.9986981    0.0000921     0.0013353   -0.0007369     0.0001688   -0.0000792     0.0000212    0.0000228 
   0.012053002     0.9953403   -0.0290096    -0.0001842   -0.0007796    -0.0000467   -0.0000393     0.0001704    0.0003954 
   0.012153027     1.0229030   -0.0213479    -0.0002602    0.0000168    -0.0000604    0.0000295     0.0004794   -0.0007167 
   0.012253052     1.0029210   -0.0280283    -0.0004098    0.0006561    -0.0001838    0.0000181     0.0003742    0.0002191 
   0.012353077     1.0040530    0.0100467    -0.0001700   -0.0003552     0.0002251   -0.0002745    -0.0000201    0.0001319 
   0.012453102     0.9985848   -0.0044703    -0.0016406   -0.0000958     0.0001944   -0.0000825     0.0006528   -0.0000869 
   0.012553127     1.0006240   -0.0263590     0.0003404   -0.0002215     0.0002139    0.0002516     0.0003334   -0.0003552 
   0.012653152     1.0113030   -0.0004481    -0.0007812   -0.0013705    -0.0002195    0.0001530     0.0000394    0.0000221 
   0.012753177     0.9935192   -0.0133723     0.0002315    0.0003639    -0.0002271   -0.0000112    -0.0000396    0.0002317 
   0.012853202     1.0061840   -0.0011546    -0.0004369   -0.0012479     0.0001274    0.0000455     0.0000973    0.0001212 
   0.012953227     1.0010990    0.0163473    -0.0007313   -0.0001412    -0.0002797    0.0003222     0.0009408   -0.0000905 
   0.013053252     1.0015710   -0.0291198     0.0002220   -0.0012753    -0.0002953   -0.0002217     0.0007544   -0.0000979 
   0.013153277     0.9954945   -0.0134058     0.0001746    0.0004106     0.0000750    0.0001600    -0.0003139    0.0000300 
   0.013253302     1.0011260   -0.0035195     0.0003917   -0.0004796     0.0002486    0.0003185     0.0006701   -0.0001535 
   0.013353327     0.9990396   -0.0008878    -0.0003919    0.0013392    -0.0004111    0.0001151     0.0002679    0.0001696 
   0.013453352     1.0026370    0.0144924    -0.0015713   -0.0001684    -0.0000125    0.0000957     0.0006272   -0.0000576 
   0.013553377     0.9965565    0.0010078     0.0013041    0.0003022     0.0004548   -0.0002929     0.0000285    0.0000525 
   0.013653402     0.9852411   -0.0084365    -0.0001012   -0.0004599     0.0001264    0.0000741     0.0005804   -0.0000059 
   0.013753427     1.0030770   -0.0100023     0.0009208   -0.0005089     0.0000958   -0.0004257     0.0001050    0.0003222 
   0.013853452     1.0143950   -0.0138928    -0.0012989    0.0004433    -0.0000480    0.0000596     0.0002833   -0.0005766 
   0.013953477     0.9799600   -0.0004036    -0.0000137   -0.0009563     0.0000263   -0.0000700     0.0005226   -0.0000173 
   0.014053502     1.0173690   -0.0057396    -0.0008510   -0.0008181    -0.0000389   -0.0001088     0.0002361   -0.0002068 
   0.014153527     0.9969631    0.0027146    -0.0003579   -0.0010365     0.0000043    0.0000337     0.0006263    0.0000259 
   0.014253552     1.0124900    0.0033598    -0.0004445   -0.0014094    -0.0002695    0.0003550     0.0001054   -0.0001349 
   0.014353577     1.0052940   -0.0085520    -0.0012190    0.0001257    -0.0003213    0.0006069     0.0005022   -0.0000571 
   0.014453602     0.9839549   -0.0081809     0.0006090    0.0001481     0.0001216    0.0001700     0.0000245   -0.0001231 
   0.014553627     0.9888121   -0.0009807     0.0008981   -0.0007717     0.0000776   -0.0001712     0.0001228    0.0002944 
   0.014653652     0.9982541   -0.0054088    -0.0010143    0.0008549    -0.0002509   -0.0002771    -0.0001130   -0.0002435 
   0.014753677     0.9957166   -0.0174698     0.0004923    0.0007165     0.0005109   -0.0002411     0.0001704    0.0000070 
   0.014853702     1.0097080   -0.0018606    -0.0004787    0.0003188    -0.0001242    0.0003050     0.0004052    0.0001347 
   0.014953727     0.9933926   -0.0213408     0.0005790   -0.0005427     0.0001921   -0.0003485     0.0003970    0.0000069 
   0.015053752     0.9931540   -0.0050011    -0.0002259   -0.0004209    -0.0001166   -0.0001346     0.0001276    0.0002932 
   0.015153777     0.9978859    0.0009150     0.0003783    0.0003237    -0.0001673    0.0002394     0.0005609   -0.0001946 
   0.015253802     0.9936174    0.0010102    -0.0002427    0.0004002     0.0002015   -0.0000297     0.0004198    0.0000455 
   0.015353827     0.9896361   -0.0018434    -0.0001858    0.0004699    -0.0000959   -0.0000059     0.0010479   -0.0000968 
   0.015453852     0.9979285   -0.0147841    -0.0004383   -0.0003814    -0.0000385   -0.0001071     0.0007057    0.0003827 
   0.015553877     1.0090900   -0.0198679     0.0002389    0.0007011    -0.0002458   -0.0001029     0.0002215   -0.0001910 
   0.015653902     0.9894026   -0.0126574    -0.0008907    0.0003493     0.0001724   -0.0001717    -0.0000902   -0.0001130 
