! 26-Feb-26 2:11:48 PM
! E:\VNA_MEASUREMENTS\CAL_ENDS\OPEN_1.S2P
! CHANNEL.1
! TR.MEASUREMENT
! CORRECTED.DATA
# GHZ S RI R 50.0
! FREQ.GHZ         S11RE         S11IM         S21RE         S21IM         S12RE         S12IM         S22RE         S22IM         
!; PortSelection: Port_12
   0.000050000     0.2346530    5.5912830     5.0470250  -11.0938300    -0.0083730   -0.0020765     0.0258217    0.0179573 
   0.000150025    -1.0514820    0.3472755    -2.7115010    3.0877780     0.0000404    0.0002841     0.0052152   -0.0056460 
   0.000250050    -0.2187658    0.0643504    -0.0944316   -0.1194378     0.0003518    0.0001840    -0.0006963   -0.0044340 
   0.000350075     1.0036660   -0.0443193    -0.0016695   -0.0126947     0.0005089    0.0002525    -0.0020674    0.0001260 
   0.000450100     1.0132600   -0.0019644    -0.0015215   -0.0087975     0.0012791    0.0001013     0.0005989   -0.0011233 
   0.000550125     1.0217710   -0.0080974    -0.0073794   -0.0097015    -0.0001946    0.0011179     0.0014337   -0.0003102 
   0.000650150     1.0602750    0.0268748    -0.0072813   -0.0122189     0.0003150    0.0000481     0.0002497   -0.0007858 
   0.000750175     0.9578722   -0.0647698    -0.0067429   -0.0064686     0.0017586    0.0000016    -0.0004298   -0.0001245 
   0.000850200     0.9933929   -0.0432633    -0.0055276   -0.0053490    -0.0002467   -0.0006220    -0.0014256    0.0001003 
   0.000950225     1.0221980    0.0037968    -0.0104855   -0.0040365     0.0005932    0.0011806     0.0000337    0.0015464 
   0.001050250     1.0397030   -0.0484513    -0.0087459   -0.0037925     0.0005733   -0.0002930     0.0001554   -0.0004429 
   0.001150275     1.0206020   -0.0029700    -0.0102602   -0.0035399    -0.0005156   -0.0008058     0.0007325    0.0009019 
   0.001250300     0.9578880    0.0389279    -0.0091650   -0.0009083    -0.0006265    0.0010713     0.0007860    0.0003279 
   0.001350325     0.9980219   -0.0099078    -0.0058489   -0.0046748    -0.0001699   -0.0001569     0.0001107   -0.0001357 
   0.001450350     1.0105850   -0.0162484    -0.0121579   -0.0004358    -0.0002891    0.0003225    -0.0005371    0.0012750 
   0.001550375     0.9861958   -0.0253767    -0.0072306   -0.0054345     0.0000046    0.0004900    -0.0000427    0.0002073 
   0.001650400     0.9642375    0.0346831    -0.0098564   -0.0001590     0.0003213   -0.0002662    -0.0008310   -0.0000003 
   0.001750425     1.0155860   -0.0357191    -0.0079227    0.0018758    -0.0003841    0.0000740    -0.0006410    0.0001678 
   0.001850450     0.9607223    0.0024426    -0.0086753   -0.0025194     0.0009712    0.0001528    -0.0002846    0.0002131 
   0.001950475     1.0666260    0.0470879    -0.0081609    0.0003749    -0.0007204    0.0002673     0.0013874   -0.0000401 
   0.002050500     0.9767832    0.0281831    -0.0055223    0.0046106    -0.0005892    0.0005675     0.0012376   -0.0003894 
   0.002150525     1.0084560   -0.0187940    -0.0066045    0.0026555     0.0002580   -0.0005684     0.0000055    0.0000771 
   0.002250550     0.9416625   -0.0133574    -0.0049375    0.0039190     0.0002540    0.0002394    -0.0007981   -0.0004459 
   0.002350575     1.0220290   -0.0230068    -0.0061450    0.0030931     0.0005314   -0.0001181     0.0003773   -0.0013251 
   0.002450600     1.0125210    0.0154891    -0.0048590    0.0029766     0.0001046    0.0003047     0.0002246    0.0003264 
   0.002550625     0.9944372   -0.0329797    -0.0020711    0.0016945    -0.0000919    0.0001183     0.0006642   -0.0000405 
   0.002650650     1.0436050    0.0303841    -0.0025566    0.0025610    -0.0006273    0.0003098     0.0003078   -0.0000105 
   0.002750675     0.9864180    0.0674734    -0.0018147    0.0054770     0.0004148   -0.0001732     0.0005907    0.0002330 
   0.002850700     1.0560330   -0.0047028    -0.0033891    0.0038666     0.0001015    0.0004267    -0.0006016   -0.0005938 
   0.002950725     0.9663147    0.0187095    -0.0025307   -0.0003181    -0.0001555   -0.0003132     0.0010088    0.0002852 
   0.003050750     0.9815755    0.0158980    -0.0037851    0.0005433     0.0004224    0.0004687     0.0000605   -0.0011613 
   0.003150775     1.0218460   -0.0239854    -0.0038206    0.0037701     0.0002833   -0.0004394    -0.0001838    0.0005952 
   0.003250800     1.0168710    0.0140533    -0.0011298    0.0021702     0.0003518   -0.0002800     0.0004259    0.0002873 
   0.003350825     0.9920421    0.0252130    -0.0044849    0.0007224    -0.0000317   -0.0000585    -0.0003476    0.0010223 
   0.003450850     1.0339250   -0.0430158     0.0003357    0.0018552    -0.0001850    0.0008461     0.0006003   -0.0006901 
   0.003550875     0.9535874    0.0027536     0.0010307   -0.0001707     0.0005531   -0.0001942    -0.0000292   -0.0002790 
   0.003650900     0.9996666   -0.0096903     0.0005341    0.0026510     0.0001742   -0.0000382     0.0003711   -0.0000081 
   0.003750925     0.9929152   -0.0063855    -0.0001489    0.0034663     0.0001906    0.0007221    -0.0001656    0.0004475 
   0.003850950     1.0122080   -0.0048996    -0.0026019    0.0049306     0.0002782    0.0002317     0.0004494    0.0006703 
   0.003950975     0.9908471    0.0253415    -0.0012746    0.0016824    -0.0002267   -0.0001968    -0.0003835    0.0002698 
   0.004051001     1.0051590   -0.0238983    -0.0003387    0.0000514     0.0003757    0.0006114    -0.0008254    0.0003981 
   0.004151026     1.0285670    0.0169825    -0.0001351    0.0013110     0.0009356    0.0003566    -0.0000583   -0.0000384 
   0.004251051     1.0302590    0.0069918    -0.0015579    0.0026596     0.0004965    0.0000697    -0.0001586   -0.0002334 
   0.004351076     1.0118030    0.0118242     0.0021792    0.0030672    -0.0001361   -0.0002514     0.0006196    0.0003516 
   0.004451101     1.0255180   -0.0280546     0.0014840    0.0004784     0.0003667   -0.0007655     0.0005542   -0.0005298 
   0.004551126     1.0202170   -0.0059686    -0.0015753   -0.0009056     0.0001823   -0.0002117    -0.0003227    0.0000910 
   0.004651151     0.9774326    0.0004078     0.0023242   -0.0005783    -0.0000771    0.0002166     0.0006261   -0.0001193 
   0.004751176     0.9997815    0.0013241    -0.0000589    0.0018422     0.0004330   -0.0000848    -0.0000719    0.0001092 
   0.004851201     0.9784637    0.0097980    -0.0005084    0.0004861     0.0005761   -0.0002241     0.0004485    0.0005749 
   0.004951226     0.9940037    0.0307455     0.0000053   -0.0001247     0.0003415    0.0003173    -0.0000594   -0.0001114 
   0.005051251     1.0309990   -0.0167635    -0.0020482    0.0014707     0.0000911    0.0007508    -0.0000720   -0.0000588 
   0.005151276     0.9833943    0.0077523     0.0006803    0.0025226     0.0003914   -0.0000969     0.0005533   -0.0003563 
   0.005251301     0.9779340   -0.0036140    -0.0001813   -0.0004099    -0.0005826    0.0005816     0.0003993    0.0006038 
   0.005351326     0.9643308    0.0010396     0.0008927    0.0010486     0.0001979    0.0000765     0.0008053    0.0002250 
   0.005451351     0.9976065    0.0061156    -0.0000431    0.0026632     0.0002633   -0.0000490     0.0003093   -0.0000669 
   0.005551376     1.0165860   -0.0191555    -0.0021726    0.0004566     0.0000716   -0.0001889     0.0002273    0.0000139 
   0.005651401     1.0067380    0.0263220    -0.0003589    0.0000683     0.0006995   -0.0004662     0.0001380   -0.0006374 
   0.005751426     0.9830230    0.0056864    -0.0019877    0.0010442    -0.0001722   -0.0000902     0.0007349   -0.0001790 
   0.005851451     0.9808869   -0.0095516    -0.0020307    0.0017615     0.0000356   -0.0001173    -0.0005354    0.0002884 
   0.005951476     0.9962484    0.0078355     0.0015803    0.0000587    -0.0002426   -0.0000612     0.0006396   -0.0001957 
   0.006051501     0.9854091   -0.0079683    -0.0008586   -0.0022390    -0.0000795    0.0000772     0.0002477    0.0000393 
   0.006151526     0.9679139   -0.0177460     0.0012277    0.0010613    -0.0001273   -0.0004920     0.0006769   -0.0001861 
   0.006251551     0.9923992    0.0250047    -0.0000533    0.0016995    -0.0006286   -0.0005110     0.0006430    0.0002347 
   0.006351576     1.0082180   -0.0149749    -0.0002073   -0.0015975    -0.0001853    0.0001326     0.0000845    0.0002859 
   0.006451601     0.9765989    0.0216076     0.0002563    0.0012167    -0.0001742   -0.0000248    -0.0000308    0.0001581 
   0.006551626     0.9955658    0.0024510    -0.0009038    0.0002452    -0.0000997    0.0000524    -0.0005492   -0.0001603 
   0.006651651     0.9977731   -0.0036160    -0.0004975    0.0003704     0.0001555   -0.0003097     0.0005584   -0.0001337 
   0.006751676     0.9885904   -0.0257335    -0.0002649    0.0004992    -0.0003984    0.0001787     0.0008114    0.0004589 
   0.006851701     1.0178220   -0.0304634     0.0000732    0.0004370     0.0003234    0.0001371     0.0006091   -0.0002468 
   0.006951726     0.9704141   -0.0155032     0.0004511   -0.0002760    -0.0000406   -0.0000513     0.0007761    0.0006294 
   0.007051751     0.9988350    0.0156491    -0.0001435   -0.0003023    -0.0003648    0.0000116     0.0001265   -0.0004893 
   0.007151776     0.9908810   -0.0048443     0.0010170   -0.0001841     0.0004969    0.0002144     0.0004871   -0.0000100 
   0.007251801     1.0020040    0.0119814     0.0016381   -0.0004059     0.0002114    0.0000743    -0.0000141   -0.0002886 
   0.007351826     1.0214870   -0.0179168    -0.0002722    0.0001110     0.0000200   -0.0001907     0.0007351    0.0004045 
   0.007451851     0.9931053   -0.0222846    -0.0000268   -0.0000941     0.0003764    0.0000383     0.0005178   -0.0001746 
   0.007551876     0.9974718   -0.0038013    -0.0010323    0.0003018    -0.0000728    0.0001957     0.0002481   -0.0001192 
   0.007651901     1.0038400   -0.0130952     0.0009499    0.0019939     0.0001389    0.0004184     0.0002126    0.0001079 
   0.007751926     0.9884986    0.0047101    -0.0017534   -0.0003375     0.0000849    0.0000814     0.0003615   -0.0000450 
   0.007851951     0.9914455   -0.0127558    -0.0005913    0.0009362    -0.0004105    0.0001408     0.0006511   -0.0002337 
   0.007951976     0.9981288   -0.0280350    -0.0009092    0.0008811    -0.0002911   -0.0003143    -0.0001068    0.0003749 
   0.008052001     1.0107600    0.0067621     0.0011802    0.0012778     0.0001109   -0.0000890     0.0004142    0.0002164 
   0.008152026     0.9935706   -0.0252564     0.0009629    0.0001046     0.0003227   -0.0002176     0.0006403    0.0003701 
   0.008252051     0.9821935    0.0064841    -0.0006447    0.0003722     0.0000415   -0.0003060     0.0005657    0.0005504 
   0.008352076     0.9994241   -0.0090553     0.0013062    0.0012239     0.0002756    0.0002438     0.0009973    0.0002059 
   0.008452101     0.9885741    0.0037836    -0.0013905    0.0006951     0.0003002    0.0002432    -0.0000987   -0.0004235 
   0.008552126     1.0166540   -0.0054081     0.0000526    0.0008428    -0.0004621   -0.0003176     0.0003688   -0.0002064 
   0.008652151     1.0221360   -0.0072834     0.0011273   -0.0011940     0.0002436    0.0001536     0.0006379    0.0003962 
   0.008752176     1.0075730    0.0184894     0.0004267    0.0018220    -0.0000905   -0.0002605    -0.0000982   -0.0003199 
   0.008852201     0.9935555    0.0127112    -0.0010555    0.0002147     0.0002340    0.0001579     0.0004495    0.0003165 
   0.008952226     1.0292930    0.0014216    -0.0005903    0.0008260     0.0001817    0.0000516     0.0005299   -0.0004172 
   0.009052251     1.0012520   -0.0006056    -0.0013742    0.0020056     0.0003043    0.0001720     0.0003802   -0.0005093 
   0.009152276     0.9990121   -0.0105438     0.0000588    0.0014389    -0.0002079    0.0001414     0.0004205    0.0000127 
   0.009252301     1.0026880    0.0034545     0.0001150    0.0001781    -0.0003560   -0.0001704    -0.0000204   -0.0004203 
   0.009352326     1.0021560   -0.0031559    -0.0019847    0.0004936    -0.0003112    0.0005136    -0.0001124   -0.0002699 
   0.009452351     1.0004850   -0.0079644    -0.0007033    0.0016112    -0.0000980    0.0002741     0.0002111   -0.0002089 
   0.009552376     1.0058090   -0.0110053    -0.0002877    0.0012547    -0.0001094   -0.0004260     0.0005827    0.0000589 
   0.009652401     0.9798535   -0.0147377     0.0010503   -0.0007456    -0.0002927   -0.0003736    -0.0000457    0.0003198 
   0.009752426     1.0007070    0.0122926     0.0000419   -0.0004537     0.0000111    0.0000133     0.0005292    0.0000990 
   0.009852451     0.9907636   -0.0052176    -0.0013385    0.0004190    -0.0001138   -0.0001897     0.0001174    0.0000194 
   0.009952476     1.0042160   -0.0184338    -0.0006433   -0.0004988    -0.0000164    0.0001543     0.0002070    0.0001195 
   0.010052501     0.9945803   -0.0006925     0.0000958    0.0003827     0.0001465    0.0001842     0.0002972    0.0002768 
   0.010152526     1.0008820    0.0134749     0.0000109   -0.0023149     0.0001729   -0.0003436     0.0001262   -0.0003466 
   0.010252551     1.0018110   -0.0061914     0.0000266    0.0006834     0.0001505    0.0000714     0.0001806    0.0001504 
   0.010352576     1.0093420   -0.0020359    -0.0006386   -0.0004049    -0.0000514   -0.0000414     0.0002494   -0.0000982 
   0.010452601     0.9862671    0.0115797    -0.0007158    0.0003874    -0.0002582   -0.0001203     0.0002042   -0.0003292 
   0.010552626     0.9729056   -0.0273812    -0.0010234   -0.0001266     0.0002134    0.0003268    -0.0004106   -0.0001698 
   0.010652651     0.9993325   -0.0160982    -0.0004793    0.0004332    -0.0000965   -0.0002112     0.0001671   -0.0001019 
   0.010752676     1.0026450   -0.0212194     0.0002669   -0.0002120     0.0000710    0.0002233     0.0006672    0.0002129 
   0.010852701     0.9871728    0.0131588     0.0005854    0.0004560     0.0000698    0.0000530     0.0003295    0.0004792 
   0.010952726     0.9965672    0.0076779     0.0005405   -0.0001771    -0.0001845   -0.0000403    -0.0000811    0.0000122 
   0.011052751     1.0034890    0.0023689     0.0007918   -0.0010374     0.0001708   -0.0000131     0.0006145    0.0002683 
   0.011152776     1.0089390    0.0026988    -0.0001454    0.0015958     0.0001758    0.0000478     0.0005313   -0.0003434 
   0.011252801     1.0070130    0.0027735    -0.0005239   -0.0005290    -0.0001418   -0.0003473     0.0001665    0.0002304 
   0.011352826     1.0139670   -0.0287746    -0.0002626   -0.0004480     0.0002893    0.0003773     0.0000245   -0.0004737 
   0.011452851     0.9959167   -0.0020817    -0.0016014    0.0006449     0.0003851    0.0000801     0.0002188   -0.0003033 
   0.011552876     0.9887580   -0.0057329    -0.0002707    0.0002793    -0.0002448   -0.0000315     0.0002940   -0.0003995 
   0.011652901     0.9944133   -0.0309144     0.0003179   -0.0001422     0.0002787    0.0003065     0.0002802    0.0005443 
   0.011752926     0.9847732   -0.0279642    -0.0007152   -0.0001802     0.0001247    0.0001136     0.0001969   -0.0001567 
   0.011852951     1.0040640   -0.0141454    -0.0001401    0.0003871    -0.0003287   -0.0000746    -0.0000039    0.0003880 
   0.011952976     0.9924845    0.0081034     0.0005731   -0.0000115    -0.0002568    0.0000553     0.0001726    0.0003202 
   0.012053002     0.9985572   -0.0194043    -0.0008875   -0.0007931     0.0001450    0.0000686     0.0004453    0.0003890 
   0.012153027     1.0033840   -0.0164560     0.0000363    0.0003669     0.0003448    0.0000032     0.0004265   -0.0001552 
   0.012253052     1.0013640   -0.0515036    -0.0003608    0.0004681     0.0001975    0.0002487     0.0007725    0.0001238 
   0.012353077     0.9926626   -0.0054781    -0.0005925   -0.0002805     0.0002045   -0.0000883     0.0001108   -0.0000930 
   0.012453102     1.0081790    0.0191155    -0.0020050   -0.0000943     0.0000200   -0.0000061     0.0002643    0.0001399 
   0.012553127     0.9800317   -0.0453058     0.0006785   -0.0000541    -0.0000416    0.0001858     0.0004312   -0.0002570 
   0.012653152     0.9972961    0.0080175     0.0003042   -0.0012792     0.0002853    0.0004380    -0.0000279    0.0002627 
   0.012753177     0.9957452   -0.0065021     0.0004481   -0.0002931     0.0002581    0.0001218    -0.0002233    0.0000474 
   0.012853202     0.9901456    0.0233785    -0.0000277   -0.0002810    -0.0002743    0.0001015     0.0002318    0.0004497 
   0.012953227     0.9950728   -0.0024716    -0.0002602   -0.0003691     0.0003704    0.0004681     0.0005200    0.0000217 
   0.013053252     0.9867979   -0.0264315    -0.0006321    0.0002514     0.0001324    0.0001170     0.0008466    0.0000866 
   0.013153277     0.9936262    0.0026027    -0.0007975    0.0010006    -0.0000146    0.0000767     0.0002301   -0.0002642 
   0.013253302     0.9890676   -0.0043239     0.0003185   -0.0015480    -0.0001937   -0.0000274    -0.0001700   -0.0002910 
   0.013353327     1.0001420    0.0009275     0.0017496   -0.0007141    -0.0002008    0.0000018     0.0003966   -0.0000640 
   0.013453352     1.0153400    0.0084967     0.0009810   -0.0001705    -0.0001377   -0.0002260     0.0002989   -0.0000631 
   0.013553377     0.9882910   -0.0096248    -0.0000488   -0.0002929    -0.0001778    0.0000389     0.0000995   -0.0000498 
   0.013653402     0.9902687   -0.0029032     0.0008558    0.0004687    -0.0003480   -0.0002158     0.0003456   -0.0000418 
   0.013753427     0.9989661   -0.0143270    -0.0003292   -0.0003336     0.0003002   -0.0001098    -0.0000436    0.0001000 
   0.013853452     1.0134300   -0.0130511    -0.0001275   -0.0005324     0.0002256    0.0003696     0.0003631    0.0001910 
   0.013953477     0.9733885   -0.0004462     0.0008535   -0.0006550    -0.0003426    0.0001137     0.0007406    0.0002661 
   0.014053502     1.0123620   -0.0134657    -0.0014526   -0.0004051     0.0002110    0.0002775    -0.0001482    0.0001701 
   0.014153527     0.9994065   -0.0072470    -0.0016394    0.0007669     0.0002862   -0.0001901     0.0002801    0.0001870 
   0.014253552     1.0015540   -0.0019806     0.0013968   -0.0006108    -0.0001582   -0.0000044     0.0005461    0.0000171 
   0.014353577     0.9994212   -0.0080688    -0.0005145   -0.0000919     0.0000952   -0.0003658     0.0004872    0.0002243 
   0.014453602     0.9761195   -0.0309302    -0.0006473    0.0004464    -0.0003484   -0.0001032    -0.0001521    0.0001364 
   0.014553627     0.9976766   -0.0085855     0.0002755    0.0008951    -0.0001292    0.0001583     0.0006233   -0.0001158 
   0.014653652     1.0061820   -0.0128623    -0.0000732    0.0005440     0.0004931   -0.0002713     0.0004102   -0.0005033 
   0.014753677     0.9876730   -0.0105930     0.0000683    0.0005892     0.0000500    0.0000260     0.0000313    0.0001404 
   0.014853702     1.0060730    0.0053790     0.0005783    0.0000607    -0.0000021   -0.0000408     0.0003503    0.0005140 
   0.014953727     1.0077040   -0.0207648     0.0005307   -0.0002278    -0.0000079    0.0002020     0.0001604    0.0004825 
   0.015053752     0.9915223   -0.0082464    -0.0001240   -0.0010252     0.0002640    0.0001721     0.0004028    0.0004730 
   0.015153777     0.9986710    0.0014456    -0.0007973    0.0002088     0.0001911    0.0002402     0.0001041   -0.0000889 
   0.015253802     0.9930823    0.0016272    -0.0003710    0.0003233    -0.0000572   -0.0000154     0.0002627   -0.0004270 
   0.015353827     1.0075000   -0.0155030    -0.0002743    0.0006074    -0.0000079    0.0000131     0.0006989   -0.0005243 
   0.015453852     1.0107100   -0.0093326     0.0003556   -0.0009518     0.0003983   -0.0000226     0.0004667    0.0001822 
   0.015553877     1.0167080   -0.0200061     0.0002227    0.0010321    -0.0001271    0.0001115     0.0004080    0.0000313 
   0.015653902     1.0057040    0.0094636    -0.0003056    0.0001602    -0.0002514   -0.0000371    -0.0001249    0.0001152 
