! 26-Feb-26 2:12:31 PM
! E:\VNA_MEASUREMENTS\CAL_ENDS\OPEN_2.S2P
! CHANNEL.1
! TR.MEASUREMENT
! CORRECTED.DATA
# GHZ S RI R 50.0
! FREQ.GHZ         S11RE         S11IM         S21RE         S21IM         S12RE         S12IM         S22RE         S22IM         
!; PortSelection: Port_12
   0.000050000    -0.1802622   -0.0980514     0.3487996    0.7753628    -0.0025106   -0.0017900     0.0005728    0.0409238 
   0.000150025    -0.0795287    0.2097657    -0.1155935   -0.4884672    -0.0001787   -0.0000137     0.0020608   -0.0026501 
   0.000250050    -0.5157320   -0.7049116    -0.5058999   -0.3498881     0.0002849    0.0000232    -0.0008699   -0.0025668 
   0.000350075     0.9672113   -0.0432379    -0.0027633   -0.0057127    -0.0004962   -0.0003794    -0.0009847    0.0001000 
   0.000450100     1.0580300   -0.0519593    -0.0040974   -0.0105722    -0.0002912    0.0002645    -0.0006761   -0.0018269 
   0.000550125     1.0046120    0.0105447    -0.0052869   -0.0126018     0.0000593   -0.0006556    -0.0001998   -0.0005753 
   0.000650150     1.0302260   -0.0340365    -0.0075642   -0.0108499     0.0001363    0.0003422     0.0008842    0.0000808 
   0.000750175     1.0027970   -0.0343994    -0.0084858   -0.0047764     0.0010584   -0.0004796     0.0002689    0.0002513 
   0.000850200     1.0001630   -0.0759018    -0.0087076   -0.0051686    -0.0005938    0.0003087    -0.0016242    0.0000778 
   0.000950225     1.0229320   -0.0343346    -0.0092114   -0.0103395    -0.0003938   -0.0002027     0.0009876    0.0027017 
   0.001050250     1.0079200   -0.0600086    -0.0099887   -0.0055168    -0.0001876   -0.0000919     0.0001040    0.0003446 
   0.001150275     0.9956647   -0.0256484    -0.0087942   -0.0067637     0.0002811    0.0000121     0.0003692    0.0001815 
   0.001250300     1.0067750   -0.0140343    -0.0069623   -0.0019084    -0.0007744   -0.0001254     0.0006638    0.0012708 
   0.001350325     0.9874538    0.0145043    -0.0116510   -0.0038776     0.0000319   -0.0005234    -0.0004915    0.0006427 
   0.001450350     1.0217660   -0.0406179    -0.0116140    0.0008621    -0.0010946    0.0002899    -0.0002330    0.0009627 
   0.001550375     1.0052950    0.0074972    -0.0097154   -0.0013158    -0.0008022    0.0006068     0.0010011    0.0004571 
   0.001650400     1.0176180   -0.0128531    -0.0089903   -0.0030196    -0.0001272    0.0006838    -0.0002309   -0.0000937 
   0.001750425     0.9920697   -0.0398327    -0.0066623   -0.0000784     0.0002683    0.0000094    -0.0000981    0.0002030 
   0.001850450     0.9614170    0.0065777    -0.0063956   -0.0014022     0.0004055   -0.0004508     0.0001345    0.0007001 
   0.001950475     0.9979795    0.0662551    -0.0050283   -0.0022193    -0.0003737   -0.0007497     0.0006185   -0.0010281 
   0.002050500     1.0175380    0.0222012    -0.0033138    0.0025808     0.0001793    0.0001988     0.0006350    0.0006978 
   0.002150525     0.9677245   -0.0133617    -0.0063159   -0.0015925     0.0005680   -0.0008246     0.0008683    0.0003261 
   0.002250550     0.9688649   -0.0153852    -0.0078497    0.0030154    -0.0001966   -0.0004425     0.0003216   -0.0004485 
   0.002350575     0.9581584   -0.0992230    -0.0056935    0.0017802    -0.0001141   -0.0000150     0.0010835   -0.0001552 
   0.002450600     1.0103670   -0.0062822    -0.0057665    0.0017602     0.0004475    0.0001987    -0.0000952   -0.0001591 
   0.002550625     1.0077510   -0.0199548    -0.0045773    0.0033869    -0.0012335   -0.0000483    -0.0000658    0.0001040 
   0.002650650     0.9904542    0.0307292    -0.0043306    0.0017434    -0.0000467   -0.0003338    -0.0005601    0.0004652 
   0.002750675     1.0445830    0.0304801    -0.0062117    0.0047195     0.0005244    0.0006021     0.0000907    0.0006034 
   0.002850700     1.0382330    0.0075001    -0.0013915    0.0019688     0.0002744   -0.0003383    -0.0002999   -0.0001239 
   0.002950725     0.9851618   -0.0125031    -0.0030585    0.0050711    -0.0014198    0.0002472    -0.0002112    0.0003539 
   0.003050750     1.0101100   -0.0185100    -0.0013092    0.0013937     0.0007357   -0.0002339    -0.0002375   -0.0003985 
   0.003150775     1.0028560   -0.0265659    -0.0027881    0.0049980    -0.0001479   -0.0002220    -0.0002280    0.0004593 
   0.003250800     0.9769827    0.0131129    -0.0031205    0.0026451    -0.0002688   -0.0001269    -0.0003093   -0.0001861 
   0.003350825     1.0061610    0.0361424    -0.0012949    0.0020679    -0.0006988   -0.0004700     0.0000630    0.0003756 
   0.003450850     0.9714527   -0.0415045    -0.0032106    0.0035223     0.0003252   -0.0003643     0.0003946   -0.0009107 
   0.003550875     0.9868279   -0.0041930    -0.0004129    0.0023550    -0.0004381    0.0005009     0.0000640   -0.0004361 
   0.003650900     0.9918435    0.0139235     0.0005692   -0.0006166    -0.0004017   -0.0001354    -0.0001092   -0.0003664 
   0.003750925     1.0107260    0.0056470    -0.0016737    0.0012481     0.0008412    0.0001721     0.0005233   -0.0002067 
   0.003850950     1.0087590   -0.0081958    -0.0023168    0.0014814    -0.0002292   -0.0004867    -0.0001130    0.0007418 
   0.003950975     1.0403930    0.0184907    -0.0005607    0.0010740     0.0005209   -0.0001314    -0.0002997   -0.0000591 
   0.004051001     1.0065450   -0.0266521    -0.0004151   -0.0015282     0.0000296    0.0002512     0.0002994   -0.0003949 
   0.004151026     1.0318780   -0.0151581    -0.0013465    0.0013148    -0.0002106   -0.0003836    -0.0002878   -0.0003938 
   0.004251051     0.9490555   -0.0040830    -0.0026719    0.0032351     0.0002845   -0.0004753    -0.0006406   -0.0006265 
   0.004351076     0.9983138    0.0001373    -0.0000651   -0.0005428     0.0004824   -0.0004218     0.0008956    0.0002781 
   0.004451101     1.0230300   -0.0080855    -0.0018474    0.0006713     0.0007254   -0.0005922     0.0011296   -0.0008775 
   0.004551126     1.0184400   -0.0209574    -0.0010240    0.0012005     0.0007283   -0.0000528    -0.0000673    0.0003975 
   0.004651151     0.9923596    0.0240536    -0.0038056    0.0010629    -0.0000706   -0.0005176     0.0004197   -0.0002434 
   0.004751176     1.0170650   -0.0633671     0.0017196    0.0034426    -0.0002771    0.0002967    -0.0002313   -0.0002995 
   0.004851201     0.9664932   -0.0010546    -0.0026302    0.0009886     0.0000442    0.0001455     0.0010006    0.0007054 
   0.004951226     0.9677661    0.0069359    -0.0008911    0.0008044     0.0000740    0.0003227    -0.0000151   -0.0001032 
   0.005051251     1.0050570   -0.0217019     0.0006950    0.0011283     0.0002793   -0.0000688     0.0002204   -0.0005547 
   0.005151276     0.9974079    0.0110184    -0.0010757    0.0001506     0.0003349    0.0005718     0.0007146    0.0000220 
   0.005251301     0.9783511    0.0010802    -0.0020177    0.0000001     0.0004617    0.0001525     0.0003668    0.0007808 
   0.005351326     1.0124880    0.0261410    -0.0014541    0.0018167     0.0001609   -0.0000102     0.0010897    0.0002812 
   0.005451351     1.0064680   -0.0058455     0.0001529    0.0016964    -0.0003044   -0.0000445     0.0007420    0.0000785 
   0.005551376     1.0081690    0.0049263    -0.0008674    0.0010136     0.0005119   -0.0000805     0.0005675   -0.0001373 
   0.005651401     0.9799906    0.0171597     0.0009543   -0.0007409     0.0001246   -0.0000808     0.0004985   -0.0002388 
   0.005751426     0.9921405    0.0284720     0.0025734    0.0000032    -0.0003485    0.0004181     0.0001609   -0.0002674 
   0.005851451     0.9888421   -0.0202332    -0.0009342    0.0020172    -0.0003024    0.0002281    -0.0001282   -0.0002267 
   0.005951476     0.9932554    0.0097534    -0.0003763    0.0014361     0.0000313    0.0004423     0.0003273    0.0002749 
   0.006051501     0.9832482   -0.0146117    -0.0010583   -0.0000089     0.0000964   -0.0005164    -0.0005219    0.0000262 
   0.006151526     0.9891377   -0.0255969     0.0010309    0.0024851    -0.0000383   -0.0000489     0.0006969   -0.0004321 
   0.006251551     0.9786044    0.0096481    -0.0005855    0.0015615     0.0005440    0.0004598    -0.0000827    0.0006082 
   0.006351576     1.0144250   -0.0009503    -0.0000771    0.0006796     0.0000213    0.0002497     0.0002118    0.0001930 
   0.006451601     0.9864534    0.0027170    -0.0008407   -0.0003447    -0.0002985   -0.0000900    -0.0000808    0.0001187 
   0.006551626     0.9690028    0.0067211     0.0003508   -0.0000620     0.0002996    0.0000717    -0.0006778   -0.0001052 
   0.006651651     0.9886079   -0.0167074     0.0009345    0.0000459    -0.0000125   -0.0000725     0.0002552   -0.0004338 
   0.006751676     0.9998375   -0.0141222    -0.0000568   -0.0010151    -0.0003590    0.0000033     0.0004240    0.0003489 
   0.006851701     0.9913718   -0.0121284     0.0013078    0.0004050     0.0001178    0.0000109    -0.0002861    0.0003892 
   0.006951726     0.9734280   -0.0166476    -0.0001360    0.0012121     0.0001135    0.0001679     0.0011095    0.0008479 
   0.007051751     0.9969466    0.0012371     0.0002295   -0.0013966    -0.0001810    0.0002750     0.0002901   -0.0003624 
   0.007151776     0.9950317   -0.0187472     0.0005080   -0.0003694     0.0001980    0.0002085     0.0005221    0.0003437 
   0.007251801     1.0205550    0.0278380    -0.0012967   -0.0010877     0.0002690   -0.0000674     0.0003089   -0.0000685 
   0.007351826     0.9862286   -0.0216973     0.0002104    0.0000737    -0.0000919    0.0000163     0.0007536   -0.0000626 
   0.007451851     0.9809718   -0.0115109    -0.0007541   -0.0000420     0.0000411   -0.0005142     0.0003092   -0.0002110 
   0.007551876     1.0052030   -0.0166878    -0.0002279    0.0004647    -0.0002180    0.0004576     0.0002483   -0.0003743 
   0.007651901     1.0290330   -0.0015380    -0.0017597    0.0000942    -0.0001485    0.0002708    -0.0001128   -0.0000226 
   0.007751926     0.9906213   -0.0034645    -0.0000578    0.0012370     0.0003376   -0.0004726    -0.0001851   -0.0008859 
   0.007851951     1.0014580   -0.0001103     0.0004518    0.0009681     0.0002100   -0.0002068     0.0002849   -0.0003553 
   0.007951976     0.9998807   -0.0147803     0.0006105   -0.0006031     0.0002479    0.0007176     0.0005781    0.0006911 
   0.008052001     0.9914047    0.0151096     0.0001461    0.0007262    -0.0000305    0.0005291     0.0003592    0.0001546 
   0.008152026     0.9937351   -0.0261500    -0.0009649    0.0001135     0.0001030    0.0001894     0.0001440   -0.0001391 
   0.008252051     0.9845631    0.0141428     0.0032930    0.0005402     0.0002411   -0.0001548     0.0010946    0.0006697 
   0.008352076     1.0047620    0.0016233    -0.0005552    0.0011866     0.0002421   -0.0003191     0.0002706    0.0000727 
   0.008452101     1.0003370   -0.0010828    -0.0018666    0.0003799    -0.0001518   -0.0001555    -0.0000186    0.0001787 
   0.008552126     1.0052050   -0.0084300    -0.0006537    0.0013237     0.0000221    0.0002158     0.0002771    0.0000424 
   0.008652151     1.0080400    0.0177732    -0.0028828   -0.0007660     0.0004536    0.0003297     0.0003467    0.0000293 
   0.008752176     1.0074180    0.0040169    -0.0006685   -0.0001538     0.0001610    0.0001178    -0.0002319   -0.0007247 
   0.008852201     0.9778883    0.0059728     0.0009520    0.0000760     0.0000221    0.0002013     0.0002717    0.0002236 
   0.008952226     1.0019250   -0.0086680     0.0006481   -0.0003526    -0.0001551   -0.0003002     0.0006986   -0.0004790 
   0.009052251     0.9953970    0.0288175     0.0005563   -0.0005065     0.0000003   -0.0001756     0.0004187    0.0000171 
   0.009152276     1.0029900    0.0040266    -0.0004332   -0.0005567    -0.0002145    0.0002250     0.0006588    0.0001549 
   0.009252301     0.9917240   -0.0086172    -0.0008595    0.0007931     0.0001067    0.0002358    -0.0005027    0.0001025 
   0.009352326     1.0142160   -0.0032090    -0.0005722    0.0013465     0.0003236    0.0003435     0.0004285   -0.0003256 
   0.009452351     1.0018570    0.0022804    -0.0000153   -0.0000518    -0.0000215    0.0000539     0.0003494    0.0001529 
   0.009552376     1.0113540   -0.0136797    -0.0008322    0.0004835     0.0000191    0.0001539     0.0004754    0.0003434 
   0.009652401     0.9847882   -0.0142867     0.0007224   -0.0004437     0.0000740   -0.0003900    -0.0001425    0.0000917 
   0.009752426     0.9939801   -0.0031704    -0.0001623   -0.0004110     0.0001980   -0.0002758     0.0003771   -0.0000456 
   0.009852451     0.9956568   -0.0129294    -0.0009440    0.0003027    -0.0003048   -0.0000573    -0.0000921    0.0001003 
   0.009952476     0.9872311   -0.0044154     0.0017272    0.0003940    -0.0000346    0.0002955     0.0003546   -0.0000998 
   0.010052501     0.9936973   -0.0113457     0.0005944   -0.0012611     0.0001853    0.0003573     0.0004719   -0.0005679 
   0.010152526     0.9916002    0.0061136    -0.0006158    0.0011111    -0.0000070    0.0002029     0.0001407   -0.0000900 
   0.010252551     0.9838676    0.0007013    -0.0000422    0.0014197    -0.0001977   -0.0002167     0.0003771   -0.0000320 
   0.010352576     1.0055040   -0.0061569     0.0013762   -0.0001260     0.0000119   -0.0001426     0.0003087    0.0002471 
   0.010452601     1.0023530    0.0211788     0.0005355   -0.0018161    -0.0000027   -0.0000141    -0.0001401   -0.0001119 
   0.010552626     0.9776430   -0.0151454     0.0002229   -0.0000333     0.0000308   -0.0000052     0.0001477    0.0000998 
   0.010652651     1.0006700   -0.0058198    -0.0003164    0.0010228     0.0000844   -0.0000539     0.0000055   -0.0005909 
   0.010752676     1.0189240   -0.0101397    -0.0013454    0.0001351    -0.0002862    0.0004838     0.0001968    0.0000800 
   0.010852701     1.0029590    0.0151482    -0.0004994    0.0003635     0.0000034   -0.0002455     0.0002844    0.0005883 
   0.010952726     0.9955164    0.0010326    -0.0005059    0.0007130    -0.0001389   -0.0000639     0.0000032   -0.0000909 
   0.011052751     1.0112080   -0.0125093    -0.0004244    0.0012093     0.0000951   -0.0004802     0.0006083    0.0003052 
   0.011152776     1.0082430   -0.0118926    -0.0003854   -0.0004199     0.0000596    0.0003006     0.0001504   -0.0001492 
   0.011252801     1.0014490   -0.0045838     0.0001748    0.0000468     0.0001053   -0.0000432    -0.0004791    0.0003073 
   0.011352826     1.0115440   -0.0222243     0.0001938    0.0006706     0.0001200   -0.0002893     0.0000495   -0.0004926 
   0.011452851     0.9939009   -0.0113611     0.0005650    0.0004765    -0.0000607   -0.0000164     0.0003949   -0.0000381 
   0.011552876     1.0034430   -0.0232126    -0.0000179   -0.0010056     0.0000802    0.0000516     0.0005252   -0.0002605 
   0.011652901     0.9909562   -0.0244268    -0.0006632    0.0003299     0.0000195   -0.0004267     0.0001143    0.0004742 
   0.011752926     0.9789480   -0.0038030    -0.0009344    0.0006755     0.0004866   -0.0004514     0.0004974   -0.0001168 
   0.011852951     1.0165090   -0.0227806     0.0006227   -0.0000373    -0.0001872    0.0001949     0.0001241   -0.0001612 
   0.011952976     0.9829902   -0.0050522     0.0002842   -0.0005759    -0.0004005    0.0000688     0.0002252    0.0003321 
   0.012053002     0.9874692   -0.0205773    -0.0005789   -0.0008688     0.0002347   -0.0000756     0.0003212    0.0003628 
   0.012153027     1.0120240   -0.0082795    -0.0003930   -0.0002265     0.0002743   -0.0004704     0.0006846    0.0000014 
   0.012253052     1.0012780   -0.0205196    -0.0004559   -0.0001844    -0.0004769    0.0002158     0.0004037    0.0003654 
   0.012353077     1.0027040   -0.0011156     0.0000602    0.0006987    -0.0002093    0.0001904     0.0001650    0.0000979 
   0.012453102     1.0076420    0.0045574    -0.0006690   -0.0003915    -0.0000645    0.0000683     0.0002464   -0.0002402 
   0.012553127     1.0048700   -0.0101440     0.0010422    0.0009277     0.0000462    0.0002999     0.0005499   -0.0002560 
   0.012653152     1.0192120   -0.0012732     0.0000022   -0.0014961    -0.0000915   -0.0002549     0.0004266   -0.0002055 
   0.012753177     0.9918456   -0.0095143     0.0004080   -0.0000077    -0.0001011    0.0005381     0.0003254   -0.0003453 
   0.012853202     0.9939274    0.0096748     0.0003779    0.0004803    -0.0004139    0.0001750     0.0004794    0.0006001 
   0.012953227     0.9945993   -0.0022543     0.0003131    0.0005935     0.0001719   -0.0001889     0.0003007    0.0002968 
   0.013053252     0.9958569   -0.0361635     0.0004055    0.0002838     0.0001927   -0.0000006     0.0006116    0.0002047 
   0.013153277     0.9964207   -0.0019608    -0.0001662   -0.0008596    -0.0001566   -0.0002466     0.0003000   -0.0003880 
   0.013253302     1.0071700    0.0000824     0.0008188    0.0001437     0.0000536    0.0002916     0.0004311   -0.0002892 
   0.013353327     1.0006090   -0.0100808     0.0007987   -0.0003655    -0.0001322   -0.0003492     0.0003938   -0.0001016 
   0.013453352     0.9969244    0.0155687    -0.0010681    0.0010722    -0.0000098   -0.0001984     0.0003685   -0.0001855 
   0.013553377     0.9820620   -0.0170956     0.0002627    0.0002631     0.0002388   -0.0001950     0.0004529   -0.0004258 
   0.013653402     0.9972067    0.0028128     0.0004568   -0.0000616    -0.0000129    0.0000368     0.0003533    0.0002351 
   0.013753427     1.0006440   -0.0029880     0.0003476    0.0002639     0.0000778    0.0002170    -0.0001889    0.0001039 
   0.013853452     1.0218570   -0.0137044     0.0011878    0.0013623     0.0001093   -0.0002633     0.0004789    0.0004819 
   0.013953477     0.9867100    0.0039925    -0.0004179    0.0007910     0.0000966    0.0001429     0.0000935   -0.0000117 
   0.014053502     1.0064250   -0.0120071     0.0001686   -0.0002643     0.0000037   -0.0000940    -0.0000964   -0.0000282 
   0.014153527     1.0005220   -0.0171457    -0.0004944   -0.0000818     0.0001395    0.0000027     0.0005081    0.0004641 
   0.014253552     1.0179000   -0.0047679     0.0004824    0.0009746    -0.0001718   -0.0000987     0.0003964    0.0000220 
   0.014353577     0.9937958   -0.0130921    -0.0009556    0.0006975    -0.0001522   -0.0000928     0.0006351    0.0002613 
   0.014453602     0.9794648   -0.0126172    -0.0012771    0.0005928     0.0000028    0.0002346    -0.0002626   -0.0002828 
   0.014553627     0.9909659   -0.0220230    -0.0007633   -0.0002611     0.0004381    0.0002433     0.0004712   -0.0002737 
   0.014653652     1.0065240   -0.0177198     0.0009447   -0.0003193    -0.0000049    0.0001608     0.0004232   -0.0000092 
   0.014753677     0.9941006   -0.0151862     0.0004355    0.0004358     0.0000731    0.0002409     0.0002059   -0.0002649 
   0.014853702     1.0122040   -0.0004782    -0.0001452   -0.0011275     0.0003657    0.0000359     0.0000314   -0.0001121 
   0.014953727     0.9965898   -0.0197905     0.0000908    0.0002875     0.0000031    0.0000036     0.0001550   -0.0001692 
   0.015053752     1.0049480   -0.0063836    -0.0002084    0.0002804     0.0002444    0.0000950     0.0004966   -0.0001041 
   0.015153777     1.0224390   -0.0113153    -0.0003307    0.0004101     0.0001183   -0.0001403     0.0002803   -0.0004036 
   0.015253802     0.9940324   -0.0105178    -0.0004219    0.0000874     0.0004836    0.0001446     0.0004317   -0.0004644 
   0.015353827     1.0061510   -0.0213231    -0.0002675    0.0000450    -0.0001613   -0.0002030     0.0004683   -0.0000846 
   0.015453852     1.0141490    0.0044077     0.0007524    0.0012169    -0.0003651   -0.0000522     0.0006052    0.0002871 
   0.015553877     1.0149070   -0.0134520    -0.0001116    0.0004150    -0.0002639    0.0000360     0.0005299    0.0003091 
   0.015653902     1.0053050   -0.0131278    -0.0004104    0.0004112     0.0002771   -0.0001403    -0.0000087   -0.0000568 
