! 26-Feb-26 2:13:26 PM
! E:\VNA_MEASUREMENTS\CAL_ENDS\SHORT_0.S2P
! CHANNEL.1
! TR.MEASUREMENT
! CORRECTED.DATA
# GHZ S RI R 50.0
! FREQ.GHZ         S11RE         S11IM         S21RE         S21IM         S12RE         S12IM         S22RE         S22IM         
!; PortSelection: Port_12
   0.000050000     0.3052417    0.3909840     0.6185041   -0.4068398     0.0000217   -0.0009209    -0.0138877    0.0071388 
   0.000150025    -0.0930258    0.0076323     0.1988811    0.3663072    -0.0004750    0.0007644     0.0045003   -0.0037406 
   0.000250050     0.0709459    0.3973299    -0.0533005   -0.0317300    -0.0003239   -0.0005066    -0.0020872   -0.0035798 
   0.000350075    -1.0027560   -0.0025727     0.0002840   -0.0015085     0.0000701    0.0001285    -0.0018942   -0.0010388 
   0.000450100    -0.9971954    0.0142486    -0.0007638   -0.0012424    -0.0000966    0.0001346    -0.0012117   -0.0021674 
   0.000550125    -0.9999242    0.0025853    -0.0014566   -0.0012603     0.0000611    0.0000045     0.0009739   -0.0007230 
   0.000650150    -0.9928764    0.0034967    -0.0008283   -0.0028288     0.0000929   -0.0002365     0.0005641   -0.0017988 
   0.000750175    -1.0037340    0.0025868    -0.0012325   -0.0020647    -0.0000246   -0.0000464    -0.0004152    0.0007298 
   0.000850200    -0.9985518    0.0010379    -0.0012489   -0.0016269    -0.0000469    0.0001139    -0.0004327    0.0000298 
   0.000950225    -1.0096510   -0.0116867    -0.0013339   -0.0011504     0.0000435    0.0000942     0.0000513    0.0006445 
   0.001050250    -1.0088920    0.0077418    -0.0014892   -0.0011002     0.0000314   -0.0000967    -0.0000552    0.0014342 
   0.001150275    -1.0015320    0.0078469    -0.0017037   -0.0009274    -0.0001359    0.0000604     0.0006608    0.0015925 
   0.001250300    -0.9928833    0.0036581    -0.0014392   -0.0012931     0.0002188    0.0000675     0.0001516    0.0005741 
   0.001350325    -0.9973453    0.0083807    -0.0017184   -0.0004436    -0.0000743    0.0000461     0.0004498    0.0012904 
   0.001450350    -1.0025650    0.0082606    -0.0022206   -0.0006360     0.0001286    0.0000645    -0.0003793   -0.0000027 
   0.001550375    -0.9999714   -0.0096810    -0.0019074   -0.0005702    -0.0000213    0.0001318     0.0002258    0.0018218 
   0.001650400    -1.0080700    0.0003101    -0.0015939    0.0003008     0.0001176    0.0000001     0.0003524    0.0002366 
   0.001750425    -0.9988915   -0.0027346    -0.0010746   -0.0005705    -0.0000384    0.0000904    -0.0002322   -0.0000347 
   0.001850450    -1.0011970   -0.0009781    -0.0018056    0.0004678     0.0000266    0.0001617     0.0000907    0.0013583 
   0.001950475    -1.0034200   -0.0020986    -0.0015108    0.0002224    -0.0000404   -0.0000209     0.0002600   -0.0007831 
   0.002050500    -0.9952179   -0.0030888    -0.0018598   -0.0001025     0.0000379    0.0001794     0.0004834   -0.0000260 
   0.002150525    -1.0032310   -0.0020418    -0.0005332    0.0000559    -0.0000825    0.0001536     0.0004683   -0.0002608 
   0.002250550    -1.0002050    0.0002807    -0.0011361    0.0001293     0.0000676   -0.0000055     0.0004363   -0.0001404 
   0.002350575    -0.9985815   -0.0034264    -0.0014713    0.0002904     0.0000443    0.0000473     0.0001848   -0.0002943 
   0.002450600    -1.0011020    0.0019771    -0.0005187    0.0005366     0.0000999    0.0000639     0.0002100   -0.0001780 
   0.002550625    -1.0013910   -0.0010780    -0.0009583   -0.0005674    -0.0002106   -0.0000492     0.0003731   -0.0001192 
   0.002650650    -0.9955583    0.0039468    -0.0012051   -0.0005682    -0.0001581    0.0001896    -0.0000066    0.0005372 
   0.002750675    -0.9991111   -0.0044502    -0.0014305    0.0006347    -0.0000579    0.0000301    -0.0000133   -0.0005588 
   0.002850700    -0.9998667   -0.0006498    -0.0003831    0.0000085     0.0001453    0.0000232     0.0000232   -0.0008067 
   0.002950725    -1.0001740   -0.0098880    -0.0008855    0.0004370     0.0000704    0.0002778     0.0013916    0.0004867 
   0.003050750    -0.9964526   -0.0009054    -0.0013817    0.0006195    -0.0000369   -0.0001740    -0.0001181   -0.0006087 
   0.003150775    -0.9934089   -0.0035146    -0.0011943    0.0005670    -0.0000743    0.0000216     0.0002388    0.0002807 
   0.003250800    -0.9919833    0.0077649    -0.0004623    0.0004102     0.0000392   -0.0000522     0.0001852    0.0001813 
   0.003350825    -1.0012540    0.0038109    -0.0000071    0.0000801     0.0001216    0.0000688    -0.0003597    0.0004481 
   0.003450850    -1.0024440    0.0007270    -0.0002852    0.0007643    -0.0001846    0.0000550    -0.0003241   -0.0008044 
   0.003550875    -0.9919208    0.0038303    -0.0003784    0.0011122     0.0000404    0.0000259     0.0001232   -0.0008922 
   0.003650900    -0.9975911    0.0011470    -0.0008835   -0.0001721    -0.0000642    0.0000413     0.0004722   -0.0003773 
   0.003750925    -1.0065940   -0.0077401    -0.0005381    0.0006141     0.0000321    0.0000851    -0.0000975   -0.0003371 
   0.003850950    -1.0068420    0.0004320     0.0001147    0.0000728     0.0001159    0.0000628    -0.0003537    0.0009201 
   0.003950975    -1.0054340    0.0085564    -0.0007255    0.0003980     0.0001708    0.0000891     0.0003402   -0.0004922 
   0.004051001    -1.0018960   -0.0094014    -0.0004608    0.0002831     0.0000473   -0.0000074     0.0001100    0.0002460 
   0.004151026    -1.0018790   -0.0017065     0.0000039    0.0006673    -0.0000256   -0.0001374     0.0000326   -0.0000697 
   0.004251051    -0.9955359    0.0053352    -0.0006517    0.0002560     0.0000072   -0.0000392    -0.0001968   -0.0009459 
   0.004351076    -0.9967505    0.0000925     0.0002394   -0.0004773     0.0001935   -0.0000303     0.0010232    0.0010144 
   0.004451101    -0.9981408    0.0024419    -0.0002127    0.0002505    -0.0000437    0.0000217     0.0009701   -0.0007210 
   0.004551126    -0.9967038   -0.0004613    -0.0005647    0.0003858    -0.0000295   -0.0000100    -0.0001221    0.0001038 
   0.004651151    -0.9931884    0.0064434     0.0000065    0.0009881     0.0000066    0.0000576     0.0008415    0.0002302 
   0.004751176    -1.0022090    0.0057658     0.0000562    0.0004738     0.0001920    0.0000451     0.0001060   -0.0000797 
   0.004851201    -0.9885712   -0.0033788    -0.0003751    0.0002823    -0.0001353    0.0001474     0.0004972    0.0007158 
   0.004951226    -1.0062010    0.0016803    -0.0004350   -0.0002606     0.0000397   -0.0000373    -0.0004087   -0.0002689 
   0.005051251    -1.0048320    0.0096125    -0.0002104    0.0001339     0.0000273   -0.0000313    -0.0001074   -0.0003335 
   0.005151276    -0.9985461   -0.0008257     0.0003596    0.0005141    -0.0000316   -0.0000762     0.0005287   -0.0005597 
   0.005251301    -0.9993960   -0.0011961    -0.0001276    0.0000975    -0.0000068    0.0001301     0.0003718    0.0009919 
   0.005351326    -1.0032320   -0.0038186     0.0000192    0.0002496     0.0000623    0.0001449     0.0003012    0.0007290 
   0.005451351    -1.0061380    0.0069559    -0.0002881    0.0005019    -0.0000058    0.0000407     0.0006740   -0.0000268 
   0.005551376    -0.9942213   -0.0115532    -0.0004027    0.0000868     0.0000439    0.0001161     0.0002824   -0.0001991 
   0.005651401    -1.0019670    0.0027318    -0.0000885    0.0001304    -0.0000143    0.0000657    -0.0002256   -0.0008331 
   0.005751426    -0.9974395    0.0096144     0.0000185    0.0000260     0.0002950   -0.0000551     0.0007655   -0.0000208 
   0.005851451    -1.0030770   -0.0000589     0.0004417    0.0004182    -0.0000889   -0.0000750    -0.0000993    0.0001160 
   0.005951476    -0.9991488    0.0025585     0.0002024    0.0003676    -0.0000688   -0.0002948     0.0003193    0.0003352 
   0.006051501    -1.0002530    0.0076854    -0.0005348   -0.0001407    -0.0001175   -0.0000329    -0.0000400   -0.0003885 
   0.006151526    -0.9949486   -0.0096973    -0.0006260    0.0002598     0.0000541    0.0000827     0.0009501    0.0005728 
   0.006251551    -0.9972464    0.0032059    -0.0004685    0.0000345    -0.0000838   -0.0000458     0.0003024    0.0003283 
   0.006351576    -1.0064920   -0.0009642     0.0004456    0.0004185     0.0000504   -0.0000711     0.0002302    0.0001139 
   0.006451601    -0.9942545    0.0047136    -0.0001257   -0.0001526     0.0001546    0.0001133     0.0001318    0.0005745 
   0.006551626    -0.9995357    0.0066926    -0.0004690   -0.0003588    -0.0000133   -0.0000485    -0.0007508   -0.0002173 
   0.006651651    -1.0052590    0.0086148    -0.0002913   -0.0000250    -0.0000894    0.0000787     0.0000034   -0.0001632 
   0.006751676    -1.0008950   -0.0050152    -0.0004708    0.0006629    -0.0000435   -0.0000367     0.0005230    0.0000254 
   0.006851701    -0.9939762    0.0015179    -0.0006879    0.0000368     0.0000043    0.0001757    -0.0000110    0.0000084 
   0.006951726    -1.0048730   -0.0043946     0.0000641   -0.0005110    -0.0000674    0.0001142     0.0010117    0.0004862 
   0.007051751    -1.0018520    0.0086570    -0.0003490   -0.0003249    -0.0000138   -0.0000637     0.0004630   -0.0004412 
   0.007151776    -0.9899611    0.0034044    -0.0001051    0.0003147    -0.0001253    0.0001073     0.0002389    0.0001783 
   0.007251801    -1.0013510    0.0058254    -0.0001585    0.0001684    -0.0000289   -0.0000599     0.0000441   -0.0000954 
   0.007351826    -1.0087750   -0.0002711     0.0003380    0.0005825    -0.0001156    0.0001033     0.0006978    0.0000111 
   0.007451851    -0.9930502    0.0041793    -0.0003259   -0.0003342     0.0000027    0.0001061     0.0006372   -0.0002381 
   0.007551876    -0.9986990    0.0037364    -0.0000501   -0.0000492     0.0001009   -0.0000273     0.0003010   -0.0000729 
   0.007651901    -0.9980462   -0.0005001     0.0006606   -0.0001449    -0.0000966   -0.0000195    -0.0002384    0.0005264 
   0.007751926    -0.9946099    0.0016816    -0.0002087   -0.0003251     0.0000666    0.0001623    -0.0002072   -0.0001360 
   0.007851951    -0.9905177    0.0019411     0.0003113    0.0006101    -0.0000051    0.0001839     0.0002120   -0.0003027 
   0.007951976    -0.9982424    0.0054350     0.0001144   -0.0004426    -0.0000294    0.0000931    -0.0000706    0.0003631 
   0.008052001    -0.9950414   -0.0015007     0.0003072   -0.0000267     0.0001826    0.0000412     0.0001655    0.0000990 
   0.008152026    -1.0012560    0.0056966    -0.0002082   -0.0003647     0.0002305   -0.0000870     0.0003870    0.0003477 
   0.008252051    -1.0031900    0.0089626     0.0005285    0.0003819    -0.0000285    0.0000054     0.0004565    0.0009812 
   0.008352076    -1.0072060    0.0176385    -0.0000085    0.0001011     0.0000872   -0.0001023     0.0007801   -0.0000995 
   0.008452101    -1.0012570   -0.0046907     0.0002636   -0.0003074     0.0000549    0.0002284     0.0000097   -0.0004860 
   0.008552126    -1.0050410    0.0109035     0.0000349    0.0003113     0.0000122   -0.0000151     0.0003139    0.0003440 
   0.008652151    -0.9994965   -0.0078792    -0.0002801    0.0003336    -0.0000055   -0.0001087     0.0002032   -0.0001116 
   0.008752176    -1.0005980    0.0036146    -0.0002074   -0.0001132    -0.0001186    0.0000354    -0.0002446   -0.0006563 
   0.008852201    -1.0027480    0.0003493    -0.0000795    0.0002815    -0.0000624    0.0000690     0.0004453    0.0002633 
   0.008952226    -0.9997272    0.0030495     0.0003936   -0.0004316    -0.0001563    0.0000788     0.0002491   -0.0004141 
   0.009052251    -0.9970410   -0.0009917    -0.0002288   -0.0001803    -0.0001989    0.0000345     0.0001064   -0.0001629 
   0.009152276    -1.0014100    0.0030262    -0.0002629    0.0000285     0.0000023   -0.0001126     0.0005627   -0.0004217 
   0.009252301    -0.9942151    0.0071545    -0.0003466   -0.0003295     0.0000528   -0.0001531     0.0002403   -0.0004893 
   0.009352326    -1.0073300    0.0028989     0.0006829   -0.0002031     0.0002698    0.0001579    -0.0002839   -0.0001832 
   0.009452351    -0.9993335    0.0040942    -0.0004722   -0.0002429    -0.0000338    0.0000033     0.0006445   -0.0000979 
   0.009552376    -1.0060770    0.0047270    -0.0000458    0.0001903    -0.0000189   -0.0000315     0.0007602    0.0001270 
   0.009652401    -0.9889899   -0.0042222     0.0001780   -0.0001307     0.0000403   -0.0001162    -0.0002233    0.0003723 
   0.009752426    -1.0003630   -0.0038087     0.0005531   -0.0002567     0.0000322   -0.0000486     0.0001738   -0.0002051 
   0.009852451    -1.0007910   -0.0006552    -0.0002768    0.0001354     0.0002759    0.0000467     0.0000605   -0.0000271 
   0.009952476    -0.9952577    0.0066425    -0.0006611   -0.0002183    -0.0000855   -0.0000237     0.0001437    0.0002805 
   0.010052501    -0.9964685   -0.0076052     0.0001483   -0.0003290    -0.0001622    0.0001760     0.0004803   -0.0000757 
   0.010152526    -0.9954013    0.0060609     0.0004231   -0.0003562    -0.0000472    0.0002235     0.0002435    0.0005163 
   0.010252551    -0.9991887    0.0005470    -0.0000168   -0.0001069     0.0002328   -0.0000286     0.0001757    0.0001221 
   0.010352576    -1.0023010    0.0038978    -0.0000685    0.0001613    -0.0000738    0.0000356     0.0003114    0.0002837 
   0.010452601    -0.9964468    0.0051592    -0.0006316    0.0002526     0.0000438   -0.0000008    -0.0000699   -0.0001139 
   0.010552626    -1.0057620    0.0024420    -0.0003586    0.0002419    -0.0001476   -0.0000485     0.0004965   -0.0000399 
   0.010652651    -0.9950829    0.0011281    -0.0003230   -0.0000142     0.0000444    0.0000842     0.0003934   -0.0000121 
   0.010752676    -0.9909335    0.0036670    -0.0001240   -0.0002027    -0.0000376   -0.0000766    -0.0001681    0.0001881 
   0.010852701    -0.9992643    0.0008447     0.0001455    0.0000069     0.0001184   -0.0002075    -0.0000570    0.0001724 
   0.010952726    -1.0050810    0.0025095     0.0001610   -0.0004823     0.0000922   -0.0000348    -0.0003279   -0.0001926 
   0.011052751    -1.0028620    0.0080177     0.0004156   -0.0001498    -0.0001095   -0.0001712     0.0004160    0.0001986 
   0.011152776    -0.9992657    0.0050415    -0.0000031   -0.0000783     0.0001668   -0.0000139     0.0001931    0.0001283 
   0.011252801    -1.0002160    0.0064248     0.0004879   -0.0005911    -0.0000680   -0.0001569     0.0002320    0.0000143 
   0.011352826    -0.9911769    0.0033290     0.0000649   -0.0005710     0.0000169   -0.0000955     0.0003421   -0.0001670 
   0.011452851    -1.0042200   -0.0056589     0.0001828    0.0000710    -0.0001148    0.0000260     0.0004473   -0.0001375 
   0.011552876    -1.0064380    0.0041133     0.0001085   -0.0003130    -0.0001426    0.0000492     0.0001840   -0.0000507 
   0.011652901    -0.9948073    0.0017023    -0.0001493   -0.0000139    -0.0000393   -0.0000469     0.0002631    0.0005418 
   0.011752926    -1.0157270    0.0060226     0.0004270    0.0000255    -0.0002319    0.0000493     0.0004185    0.0000005 
   0.011852951    -1.0030670    0.0015826    -0.0004289   -0.0001558    -0.0000457   -0.0001077     0.0002501   -0.0005101 
   0.011952976    -0.9954639   -0.0016919     0.0002327   -0.0002739    -0.0001460    0.0000112     0.0001539   -0.0001142 
   0.012053002    -0.9931980    0.0105987    -0.0001237    0.0001941     0.0001721   -0.0000824     0.0003945    0.0001272 
   0.012153027    -1.0034910   -0.0010775    -0.0004404    0.0001360    -0.0000701    0.0000409     0.0005364    0.0001613 
   0.012253052    -1.0012570    0.0044652     0.0003935    0.0004354    -0.0000512   -0.0000207     0.0007086    0.0000460 
   0.012353077    -1.0039080    0.0152162     0.0001326    0.0005580    -0.0001390   -0.0000564     0.0002236   -0.0001231 
   0.012453102    -0.9943239    0.0022167     0.0000551    0.0008618     0.0000564    0.0000447     0.0005654    0.0001538 
   0.012553127    -0.9975187    0.0049405    -0.0003540   -0.0001679     0.0000177   -0.0000416     0.0006796   -0.0002915 
   0.012653152    -1.0006900    0.0034741     0.0001018   -0.0008197    -0.0000934   -0.0000009     0.0002850   -0.0000370 
   0.012753177    -1.0079640    0.0097798     0.0007952    0.0003615     0.0000704    0.0000054     0.0001879   -0.0000909 
   0.012853202    -1.0002330    0.0065645    -0.0004892    0.0001874    -0.0000092   -0.0001199     0.0002936    0.0002421 
   0.012953227    -1.0011380   -0.0004526     0.0004322    0.0004623    -0.0000847   -0.0002598     0.0008727    0.0003674 
   0.013053252    -0.9944522    0.0001204    -0.0002582   -0.0004153    -0.0000984    0.0001915     0.0005566   -0.0002488 
   0.013153277    -0.9920182    0.0005085    -0.0001278   -0.0004575    -0.0001114    0.0002364     0.0002027   -0.0000165 
   0.013253302    -0.9992639    0.0072349    -0.0008669    0.0002264     0.0000853    0.0000918     0.0003194   -0.0003096 
   0.013353327    -0.9951743    0.0099478    -0.0001677   -0.0012353    -0.0002037   -0.0000513     0.0002680   -0.0001129 
   0.013453352    -1.0020130    0.0021387    -0.0001927   -0.0006936    -0.0000022   -0.0000218     0.0006246    0.0001541 
   0.013553377    -1.0051330   -0.0025789    -0.0001269    0.0004476     0.0000257   -0.0002570     0.0004458   -0.0001413 
   0.013653402    -0.9997760    0.0061911    -0.0001531   -0.0000508     0.0000468    0.0000966     0.0007373   -0.0000516 
   0.013753427    -0.9988301    0.0134417    -0.0000809    0.0002409     0.0001493    0.0000953     0.0000239    0.0000694 
   0.013853452    -1.0006110   -0.0054276     0.0002938   -0.0001113     0.0001638    0.0001808    -0.0001352   -0.0000447 
   0.013953477    -0.9993939   -0.0076908     0.0000329    0.0002978    -0.0000559   -0.0001385     0.0003050    0.0007935 
   0.014053502    -1.0066180    0.0044588     0.0001090    0.0003259     0.0001215   -0.0000715     0.0000618   -0.0000680 
   0.014153527    -0.9928496    0.0083085     0.0001970    0.0002033     0.0000142   -0.0000235     0.0005389    0.0002560 
   0.014253552    -0.9971495    0.0001960     0.0003894    0.0004020    -0.0001314   -0.0002463     0.0003660   -0.0004897 
   0.014353577    -1.0003780   -0.0068264    -0.0006825    0.0005269    -0.0001389    0.0000770     0.0002183   -0.0000842 
   0.014453602    -1.0043950    0.0068752    -0.0002582   -0.0002980     0.0001107   -0.0000134     0.0004503   -0.0000614 
   0.014553627    -1.0026550   -0.0013585     0.0002938    0.0001777    -0.0001421    0.0001917     0.0000455    0.0001923 
   0.014653652    -1.0030410    0.0047355    -0.0001418   -0.0003461     0.0000737   -0.0000930     0.0000162   -0.0006593 
   0.014753677    -1.0089780    0.0061537    -0.0008911    0.0000326     0.0000813    0.0001288     0.0001219   -0.0001713 
   0.014853702    -1.0061810   -0.0105017     0.0000016   -0.0004899    -0.0000575   -0.0000096     0.0005190    0.0001449 
   0.014953727    -0.9952027    0.0153735    -0.0009770   -0.0005853     0.0001047   -0.0001041     0.0007489    0.0000033 
   0.015053752    -1.0025600    0.0043429    -0.0002892    0.0000564    -0.0000658   -0.0000798     0.0000754    0.0001349 
   0.015153777    -0.9840868    0.0023799    -0.0002525    0.0006877    -0.0002321   -0.0000425     0.0002110   -0.0003200 
   0.015253802    -1.0036950    0.0036499    -0.0006258   -0.0000416     0.0000010   -0.0000587     0.0002913   -0.0002361 
   0.015353827    -0.9972800    0.0012691    -0.0008659   -0.0002888    -0.0001180   -0.0001673     0.0004825   -0.0001017 
   0.015453852    -1.0017940   -0.0005345    -0.0003829    0.0001282     0.0001443    0.0001236     0.0004526    0.0003284 
   0.015553877    -0.9987708    0.0036043     0.0001022    0.0002270     0.0002384   -0.0001085     0.0005338   -0.0000161 
   0.015653902    -0.9946542    0.0045166    -0.0003913    0.0004548     0.0000719   -0.0000783     0.0001830    0.0002499 
