! 26-Feb-26 2:14:50 PM
! E:\VNA_MEASUREMENTS\CAL_ENDS\SHORT_2.S2P
! CHANNEL.1
! TR.MEASUREMENT
! CORRECTED.DATA
# GHZ S RI R 50.0
! FREQ.GHZ         S11RE         S11IM         S21RE         S21IM         S12RE         S12IM         S22RE         S22IM         
!; PortSelection: Port_12
   0.000050000    -0.1140995    0.2404304     0.2015668    0.2519232     0.0011424   -0.0008057    -0.0122177    0.0435579 
   0.000150025     0.8196116    0.4862233    -1.0034320   -0.4704613     0.0005118    0.0009136     0.0017818   -0.0028364 
   0.000250050    -0.4942179    0.1790141     0.1168772    0.1163932     0.0000982    0.0008364    -0.0014104   -0.0035768 
   0.000350075    -1.0044810   -0.0027774    -0.0008303   -0.0022245     0.0000643    0.0000189    -0.0017281   -0.0014031 
   0.000450100    -1.0016650    0.0037851    -0.0007162   -0.0012659    -0.0000867    0.0003506    -0.0006883   -0.0004059 
   0.000550125    -0.9909806   -0.0052644    -0.0014154   -0.0013902     0.0001136   -0.0001176     0.0006327    0.0012814 
   0.000650150    -0.9922654    0.0033383    -0.0008376   -0.0020748    -0.0000417    0.0001756    -0.0001283   -0.0016109 
   0.000750175    -1.0041250   -0.0023861    -0.0005934   -0.0015833    -0.0001711   -0.0000697    -0.0005830    0.0012013 
   0.000850200    -1.0064410    0.0053194    -0.0011771   -0.0021385     0.0000572   -0.0000785    -0.0011405   -0.0004662 
   0.000950225    -1.0100980   -0.0073772    -0.0018986   -0.0013274     0.0001937    0.0000981     0.0007018    0.0006439 
   0.001050250    -1.0056180    0.0120340    -0.0019520   -0.0015573     0.0000519   -0.0000853     0.0006308    0.0001507 
   0.001150275    -1.0031100   -0.0008922    -0.0019238   -0.0011770     0.0000507    0.0000158     0.0005808    0.0016434 
   0.001250300    -0.9864174   -0.0014813    -0.0011900   -0.0004596    -0.0000646    0.0000683     0.0000966    0.0004111 
   0.001350325    -0.9995105    0.0094791    -0.0016345   -0.0002733     0.0000969    0.0000025    -0.0005642   -0.0015473 
   0.001450350    -1.0044460    0.0024557    -0.0019253   -0.0006090     0.0000327    0.0000078    -0.0008652    0.0009938 
   0.001550375    -0.9986296   -0.0049988    -0.0016026   -0.0001165    -0.0000327   -0.0000283     0.0005694    0.0001030 
   0.001650400    -1.0141670    0.0025426    -0.0013819   -0.0003537     0.0002155   -0.0001724    -0.0002817   -0.0005255 
   0.001750425    -1.0003860   -0.0016621    -0.0016446   -0.0000321     0.0001455   -0.0000108    -0.0002065    0.0006025 
   0.001850450    -1.0022740   -0.0041866    -0.0009444   -0.0001523    -0.0000502    0.0001542    -0.0000270    0.0010468 
   0.001950475    -0.9994144    0.0012268    -0.0019949   -0.0005323    -0.0001089    0.0001711     0.0004368   -0.0001043 
   0.002050500    -0.9935706   -0.0045416    -0.0017837    0.0001070    -0.0000870   -0.0000031     0.0011759   -0.0005011 
   0.002150525    -0.9991461   -0.0022064    -0.0016128   -0.0003380     0.0000317    0.0002428     0.0001306    0.0004986 
   0.002250550    -1.0058050   -0.0019733    -0.0010207    0.0002736    -0.0000722   -0.0002620     0.0002793   -0.0005191 
   0.002350575    -0.9937938   -0.0039698    -0.0002274   -0.0002530     0.0000903   -0.0000991     0.0007395   -0.0009201 
   0.002450600    -1.0007120    0.0030923    -0.0010588    0.0002468     0.0001304   -0.0000202    -0.0002032    0.0000748 
   0.002550625    -1.0033250   -0.0050908    -0.0014765    0.0001668    -0.0000792   -0.0000612     0.0002543    0.0005093 
   0.002650650    -0.9973540    0.0112205    -0.0013758   -0.0001683    -0.0001644   -0.0001568    -0.0001916    0.0000634 
   0.002750675    -0.9907588    0.0015901    -0.0007898    0.0003678    -0.0000001    0.0000399     0.0000052   -0.0001988 
   0.002850700    -1.0119880    0.0052395    -0.0010777    0.0002091     0.0001178   -0.0000416     0.0003304   -0.0003059 
   0.002950725    -0.9949915   -0.0013369    -0.0011486    0.0004629    -0.0001475    0.0000839     0.0004913    0.0007703 
   0.003050750    -0.9979436   -0.0021734    -0.0009743    0.0004071    -0.0001138   -0.0000346     0.0002502   -0.0013209 
   0.003150775    -0.9986066    0.0017616    -0.0009901    0.0003530    -0.0000009   -0.0002026     0.0001096    0.0002791 
   0.003250800    -1.0054440   -0.0021702    -0.0008646   -0.0003750     0.0000445    0.0000630    -0.0000921   -0.0004174 
   0.003350825    -1.0045840    0.0039685    -0.0001972   -0.0005046    -0.0001374   -0.0000610     0.0000034    0.0007073 
   0.003450850    -1.0040880    0.0009655    -0.0004826    0.0005595    -0.0000147   -0.0001254    -0.0001280   -0.0009290 
   0.003550875    -0.9952518    0.0005055    -0.0004650    0.0004543     0.0000238    0.0000155     0.0000772   -0.0003818 
   0.003650900    -0.9953648    0.0036583    -0.0004688    0.0001196    -0.0000469   -0.0000167     0.0001673   -0.0000134 
   0.003750925    -1.0015280   -0.0052459    -0.0005088    0.0000149     0.0000275    0.0000693     0.0003501   -0.0003167 
   0.003850950    -0.9993862   -0.0000770    -0.0008594    0.0000199    -0.0000013    0.0000025    -0.0005343    0.0004812 
   0.003950975    -1.0052200    0.0051158    -0.0013041   -0.0000650    -0.0000342    0.0001651     0.0006616    0.0005150 
   0.004051001    -0.9964455    0.0005360    -0.0008858   -0.0003122     0.0001834   -0.0000765     0.0000715   -0.0001209 
   0.004151026    -1.0014310   -0.0065992    -0.0000893    0.0000008    -0.0000018   -0.0000534    -0.0005856   -0.0003281 
   0.004251051    -1.0024400    0.0005549    -0.0009652    0.0000403     0.0000490   -0.0001062    -0.0005057   -0.0005367 
   0.004351076    -0.9994828    0.0008569    -0.0007051    0.0003762    -0.0000984    0.0001250     0.0007077    0.0006409 
   0.004451101    -0.9990116    0.0000803     0.0000536    0.0006369     0.0000460    0.0000235     0.0005327   -0.0005040 
   0.004551126    -0.9961012    0.0024829    -0.0006329    0.0000688    -0.0000251   -0.0000109    -0.0004954    0.0004064 
   0.004651151    -1.0038790    0.0075910    -0.0004165   -0.0000221    -0.0000853    0.0000695     0.0006266    0.0009836 
   0.004751176    -0.9965095    0.0044997    -0.0004678    0.0004059     0.0000657    0.0001095     0.0003555   -0.0002697 
   0.004851201    -1.0000190    0.0040492    -0.0001058   -0.0008366     0.0000535   -0.0002260     0.0003542    0.0003316 
   0.004951226    -1.0031860   -0.0014471    -0.0001266    0.0002129     0.0000152    0.0000498     0.0000829   -0.0001550 
   0.005051251    -1.0037760    0.0006353    -0.0000927    0.0002593     0.0001841    0.0000223     0.0007320   -0.0005989 
   0.005151276    -0.9968262    0.0014660    -0.0005806    0.0002829    -0.0001235   -0.0000238     0.0005762   -0.0006886 
   0.005251301    -1.0021790    0.0028718    -0.0004193    0.0003954    -0.0001778    0.0000453     0.0009400    0.0010872 
   0.005351326    -1.0028140   -0.0032595    -0.0006803    0.0000323    -0.0000015    0.0000533     0.0007468    0.0001120 
   0.005451351    -1.0013310    0.0047248    -0.0000244    0.0009272     0.0000110    0.0001956     0.0003971    0.0002094 
   0.005551376    -1.0009470    0.0017551     0.0002722    0.0005160    -0.0000171    0.0000312    -0.0000432   -0.0003963 
   0.005651401    -1.0031320    0.0043420    -0.0005530    0.0001784     0.0001465   -0.0001683    -0.0000038   -0.0005313 
   0.005751426    -0.9917970    0.0090642    -0.0002561    0.0000060    -0.0001992   -0.0001089     0.0004884    0.0000580 
   0.005851451    -1.0067490    0.0004260     0.0001252    0.0005589    -0.0000310   -0.0000402     0.0003479   -0.0004207 
   0.005951476    -1.0025500    0.0038382     0.0000147    0.0001538    -0.0000064   -0.0001163    -0.0001625    0.0002889 
   0.006051501    -1.0033520    0.0009012     0.0001262   -0.0002737     0.0000513   -0.0000613    -0.0005917   -0.0002088 
   0.006151526    -0.9977655   -0.0053959    -0.0003891    0.0000922     0.0000264   -0.0000701     0.0005810   -0.0002153 
   0.006251551    -0.9939947   -0.0009161    -0.0004469    0.0003766    -0.0001118   -0.0000077    -0.0000001    0.0002985 
   0.006351576    -1.0042190    0.0064119     0.0000683   -0.0000743    -0.0001626   -0.0000468    -0.0000299   -0.0001974 
   0.006451601    -0.9949152    0.0034228     0.0005161    0.0004892     0.0000489    0.0000145     0.0001361    0.0005269 
   0.006551626    -1.0038460    0.0054711    -0.0004391    0.0002637     0.0000420   -0.0002110    -0.0003208   -0.0003032 
   0.006651651    -1.0003710   -0.0013199    -0.0001897    0.0000497     0.0000512   -0.0001303    -0.0001050    0.0002270 
   0.006751676    -0.9981238    0.0026289    -0.0003734    0.0002106     0.0001380    0.0000482     0.0006731   -0.0000094 
   0.006851701    -1.0034200    0.0041621     0.0003300    0.0002624     0.0001375   -0.0001818    -0.0002040   -0.0002028 
   0.006951726    -1.0086900    0.0003355    -0.0002162   -0.0001064    -0.0000855    0.0001189     0.0005067    0.0003109 
   0.007051751    -1.0092870    0.0118032     0.0000414   -0.0000405    -0.0000529    0.0000548     0.0001031   -0.0000217 
   0.007151776    -0.9997369    0.0071863    -0.0000026   -0.0001932     0.0001487   -0.0002565     0.0003948    0.0001918 
   0.007251801    -0.9975587   -0.0002486     0.0000223   -0.0001593     0.0000875    0.0001432    -0.0001417   -0.0000700 
   0.007351826    -1.0097180   -0.0012708    -0.0002698    0.0000719    -0.0001052    0.0000763     0.0015812    0.0008328 
   0.007451851    -0.9971573    0.0086463     0.0003836   -0.0005819    -0.0001035   -0.0000216     0.0002879   -0.0004560 
   0.007551876    -0.9934830    0.0086586     0.0003551   -0.0003589    -0.0000123    0.0000468     0.0000612   -0.0001538 
   0.007651901    -0.9990190    0.0059462    -0.0000547    0.0002023     0.0000153    0.0001314    -0.0000739   -0.0000238 
   0.007751926    -1.0054910    0.0071987    -0.0003563    0.0006869    -0.0000860   -0.0000186    -0.0001898   -0.0005382 
   0.007851951    -0.9985234   -0.0042192     0.0002376   -0.0006863    -0.0002877    0.0001648     0.0004467    0.0001007 
   0.007951976    -0.9905885   -0.0012369    -0.0006101    0.0011013    -0.0000978   -0.0001130    -0.0000712    0.0003501 
   0.008052001    -0.9918835   -0.0037675    -0.0006953    0.0002525    -0.0001184    0.0001575    -0.0000019    0.0004858 
   0.008152026    -1.0046320    0.0038590    -0.0004785   -0.0000631     0.0000421    0.0000925     0.0007313   -0.0000733 
   0.008252051    -1.0051040    0.0055728    -0.0001702    0.0005593     0.0000924   -0.0000269     0.0005773    0.0003313 
   0.008352076    -1.0091830    0.0125020     0.0003170    0.0000813     0.0000845    0.0000171     0.0004323   -0.0001551 
   0.008452101    -1.0079840    0.0039524    -0.0006853   -0.0000298    -0.0000180   -0.0000609    -0.0000906   -0.0004337 
   0.008552126    -1.0008230   -0.0009100     0.0000093    0.0002143     0.0000358    0.0000206     0.0000444    0.0004767 
   0.008652151    -0.9981737   -0.0077639    -0.0001942    0.0004753    -0.0001097    0.0000111     0.0000260   -0.0001168 
   0.008752176    -1.0042510    0.0054931     0.0000581    0.0000228     0.0001612    0.0000397     0.0000440   -0.0008742 
   0.008852201    -1.0045310    0.0023411    -0.0002947   -0.0001062    -0.0000406    0.0000642     0.0003790    0.0001200 
   0.008952226    -0.9973991    0.0083176    -0.0000788    0.0006172     0.0000930    0.0001542     0.0004555   -0.0006020 
   0.009052251    -1.0041640    0.0044987     0.0002051    0.0000529    -0.0000372    0.0000050     0.0003124   -0.0002032 
   0.009152276    -1.0006700    0.0098933     0.0000442   -0.0000567     0.0000544    0.0000355     0.0003532    0.0000040 
   0.009252301    -0.9993168    0.0033286     0.0000627   -0.0002482    -0.0000579   -0.0002105     0.0003253   -0.0001032 
   0.009352326    -1.0059490   -0.0000975    -0.0000132    0.0005283     0.0001581   -0.0000103     0.0001533   -0.0000634 
   0.009452351    -0.9955169    0.0030357    -0.0007891   -0.0002017    -0.0000132   -0.0000315     0.0002553   -0.0002524 
   0.009552376    -1.0105940    0.0036339    -0.0003269    0.0001374    -0.0001611    0.0002252     0.0004292   -0.0001204 
   0.009652401    -1.0011080   -0.0032541    -0.0002812   -0.0003451     0.0000520    0.0001510    -0.0000869    0.0001711 
   0.009752426    -1.0015450   -0.0032875    -0.0000734   -0.0000723    -0.0001796    0.0000134     0.0001505    0.0005345 
   0.009852451    -0.9970911   -0.0004664     0.0003959   -0.0003110     0.0000267   -0.0002302    -0.0000266   -0.0001632 
   0.009952476    -1.0023200    0.0051931    -0.0000122    0.0001934     0.0000618   -0.0000258     0.0003048    0.0001222 
   0.010052501    -1.0011030   -0.0039396    -0.0000845    0.0000126    -0.0003144   -0.0000051    -0.0003381    0.0001460 
   0.010152526    -0.9995792    0.0067550    -0.0002559   -0.0002110    -0.0000633   -0.0002126     0.0001211    0.0003920 
   0.010252551    -1.0035900    0.0011794    -0.0003111    0.0006985    -0.0000228   -0.0000795     0.0001576   -0.0001536 
   0.010352576    -0.9958299    0.0071205     0.0000914    0.0000359    -0.0000404   -0.0002984     0.0001320    0.0003034 
   0.010452601    -1.0013330    0.0016889    -0.0002217    0.0002414    -0.0000531   -0.0000127     0.0005717   -0.0006488 
   0.010552626    -1.0016390    0.0002099     0.0001346   -0.0002683    -0.0000980    0.0000708     0.0001831   -0.0000062 
   0.010652651    -1.0009310    0.0038855     0.0000567    0.0006595     0.0000452   -0.0000013     0.0001003    0.0001732 
   0.010752676    -0.9963978   -0.0015281    -0.0000749    0.0003029     0.0001385    0.0000119    -0.0000312    0.0000646 
   0.010852701    -0.9947751    0.0038524    -0.0006145    0.0000434     0.0001074    0.0001535    -0.0002152    0.0005139 
   0.010952726    -0.9994528    0.0002919    -0.0002955   -0.0004764     0.0000751   -0.0000516     0.0001610   -0.0004268 
   0.011052751    -0.9982720    0.0111371     0.0003573   -0.0005574    -0.0000373    0.0001309     0.0006244    0.0004327 
   0.011152776    -0.9962582    0.0104067    -0.0001534    0.0003951     0.0000688    0.0001360    -0.0000013    0.0003103 
   0.011252801    -1.0061590    0.0077755     0.0007431   -0.0005238    -0.0000110    0.0001079    -0.0000295    0.0003350 
   0.011352826    -0.9988717    0.0058974    -0.0004029    0.0003116     0.0000334   -0.0000421     0.0002584   -0.0001715 
   0.011452851    -1.0053570    0.0104748     0.0000519    0.0002745    -0.0001936   -0.0000800     0.0004026   -0.0003064 
   0.011552876    -1.0015950    0.0080270    -0.0001214    0.0001047    -0.0000008    0.0000343     0.0001733   -0.0001957 
   0.011652901    -0.9989191    0.0031207    -0.0000825   -0.0000420     0.0000841    0.0000513     0.0001062    0.0005783 
   0.011752926    -1.0104420    0.0118584     0.0009363    0.0004788    -0.0001206   -0.0001575     0.0003588    0.0001369 
   0.011852951    -0.9876710    0.0041156     0.0003358    0.0000758     0.0000130   -0.0000937     0.0003358    0.0000109 
   0.011952976    -0.9968534   -0.0000782    -0.0002418    0.0003773    -0.0002249    0.0000955     0.0001918   -0.0000828 
   0.012053002    -0.9951672    0.0111776     0.0000938   -0.0004362     0.0000260    0.0000055     0.0003677    0.0003881 
   0.012153027    -1.0013770    0.0054483     0.0002031    0.0005624    -0.0000761   -0.0000017     0.0004931   -0.0000444 
   0.012253052    -1.0079750    0.0032448    -0.0002383   -0.0005802     0.0000665    0.0000024     0.0003952    0.0002974 
   0.012353077    -0.9938176    0.0075466    -0.0002931    0.0000681    -0.0000179   -0.0000144     0.0000994   -0.0001737 
   0.012453102    -0.9938676    0.0025388    -0.0001120   -0.0001837     0.0000722    0.0000483     0.0004273    0.0000250 
   0.012553127    -0.9935635    0.0093212    -0.0001630   -0.0002865     0.0001217   -0.0000986     0.0007140   -0.0001601 
   0.012653152    -1.0045030    0.0035985     0.0005120    0.0000326     0.0000910    0.0001405     0.0002003    0.0000989 
   0.012753177    -1.0025780    0.0000330     0.0000477   -0.0002537    -0.0000048    0.0001371     0.0002381    0.0004102 
   0.012853202    -0.9980791    0.0085078    -0.0008781   -0.0001329     0.0000086   -0.0000110     0.0003517    0.0001043 
   0.012953227    -0.9959322    0.0066296    -0.0001435    0.0000335     0.0000268    0.0001412     0.0000560    0.0003586 
   0.013053252    -1.0027300    0.0079107    -0.0007396    0.0001404    -0.0000355   -0.0000329     0.0002903   -0.0001836 
   0.013153277    -0.9939438    0.0021572     0.0002017   -0.0001812    -0.0000793    0.0000625    -0.0000944   -0.0002980 
   0.013253302    -0.9975841    0.0091927     0.0004168    0.0001308     0.0000008   -0.0000482     0.0007434   -0.0000569 
   0.013353327    -0.9985579    0.0159407     0.0002895   -0.0001931     0.0001128    0.0000477    -0.0000199    0.0001595 
   0.013453352    -1.0049170    0.0034016     0.0001734    0.0002574     0.0001106   -0.0001096     0.0004469    0.0003076 
   0.013553377    -0.9958969    0.0018178     0.0002018    0.0002305    -0.0000062   -0.0000632     0.0003444   -0.0001412 
   0.013653402    -1.0007410    0.0037039    -0.0005450   -0.0002313     0.0000201   -0.0002907     0.0002441    0.0001468 
   0.013753427    -0.9939961    0.0111418     0.0003676   -0.0004079     0.0000785   -0.0001742     0.0003821    0.0002346 
   0.013853452    -0.9950988    0.0103045    -0.0007851    0.0007914     0.0001438   -0.0000958     0.0005503    0.0000627 
   0.013953477    -1.0054750    0.0014188     0.0003730    0.0000354     0.0001094   -0.0001474     0.0003634   -0.0001808 
   0.014053502    -0.9986870    0.0096511    -0.0002484   -0.0007632     0.0001386    0.0000638    -0.0001452   -0.0001009 
   0.014153527    -0.9929175    0.0010837    -0.0000500   -0.0003517    -0.0001650   -0.0001542     0.0004936    0.0000413 
   0.014253552    -0.9910035   -0.0087327    -0.0007013    0.0009574     0.0001703   -0.0000250     0.0006609   -0.0003616 
   0.014353577    -0.9842319   -0.0008130     0.0003264    0.0001836     0.0000959    0.0001055     0.0006550   -0.0001850 
   0.014453602    -1.0038780    0.0103698     0.0008697    0.0002464     0.0001092    0.0001981    -0.0000231    0.0003096 
   0.014553627    -0.9982212   -0.0041264     0.0005065   -0.0001673     0.0000862   -0.0000415     0.0001889   -0.0002024 
   0.014653652    -1.0041790    0.0074148    -0.0000945    0.0004325    -0.0000276   -0.0000183     0.0004653   -0.0001372 
   0.014753677    -1.0056460    0.0109044    -0.0003462   -0.0004185    -0.0001139   -0.0000086     0.0006368   -0.0001441 
   0.014853702    -1.0033350   -0.0081149     0.0001625   -0.0003347    -0.0000355    0.0000214     0.0004528    0.0003253 
   0.014953727    -0.9962755    0.0142499    -0.0002202    0.0002539    -0.0001842   -0.0002148     0.0003472   -0.0000698 
   0.015053752    -1.0030310    0.0081834     0.0002381   -0.0001574     0.0001186    0.0001833     0.0003251    0.0002911 
   0.015153777    -0.9938557    0.0073478     0.0010662   -0.0004813    -0.0002223    0.0001361     0.0001882   -0.0003309 
   0.015253802    -1.0032090    0.0084849    -0.0007129    0.0000306    -0.0000868   -0.0002000     0.0003849   -0.0001920 
   0.015353827    -0.9941559   -0.0015768    -0.0004470   -0.0008013    -0.0001208    0.0000770     0.0006325    0.0000387 
   0.015453852    -0.9944553    0.0067419    -0.0005516   -0.0003132     0.0000698    0.0001442     0.0005385    0.0001647 
   0.015553877    -0.9992728    0.0073389     0.0000268   -0.0004342    -0.0001354   -0.0001253     0.0008200    0.0002578 
   0.015653902    -1.0052800   -0.0066298     0.0004903   -0.0004491    -0.0002347   -0.0000239     0.0002411    0.0000192 
