! 26-Feb-26 2:14:08 PM
! E:\VNA_MEASUREMENTS\CAL_ENDS\SHORT_1.S2P
! CHANNEL.1
! TR.MEASUREMENT
! CORRECTED.DATA
# GHZ S RI R 50.0
! FREQ.GHZ         S11RE         S11IM         S21RE         S21IM         S12RE         S12IM         S22RE         S22IM         
!; PortSelection: Port_12
   0.000050000    -0.0676315   -0.1629094     0.5434635    0.0588010     0.0010478   -0.0011770    -0.0027076    0.0563566 
   0.000150025     0.0081859    0.2430667     0.1510863   -0.0089708     0.0004686   -0.0012308     0.0011311   -0.0030929 
   0.000250050    -0.4774213   -0.2556415    -0.0478248   -0.0333689    -0.0005911   -0.0000605    -0.0004976   -0.0015163 
   0.000350075    -1.0040210   -0.0007129    -0.0014431   -0.0021302     0.0001993    0.0002324    -0.0018066   -0.0017237 
   0.000450100    -1.0025610    0.0078711    -0.0004344   -0.0013984     0.0002013   -0.0002756     0.0005448   -0.0016611 
   0.000550125    -1.0005480    0.0007655    -0.0012570   -0.0027098     0.0001033   -0.0000501     0.0014646   -0.0011664 
   0.000650150    -0.9909441    0.0056370    -0.0012249   -0.0025192     0.0001996   -0.0001812    -0.0000873   -0.0012007 
   0.000750175    -1.0058150    0.0046908    -0.0010670   -0.0016194    -0.0000699   -0.0000333    -0.0001641   -0.0004852 
   0.000850200    -0.9969685   -0.0035705    -0.0015364   -0.0013278     0.0000895   -0.0001450    -0.0011721   -0.0008407 
   0.000950225    -1.0102260   -0.0056724    -0.0013655   -0.0018000     0.0000627   -0.0000136     0.0011987    0.0013173 
   0.001050250    -1.0017360    0.0072358    -0.0016986   -0.0017536     0.0000367    0.0000396    -0.0005193    0.0008164 
   0.001150275    -0.9988489    0.0019733    -0.0016648   -0.0012784    -0.0000113   -0.0000402     0.0009116    0.0013179 
   0.001250300    -0.9950301   -0.0068642    -0.0008177   -0.0004823     0.0000433   -0.0001676     0.0002807    0.0007719 
   0.001350325    -0.9949730    0.0095454    -0.0016809   -0.0011352    -0.0000832    0.0000752    -0.0007219    0.0001848 
   0.001450350    -1.0028820    0.0041248    -0.0014299    0.0000386    -0.0000528   -0.0000852     0.0003028    0.0000705 
   0.001550375    -1.0032010   -0.0084880    -0.0015379   -0.0005288    -0.0001516   -0.0000017     0.0003454   -0.0007719 
   0.001650400    -1.0098110   -0.0079941    -0.0015093   -0.0003685    -0.0000014    0.0000143     0.0000477   -0.0008164 
   0.001750425    -1.0007210    0.0007757    -0.0018709   -0.0006028     0.0000157    0.0001423     0.0000132    0.0002713 
   0.001850450    -0.9959731    0.0019617    -0.0013898    0.0001893     0.0001155   -0.0000828    -0.0005858    0.0011686 
   0.001950475    -0.9966429    0.0036170    -0.0008632   -0.0006394    -0.0000158   -0.0000720     0.0009106   -0.0005366 
   0.002050500    -1.0022160   -0.0088545    -0.0017555    0.0000788     0.0000498   -0.0001125     0.0005153   -0.0001841 
   0.002150525    -1.0013310    0.0059899    -0.0008222    0.0000562     0.0000146   -0.0000045     0.0009453    0.0002131 
   0.002250550    -1.0073750   -0.0020528    -0.0014784   -0.0002969     0.0000404    0.0000074    -0.0000608   -0.0005588 
   0.002350575    -1.0065580   -0.0076786    -0.0007443    0.0002256    -0.0001408   -0.0000574     0.0013635    0.0000749 
   0.002450600    -0.9999920    0.0034398    -0.0012972    0.0001500     0.0000771    0.0000258     0.0005505   -0.0001688 
   0.002550625    -1.0038880    0.0001040    -0.0010772   -0.0001302     0.0000043    0.0000469    -0.0003689    0.0010089 
   0.002650650    -1.0014070    0.0040507    -0.0006610    0.0010044    -0.0000976    0.0000298    -0.0002595    0.0007901 
   0.002750675    -1.0085050    0.0049208    -0.0006034    0.0002801     0.0000312    0.0001606    -0.0001368    0.0005350 
   0.002850700    -1.0053150    0.0028313    -0.0004133    0.0001649     0.0000951    0.0000614    -0.0000853   -0.0001851 
   0.002950725    -0.9977658    0.0002225    -0.0010974   -0.0002682    -0.0000006    0.0000078     0.0012251    0.0000530 
   0.003050750    -0.9938589    0.0011283    -0.0008076    0.0000842     0.0001678    0.0000033     0.0000259   -0.0006448 
   0.003150775    -0.9925719   -0.0061899    -0.0008682    0.0008480    -0.0000329   -0.0000933     0.0003186   -0.0000880 
   0.003250800    -0.9984708    0.0060534    -0.0007292    0.0006184     0.0001023    0.0001494     0.0001401    0.0003243 
   0.003350825    -0.9977536    0.0072108    -0.0008026    0.0003174    -0.0000739    0.0000037    -0.0003984    0.0010169 
   0.003450850    -0.9997545    0.0030439    -0.0005950   -0.0001758    -0.0000474    0.0000039     0.0005551   -0.0008935 
   0.003550875    -0.9987461    0.0039656    -0.0009468    0.0005823    -0.0000329   -0.0000066    -0.0001651    0.0003064 
   0.003650900    -0.9964980   -0.0027061    -0.0010756   -0.0006117     0.0000549   -0.0000545     0.0005602    0.0003503 
   0.003750925    -0.9999282   -0.0055235    -0.0006459   -0.0003699     0.0000742    0.0001334     0.0005078   -0.0005985 
   0.003850950    -1.0018800   -0.0017103    -0.0007198   -0.0002662     0.0000197   -0.0000831     0.0001880    0.0003942 
   0.003950975    -1.0030710    0.0072041    -0.0002134   -0.0003870    -0.0000305   -0.0000616     0.0000157   -0.0004506 
   0.004051001    -1.0016520    0.0001710    -0.0001412    0.0006236     0.0001609   -0.0001012     0.0006261    0.0004680 
   0.004151026    -1.0045720    0.0010479     0.0000562   -0.0004397    -0.0000166   -0.0000082    -0.0004615   -0.0006307 
   0.004251051    -0.9938844    0.0025354    -0.0007216    0.0006691    -0.0000441   -0.0001717     0.0002459   -0.0001066 
   0.004351076    -1.0011890   -0.0032913    -0.0003738    0.0005527    -0.0000177   -0.0000356     0.0007804    0.0006261 
   0.004451101    -0.9996645    0.0007506     0.0000090    0.0002201     0.0002120   -0.0000042     0.0005434   -0.0005462 
   0.004551126    -0.9999241    0.0040562    -0.0000767   -0.0002161     0.0001973   -0.0000242    -0.0005850   -0.0006987 
   0.004651151    -1.0006730    0.0005924    -0.0003340    0.0003571     0.0001622    0.0000263     0.0007361    0.0006596 
   0.004751176    -0.9987825    0.0024462    -0.0006036    0.0000656    -0.0000345    0.0001703     0.0006317   -0.0006419 
   0.004851201    -0.9943010   -0.0035449    -0.0002187    0.0000992    -0.0000724   -0.0000355     0.0003651    0.0003545 
   0.004951226    -0.9988468    0.0033164    -0.0010008   -0.0003160     0.0001030    0.0000198    -0.0000034   -0.0000412 
   0.005051251    -0.9998334   -0.0026588    -0.0003788    0.0000104     0.0000275   -0.0001282     0.0001886   -0.0004060 
   0.005151276    -0.9933546    0.0016455    -0.0008992    0.0003534     0.0001646    0.0000854     0.0006358   -0.0002332 
   0.005251301    -1.0017410   -0.0012974     0.0003017    0.0002473    -0.0000763   -0.0001247     0.0005664    0.0005781 
   0.005351326    -1.0031330   -0.0042268     0.0001170   -0.0003549    -0.0000426   -0.0000361     0.0012109    0.0000034 
   0.005451351    -0.9955071    0.0056543    -0.0003381    0.0001069     0.0000142   -0.0000691     0.0005632    0.0005203 
   0.005551376    -1.0006760   -0.0031530    -0.0005525    0.0002150    -0.0000275   -0.0000442     0.0004376   -0.0004317 
   0.005651401    -1.0056110    0.0003716     0.0003449   -0.0001563    -0.0000884    0.0000907    -0.0000330   -0.0004587 
   0.005751426    -0.9989856    0.0051788    -0.0004813   -0.0002712    -0.0000955   -0.0001014     0.0004503   -0.0003988 
   0.005851451    -0.9998136    0.0014735    -0.0000328    0.0001003     0.0000192   -0.0001490    -0.0004099   -0.0004699 
   0.005951476    -1.0025070    0.0011048     0.0000058    0.0000782     0.0000636    0.0000999     0.0001857    0.0005903 
   0.006051501    -1.0040190   -0.0016135     0.0000755   -0.0001549     0.0001931    0.0001132    -0.0001704   -0.0001303 
   0.006151526    -1.0037820   -0.0031160    -0.0002497    0.0002153    -0.0000395   -0.0000359     0.0002130   -0.0004455 
   0.006251551    -0.9947651    0.0014171    -0.0000112   -0.0000289    -0.0000641   -0.0001102     0.0001112    0.0000816 
   0.006351576    -1.0041270    0.0009268    -0.0003261    0.0006345    -0.0000023    0.0000222    -0.0002192   -0.0002881 
   0.006451601    -0.9967957   -0.0013958    -0.0003313    0.0002571    -0.0000812   -0.0000649    -0.0001093    0.0004590 
   0.006551626    -1.0024680    0.0041654     0.0003240   -0.0001238     0.0000159    0.0000267    -0.0005185   -0.0004742 
   0.006651651    -1.0073970    0.0011437     0.0000710   -0.0005953    -0.0000819    0.0000716     0.0004682   -0.0003503 
   0.006751676    -1.0057110   -0.0014762    -0.0003083    0.0001341    -0.0001310   -0.0000155     0.0008557    0.0002802 
   0.006851701    -1.0046710    0.0012227    -0.0006661   -0.0000188     0.0000103    0.0000162     0.0001369    0.0002687 
   0.006951726    -1.0048050    0.0000588    -0.0003911    0.0001045    -0.0000058   -0.0001247     0.0004540    0.0009446 
   0.007051751    -1.0094780    0.0051103    -0.0002584    0.0000596     0.0000265    0.0000824     0.0001502   -0.0005096 
   0.007151776    -0.9936771    0.0000103    -0.0003457    0.0002710    -0.0001280   -0.0000262     0.0006774    0.0004673 
   0.007251801    -0.9989972   -0.0012087    -0.0007759   -0.0000407    -0.0000547   -0.0000123     0.0003538   -0.0004169 
   0.007351826    -1.0100640   -0.0077354     0.0000794   -0.0005252    -0.0001377   -0.0000797     0.0005999    0.0002236 
   0.007451851    -0.9904934    0.0050946    -0.0001767   -0.0003616    -0.0001320    0.0000873     0.0004528    0.0002505 
   0.007551876    -0.9976770    0.0027087    -0.0000739    0.0001843    -0.0000635   -0.0001363    -0.0000894   -0.0000249 
   0.007651901    -0.9970939   -0.0002075    -0.0001943   -0.0003675     0.0001539   -0.0000244     0.0004937    0.0004999 
   0.007751926    -0.9966846   -0.0042758    -0.0002213    0.0004853    -0.0000706   -0.0001566     0.0003997   -0.0003223 
   0.007851951    -1.0030010   -0.0023731    -0.0002700    0.0003030     0.0000714   -0.0001166     0.0004669   -0.0004306 
   0.007951976    -0.9942783   -0.0014489    -0.0003212    0.0001507    -0.0000184   -0.0000501     0.0000226   -0.0000073 
   0.008052001    -0.9880751   -0.0050512     0.0000521    0.0003592    -0.0000190   -0.0000253     0.0002737    0.0002387 
   0.008152026    -0.9999086    0.0012956     0.0002595    0.0003969    -0.0000107   -0.0000640     0.0002840    0.0000808 
   0.008252051    -1.0066360    0.0027497    -0.0000416    0.0000115    -0.0000460   -0.0000064     0.0002743    0.0004166 
   0.008352076    -1.0038430    0.0133542     0.0003409   -0.0000149     0.0001467   -0.0000060     0.0005446   -0.0003153 
   0.008452101    -1.0030120    0.0078293     0.0004737   -0.0004280    -0.0000193    0.0000932    -0.0001659   -0.0003405 
   0.008552126    -1.0023560    0.0056821    -0.0001116    0.0003846     0.0001266   -0.0000132     0.0004911    0.0000972 
   0.008652151    -0.9976443   -0.0034764    -0.0001033   -0.0000747     0.0000352    0.0000208     0.0003240    0.0003085 
   0.008752176    -0.9948600    0.0022830    -0.0010575   -0.0002682     0.0000804    0.0000995    -0.0003874   -0.0003513 
   0.008852201    -1.0014100    0.0062807    -0.0004816    0.0002845     0.0000028   -0.0000064     0.0001374    0.0002648 
   0.008952226    -1.0000180    0.0020053    -0.0002177    0.0002443    -0.0002133    0.0000600     0.0007608   -0.0005593 
   0.009052251    -1.0053450    0.0077599    -0.0003530   -0.0001056     0.0001997   -0.0001238     0.0006475   -0.0002076 
   0.009152276    -1.0072250    0.0008205    -0.0003642    0.0002869    -0.0000028    0.0001494     0.0008978    0.0001564 
   0.009252301    -1.0044460    0.0052915    -0.0006086   -0.0005506     0.0000479    0.0000668     0.0003515    0.0000370 
   0.009352326    -1.0020230   -0.0031565     0.0000205    0.0002153    -0.0001461    0.0001148    -0.0001065   -0.0002527 
   0.009452351    -0.9971451    0.0029871    -0.0002711    0.0003429    -0.0000872    0.0000214     0.0005739   -0.0000234 
   0.009552376    -1.0001430    0.0064592    -0.0002401    0.0004668     0.0001248    0.0000384     0.0007008   -0.0000466 
   0.009652401    -0.9956992   -0.0032760     0.0003550    0.0004713    -0.0000979    0.0000853    -0.0001134    0.0001168 
   0.009752426    -0.9992559    0.0017608     0.0003842   -0.0001389     0.0000082   -0.0000768     0.0001719    0.0003783 
   0.009852451    -0.9959248   -0.0002371     0.0001290   -0.0001739     0.0002386   -0.0001076     0.0002650    0.0000321 
   0.009952476    -1.0034820    0.0082548    -0.0006936    0.0000748     0.0000657    0.0000226     0.0003978   -0.0000614 
   0.010052501    -1.0002870    0.0034738    -0.0002069    0.0000153    -0.0000741   -0.0000009     0.0002722   -0.0000434 
   0.010152526    -1.0022280    0.0112040    -0.0003247    0.0003961    -0.0000485    0.0001532     0.0005446   -0.0000480 
   0.010252551    -1.0017960    0.0011468    -0.0003216    0.0002185     0.0000406   -0.0000251    -0.0000375   -0.0001499 
   0.010352576    -0.9984427    0.0062011    -0.0008024   -0.0004439    -0.0001066    0.0000856     0.0004419    0.0001802 
   0.010452601    -0.9964352    0.0069094     0.0007373   -0.0002982     0.0000912    0.0000651     0.0004852   -0.0002782 
   0.010552626    -1.0011110    0.0019664     0.0000301   -0.0001132     0.0000372    0.0001223     0.0001026    0.0001524 
   0.010652651    -0.9961686    0.0018196    -0.0002903   -0.0000139     0.0002362   -0.0000462     0.0002652   -0.0002137 
   0.010752676    -0.9994208   -0.0037752     0.0001156    0.0001068    -0.0000354    0.0000254     0.0004894   -0.0000040 
   0.010852701    -0.9968635    0.0057831     0.0001252    0.0001926     0.0000596    0.0000283    -0.0000033   -0.0002473 
   0.010952726    -0.9998638    0.0001375     0.0003256   -0.0001023     0.0001166   -0.0000516    -0.0000591   -0.0003295 
   0.011052751    -0.9960290    0.0081897     0.0006446    0.0003023     0.0000852    0.0000839     0.0005221    0.0001056 
   0.011152776    -1.0011010    0.0037026    -0.0005564   -0.0000383    -0.0000512    0.0000419     0.0002385    0.0000078 
   0.011252801    -1.0047000    0.0057214    -0.0006576   -0.0002562     0.0000250   -0.0002863     0.0000291    0.0001869 
   0.011352826    -0.9946580    0.0024526     0.0000076   -0.0001222    -0.0000733    0.0000496     0.0001513   -0.0003483 
   0.011452851    -1.0087780    0.0029326    -0.0005199   -0.0001848     0.0000061   -0.0001199     0.0001488   -0.0002034 
   0.011552876    -1.0046940    0.0085115    -0.0003195    0.0000053    -0.0000241    0.0001749     0.0004212   -0.0001952 
   0.011652901    -0.9947948    0.0034917    -0.0003708   -0.0003952    -0.0000546    0.0000777     0.0000711    0.0003382 
   0.011752926    -1.0079440    0.0151771     0.0004296   -0.0004048     0.0000573   -0.0000101     0.0003868   -0.0001197 
   0.011852951    -0.9932308    0.0064252    -0.0003880   -0.0001341     0.0002261    0.0002100     0.0004544    0.0000825 
   0.011952976    -1.0018420    0.0033462     0.0002659    0.0004419    -0.0000113    0.0000891     0.0001921    0.0000795 
   0.012053002    -0.9920318    0.0108112    -0.0000850   -0.0002094    -0.0000461   -0.0001922     0.0002504   -0.0001339 
   0.012153027    -0.9980665    0.0025284     0.0002188   -0.0001342     0.0000998    0.0000539     0.0005397   -0.0006313 
   0.012253052    -0.9994303    0.0042507    -0.0003492   -0.0001737     0.0001343   -0.0000909     0.0005526    0.0001782 
   0.012353077    -1.0029490    0.0062922    -0.0002037   -0.0003980    -0.0001146   -0.0001549     0.0000121    0.0002352 
   0.012453102    -1.0061500    0.0007839    -0.0005909   -0.0001052     0.0000417   -0.0001005     0.0008158    0.0001836 
   0.012553127    -0.9934518    0.0020366     0.0008066    0.0006247    -0.0000118   -0.0000978    -0.0000177   -0.0001660 
   0.012653152    -1.0026900    0.0064046    -0.0001270    0.0002374     0.0001105    0.0000864     0.0002613    0.0000742 
   0.012753177    -1.0088990    0.0032015    -0.0004931    0.0000763    -0.0001256    0.0000213     0.0001450   -0.0002009 
   0.012853202    -1.0024920    0.0079764     0.0006714    0.0000059    -0.0001302    0.0001783     0.0004002    0.0001454 
   0.012953227    -0.9983770    0.0040351     0.0001203    0.0000261    -0.0001155   -0.0001173     0.0005659    0.0001429 
   0.013053252    -0.9969119    0.0049443    -0.0000157   -0.0004347     0.0001486   -0.0000588     0.0006894   -0.0001314 
   0.013153277    -0.9908247   -0.0029032    -0.0004539   -0.0003462    -0.0000160    0.0000327     0.0001962   -0.0000213 
   0.013253302    -0.9995905    0.0042370    -0.0000090    0.0003803     0.0001414   -0.0000413     0.0003636   -0.0003273 
   0.013353327    -0.9968601    0.0096050    -0.0003050   -0.0001461     0.0000580    0.0000612     0.0001300   -0.0001791 
   0.013453352    -1.0021420    0.0078838     0.0003144   -0.0001291     0.0002276    0.0000458     0.0004087    0.0000762 
   0.013553377    -0.9945773    0.0017457     0.0004576    0.0005736    -0.0001198    0.0000443     0.0005190   -0.0002715 
   0.013653402    -1.0012220    0.0077057    -0.0004699   -0.0000920    -0.0000488   -0.0000628     0.0001997    0.0000537 
   0.013753427    -0.9966500    0.0105101    -0.0001533    0.0005839     0.0001033    0.0000861    -0.0000712    0.0003405 
   0.013853452    -0.9960358    0.0038443    -0.0001033   -0.0003023    -0.0000503    0.0001433     0.0003462    0.0001257 
   0.013953477    -1.0011280   -0.0027863     0.0004149   -0.0001949    -0.0000557   -0.0002068     0.0004003    0.0003346 
   0.014053502    -1.0071400    0.0157975     0.0003957   -0.0005976    -0.0001847    0.0000460    -0.0002428    0.0000522 
   0.014153527    -0.9927446   -0.0001703    -0.0003680    0.0000094    -0.0000814   -0.0000274     0.0001937    0.0002405 
   0.014253552    -0.9953611   -0.0009994     0.0002148   -0.0001262     0.0002418   -0.0001505     0.0004561   -0.0003040 
   0.014353577    -1.0016950    0.0032692    -0.0002756    0.0001680     0.0000278    0.0000088     0.0005954    0.0001644 
   0.014453602    -1.0070650   -0.0004420     0.0002626    0.0000237    -0.0000118   -0.0002278     0.0000636   -0.0000905 
   0.014553627    -0.9995999   -0.0033477     0.0001255   -0.0001900    -0.0000160   -0.0001356     0.0000537    0.0002378 
   0.014653652    -1.0036260    0.0091044     0.0001178    0.0001110    -0.0001481   -0.0001170     0.0005327   -0.0001840 
   0.014753677    -0.9993272    0.0052895     0.0003815   -0.0008035     0.0001502    0.0001972     0.0001629    0.0000612 
   0.014853702    -1.0024830   -0.0080073     0.0006679   -0.0004523    -0.0000903   -0.0001072     0.0005317    0.0002713 
   0.014953727    -1.0012260    0.0061971    -0.0000582   -0.0003596    -0.0001647    0.0001234     0.0006100   -0.0001925 
   0.015053752    -1.0064470    0.0011323    -0.0000420    0.0002865    -0.0001620   -0.0000048     0.0003037    0.0002047 
   0.015153777    -0.9868689    0.0115125    -0.0000920    0.0000995     0.0001160    0.0000248     0.0004934   -0.0000199 
   0.015253802    -0.9993945    0.0111073    -0.0008277   -0.0005068     0.0000405    0.0000223     0.0001722   -0.0000804 
   0.015353827    -0.9981210    0.0038245    -0.0002875   -0.0000839    -0.0000373    0.0001110     0.0006035    0.0004694 
   0.015453852    -1.0052650    0.0013773     0.0006462   -0.0003921     0.0000863    0.0000094     0.0004826    0.0001055 
   0.015553877    -0.9936467   -0.0027814    -0.0002946    0.0003442    -0.0002853    0.0000886     0.0004375    0.0002455 
   0.015653902    -1.0012420   -0.0019666    -0.0001329    0.0004579    -0.0001486    0.0000231     0.0001989    0.0003806 
