! 26-Feb-26 2:09:17 PM
! E:\VNA_MEASUREMENTS\CAL_ENDS\TESTSRC_1.S2P
! CHANNEL.1
! TR.MEASUREMENT
! CORRECTED.DATA
# GHZ S RI R 50.0
! FREQ.GHZ         S11RE         S11IM         S21RE         S21IM         S12RE         S12IM         S22RE         S22IM         
!; PortSelection: Port_12
   0.000050000    -0.1390932    0.3429753     0.2553250    0.3519409    -0.0000245    0.0041214    -0.0159086    0.0026444 
   0.000150025    -0.3388768    0.1496514     0.2832772    0.0179598     0.0001333    0.0002741    -0.0003899   -0.0016706 
   0.000250050     0.6036536    0.1414249     0.7940544   -0.0701620    -0.0010074    0.0002058     0.0015498   -0.0009588 
   0.000350075     0.0146398   -0.0006397    -0.0018392   -0.0082781     0.0001622   -0.0002419    -0.0015373   -0.0004116 
   0.000450100     0.0065760   -0.0044553    -0.0015786   -0.0007804     0.0000075    0.0001311     0.0008672   -0.0012046 
   0.000550125     0.0099431    0.0000231    -0.0041391   -0.0066394    -0.0005661   -0.0003512    -0.0000872    0.0016696 
   0.000650150     0.0050815    0.0023959    -0.0051274   -0.0038600     0.0003307   -0.0003894     0.0018767   -0.0008002 
   0.000750175     0.0089350    0.0032571    -0.0024413   -0.0059719    -0.0000444   -0.0003583    -0.0007920   -0.0004203 
   0.000850200     0.0061421    0.0007602    -0.0065885   -0.0040871     0.0005260   -0.0001872    -0.0006246    0.0000213 
   0.000950225     0.0124385    0.0030680    -0.0062599   -0.0055669    -0.0000967   -0.0000228     0.0008753    0.0011624 
   0.001050250     0.0063315   -0.0001905    -0.0050629   -0.0027125    -0.0006531    0.0003564     0.0003384    0.0006687 
   0.001150275     0.0074111    0.0020819    -0.0056789   -0.0056541    -0.0005072    0.0000743     0.0009408   -0.0000772 
   0.001250300     0.0070325    0.0011692    -0.0056381    0.0002850     0.0006608    0.0001126     0.0019575    0.0013140 
   0.001350325     0.0081230    0.0014858    -0.0053136   -0.0002704    -0.0003859    0.0001580    -0.0008434   -0.0003167 
   0.001450350     0.0054271    0.0036771    -0.0067483   -0.0027917     0.0003370    0.0005447     0.0002532    0.0003538 
   0.001550375     0.0058378    0.0012417    -0.0044830   -0.0023116     0.0001372   -0.0002844     0.0008422    0.0004607 
   0.001650400     0.0082292   -0.0014234    -0.0036272   -0.0011754    -0.0001568    0.0004864    -0.0004624    0.0000684 
   0.001750425     0.0055156   -0.0004187    -0.0063128   -0.0014980    -0.0004617    0.0001337    -0.0010034   -0.0005867 
   0.001850450     0.0111381   -0.0014243    -0.0050746    0.0000399    -0.0003042    0.0000492    -0.0000058    0.0008175 
   0.001950475     0.0074955    0.0030954    -0.0040631    0.0004083    -0.0004340    0.0001002     0.0008592   -0.0004267 
   0.002050500     0.0120143    0.0017839    -0.0028506    0.0017545     0.0002749   -0.0001420     0.0007146   -0.0001299 
   0.002150525     0.0083108    0.0011189    -0.0028467    0.0001939     0.0003701    0.0003394     0.0011523    0.0002562 
   0.002250550     0.0091160   -0.0004265    -0.0037464    0.0009882    -0.0001600    0.0000273     0.0003982   -0.0000148 
   0.002350575     0.0063114   -0.0000032    -0.0050171    0.0012351    -0.0001063   -0.0002383     0.0006101   -0.0003206 
   0.002450600     0.0073444   -0.0016082    -0.0044092    0.0010397     0.0002307   -0.0001744     0.0006372    0.0000892 
   0.002550625     0.0030151   -0.0036801    -0.0031280    0.0006791    -0.0000555    0.0003617     0.0002418    0.0004770 
   0.002650650     0.0119364    0.0020420    -0.0023841    0.0013837    -0.0002755    0.0000248    -0.0002586    0.0002959 
   0.002750675     0.0056197    0.0018157    -0.0037366    0.0024996    -0.0001753   -0.0000355    -0.0005944    0.0005296 
   0.002850700     0.0113407   -0.0004367    -0.0012878    0.0012932    -0.0000199    0.0005095     0.0002993   -0.0002062 
   0.002950725     0.0095215   -0.0020084    -0.0007783   -0.0007823    -0.0000051   -0.0001767     0.0005089    0.0001797 
   0.003050750     0.0091551    0.0018733    -0.0012523    0.0007769    -0.0001204    0.0001660     0.0003067   -0.0007339 
   0.003150775     0.0078988   -0.0019859    -0.0005734    0.0008896     0.0000774   -0.0002045    -0.0000444    0.0000678 
   0.003250800     0.0090341   -0.0023157    -0.0007161    0.0019467     0.0001262   -0.0001424     0.0007223    0.0001008 
   0.003350825     0.0094715    0.0028603    -0.0010172    0.0011127    -0.0000890   -0.0001486    -0.0000250   -0.0003055 
   0.003450850     0.0105020   -0.0018268    -0.0008872    0.0010479    -0.0001539   -0.0002728     0.0006903   -0.0005039 
   0.003550875     0.0076969    0.0017532    -0.0007224   -0.0013145     0.0001163   -0.0000545     0.0007242    0.0000686 
   0.003650900     0.0079678   -0.0008569    -0.0010046    0.0005190    -0.0000869   -0.0000199    -0.0001894   -0.0003269 
   0.003750925     0.0068352   -0.0003242    -0.0012637   -0.0000895     0.0000069   -0.0000860    -0.0002209   -0.0005601 
   0.003850950     0.0119403   -0.0003008     0.0011178    0.0013847     0.0001597    0.0002563    -0.0001224    0.0000619 
   0.003950975     0.0086249    0.0046641    -0.0014694   -0.0004895    -0.0001813   -0.0001811    -0.0003147    0.0000978 
   0.004051001     0.0101329   -0.0019691     0.0015128    0.0005847     0.0001662   -0.0001119     0.0000318    0.0005078 
   0.004151026     0.0058316    0.0017940    -0.0010688    0.0005368     0.0000376   -0.0000237    -0.0000135   -0.0003802 
   0.004251051     0.0054335    0.0018061    -0.0006404    0.0007362     0.0001188   -0.0002154     0.0002583   -0.0004164 
   0.004351076     0.0083211   -0.0005857     0.0001474    0.0002323     0.0000707   -0.0003402     0.0003424    0.0010154 
   0.004451101     0.0085780    0.0016742    -0.0012581    0.0004293     0.0002198   -0.0002427     0.0011066   -0.0003064 
   0.004551126     0.0076958   -0.0022339     0.0000659    0.0008605    -0.0002416    0.0000469    -0.0005358    0.0008079 
   0.004651151     0.0102739   -0.0007294     0.0004386    0.0009932     0.0002491   -0.0002559     0.0006321    0.0005397 
   0.004751176     0.0097639    0.0008463    -0.0000021    0.0005442    -0.0000668   -0.0001762    -0.0000530    0.0000679 
   0.004851201     0.0097033   -0.0015839    -0.0004805    0.0013287    -0.0002108    0.0000775     0.0003957    0.0007207 
   0.004951226     0.0086098   -0.0013817    -0.0002743    0.0008540     0.0000852    0.0001969     0.0002687   -0.0000215 
   0.005051251     0.0106986    0.0000236    -0.0003661    0.0014866     0.0001596   -0.0003750     0.0002491   -0.0000567 
   0.005151276     0.0080551    0.0001984    -0.0009087   -0.0004637     0.0001673   -0.0003630     0.0009326    0.0000687 
   0.005251301     0.0079169   -0.0023125     0.0009346    0.0005386     0.0002907   -0.0002820     0.0005973    0.0002736 
   0.005351326     0.0098255    0.0022235    -0.0021365   -0.0002548    -0.0002500   -0.0001815     0.0005754    0.0004182 
   0.005451351     0.0105927   -0.0020392    -0.0016411    0.0009443     0.0002647    0.0001230     0.0000120   -0.0000820 
   0.005551376     0.0078409    0.0017671     0.0000746    0.0007883     0.0001788    0.0002064     0.0000965   -0.0002246 
   0.005651401     0.0100476    0.0006205     0.0005802    0.0003305     0.0000965    0.0000479     0.0003128   -0.0001958 
   0.005751426     0.0075938    0.0013064    -0.0003617    0.0006789    -0.0002332   -0.0001850    -0.0005438   -0.0001347 
   0.005851451     0.0087336    0.0002001     0.0001061    0.0005918     0.0002246    0.0000044    -0.0001071   -0.0003580 
   0.005951476     0.0079558   -0.0003344     0.0003510    0.0003749     0.0003773    0.0000800     0.0000348    0.0006096 
   0.006051501     0.0091923    0.0016784     0.0012593    0.0001072     0.0001482   -0.0003697    -0.0004251    0.0001652 
   0.006151526     0.0088046   -0.0006414    -0.0012936    0.0013322    -0.0001362    0.0001503     0.0004090   -0.0007177 
   0.006251551     0.0094521   -0.0014116    -0.0014426   -0.0008601    -0.0000181   -0.0002580     0.0005903    0.0000704 
   0.006351576     0.0074746   -0.0001215    -0.0003105   -0.0001339     0.0000797    0.0001974     0.0003635    0.0000776 
   0.006451601     0.0064462    0.0022210    -0.0004050    0.0005083    -0.0000081   -0.0000657     0.0000342    0.0006920 
   0.006551626     0.0085722    0.0002339    -0.0004672    0.0012707     0.0000130    0.0001691    -0.0005231   -0.0001432 
   0.006651651     0.0092069    0.0020988     0.0001714   -0.0008592    -0.0004760   -0.0002026     0.0000090   -0.0002325 
   0.006751676     0.0085427   -0.0017796    -0.0003345    0.0000102     0.0000755   -0.0000224     0.0006067    0.0001589 
   0.006851701     0.0108395   -0.0003599    -0.0005829   -0.0003261    -0.0000392   -0.0001681    -0.0002080    0.0000227 
   0.006951726     0.0107590   -0.0014419     0.0012933   -0.0004514    -0.0002642   -0.0001172     0.0005038    0.0009399 
   0.007051751     0.0098380   -0.0012394     0.0002451   -0.0010109     0.0002162    0.0001091     0.0000608   -0.0003547 
   0.007151776     0.0080357    0.0002301    -0.0001372    0.0009833    -0.0001874   -0.0002945     0.0004035    0.0002463 
   0.007251801     0.0071849    0.0014066    -0.0011281    0.0013927     0.0000171   -0.0001711     0.0000397   -0.0004101 
   0.007351826     0.0103434   -0.0017059     0.0002134    0.0003043     0.0000248    0.0002101     0.0006982    0.0006307 
   0.007451851     0.0090372    0.0011935    -0.0000890   -0.0004925     0.0002676   -0.0002737     0.0010015   -0.0004185 
   0.007551876     0.0071951    0.0007460    -0.0002005   -0.0009061    -0.0002091    0.0002506     0.0006162   -0.0002069 
   0.007651901     0.0096612   -0.0007834     0.0006545    0.0005851    -0.0000440    0.0001907     0.0002753    0.0001674 
   0.007751926     0.0083829    0.0009322     0.0008566   -0.0012720    -0.0001906    0.0002176     0.0003933   -0.0003767 
   0.007851951     0.0087067    0.0018754    -0.0002806   -0.0003527     0.0000122   -0.0001699     0.0001510    0.0000311 
   0.007951976     0.0093181   -0.0003041    -0.0007543    0.0004747    -0.0001591    0.0001058    -0.0001001    0.0004484 
   0.008052001     0.0069824    0.0007933     0.0006287   -0.0000374     0.0001908    0.0001263     0.0008720    0.0002442 
   0.008152026     0.0079128   -0.0010524     0.0004664    0.0002200    -0.0000102   -0.0001452     0.0004468    0.0002906 
   0.008252051     0.0090336   -0.0000803    -0.0008200    0.0010472     0.0000784    0.0000593     0.0005009    0.0002993 
   0.008352076     0.0104578   -0.0003741    -0.0002597    0.0002370     0.0002732    0.0001784     0.0004418    0.0001509 
   0.008452101     0.0076548   -0.0007133    -0.0002818   -0.0004698    -0.0003074   -0.0000564     0.0000134   -0.0003499 
   0.008552126     0.0110703   -0.0010715    -0.0001396    0.0010128     0.0000860   -0.0000539     0.0004045    0.0004724 
   0.008652151     0.0097897    0.0009957    -0.0000759    0.0005236     0.0001037    0.0000053     0.0004265   -0.0003858 
   0.008752176     0.0084694    0.0001009    -0.0006575    0.0003317    -0.0002134   -0.0002532     0.0004748   -0.0004098 
   0.008852201     0.0091193   -0.0003772    -0.0008268   -0.0005187     0.0002239    0.0000057     0.0004272    0.0006088 
   0.008952226     0.0074777    0.0007816    -0.0003938    0.0000509    -0.0001675    0.0001144     0.0006585   -0.0005437 
   0.009052251     0.0085837    0.0025951     0.0001780   -0.0001255    -0.0000770   -0.0000185    -0.0001511   -0.0003430 
   0.009152276     0.0098881   -0.0002373     0.0010138    0.0000259     0.0000349   -0.0000556     0.0003458   -0.0001352 
   0.009252301     0.0077080   -0.0009169     0.0007355    0.0009191     0.0001901   -0.0002320     0.0000451    0.0001295 
   0.009352326     0.0067735    0.0005940     0.0002883   -0.0005803     0.0000350    0.0000073    -0.0001568    0.0000380 
   0.009452351     0.0083135    0.0009009    -0.0001583    0.0003890     0.0000738    0.0000624     0.0001604   -0.0000852 
   0.009552376     0.0089904   -0.0007114     0.0001921   -0.0004145     0.0000886   -0.0002498     0.0003700    0.0000362 
   0.009652401     0.0082315    0.0012143    -0.0004173   -0.0004429    -0.0000069   -0.0001172     0.0000610    0.0003412 
   0.009752426     0.0088059   -0.0008098    -0.0007025   -0.0002729     0.0000985   -0.0000336     0.0002881    0.0002186 
   0.009852451     0.0107020   -0.0003289    -0.0007263   -0.0003067    -0.0002080    0.0001454     0.0002410   -0.0001768 
   0.009952476     0.0097200   -0.0002228    -0.0000852    0.0002937    -0.0001641    0.0001265     0.0000417   -0.0002550 
   0.010052501     0.0095455   -0.0007468     0.0001084   -0.0004168     0.0000637    0.0001130    -0.0001622   -0.0003449 
   0.010152526     0.0106557    0.0007548    -0.0003999   -0.0014410     0.0000213   -0.0002982     0.0004047   -0.0000449 
   0.010252551     0.0099996    0.0017795    -0.0002585   -0.0005627    -0.0001759    0.0001741    -0.0001641    0.0001480 
   0.010352576     0.0089693   -0.0015706     0.0003694    0.0004020     0.0001114   -0.0001362     0.0003166    0.0001207 
   0.010452601     0.0094664    0.0007563     0.0014055   -0.0002748     0.0002487   -0.0002039     0.0001746   -0.0002536 
   0.010552626     0.0100977   -0.0000518    -0.0000365    0.0006338     0.0000210   -0.0001719     0.0001491    0.0000857 
   0.010652651     0.0079100   -0.0010508     0.0008506    0.0000735     0.0000137    0.0000348     0.0000046   -0.0000113 
   0.010752676     0.0093051    0.0000276     0.0004623    0.0004008    -0.0000223    0.0001507     0.0003680   -0.0000772 
   0.010852701     0.0085246    0.0006823     0.0001453    0.0000938    -0.0001932    0.0000048     0.0002559    0.0001508 
   0.010952726     0.0097697    0.0004634    -0.0004580   -0.0001488     0.0002689    0.0000027    -0.0000761   -0.0004254 
   0.011052751     0.0089894    0.0000695     0.0002739   -0.0004374    -0.0000287   -0.0000198     0.0002231    0.0001806 
   0.011152776     0.0091483   -0.0000912     0.0000517   -0.0004189    -0.0001117    0.0000663    -0.0000116   -0.0000007 
   0.011252801     0.0093885    0.0005582     0.0000936   -0.0006815    -0.0003042   -0.0001501    -0.0006741   -0.0000281 
   0.011352826     0.0093115   -0.0009575    -0.0004316    0.0002201     0.0001439   -0.0002774     0.0005659   -0.0000776 
   0.011452851     0.0094025   -0.0007727    -0.0002531    0.0006255     0.0003334    0.0001448     0.0002934   -0.0001066 
   0.011552876     0.0080767    0.0006544     0.0010898   -0.0000305    -0.0001894    0.0000474    -0.0000112   -0.0001538 
   0.011652901     0.0091284    0.0006382    -0.0003808    0.0006241     0.0001123   -0.0002084     0.0002584    0.0003521 
   0.011752926     0.0085612    0.0009590     0.0001629    0.0000187     0.0002138   -0.0000074     0.0004402    0.0001666 
   0.011852951     0.0089192   -0.0007043    -0.0000064   -0.0009122    -0.0000804    0.0001456     0.0002596    0.0000614 
   0.011952976     0.0091622    0.0004478    -0.0010017    0.0007550     0.0002699    0.0000919     0.0004633   -0.0001326 
   0.012053002     0.0096332   -0.0000947    -0.0000219   -0.0003870     0.0000090    0.0000235     0.0001904    0.0003047 
   0.012153027     0.0083440   -0.0014494     0.0003694   -0.0000681     0.0000045   -0.0001799     0.0004024   -0.0003442 
   0.012253052     0.0090820    0.0002067    -0.0005900    0.0006887     0.0002514   -0.0000180     0.0006296    0.0001484 
   0.012353077     0.0098549   -0.0007166    -0.0004404   -0.0011951     0.0000728    0.0000693     0.0002927   -0.0000008 
   0.012453102     0.0080326    0.0005468     0.0000867    0.0003302    -0.0001066   -0.0001434     0.0003755   -0.0000477 
   0.012553127     0.0101310   -0.0011905     0.0002452   -0.0012870     0.0002184    0.0001661     0.0001316   -0.0003028 
   0.012653152     0.0078909   -0.0014263    -0.0011734   -0.0000752     0.0001580    0.0001197     0.0001993   -0.0002343 
   0.012753177     0.0089560   -0.0004252    -0.0001914    0.0007253     0.0000855    0.0000726     0.0002698    0.0002196 
   0.012853202     0.0072858   -0.0011739    -0.0002160   -0.0005224    -0.0000070   -0.0000529     0.0002945    0.0003587 
   0.012953227     0.0097378    0.0000232     0.0005894   -0.0007294     0.0002124   -0.0001274     0.0005739    0.0001614 
   0.013053252     0.0082558    0.0003590    -0.0000164   -0.0001946    -0.0000657    0.0000681     0.0002362   -0.0002297 
   0.013153277     0.0092382   -0.0005826    -0.0002282   -0.0002231    -0.0001727   -0.0002360     0.0000145    0.0000439 
   0.013253302     0.0082906    0.0012240     0.0005110   -0.0003509     0.0000952    0.0001583     0.0000583   -0.0002383 
   0.013353327     0.0080403    0.0004447    -0.0001513   -0.0007990    -0.0001129    0.0002446     0.0005099    0.0001701 
   0.013453352     0.0097765   -0.0005480     0.0001617   -0.0006301    -0.0001363    0.0002564     0.0004647   -0.0002809 
   0.013553377     0.0087375    0.0000978    -0.0014903   -0.0001339    -0.0000495   -0.0002730     0.0004303   -0.0003203 
   0.013653402     0.0099828   -0.0004356     0.0007762   -0.0004646     0.0002406   -0.0001676     0.0003401    0.0002575 
   0.013753427     0.0096615   -0.0005209     0.0005051    0.0001967     0.0000429    0.0001136     0.0000631    0.0001106 
   0.013853452     0.0099807   -0.0019201    -0.0007652    0.0007773    -0.0000319   -0.0000410     0.0001683    0.0002059 
   0.013953477     0.0087905    0.0015516    -0.0001335    0.0008583    -0.0001380    0.0001821     0.0004658    0.0003511 
   0.014053502     0.0093533   -0.0007544     0.0001518   -0.0002437     0.0001936    0.0001629     0.0001405    0.0002164 
   0.014153527     0.0100415   -0.0007842    -0.0004336   -0.0001549     0.0000677   -0.0000517     0.0002921    0.0001651 
   0.014253552     0.0069270    0.0014829    -0.0006395    0.0000898    -0.0000965   -0.0000522     0.0005616   -0.0001093 
   0.014353577     0.0085753   -0.0007996     0.0002756   -0.0000869     0.0001858   -0.0000644     0.0004394    0.0001528 
   0.014453602     0.0076133   -0.0005975     0.0005760   -0.0004182    -0.0000731    0.0001345     0.0000611   -0.0001665 
   0.014553627     0.0076762    0.0003928    -0.0007118    0.0003548    -0.0000163    0.0001363    -0.0001084    0.0004254 
   0.014653652     0.0094703   -0.0001346     0.0002036   -0.0005353     0.0000942   -0.0000150     0.0002914   -0.0001729 
   0.014753677     0.0088650   -0.0007811     0.0008069    0.0001968     0.0001505    0.0000150     0.0001995   -0.0001702 
   0.014853702     0.0101028   -0.0012468     0.0001212   -0.0002304     0.0000052    0.0001077     0.0003385    0.0003633 
   0.014953727     0.0106350    0.0000152     0.0008117    0.0010101    -0.0000599   -0.0000116     0.0005996   -0.0001447 
   0.015053752     0.0093946   -0.0026983     0.0003410    0.0005270    -0.0001190    0.0000436     0.0001591   -0.0000188 
   0.015153777     0.0082838    0.0010336     0.0002975    0.0003861     0.0001057   -0.0001465     0.0002966   -0.0003819 
   0.015253802     0.0077958    0.0009628    -0.0008611    0.0000909    -0.0000624   -0.0003016     0.0005055    0.0000920 
   0.015353827     0.0088029   -0.0003327     0.0008651   -0.0006553    -0.0000858    0.0000653     0.0006848   -0.0000105 
   0.015453852     0.0094510   -0.0006016    -0.0001041   -0.0004036     0.0001532   -0.0001065     0.0005898   -0.0001221 
   0.015553877     0.0093131    0.0009191     0.0003494    0.0001627     0.0000815   -0.0001019     0.0003594    0.0001819 
   0.015653902     0.0097125   -0.0013235     0.0004706   -0.0004118    -0.0000207    0.0000961     0.0001791   -0.0002105 
