! 26-Feb-26 2:10:01 PM
! E:\VNA_MEASUREMENTS\CAL_ENDS\TESTSRC_2.S2P
! CHANNEL.1
! TR.MEASUREMENT
! CORRECTED.DATA
# GHZ S RI R 50.0
! FREQ.GHZ         S11RE         S11IM         S21RE         S21IM         S12RE         S12IM         S22RE         S22IM         
!; PortSelection: Port_12
   0.000050000    -0.0079172    0.1439217    -0.0331404    0.1360660     0.0019792   -0.0010707    -0.0195154    0.0148866 
   0.000150025    -0.0126215    0.2161802    -0.6663048   -0.0710526    -0.0002878   -0.0003821     0.0020660   -0.0041074 
   0.000250050    -0.2779178   -0.2797183    -0.0024736    0.0822603     0.0006776   -0.0000445     0.0008373   -0.0023607 
   0.000350075     0.0122520   -0.0018206     0.0027116   -0.0049132     0.0004331   -0.0005269    -0.0013062    0.0002247 
   0.000450100     0.0078092    0.0030200    -0.0024354   -0.0034887    -0.0004648    0.0003565    -0.0001322   -0.0005399 
   0.000550125     0.0069341   -0.0001207    -0.0017966   -0.0068487    -0.0003035    0.0004290     0.0006985   -0.0001757 
   0.000650150     0.0045655   -0.0032310    -0.0030874   -0.0077292     0.0000168    0.0003221    -0.0005183   -0.0016055 
   0.000750175     0.0032941    0.0019878    -0.0046554   -0.0095464     0.0000274   -0.0007741    -0.0004523    0.0009294 
   0.000850200     0.0088075   -0.0016609    -0.0039398   -0.0073045     0.0005036   -0.0001315    -0.0005532   -0.0001908 
   0.000950225     0.0094762    0.0044006    -0.0026312   -0.0048871     0.0006924    0.0002377    -0.0001955    0.0011516 
   0.001050250     0.0065443    0.0010814    -0.0051648   -0.0042264    -0.0004215    0.0004512    -0.0000434    0.0002892 
   0.001150275     0.0101439    0.0027298    -0.0068096   -0.0018953    -0.0003836   -0.0007463     0.0001728    0.0001385 
   0.001250300     0.0092168   -0.0006393    -0.0041031   -0.0012661     0.0000378    0.0004020     0.0004588    0.0006800 
   0.001350325     0.0069344    0.0005408    -0.0043158   -0.0033904     0.0004812   -0.0001564    -0.0007340    0.0007658 
   0.001450350     0.0037439    0.0043360    -0.0058394   -0.0018450    -0.0000209   -0.0001406     0.0000807    0.0003396 
   0.001550375     0.0087415    0.0003592    -0.0044259   -0.0002297     0.0005974    0.0003692     0.0010161   -0.0004403 
   0.001650400     0.0085750    0.0034493    -0.0042375    0.0016390     0.0001588    0.0001642     0.0007755   -0.0006506 
   0.001750425     0.0090256    0.0006640    -0.0047450   -0.0006808    -0.0000259   -0.0000021    -0.0002094   -0.0004035 
   0.001850450     0.0100559   -0.0022415    -0.0052348    0.0011294    -0.0001452   -0.0000667    -0.0009970    0.0009534 
   0.001950475     0.0045815    0.0023950    -0.0024783    0.0012330    -0.0001656    0.0003570     0.0006386    0.0002658 
   0.002050500     0.0116024    0.0031586    -0.0044632    0.0013923     0.0002258    0.0001540     0.0011426    0.0007144 
   0.002150525     0.0091472    0.0005329    -0.0055681    0.0024664     0.0000150    0.0001274     0.0006804   -0.0002107 
   0.002250550     0.0124062   -0.0002623    -0.0034832    0.0022318     0.0000826    0.0003207    -0.0005517   -0.0008576 
   0.002350575     0.0076717   -0.0012379    -0.0029233    0.0003568    -0.0001854    0.0002515     0.0016275   -0.0007038 
   0.002450600     0.0101753   -0.0011143    -0.0029627    0.0013104     0.0001372   -0.0001293    -0.0008666    0.0003343 
   0.002550625     0.0059049   -0.0068845    -0.0021419    0.0003807     0.0001379    0.0001535     0.0003762   -0.0000414 
   0.002650650     0.0107427   -0.0019503    -0.0016635    0.0027295     0.0002200   -0.0000145    -0.0001611    0.0015887 
   0.002750675     0.0065073   -0.0006783    -0.0023499    0.0018738    -0.0000285   -0.0004508     0.0008725    0.0004161 
   0.002850700     0.0113525    0.0009991    -0.0021558    0.0014279     0.0000552    0.0000177     0.0000299    0.0000786 
   0.002950725     0.0084463   -0.0030538    -0.0028997    0.0005505     0.0003528    0.0001519     0.0005638   -0.0004324 
   0.003050750     0.0081970    0.0013561    -0.0034091   -0.0000266    -0.0000378   -0.0002680     0.0000100   -0.0002158 
   0.003150775     0.0059569   -0.0006343    -0.0011284    0.0007269     0.0001691   -0.0001662    -0.0004671   -0.0000617 
   0.003250800     0.0102766    0.0001226    -0.0023408    0.0012655     0.0002210   -0.0005535     0.0003759    0.0003738 
   0.003350825     0.0074784    0.0011769    -0.0022743    0.0001540     0.0000114    0.0000636    -0.0002267    0.0007098 
   0.003450850     0.0097355    0.0007139    -0.0005850    0.0009216    -0.0008114    0.0002092    -0.0001507   -0.0008955 
   0.003550875     0.0096839    0.0021556    -0.0000258    0.0029925    -0.0003356   -0.0000871     0.0006992   -0.0003807 
   0.003650900     0.0090251    0.0004584    -0.0009562    0.0012551     0.0000105    0.0001248     0.0005354   -0.0003631 
   0.003750925     0.0084282   -0.0018176    -0.0013731   -0.0009036     0.0001299   -0.0001964     0.0003614   -0.0002838 
   0.003850950     0.0101529   -0.0001063     0.0001643    0.0015716     0.0003358   -0.0001794    -0.0008057    0.0007045 
   0.003950975     0.0059616    0.0014172    -0.0022288    0.0006350     0.0000245   -0.0002961     0.0003782    0.0000544 
   0.004051001     0.0088477   -0.0041795    -0.0001855    0.0013525    -0.0001304   -0.0003254     0.0000119    0.0005187 
   0.004151026     0.0074038   -0.0001833     0.0001542    0.0002660    -0.0001413   -0.0002002    -0.0000788   -0.0002345 
   0.004251051     0.0054653   -0.0001867    -0.0008934    0.0016683    -0.0003461   -0.0001730    -0.0002357   -0.0003549 
   0.004351076     0.0071495    0.0018820    -0.0008888    0.0015934     0.0002971   -0.0001963     0.0004998    0.0003163 
   0.004451101     0.0075241   -0.0004307    -0.0006699    0.0004617    -0.0001536    0.0002592     0.0005843   -0.0004252 
   0.004551126     0.0085908   -0.0020412     0.0000452    0.0014298    -0.0003057   -0.0000478    -0.0005919    0.0005243 
   0.004651151     0.0098841    0.0009614    -0.0007860   -0.0003526     0.0001973    0.0002021     0.0004940   -0.0005673 
   0.004751176     0.0089023   -0.0012414     0.0007208    0.0002603     0.0000579    0.0001394    -0.0001025   -0.0002347 
   0.004851201     0.0091737   -0.0014941    -0.0007252    0.0002571    -0.0002196   -0.0001798     0.0004411    0.0007490 
   0.004951226     0.0081010   -0.0014293    -0.0006052    0.0004460    -0.0003445    0.0001548     0.0004477   -0.0003539 
   0.005051251     0.0098069   -0.0003154    -0.0003835    0.0014253     0.0004342   -0.0000906     0.0004335   -0.0008912 
   0.005151276     0.0080937    0.0012269    -0.0011170   -0.0000912    -0.0000738   -0.0000080     0.0003094   -0.0002947 
   0.005251301     0.0067845    0.0014867    -0.0009672    0.0007940    -0.0001007    0.0000110     0.0007492    0.0004064 
   0.005351326     0.0101501    0.0024932    -0.0015138    0.0007399     0.0000364    0.0003821     0.0002035    0.0004886 
   0.005451351     0.0081439   -0.0008722     0.0003841   -0.0001603    -0.0003144   -0.0000591     0.0004668   -0.0003786 
   0.005551376     0.0067993    0.0009267    -0.0003381    0.0004363     0.0000709   -0.0000794     0.0000328   -0.0004110 
   0.005651401     0.0115438    0.0017623    -0.0003633   -0.0004700    -0.0000428   -0.0001005     0.0001393   -0.0006228 
   0.005751426     0.0097856    0.0009725    -0.0009995   -0.0007707     0.0001968   -0.0004487     0.0003348   -0.0009012 
   0.005851451     0.0102883    0.0013762     0.0001413    0.0010808     0.0000318   -0.0001674    -0.0005554   -0.0003215 
   0.005951476     0.0075329   -0.0021321     0.0001669    0.0007122     0.0003798    0.0002315     0.0006248    0.0008338 
   0.006051501     0.0086905    0.0016341    -0.0008444   -0.0001055    -0.0000095    0.0000339     0.0001266    0.0002915 
   0.006151526     0.0075835    0.0000237    -0.0006806   -0.0007402    -0.0005159    0.0000638     0.0007691   -0.0001522 
   0.006251551     0.0080773    0.0010693    -0.0006701   -0.0005062    -0.0001086   -0.0001684     0.0001979    0.0004263 
   0.006351576     0.0078423    0.0005817    -0.0005705    0.0010202     0.0000763    0.0000307     0.0000214   -0.0002516 
   0.006451601     0.0059127    0.0004715     0.0001874    0.0005038    -0.0000374   -0.0004167     0.0000816    0.0002873 
   0.006551626     0.0075566   -0.0016128    -0.0002487    0.0002305    -0.0001791   -0.0001249    -0.0005125   -0.0000651 
   0.006651651     0.0089242    0.0004798    -0.0002851    0.0014439    -0.0001458    0.0002031    -0.0001109   -0.0000655 
   0.006751676     0.0093381   -0.0004967    -0.0011186   -0.0000370     0.0000216    0.0001495     0.0001728    0.0002730 
   0.006851701     0.0099954   -0.0001439    -0.0000102    0.0006735    -0.0001349   -0.0000218     0.0001572    0.0001438 
   0.006951726     0.0100477   -0.0000025     0.0012402    0.0007873     0.0001371   -0.0001556     0.0009029    0.0009987 
   0.007051751     0.0097246   -0.0010749    -0.0001653   -0.0004721     0.0001880    0.0000742     0.0007581   -0.0005376 
   0.007151776     0.0082434   -0.0002540     0.0005604    0.0004431    -0.0001123   -0.0001321     0.0004026    0.0002739 
   0.007251801     0.0083589    0.0002046     0.0000228    0.0005466     0.0000216   -0.0000324    -0.0002494    0.0001784 
   0.007351826     0.0113188   -0.0018442     0.0002736    0.0000819    -0.0001053   -0.0000138     0.0007396    0.0000251 
   0.007451851     0.0101717    0.0007152     0.0000036   -0.0006847    -0.0000396   -0.0000995     0.0002987   -0.0001711 
   0.007551876     0.0091991    0.0013942    -0.0000481    0.0002555     0.0000617   -0.0001157     0.0002291   -0.0004132 
   0.007651901     0.0091941   -0.0020264    -0.0017538    0.0005377     0.0000992   -0.0002419    -0.0000629    0.0001340 
   0.007751926     0.0078251   -0.0010326     0.0002125   -0.0005917     0.0000410   -0.0001573     0.0001923   -0.0007854 
   0.007851951     0.0094130    0.0019354    -0.0000502    0.0006694    -0.0004913    0.0000841     0.0003608   -0.0004118 
   0.007951976     0.0094577   -0.0007440    -0.0000119   -0.0000472    -0.0000169   -0.0000215     0.0002163    0.0002786 
   0.008052001     0.0065237   -0.0003609     0.0000140   -0.0000150    -0.0000618   -0.0001650     0.0000007    0.0000600 
   0.008152026     0.0093889    0.0002124    -0.0003477   -0.0006588     0.0001390   -0.0000066     0.0004519   -0.0002920 
   0.008252051     0.0075241   -0.0032743     0.0001116   -0.0000194    -0.0000008   -0.0002433     0.0006776    0.0003371 
   0.008352076     0.0079397   -0.0012122     0.0005720   -0.0008613    -0.0001422   -0.0000487     0.0002011    0.0001584 
   0.008452101     0.0067603    0.0001723    -0.0002915   -0.0002494    -0.0000647   -0.0000260     0.0003758   -0.0006019 
   0.008552126     0.0081000    0.0012307    -0.0004455   -0.0003331     0.0000442    0.0000377     0.0003014    0.0009443 
   0.008652151     0.0084257   -0.0007499    -0.0012326    0.0000281    -0.0001040   -0.0001142     0.0002947   -0.0001435 
   0.008752176     0.0084736   -0.0012521     0.0003719   -0.0007103    -0.0001101   -0.0000584    -0.0002639   -0.0007366 
   0.008852201     0.0096075   -0.0012053    -0.0005314   -0.0004549    -0.0000562   -0.0000334     0.0000386    0.0001031 
   0.008952226     0.0090627   -0.0002511     0.0003355   -0.0001564     0.0001277   -0.0000240     0.0007272   -0.0006959 
   0.009052251     0.0099843    0.0011064    -0.0007518   -0.0003471    -0.0002655    0.0002628     0.0006330    0.0005404 
   0.009152276     0.0103972   -0.0004297    -0.0001097    0.0000798    -0.0002892    0.0000626     0.0005341   -0.0000573 
   0.009252301     0.0077582    0.0011902     0.0001527    0.0004029     0.0000119   -0.0000869     0.0004926    0.0000332 
   0.009352326     0.0079347   -0.0009464    -0.0008063   -0.0004018     0.0001760   -0.0000155    -0.0000799   -0.0000950 
   0.009452351     0.0094981    0.0005278    -0.0001547    0.0003950     0.0000487   -0.0001786     0.0005426    0.0000162 
   0.009552376     0.0091021   -0.0002948     0.0000863   -0.0010518     0.0001670    0.0002269     0.0005596   -0.0005217 
   0.009652401     0.0094687    0.0010176     0.0001360   -0.0003971     0.0000439   -0.0001154     0.0002244    0.0001148 
   0.009752426     0.0107449   -0.0000512     0.0005829    0.0001870     0.0000482   -0.0000253     0.0003012    0.0003470 
   0.009852451     0.0102637   -0.0009391     0.0004286    0.0003655     0.0000710    0.0001158     0.0001608   -0.0002668 
   0.009952476     0.0089423   -0.0003769     0.0003300   -0.0000178    -0.0000657    0.0000873     0.0003156    0.0001742 
   0.010052501     0.0092722   -0.0026113     0.0002702    0.0005868    -0.0002221   -0.0000203     0.0001316   -0.0000544 
   0.010152526     0.0107747    0.0006819    -0.0006015    0.0003517     0.0000824   -0.0001202     0.0000231   -0.0000686 
   0.010252551     0.0096873    0.0004663    -0.0010756    0.0002242    -0.0001028    0.0001795     0.0000733   -0.0004291 
   0.010352576     0.0095978   -0.0011460    -0.0000381    0.0005738     0.0001326    0.0000028     0.0002255   -0.0001615 
   0.010452601     0.0105280    0.0002245    -0.0008325   -0.0014680     0.0002682   -0.0000185     0.0005214   -0.0003100 
   0.010552626     0.0095086   -0.0003195    -0.0007436   -0.0006038    -0.0000019    0.0000542     0.0001713   -0.0003671 
   0.010652651     0.0087921   -0.0007257    -0.0000224    0.0000163    -0.0001690    0.0001018     0.0003899    0.0000058 
   0.010752676     0.0085793   -0.0004182    -0.0001457    0.0003552     0.0003535    0.0003842     0.0000575   -0.0000357 
   0.010852701     0.0082811   -0.0004402     0.0003797    0.0003894     0.0000348   -0.0001739     0.0003927   -0.0000552 
   0.010952726     0.0088873   -0.0000879    -0.0001561   -0.0004130     0.0001466    0.0002148     0.0000355    0.0000615 
   0.011052751     0.0096279    0.0004586    -0.0010546   -0.0011148    -0.0001166    0.0001337     0.0002188   -0.0000917 
   0.011152776     0.0095586    0.0012207    -0.0002906    0.0012775     0.0001493    0.0000201    -0.0000516   -0.0000736 
   0.011252801     0.0099072    0.0005510    -0.0002309   -0.0001166    -0.0000298    0.0001564    -0.0003247    0.0006182 
   0.011352826     0.0085496    0.0001373     0.0003398   -0.0007761     0.0001771    0.0000774     0.0003721   -0.0002753 
   0.011452851     0.0077489    0.0005143    -0.0000701   -0.0007329    -0.0001622    0.0002229     0.0005591   -0.0003041 
   0.011552876     0.0086632    0.0013201     0.0000462    0.0000463     0.0001912    0.0000309     0.0004771   -0.0000524 
   0.011652901     0.0091716    0.0002707    -0.0004663   -0.0001516    -0.0001088    0.0000466     0.0002957    0.0004251 
   0.011752926     0.0090424    0.0004198     0.0001147    0.0009300     0.0000558    0.0000995     0.0002038    0.0001107 
   0.011852951     0.0103066   -0.0008459    -0.0003640   -0.0000909    -0.0000181   -0.0001881     0.0000688   -0.0001562 
   0.011952976     0.0081536    0.0000423     0.0004160    0.0005324     0.0001203   -0.0000214     0.0002908    0.0002532 
   0.012053002     0.0083775   -0.0005035     0.0004876   -0.0008968     0.0000801    0.0001532     0.0006832    0.0000337 
   0.012153027     0.0100661   -0.0012031     0.0005372   -0.0004681    -0.0000159    0.0000414     0.0004790   -0.0001988 
   0.012253052     0.0096001    0.0019808    -0.0002971   -0.0004552     0.0003373   -0.0000474     0.0007101   -0.0000789 
   0.012353077     0.0081822    0.0000292    -0.0008153    0.0000917     0.0001817    0.0002677     0.0001582    0.0001875 
   0.012453102     0.0077472   -0.0003617    -0.0004603    0.0008035     0.0001911    0.0000452     0.0003674   -0.0001498 
   0.012553127     0.0099412   -0.0006098    -0.0000136    0.0000454     0.0000770   -0.0001347     0.0004091   -0.0002325 
   0.012653152     0.0098872   -0.0009427     0.0005437    0.0002431     0.0000668   -0.0000689     0.0004138   -0.0001391 
   0.012753177     0.0098035    0.0004142     0.0003411   -0.0006694    -0.0001611   -0.0000288     0.0000916   -0.0002606 
   0.012853202     0.0076824   -0.0006158    -0.0000972    0.0005225    -0.0001735   -0.0000899     0.0004550    0.0003256 
   0.012953227     0.0091374    0.0001339     0.0001874   -0.0004501    -0.0000440   -0.0002508     0.0007378    0.0002067 
   0.013053252     0.0088992    0.0008152     0.0000062   -0.0003489     0.0001049    0.0001197     0.0005849    0.0000711 
   0.013153277     0.0092447   -0.0010678     0.0007255   -0.0001509     0.0001385    0.0000412     0.0000281    0.0001357 
   0.013253302     0.0082034   -0.0003651    -0.0000212    0.0002783     0.0001775   -0.0000993     0.0004643   -0.0004030 
   0.013353327     0.0080991    0.0003992    -0.0003536   -0.0002484     0.0001578    0.0000123     0.0003295   -0.0000280 
   0.013453352     0.0096653    0.0007440    -0.0006761   -0.0000640     0.0002351   -0.0001257     0.0004825   -0.0002634 
   0.013553377     0.0090438    0.0002462     0.0000537    0.0004306     0.0001479   -0.0002977     0.0003249   -0.0001198 
   0.013653402     0.0094734   -0.0007307     0.0008582    0.0010163     0.0000340   -0.0003169     0.0005547   -0.0002917 
   0.013753427     0.0099521   -0.0002389    -0.0000284    0.0006167    -0.0001378    0.0001077    -0.0001097   -0.0001689 
   0.013853452     0.0103531   -0.0007946    -0.0001519    0.0001763     0.0000349   -0.0001197     0.0003414    0.0000619 
   0.013953477     0.0100138   -0.0004289    -0.0000691    0.0004953     0.0000274    0.0002198     0.0002671   -0.0002777 
   0.014053502     0.0087065   -0.0017116     0.0001840   -0.0001651    -0.0000928    0.0000808     0.0002236   -0.0000966 
   0.014153527     0.0118281    0.0003159     0.0000315    0.0004211     0.0000350    0.0002084     0.0003618    0.0002358 
   0.014253552     0.0087135    0.0006615     0.0003410   -0.0005026     0.0000409   -0.0002033     0.0002178   -0.0005483 
   0.014353577     0.0080637   -0.0010967     0.0005282    0.0004930     0.0000453    0.0000211     0.0006648    0.0001333 
   0.014453602     0.0072666   -0.0012576    -0.0002737    0.0001288     0.0000920    0.0000962    -0.0001429    0.0000168 
   0.014553627     0.0075604   -0.0003441     0.0004542    0.0002195     0.0001774    0.0000867     0.0002680   -0.0000597 
   0.014653652     0.0108548    0.0000531     0.0005560    0.0007028    -0.0002260    0.0001090     0.0001604   -0.0003828 
   0.014753677     0.0094202   -0.0007123    -0.0007053   -0.0004382     0.0000194    0.0001632     0.0001836   -0.0005254 
   0.014853702     0.0121606   -0.0014729    -0.0008427    0.0011996    -0.0002214    0.0000730     0.0005180    0.0002041 
   0.014953727     0.0103112    0.0002403     0.0000465    0.0004144    -0.0000730    0.0001008     0.0002915   -0.0000745 
   0.015053752     0.0084803   -0.0011845    -0.0006656   -0.0010935     0.0000644   -0.0001290     0.0003649    0.0002767 
   0.015153777     0.0089078    0.0000033    -0.0004989    0.0002018     0.0000791    0.0001238    -0.0000126   -0.0002594 
   0.015253802     0.0083283    0.0006283     0.0005615   -0.0001773     0.0001307   -0.0001274     0.0006382   -0.0000296 
   0.015353827     0.0083663   -0.0003453     0.0000217   -0.0000966    -0.0000168   -0.0000613     0.0006943    0.0001531 
   0.015453852     0.0094395   -0.0007105    -0.0000411   -0.0005905    -0.0001038    0.0000647     0.0002349    0.0003653 
   0.015553877     0.0093897   -0.0005714     0.0002516   -0.0000932    -0.0000632    0.0001775     0.0001352    0.0000296 
   0.015653902     0.0103868   -0.0011414     0.0003233   -0.0005021    -0.0000217    0.0000552    -0.0000363    0.0002917 
