! 26-Feb-26 2:08:33 PM
! E:\VNA_MEASUREMENTS\CAL_ENDS\TESTSRC_0.S2P
! CHANNEL.1
! TR.MEASUREMENT
! CORRECTED.DATA
# GHZ S RI R 50.0
! FREQ.GHZ         S11RE         S11IM         S21RE         S21IM         S12RE         S12IM         S22RE         S22IM         
!; PortSelection: Port_12
   0.000050000     0.0061231    0.5023719     0.4709146   -0.2123623     0.0013460    0.0000729     0.0056807    0.0168563 
   0.000150025    -0.0412256   -0.0144922     0.0903031   -0.4898712    -0.0017107   -0.0006699     0.0013435    0.0006469 
   0.000250050    -0.2678818    0.3071257    -0.0446835    0.3142607     0.0001564    0.0001716    -0.0004182   -0.0009978 
   0.000350075     0.0187846   -0.0078802    -0.0012605   -0.0086024     0.0005737    0.0014921    -0.0012001   -0.0009413 
   0.000450100     0.0075006   -0.0041144    -0.0019761   -0.0049121    -0.0001964    0.0000597    -0.0008908   -0.0008368 
   0.000550125     0.0094616    0.0022000    -0.0058386   -0.0062011     0.0002451    0.0002474     0.0002548   -0.0011376 
   0.000650150     0.0045873    0.0061454    -0.0031756   -0.0082763     0.0001159   -0.0001420     0.0008513   -0.0012080 
   0.000750175     0.0054833    0.0000976    -0.0055611   -0.0070096    -0.0002307    0.0001801    -0.0013260    0.0004137 
   0.000850200     0.0065771    0.0007603    -0.0024164   -0.0061431     0.0002202   -0.0007344    -0.0001856   -0.0005697 
   0.000950225     0.0142748    0.0053633    -0.0074577   -0.0051997     0.0000393   -0.0003021    -0.0002835    0.0012257 
   0.001050250     0.0059577    0.0065317    -0.0047755   -0.0021580     0.0000053   -0.0002999    -0.0003059   -0.0001377 
   0.001150275     0.0107854   -0.0028603    -0.0036998   -0.0046178    -0.0002958   -0.0002409     0.0004324    0.0010453 
   0.001250300     0.0078680   -0.0025075    -0.0039944   -0.0020374     0.0001568    0.0003373     0.0011037    0.0005708 
   0.001350325     0.0071508   -0.0011075    -0.0055019   -0.0028894     0.0002732    0.0004459    -0.0004897   -0.0002746 
   0.001450350     0.0064432   -0.0009379    -0.0040460    0.0013524     0.0002147    0.0003132     0.0000126    0.0015276 
   0.001550375     0.0099198    0.0023424    -0.0056681   -0.0002439     0.0001783    0.0001911     0.0010980   -0.0009479 
   0.001650400     0.0088269    0.0013850    -0.0055099    0.0000080    -0.0004699   -0.0000232    -0.0008028   -0.0009858 
   0.001750425     0.0124470   -0.0030479    -0.0024882   -0.0014490    -0.0001827    0.0002841    -0.0004744    0.0006906 
   0.001850450     0.0098489   -0.0011471    -0.0035573    0.0030850     0.0003241    0.0001767     0.0003228    0.0005746 
   0.001950475     0.0079809    0.0001960    -0.0036583    0.0014410     0.0000546    0.0004694     0.0012151   -0.0007691 
   0.002050500     0.0088159    0.0061255    -0.0023014    0.0017525     0.0002351   -0.0003304     0.0007156    0.0004719 
   0.002150525     0.0080120    0.0039582    -0.0050426    0.0010172    -0.0003591   -0.0000376     0.0005853   -0.0004930 
   0.002250550     0.0080930    0.0009543    -0.0044961    0.0011598    -0.0001695   -0.0001990    -0.0001933   -0.0005751 
   0.002350575     0.0089934   -0.0009541    -0.0036880    0.0018410     0.0000747   -0.0002802     0.0011429   -0.0003449 
   0.002450600     0.0097019    0.0008065    -0.0041551   -0.0000575    -0.0000725    0.0001396    -0.0004599   -0.0006284 
   0.002550625     0.0085917   -0.0034737    -0.0035220    0.0027504     0.0000468   -0.0003360    -0.0005426    0.0005361 
   0.002650650     0.0101545    0.0027428    -0.0039305    0.0016606     0.0003202   -0.0000662    -0.0002547    0.0004221 
   0.002750675     0.0063487    0.0021967    -0.0030995    0.0003477     0.0001663   -0.0004439    -0.0002280   -0.0000494 
   0.002850700     0.0090715    0.0026937    -0.0034017    0.0008339     0.0002068    0.0002066    -0.0004807    0.0000005 
   0.002950725     0.0112375    0.0019417    -0.0029162    0.0017967    -0.0000583   -0.0002368     0.0003448   -0.0001779 
   0.003050750     0.0085760    0.0020195    -0.0011587    0.0000387     0.0000256    0.0004869     0.0004132   -0.0014058 
   0.003150775     0.0045074   -0.0037230    -0.0015086    0.0003172    -0.0000130   -0.0000351    -0.0006073    0.0003829 
   0.003250800     0.0106698    0.0004676    -0.0016163    0.0015720     0.0001763    0.0000458    -0.0003299    0.0002942 
   0.003350825     0.0078308    0.0001758    -0.0014064    0.0006830     0.0000140   -0.0001575    -0.0000019    0.0004271 
   0.003450850     0.0117692   -0.0012520    -0.0009637   -0.0004806    -0.0002959    0.0003603     0.0003308   -0.0005722 
   0.003550875     0.0109553   -0.0001161    -0.0005001    0.0030743    -0.0001426    0.0004351     0.0001536   -0.0000618 
   0.003650900     0.0089783    0.0011331    -0.0016481    0.0012179     0.0000917   -0.0003203     0.0005012    0.0003785 
   0.003750925     0.0061474   -0.0003291     0.0000915    0.0028855     0.0002527   -0.0001482     0.0008735   -0.0001518 
   0.003850950     0.0107987   -0.0030139    -0.0011163    0.0004142    -0.0000102   -0.0001988     0.0002400    0.0000330 
   0.003950975     0.0088921    0.0024735    -0.0013726    0.0016881     0.0002283   -0.0000860    -0.0005806   -0.0001182 
   0.004051001     0.0095195   -0.0012756    -0.0006086    0.0022330    -0.0001940   -0.0000593    -0.0002889    0.0003703 
   0.004151026     0.0096854    0.0014107    -0.0012342   -0.0014258     0.0001657    0.0000043     0.0000614    0.0001151 
   0.004251051     0.0062189    0.0020019    -0.0006672    0.0007810     0.0000584   -0.0000467    -0.0001276    0.0004069 
   0.004351076     0.0073327    0.0015396    -0.0010724    0.0014633    -0.0001055   -0.0001219     0.0008900    0.0004679 
   0.004451101     0.0078610   -0.0003126    -0.0015454    0.0008897     0.0002314   -0.0002355     0.0006258   -0.0006524 
   0.004551126     0.0077329   -0.0039215    -0.0021467    0.0016255    -0.0003764    0.0001114     0.0000464    0.0005297 
   0.004651151     0.0108623    0.0005075    -0.0012439    0.0031725     0.0000925   -0.0000356     0.0009653   -0.0002501 
   0.004751176     0.0082929   -0.0011902    -0.0007191   -0.0015262     0.0004160   -0.0000456     0.0000644   -0.0001781 
   0.004851201     0.0072542   -0.0027012    -0.0004553    0.0003402     0.0001144    0.0000235     0.0001272    0.0005167 
   0.004951226     0.0066177   -0.0016731    -0.0011036    0.0009018     0.0001221    0.0001393     0.0004680   -0.0003021 
   0.005051251     0.0083148    0.0011230    -0.0004022   -0.0014574    -0.0001641    0.0000244    -0.0000381   -0.0005841 
   0.005151276     0.0090052    0.0005304     0.0000700   -0.0003478     0.0003181   -0.0001051     0.0002915    0.0000404 
   0.005251301     0.0081108   -0.0012270     0.0008602    0.0001804    -0.0001613   -0.0002276     0.0004755   -0.0001871 
   0.005351326     0.0086133    0.0028816    -0.0012578    0.0000643     0.0002137   -0.0002902     0.0011568    0.0003369 
   0.005451351     0.0124010   -0.0002825     0.0003089    0.0016520     0.0000399   -0.0003267    -0.0000214   -0.0006988 
   0.005551376     0.0073187    0.0014983    -0.0006674    0.0001895    -0.0002384    0.0002914     0.0004062   -0.0004164 
   0.005651401     0.0113084    0.0009898     0.0004795    0.0004908     0.0000049    0.0000376    -0.0001388   -0.0008679 
   0.005751426     0.0091822    0.0025398    -0.0010623   -0.0004813     0.0000778   -0.0001581     0.0009939   -0.0000853 
   0.005851451     0.0097532    0.0017100    -0.0009190    0.0004782     0.0001162    0.0000345     0.0000505    0.0005437 
   0.005951476     0.0095842   -0.0003040     0.0005871    0.0004865    -0.0001692   -0.0000506     0.0003394    0.0001868 
   0.006051501     0.0097458   -0.0004702    -0.0001446    0.0004329    -0.0000891    0.0001197    -0.0000509   -0.0002698 
   0.006151526     0.0086998   -0.0024408    -0.0003748    0.0003392    -0.0002373    0.0003552     0.0004666   -0.0001373 
   0.006251551     0.0075918   -0.0019022     0.0000937    0.0004593     0.0004098   -0.0000532     0.0002891    0.0000584 
   0.006351576     0.0079265    0.0004086     0.0002792    0.0001605    -0.0001542   -0.0000677     0.0002055   -0.0000238 
   0.006451601     0.0071754    0.0005579    -0.0004616   -0.0012071    -0.0000126    0.0001315     0.0000596    0.0003628 
   0.006551626     0.0071927   -0.0017296     0.0000878    0.0005209    -0.0001188   -0.0000449    -0.0004608    0.0000107 
   0.006651651     0.0085682    0.0004800     0.0000285   -0.0001986     0.0002276    0.0002286     0.0000388   -0.0000810 
   0.006751676     0.0088411   -0.0005999     0.0001858    0.0006633    -0.0000696   -0.0000071     0.0003233    0.0001144 
   0.006851701     0.0092811   -0.0007203     0.0002406   -0.0002453    -0.0001713    0.0000088     0.0000600   -0.0004699 
   0.006951726     0.0097105   -0.0018139    -0.0003854   -0.0000340    -0.0001558    0.0000928     0.0006667    0.0009044 
   0.007051751     0.0108112   -0.0004043     0.0001832    0.0000306    -0.0002112    0.0001268     0.0006932   -0.0003419 
   0.007151776     0.0099253   -0.0008486    -0.0000608    0.0011707    -0.0001713   -0.0000597     0.0007113   -0.0000003 
   0.007251801     0.0092179   -0.0001082    -0.0004384   -0.0002873     0.0001828    0.0000602    -0.0003580   -0.0004380 
   0.007351826     0.0098030   -0.0017861     0.0011848    0.0006612     0.0001936   -0.0000501     0.0007349   -0.0001337 
   0.007451851     0.0104192    0.0017019    -0.0005030    0.0011421    -0.0000308    0.0001189    -0.0002817   -0.0006612 
   0.007551876     0.0109517    0.0022663     0.0002122    0.0008128    -0.0000992    0.0000858     0.0001609   -0.0002908 
   0.007651901     0.0083587    0.0010694    -0.0000042    0.0010547     0.0002717   -0.0001170     0.0003652    0.0000604 
   0.007751926     0.0079503    0.0011281    -0.0006667    0.0004145     0.0002335    0.0001190     0.0005315    0.0001205 
   0.007851951     0.0091292    0.0001930     0.0006459   -0.0000118    -0.0002517    0.0000971     0.0005103   -0.0002255 
   0.007951976     0.0082838   -0.0005594     0.0000381    0.0001175    -0.0002306    0.0000200     0.0001346    0.0004691 
   0.008052001     0.0085204   -0.0005203     0.0001414    0.0009467    -0.0000645   -0.0002982     0.0000216    0.0001987 
   0.008152026     0.0085075    0.0004110     0.0000179    0.0001110    -0.0003242   -0.0003450     0.0002918   -0.0000686 
   0.008252051     0.0076351   -0.0016661    -0.0001280    0.0007041     0.0000956   -0.0001975     0.0003225    0.0003186 
   0.008352076     0.0083928    0.0008350     0.0005345   -0.0006135     0.0000533   -0.0000089     0.0006764   -0.0001330 
   0.008452101     0.0087156   -0.0005047     0.0005711   -0.0010622     0.0002639   -0.0001418     0.0002319   -0.0007107 
   0.008552126     0.0082789   -0.0003445    -0.0014618    0.0003109    -0.0000461    0.0001434    -0.0002284    0.0001464 
   0.008652151     0.0095285    0.0002314     0.0015572    0.0000014     0.0003113    0.0001701     0.0004471    0.0002511 
   0.008752176     0.0095277   -0.0004574    -0.0001763    0.0003650     0.0001789   -0.0000788     0.0002691   -0.0003646 
   0.008852201     0.0090722    0.0004057     0.0006758    0.0001642    -0.0000775   -0.0000783     0.0006978    0.0000835 
   0.008952226     0.0084610    0.0012098    -0.0007873   -0.0013521    -0.0001545   -0.0000698     0.0004267   -0.0001953 
   0.009052251     0.0093713    0.0017493    -0.0001551    0.0011451    -0.0001656   -0.0002653     0.0004583    0.0001704 
   0.009152276     0.0113568    0.0011268     0.0005520    0.0001216     0.0000634    0.0003305     0.0004062    0.0001889 
   0.009252301     0.0089089   -0.0006684    -0.0010274   -0.0001292     0.0000212    0.0001449     0.0001495   -0.0001088 
   0.009352326     0.0075609   -0.0008160     0.0000466    0.0000662     0.0001108    0.0002341     0.0002584   -0.0004705 
   0.009452351     0.0086640   -0.0000059    -0.0002784   -0.0000303     0.0002056    0.0000414     0.0004609   -0.0001136 
   0.009552376     0.0096187   -0.0002684    -0.0000490   -0.0001686     0.0001265    0.0000925     0.0005434    0.0000345 
   0.009652401     0.0081463    0.0017774     0.0001665   -0.0000294    -0.0001063    0.0001380    -0.0006456    0.0003912 
   0.009752426     0.0090338   -0.0009203    -0.0002751   -0.0001400     0.0000635    0.0001029    -0.0001119    0.0004785 
   0.009852451     0.0096125   -0.0016985     0.0001679    0.0003078     0.0001646    0.0000969     0.0001737    0.0000245 
   0.009952476     0.0097662   -0.0000077     0.0000934    0.0004783     0.0000932    0.0001011     0.0004362    0.0002775 
   0.010052501     0.0093017   -0.0019562    -0.0000936   -0.0006527    -0.0000446    0.0000903    -0.0000920   -0.0005925 
   0.010152526     0.0098228    0.0015465     0.0000947    0.0004649    -0.0000085    0.0001337     0.0005128    0.0001816 
   0.010252551     0.0078935    0.0010561     0.0007397    0.0006815    -0.0000230    0.0001244     0.0001392    0.0000680 
   0.010352576     0.0106172   -0.0017567    -0.0009007    0.0005336    -0.0001481    0.0004456     0.0003339    0.0001532 
   0.010452601     0.0095937    0.0005538     0.0004671   -0.0007034    -0.0000312   -0.0000488     0.0002846   -0.0001196 
   0.010552626     0.0083013   -0.0003105    -0.0006196   -0.0000831    -0.0001284   -0.0003513     0.0003634    0.0002003 
   0.010652651     0.0085294    0.0000937     0.0004282    0.0005731     0.0000997   -0.0000891     0.0000551   -0.0002654 
   0.010752676     0.0084362    0.0001895    -0.0004641   -0.0000657    -0.0000590   -0.0002339     0.0002557   -0.0001155 
   0.010852701     0.0083077    0.0000446     0.0000947   -0.0004643     0.0000523   -0.0000788     0.0002829    0.0000661 
   0.010952726     0.0087092   -0.0008446     0.0000246    0.0002536     0.0001495    0.0001786    -0.0001822   -0.0002791 
   0.011052751     0.0101909    0.0012913     0.0002375   -0.0006679     0.0001539    0.0000263     0.0003915    0.0003831 
   0.011152776     0.0101432    0.0003985     0.0006470    0.0008216     0.0001781   -0.0001471     0.0001533   -0.0001431 
   0.011252801     0.0094274    0.0007744     0.0002601    0.0007147     0.0001257   -0.0001883    -0.0001237    0.0003770 
   0.011352826     0.0096238   -0.0001412    -0.0001252    0.0010963    -0.0000974   -0.0000392     0.0004719   -0.0003234 
   0.011452851     0.0078909   -0.0004191    -0.0005181    0.0005656    -0.0001357   -0.0003033     0.0003467    0.0000974 
   0.011552876     0.0094107    0.0009180     0.0005442    0.0003907    -0.0000553    0.0001206     0.0002213    0.0001634 
   0.011652901     0.0082984    0.0000107    -0.0003746    0.0001138    -0.0003244    0.0000173     0.0001252    0.0002073 
   0.011752926     0.0090017   -0.0006544    -0.0005340    0.0004013     0.0000518    0.0001302     0.0003938    0.0000109 
   0.011852951     0.0095433   -0.0017752     0.0001926    0.0002743    -0.0001123   -0.0000282     0.0001378   -0.0000802 
   0.011952976     0.0084344   -0.0007008    -0.0001817   -0.0007800    -0.0001324   -0.0000639    -0.0000823    0.0002280 
   0.012053002     0.0090679    0.0002917     0.0004047   -0.0003222    -0.0001996   -0.0000524     0.0005377    0.0003045 
   0.012153027     0.0101073   -0.0011872    -0.0000466   -0.0003263     0.0000673   -0.0001080     0.0003846   -0.0002537 
   0.012253052     0.0084713    0.0021053     0.0001866    0.0001357    -0.0001380   -0.0000488     0.0004950    0.0000327 
   0.012353077     0.0097651    0.0005538    -0.0000656    0.0000835     0.0000964    0.0000538     0.0001336    0.0001932 
   0.012453102     0.0085718   -0.0003480     0.0006483    0.0008883     0.0001564    0.0000328     0.0004746   -0.0002708 
   0.012553127     0.0088496    0.0001888    -0.0005708   -0.0003903     0.0000844   -0.0000611     0.0002853   -0.0003044 
   0.012653152     0.0080035   -0.0000670     0.0003102    0.0003005     0.0002141   -0.0000239     0.0002708    0.0003011 
   0.012753177     0.0090732   -0.0008981    -0.0000769    0.0005207    -0.0002292    0.0002028     0.0001284    0.0000720 
   0.012853202     0.0078340   -0.0003564    -0.0002717    0.0003259    -0.0001477    0.0002008     0.0000858    0.0002827 
   0.012953227     0.0092754    0.0004925    -0.0001885   -0.0002853    -0.0001687    0.0000175     0.0003531    0.0004360 
   0.013053252     0.0096624    0.0006806    -0.0003614    0.0004308     0.0002966   -0.0001433     0.0006191   -0.0001444 
   0.013153277     0.0099573    0.0005717    -0.0005577   -0.0000611    -0.0001640   -0.0000296     0.0003585   -0.0001578 
   0.013253302     0.0075517    0.0009632    -0.0000315   -0.0003218     0.0000336   -0.0000336     0.0001086   -0.0002974 
   0.013353327     0.0072871    0.0003483     0.0001090    0.0006075     0.0000043    0.0003122     0.0003689    0.0000879 
   0.013453352     0.0077473   -0.0010781     0.0004776   -0.0005665    -0.0001453   -0.0001027     0.0002109    0.0002669 
   0.013553377     0.0088731   -0.0008318     0.0000245   -0.0001493     0.0001315   -0.0002405     0.0002269    0.0001451 
   0.013653402     0.0086199   -0.0013167    -0.0004549    0.0001559     0.0002468    0.0000912     0.0005850   -0.0000064 
   0.013753427     0.0106062    0.0002905     0.0003839    0.0000758    -0.0000561   -0.0001442     0.0003740    0.0005822 
   0.013853452     0.0112782   -0.0000787    -0.0000614    0.0002349    -0.0001159    0.0002341     0.0001556    0.0001052 
   0.013953477     0.0098947   -0.0004248     0.0006035    0.0005103    -0.0000639   -0.0001236     0.0006568    0.0001700 
   0.014053502     0.0098099    0.0000058     0.0000018    0.0004788    -0.0000487   -0.0001207    -0.0000785   -0.0000804 
   0.014153527     0.0105079   -0.0007021     0.0005207    0.0000023     0.0000923    0.0001817     0.0006501    0.0001509 
   0.014253552     0.0084707   -0.0000250    -0.0008745    0.0005734     0.0001654    0.0000999     0.0005408   -0.0001640 
   0.014353577     0.0095953   -0.0005795     0.0002441   -0.0005879    -0.0000340    0.0002523     0.0003334    0.0004540 
   0.014453602     0.0078790   -0.0004691     0.0002905    0.0000401     0.0000045   -0.0000284    -0.0000917   -0.0000145 
   0.014553627     0.0087807   -0.0006854    -0.0001201    0.0005771    -0.0000882   -0.0001129     0.0000976    0.0001038 
   0.014653652     0.0110390    0.0011933    -0.0000428   -0.0004543    -0.0001047    0.0000357     0.0002198   -0.0000072 
   0.014753677     0.0083151   -0.0011932    -0.0004258   -0.0001036     0.0000753   -0.0001010     0.0003856   -0.0002022 
   0.014853702     0.0110419   -0.0004512    -0.0009498    0.0004919    -0.0001412   -0.0000285     0.0001716    0.0002246 
   0.014953727     0.0111466   -0.0017933    -0.0005932    0.0000599     0.0000596    0.0000674     0.0005083    0.0002125 
   0.015053752     0.0100245   -0.0015211    -0.0003182   -0.0003538     0.0001225    0.0002058     0.0003024    0.0001929 
   0.015153777     0.0079928    0.0004097    -0.0002378   -0.0000608    -0.0000386   -0.0000071     0.0002325   -0.0001550 
   0.015253802     0.0095762    0.0001014     0.0002273   -0.0001594    -0.0002673    0.0002224     0.0001143   -0.0004622 
   0.015353827     0.0084972   -0.0007674     0.0001056    0.0001939     0.0001037    0.0000075     0.0007384   -0.0001921 
   0.015453852     0.0099983   -0.0013699     0.0011441   -0.0008073    -0.0002308    0.0001657     0.0005398    0.0003976 
   0.015553877     0.0099400    0.0000677    -0.0003300    0.0002960     0.0000289    0.0000971     0.0005380    0.0000441 
   0.015653902     0.0101579   -0.0011930     0.0000500    0.0004079    -0.0001348    0.0001711     0.0002808   -0.0000011 
