! 26-Feb-26 11:01:57 AM
! E:\VNA_MEASUREMENTS\LONGCAB_SPDT1_OPENSHORT\LONGCABSPDT1RF1_OPEN_0.S2P
! CHANNEL.1
! TR.MEASUREMENT
! CORRECTED.DATA
# GHZ S RI R 50.0
! FREQ.GHZ         S11RE         S11IM         S21RE         S21IM         S12RE         S12IM         S22RE         S22IM         
!; PortSelection: Port_12
   0.000050000     0.3359399   -0.1213573     0.4183210   -0.0100599    -0.0032077   -0.0026484    -0.0126237    0.0303831 
   0.000150025    -0.0888488    0.0738958     0.0124759   -1.2279450     0.0001669   -0.0002112     0.0002985   -0.0049583 
   0.000250050    -0.6858319   -0.5609877     0.8220351   -0.3945287    -0.0000878    0.0001620    -0.0010097   -0.0009958 
   0.000350075     0.9628201   -0.1142672    -0.0068434   -0.0034190     0.0009696   -0.0000760    -0.0004791   -0.0016135 
   0.000450100     0.9985137   -0.1449506    -0.0013398   -0.0092318     0.0002211   -0.0008445    -0.0000122   -0.0013873 
   0.000550125     0.9611179   -0.1375231    -0.0033877   -0.0099805    -0.0009348    0.0002740     0.0007089    0.0010955 
   0.000650150     1.0282440   -0.1377329    -0.0070119   -0.0108228     0.0003933   -0.0015712     0.0004554   -0.0010385 
   0.000750175     0.9598696   -0.2420371    -0.0037659   -0.0054013     0.0014395    0.0007250    -0.0004298    0.0008815 
   0.000850200     0.9265432   -0.2273238    -0.0084346   -0.0090672     0.0000991    0.0012667    -0.0003956   -0.0006881 
   0.000950225     0.9655033   -0.2782220    -0.0090053   -0.0051486     0.0001568    0.0004575     0.0002771    0.0012448 
   0.001050250     0.9871959   -0.3488868    -0.0121852   -0.0058987    -0.0000989   -0.0009347    -0.0003336    0.0007151 
   0.001150275     0.9506275   -0.3015313    -0.0089683   -0.0043438    -0.0000416   -0.0007783     0.0003458   -0.0002318 
   0.001250300     0.9438468   -0.2687146    -0.0094409   -0.0032168     0.0010262   -0.0001663     0.0002121    0.0013554 
   0.001350325     0.8882128   -0.3522243    -0.0110280   -0.0033436    -0.0005366    0.0005995    -0.0000521    0.0007842 
   0.001450350     0.9546922   -0.3979133    -0.0105127   -0.0009886     0.0003046    0.0007377     0.0001219    0.0006177 
   0.001550375     0.8736489   -0.3971043    -0.0104413    0.0005501     0.0002238   -0.0002567     0.0008448    0.0005351 
   0.001650400     0.9111218   -0.4246366    -0.0053445   -0.0023742     0.0000144    0.0006091     0.0001442    0.0003766 
   0.001750425     0.8401870   -0.4354506    -0.0054015    0.0011954     0.0000006    0.0000983     0.0003497    0.0001990 
   0.001850450     0.8743656   -0.4316846    -0.0039334    0.0007539    -0.0004247    0.0000812    -0.0011278    0.0009829 
   0.001950475     0.8972331   -0.4701153    -0.0048616    0.0017063     0.0005046   -0.0007364     0.0009628   -0.0006699 
   0.002050500     0.8227422   -0.4871277    -0.0019443    0.0012966    -0.0003768    0.0004897     0.0009630   -0.0001573 
   0.002150525     0.8319569   -0.5119905    -0.0053397    0.0007525     0.0000516    0.0003404     0.0006352    0.0003534 
   0.002250550     0.8272381   -0.5000923    -0.0032088    0.0052013    -0.0000543   -0.0000713    -0.0000901    0.0002115 
   0.002350575     0.7421862   -0.5586240    -0.0056139    0.0057533    -0.0005249    0.0000723     0.0000434   -0.0008084 
   0.002450600     0.7754174   -0.5879222    -0.0047314    0.0021122    -0.0007316    0.0003522    -0.0006061    0.0007663 
   0.002550625     0.7556009   -0.6225212    -0.0036080    0.0026282     0.0001367   -0.0003568    -0.0004383   -0.0002194 
   0.002650650     0.7953643   -0.6146018    -0.0015491    0.0006256     0.0000156   -0.0006127    -0.0006313    0.0002104 
   0.002750675     0.7583600   -0.6417539    -0.0035750    0.0058729    -0.0000120   -0.0004537     0.0001657    0.0002188 
   0.002850700     0.7403796   -0.7016270    -0.0033121    0.0056684     0.0007016   -0.0004376    -0.0002703   -0.0000812 
   0.002950725     0.7089214   -0.6436893    -0.0014617    0.0039737     0.0001616    0.0005176     0.0002699    0.0005162 
   0.003050750     0.6814118   -0.6741619    -0.0006151    0.0010201    -0.0001816    0.0003683    -0.0001577   -0.0007272 
   0.003150775     0.6421864   -0.7118020    -0.0011213    0.0025666    -0.0000511   -0.0000309     0.0004776   -0.0001131 
   0.003250800     0.6466107   -0.7229465    -0.0018693    0.0013154     0.0000614   -0.0003112    -0.0000257    0.0001415 
   0.003350825     0.6566122   -0.7653628    -0.0029559   -0.0002359     0.0000869    0.0000570    -0.0003256    0.0003920 
   0.003450850     0.6017194   -0.7537665    -0.0000136    0.0047630    -0.0002164   -0.0004199     0.0002896   -0.0006627 
   0.003550875     0.5596616   -0.7517627    -0.0007443    0.0008040     0.0005319   -0.0005341     0.0002470    0.0001480 
   0.003650900     0.5736896   -0.8000412    -0.0000868    0.0032766    -0.0005311    0.0005276     0.0005777   -0.0002799 
   0.003750925     0.5219308   -0.8201732    -0.0005863    0.0003830    -0.0000706   -0.0000589    -0.0000027   -0.0004047 
   0.003850950     0.5194526   -0.8154261    -0.0021357    0.0008461     0.0000790    0.0001219    -0.0002439    0.0002337 
   0.003950975     0.5018788   -0.8346812     0.0000228    0.0025374    -0.0003000    0.0000247     0.0000147   -0.0002613 
   0.004051001     0.4504260   -0.8296385    -0.0003287    0.0025741    -0.0000258    0.0002852    -0.0000940    0.0005531 
   0.004151026     0.4483413   -0.8625847     0.0001973    0.0032223    -0.0001474    0.0000963    -0.0001703   -0.0006901 
   0.004251051     0.4318347   -0.8698496     0.0003122    0.0014034     0.0004224    0.0001103    -0.0005868   -0.0009396 
   0.004351076     0.4245415   -0.8765175     0.0023893    0.0018448     0.0001210   -0.0000439     0.0008254    0.0002081 
   0.004451101     0.3553651   -0.9295232     0.0007902    0.0003320    -0.0003649    0.0002031     0.0003093   -0.0004105 
   0.004551126     0.3452746   -0.8973353     0.0000224    0.0011212    -0.0001006   -0.0001298    -0.0002512    0.0004128 
   0.004651151     0.3043647   -0.8988209    -0.0006613    0.0041304    -0.0003395    0.0000648     0.0006443   -0.0000180 
   0.004751176     0.2682818   -0.9275008    -0.0002079    0.0010253    -0.0001197    0.0002440    -0.0002417   -0.0006833 
   0.004851201     0.2668426   -0.9173226    -0.0002961    0.0003759     0.0000472    0.0001892     0.0004982    0.0001741 
   0.004951226     0.2481555   -0.9317040    -0.0004092   -0.0008757     0.0000108    0.0001043     0.0004161   -0.0002097 
   0.005051251     0.1989386   -0.9584596    -0.0001521    0.0028602    -0.0003252   -0.0001260     0.0006259   -0.0005412 
   0.005151276     0.1910653   -0.9470841     0.0003217    0.0014586    -0.0002315   -0.0004039     0.0005484   -0.0006447 
   0.005251301     0.1322389   -0.9482253    -0.0003913    0.0002619     0.0001508    0.0002714     0.0004502    0.0008258 
   0.005351326     0.1226502   -0.9426429    -0.0002939   -0.0003196     0.0004150    0.0002226     0.0006097    0.0009508 
   0.005451351     0.0982096   -0.9714139     0.0007857    0.0001142     0.0002619   -0.0000348     0.0006049   -0.0002787 
   0.005551376     0.0471977   -0.9673526    -0.0006335   -0.0005524     0.0001791   -0.0002661    -0.0001296   -0.0002463 
   0.005651401     0.0298616   -0.9718267    -0.0007805    0.0004001     0.0002023    0.0001401    -0.0000764   -0.0006364 
   0.005751426    -0.0081374   -0.9566613     0.0006239   -0.0001036    -0.0000931    0.0001660     0.0004879   -0.0002698 
   0.005851451    -0.0332644   -0.9451180    -0.0004944   -0.0005330     0.0002070   -0.0002225    -0.0001223    0.0001506 
   0.005951476    -0.0571727   -0.9634463     0.0001376    0.0000123     0.0002680   -0.0000970     0.0007208    0.0003341 
   0.006051501    -0.0912545   -0.9574662    -0.0005096    0.0004528    -0.0000683    0.0000966    -0.0006971    0.0001065 
   0.006151526    -0.1163626   -0.9390534    -0.0003011    0.0005216    -0.0002392   -0.0000199     0.0001517   -0.0006795 
   0.006251551    -0.1471449   -0.9539729     0.0003487   -0.0003436     0.0000047    0.0000459     0.0000288    0.0003857 
   0.006351576    -0.1881695   -0.9380390     0.0002803    0.0003968    -0.0000360   -0.0000730     0.0002293   -0.0001740 
   0.006451601    -0.2217746   -0.9269618    -0.0004398    0.0002367     0.0001047    0.0001625    -0.0001726    0.0003218 
   0.006551626    -0.2441566   -0.9263324    -0.0005485    0.0006736    -0.0000794   -0.0002262    -0.0000840   -0.0003342 
   0.006651651    -0.2747196   -0.9213188     0.0001349   -0.0010647    -0.0000266    0.0000960    -0.0002798    0.0002380 
   0.006751676    -0.2976725   -0.8958256    -0.0003182   -0.0001337     0.0002429   -0.0000412     0.0007261    0.0002784 
   0.006851701    -0.3435403   -0.8938118     0.0004013    0.0008172     0.0000078    0.0003139    -0.0001704    0.0000524 
   0.006951726    -0.3504155   -0.8820366    -0.0000559    0.0001715     0.0000348   -0.0000644     0.0007520    0.0006577 
   0.007051751    -0.3896729   -0.8719951    -0.0005492   -0.0003476    -0.0000307    0.0000477     0.0003303   -0.0002157 
   0.007151776    -0.4128118   -0.8504369    -0.0000057    0.0001368     0.0000730    0.0001342     0.0012865    0.0000512 
   0.007251801    -0.4435126   -0.8465279     0.0001402    0.0000201     0.0001767   -0.0001372    -0.0001778   -0.0000814 
   0.007351826    -0.4679205   -0.8305761     0.0002075    0.0003454    -0.0000457    0.0000018     0.0002887    0.0001396 
   0.007451851    -0.4884483   -0.8029829     0.0006531   -0.0000347     0.0001596   -0.0000349     0.0004742   -0.0000498 
   0.007551876    -0.5245591   -0.7871704    -0.0001589    0.0003325     0.0001025   -0.0000092    -0.0002040   -0.0003351 
   0.007651901    -0.5574627   -0.7689818     0.0000004   -0.0001887     0.0000229   -0.0000267     0.0000018    0.0001655 
   0.007751926    -0.5736189   -0.7528070     0.0000328   -0.0002664     0.0000022   -0.0000393     0.0004111   -0.0005907 
   0.007851951    -0.5917137   -0.7279444    -0.0002393   -0.0000237     0.0001233    0.0000277     0.0004449   -0.0003077 
   0.007951976    -0.6246846   -0.7017835    -0.0000418   -0.0000182    -0.0001175    0.0000635    -0.0001387    0.0003462 
   0.008052001    -0.6477304   -0.6851181     0.0003927    0.0002640     0.0000793    0.0000130     0.0001301    0.0001782 
   0.008152026    -0.6680175   -0.6635301     0.0000628   -0.0001990     0.0000983   -0.0000093     0.0005415   -0.0001397 
   0.008252051    -0.6952115   -0.6465175    -0.0000655    0.0000598     0.0000396    0.0000230     0.0001636    0.0004692 
   0.008352076    -0.7249361   -0.6141479     0.0000709    0.0000339    -0.0000210    0.0000659     0.0009342   -0.0000972 
   0.008452101    -0.7349424   -0.5933672     0.0000269    0.0000216    -0.0000173   -0.0000488     0.0005448   -0.0000383 
   0.008552126    -0.7579012   -0.5663075     0.0002592   -0.0001513    -0.0001207    0.0000024     0.0000281    0.0004175 
   0.008652151    -0.7646350   -0.5379677    -0.0000612   -0.0000056     0.0000129    0.0000918     0.0004491    0.0000819 
   0.008752176    -0.7922947   -0.5140556    -0.0002024   -0.0000291    -0.0000496    0.0000778    -0.0000523   -0.0005510 
   0.008852201    -0.8039535   -0.4882319    -0.0003349    0.0001561     0.0000942   -0.0000381     0.0000842    0.0003936 
   0.008952226    -0.8224269   -0.4507328     0.0000512    0.0002675     0.0000223    0.0000407     0.0002709   -0.0005811 
   0.009052251    -0.8357983   -0.4204694     0.0001535   -0.0002024    -0.0001122    0.0000153     0.0001968    0.0000759 
   0.009152276    -0.8494723   -0.3917665    -0.0003479   -0.0002072     0.0001102   -0.0000323     0.0007838    0.0000359 
   0.009252301    -0.8645266   -0.3598265     0.0001093   -0.0001332     0.0000730   -0.0000005     0.0001436   -0.0006481 
   0.009352326    -0.8755398   -0.3327126    -0.0001932   -0.0002867     0.0000329   -0.0000148     0.0000836    0.0000744 
   0.009452351    -0.8807832   -0.2986060    -0.0001336   -0.0000716     0.0000805    0.0000628     0.0004097   -0.0000838 
   0.009552376    -0.8981453   -0.2639612    -0.0001868   -0.0000991     0.0000949    0.0001410     0.0004027    0.0004382 
   0.009652401    -0.8967118   -0.2355191     0.0001570   -0.0000874     0.0000494    0.0001917    -0.0002952    0.0005931 
   0.009752426    -0.9055575   -0.2046890    -0.0001239   -0.0000043     0.0000534    0.0000191     0.0002075    0.0001735 
   0.009852451    -0.9145068   -0.1703667    -0.0004542   -0.0001916    -0.0001072   -0.0000848     0.0002499   -0.0001942 
   0.009952476    -0.9158248   -0.1306481     0.0000426   -0.0004730    -0.0000267   -0.0000513     0.0002800   -0.0000345 
   0.010052501    -0.9188403   -0.1027677    -0.0002119   -0.0001902    -0.0000513    0.0000150     0.0001588   -0.0000179 
   0.010152526    -0.9236929   -0.0672910    -0.0002293   -0.0000765     0.0001335   -0.0001124     0.0004294    0.0000652 
   0.010252551    -0.9235067   -0.0384969    -0.0000473    0.0001954    -0.0001053   -0.0000881     0.0001093   -0.0002512 
   0.010352576    -0.9192402   -0.0036516     0.0001360   -0.0000941    -0.0000499    0.0001354     0.0001646   -0.0000099 
   0.010452601    -0.9203177    0.0370928     0.0002925    0.0001890     0.0000538    0.0000119     0.0006239   -0.0000315 
   0.010552626    -0.9177182    0.0689233     0.0003337    0.0006810    -0.0000400   -0.0000796     0.0003417    0.0001680 
   0.010652651    -0.9127604    0.0904376     0.0003047   -0.0001857    -0.0000006    0.0000511     0.0004100   -0.0001768 
   0.010752676    -0.9079481    0.1209190    -0.0004819    0.0001415     0.0001986   -0.0000525     0.0003735    0.0002550 
   0.010852701    -0.8974599    0.1630049     0.0001155    0.0004453     0.0000314   -0.0000224     0.0004579    0.0002556 
   0.010952726    -0.8980193    0.2010097     0.0000041   -0.0003120     0.0002213   -0.0001646    -0.0001055   -0.0002076 
   0.011052751    -0.8897115    0.2300828     0.0001373   -0.0001987    -0.0002977   -0.0000163     0.0004727    0.0000218 
   0.011152776    -0.8749002    0.2565075     0.0001151   -0.0000030     0.0001701    0.0000747     0.0001673   -0.0002656 
   0.011252801    -0.8702369    0.2901545     0.0000795    0.0002644     0.0001411    0.0001925     0.0001143    0.0001355 
   0.011352826    -0.8550622    0.3166792     0.0000124    0.0001967    -0.0000253    0.0000975     0.0002930   -0.0001295 
   0.011452851    -0.8454046    0.3465930    -0.0003663   -0.0004505    -0.0000197   -0.0003226     0.0003388   -0.0000457 
   0.011552876    -0.8412380    0.3797940     0.0003172    0.0000975    -0.0001739    0.0001746     0.0003880    0.0001332 
   0.011652901    -0.8149015    0.4091184     0.0000601    0.0002427    -0.0001534    0.0002772     0.0000119    0.0007558 
   0.011752926    -0.8107599    0.4434531    -0.0003709   -0.0003983    -0.0001573   -0.0002599     0.0007300    0.0002142 
   0.011852951    -0.7865803    0.4558137    -0.0009669    0.0002657     0.0000736    0.0002687     0.0006772   -0.0002365 
   0.011952976    -0.7728715    0.4828004    -0.0012493   -0.0007159    -0.0001791    0.0002993    -0.0002352    0.0003192 
   0.012053002    -0.7527603    0.5181782    -0.0000731    0.0001794     0.0001173   -0.0001147     0.0004888    0.0000874 
   0.012153027    -0.7340146    0.5402084     0.0002207    0.0004598     0.0001145   -0.0000119     0.0005925    0.0001696 
   0.012253052    -0.7176329    0.5742388     0.0007161   -0.0000306     0.0000447    0.0002196     0.0010190    0.0002325 
   0.012353077    -0.6949662    0.5794879    -0.0004580   -0.0003240    -0.0001006    0.0001570    -0.0001208    0.0002043 
   0.012453102    -0.6820204    0.6120383     0.0002282    0.0008653    -0.0002217    0.0000012     0.0005550   -0.0000012 
   0.012553127    -0.6445194    0.6345683    -0.0001180   -0.0001959     0.0001509    0.0000916     0.0007448   -0.0000905 
   0.012653152    -0.6329767    0.6454108    -0.0011853    0.0008123     0.0001926   -0.0000291    -0.0000499    0.0002662 
   0.012753177    -0.6123325    0.6887046    -0.0000655    0.0001378     0.0001717   -0.0000314     0.0001160    0.0002635 
   0.012853202    -0.5777516    0.6961299    -0.0003430   -0.0009509    -0.0003693   -0.0001435     0.0004680    0.0005565 
   0.012953227    -0.5661433    0.7181656     0.0002875   -0.0000090    -0.0000662   -0.0001622     0.0005390    0.0002648 
   0.013053252    -0.5369821    0.7366842    -0.0004254    0.0002900     0.0002947   -0.0000349     0.0004859    0.0000590 
   0.013153277    -0.5235481    0.7416315     0.0009606    0.0001012     0.0001898   -0.0001962     0.0003856   -0.0000419 
   0.013253302    -0.4944107    0.7758467     0.0003914    0.0004033     0.0000323    0.0001392     0.0000166   -0.0005140 
   0.013353327    -0.4575303    0.7796105     0.0010265   -0.0013583    -0.0000744    0.0000607     0.0004879   -0.0001466 
   0.013453352    -0.4381255    0.7892978    -0.0000798   -0.0001457     0.0000871    0.0000540     0.0007613    0.0001153 
   0.013553377    -0.4028509    0.8153283    -0.0007238   -0.0002563    -0.0000691   -0.0004716     0.0000112    0.0001064 
   0.013653402    -0.3679430    0.8322017     0.0011260   -0.0000474    -0.0001074    0.0001925     0.0006087    0.0000758 
   0.013753427    -0.3419770    0.8310804    -0.0000149   -0.0008346    -0.0000845   -0.0001399     0.0003258    0.0003693 
   0.013853452    -0.3427658    0.8525919    -0.0004938    0.0001947     0.0000858    0.0000934     0.0002488   -0.0000583 
   0.013953477    -0.2941418    0.8585057     0.0003589    0.0003421    -0.0002810   -0.0001654     0.0004337    0.0001669 
   0.014053502    -0.2687726    0.8802326     0.0001119    0.0001038     0.0003746   -0.0003727     0.0001905   -0.0003453 
   0.014153527    -0.2405081    0.8779405     0.0008324    0.0002137    -0.0001213   -0.0000005    -0.0001839    0.0003255 
   0.014253552    -0.2201541    0.8885642    -0.0004924   -0.0002474     0.0000296   -0.0000691     0.0004352   -0.0001856 
   0.014353577    -0.1886298    0.8884230     0.0002047   -0.0003196    -0.0003887   -0.0000510     0.0005643    0.0001985 
   0.014453602    -0.1523366    0.9097868    -0.0000980    0.0010496     0.0002737    0.0001782     0.0001322    0.0002452 
   0.014553627    -0.1255629    0.9033358    -0.0004951   -0.0002634     0.0001610   -0.0001866     0.0002521    0.0001922 
   0.014653652    -0.1017677    0.9197793     0.0006541    0.0004122     0.0000885   -0.0004613     0.0003255    0.0000561 
   0.014753677    -0.0531622    0.9127648     0.0001751   -0.0005599     0.0002163   -0.0003607     0.0003934   -0.0000103 
   0.014853702    -0.0513677    0.9165457     0.0004104    0.0007043     0.0002473    0.0000072     0.0002909    0.0002274 
   0.014953727    -0.0116387    0.9202299     0.0007621    0.0005705    -0.0004033    0.0000370     0.0003452    0.0001501 
   0.015053752     0.0173061    0.9023204     0.0006292   -0.0007456    -0.0001203    0.0004530     0.0001670    0.0000324 
   0.015153777     0.0251695    0.9188684    -0.0008002   -0.0004179    -0.0002670   -0.0002099     0.0000339   -0.0000683 
   0.015253802     0.0872748    0.9044436    -0.0007908   -0.0005495    -0.0003582    0.0000112     0.0005704   -0.0000405 
   0.015353827     0.0917489    0.9077280     0.0002122   -0.0000888    -0.0000457   -0.0003369     0.0006848    0.0001339 
   0.015453852     0.1209275    0.9031414    -0.0013852    0.0009699    -0.0001153   -0.0001147     0.0003115    0.0003031 
   0.015553877     0.1423173    0.9078648     0.0001082    0.0009505    -0.0001115    0.0002969     0.0003699    0.0000523 
   0.015653902     0.1752052    0.9040131    -0.0007206   -0.0006533    -0.0001266   -0.0004417     0.0001202   -0.0002266 
