! 26-Feb-26 11:07:31 AM
! E:\VNA_MEASUREMENTS\LONGCAB_SPDT1_OPENSHORT\LONGCABSPDT1RF2_SHORT_2.S2P
! CHANNEL.1
! TR.MEASUREMENT
! CORRECTED.DATA
# GHZ S RI R 50.0
! FREQ.GHZ         S11RE         S11IM         S21RE         S21IM         S12RE         S12IM         S22RE         S22IM         
!; PortSelection: Port_12
   0.000050000     0.7857010    0.3793025     0.8627143    0.3734824    -0.0020925   -0.0018215     0.0156184    0.0078826 
   0.000150025     0.1846723    0.0380559     0.5649846   -0.5149837     0.0002279   -0.0004537     0.0040885    0.0015752 
   0.000250050    -0.1309922   -0.1080719     0.1080803    0.0207441     0.0006840   -0.0001527     0.0021332   -0.0026701 
   0.000350075     0.9380579   -0.1965396    -0.0019930   -0.0064572    -0.0005303    0.0004967    -0.0010627   -0.0008570 
   0.000450100     1.0018930   -0.1605681    -0.0036043   -0.0121631    -0.0013156    0.0005924    -0.0009415   -0.0007281 
   0.000550125     1.0189240   -0.1564730    -0.0047211   -0.0099337    -0.0000519   -0.0007788     0.0004360    0.0000486 
   0.000650150     1.0099800   -0.1479868    -0.0091216   -0.0094957    -0.0001972    0.0007362    -0.0000917   -0.0006045 
   0.000750175     1.0155510   -0.2218367    -0.0064497   -0.0106236     0.0006962    0.0006347    -0.0001808    0.0000168 
   0.000850200     0.9598576   -0.3262200    -0.0108411   -0.0080246     0.0007698   -0.0006731    -0.0011697   -0.0002178 
   0.000950225     1.0553200   -0.3158627    -0.0111423   -0.0049510     0.0000669   -0.0004117     0.0005793    0.0005576 
   0.001050250     0.9593759   -0.3058692    -0.0078889   -0.0051817    -0.0006976   -0.0004440    -0.0001940    0.0003742 
   0.001150275     0.9746621   -0.3411911    -0.0071456    0.0014615    -0.0010774   -0.0001399     0.0002112    0.0009418 
   0.001250300     0.9508221   -0.3176046    -0.0075152   -0.0043486    -0.0004980    0.0000940     0.0002113    0.0013896 
   0.001350325     0.9531828   -0.4066442    -0.0100869   -0.0020995     0.0002454    0.0006220     0.0002406   -0.0002369 
   0.001450350     0.8946746   -0.4544524    -0.0077330    0.0004885    -0.0000277    0.0001675    -0.0003245    0.0006990 
   0.001550375     0.8909547   -0.4411974    -0.0112694   -0.0025961     0.0004021   -0.0003864     0.0003687    0.0003147 
   0.001650400     0.8851459   -0.4155423    -0.0071917   -0.0008154     0.0000573    0.0002602    -0.0003670    0.0001126 
   0.001750425     0.8607216   -0.4754994    -0.0071610    0.0018341    -0.0006219    0.0006211    -0.0002747    0.0002638 
   0.001850450     0.8211150   -0.5027947    -0.0042312    0.0039140    -0.0005240   -0.0000973    -0.0000812    0.0009961 
   0.001950475     0.9164473   -0.5170987    -0.0089347    0.0001834     0.0011755    0.0001893     0.0002568   -0.0005094 
   0.002050500     0.8041091   -0.5200602    -0.0070831    0.0013861     0.0006033   -0.0002501     0.0010922    0.0007261 
   0.002150525     0.8157730   -0.5593998    -0.0055197    0.0038881    -0.0000914   -0.0002006     0.0014088    0.0008625 
   0.002250550     0.7962975   -0.5641726    -0.0040484    0.0027830    -0.0000343   -0.0003280    -0.0005545   -0.0007849 
   0.002350575     0.7385020   -0.6201035    -0.0066142    0.0012126    -0.0000236   -0.0002025     0.0009497    0.0002675 
   0.002450600     0.7257695   -0.6412910    -0.0015373    0.0038620     0.0001062   -0.0004532    -0.0004104   -0.0001081 
   0.002550625     0.7354737   -0.6597386    -0.0052509    0.0054306     0.0001820   -0.0000406    -0.0004724    0.0001662 
   0.002650650     0.7362577   -0.6535072    -0.0005206    0.0026015    -0.0002161   -0.0002556    -0.0010152    0.0004281 
   0.002750675     0.7111708   -0.6944903    -0.0013501    0.0027666    -0.0009431    0.0006623    -0.0006295    0.0003768 
   0.002850700     0.6775136   -0.7204639    -0.0028394    0.0035600     0.0003358   -0.0003113    -0.0009121    0.0002657 
   0.002950725     0.6728824   -0.7245659    -0.0029370    0.0041338     0.0005820   -0.0003134     0.0008098    0.0000026 
   0.003050750     0.6295198   -0.7481778     0.0000574    0.0031134     0.0002220    0.0002101     0.0008939   -0.0004903 
   0.003150775     0.5755466   -0.7915427     0.0003763    0.0025123     0.0004589   -0.0000002    -0.0001806    0.0000841 
   0.003250800     0.5855009   -0.7846221    -0.0032200    0.0002412     0.0001392   -0.0008387     0.0005814    0.0005532 
   0.003350825     0.5569078   -0.8217743    -0.0003264    0.0032177    -0.0001834    0.0004297    -0.0001812    0.0011706 
   0.003450850     0.5187371   -0.8174512    -0.0000974    0.0036448    -0.0003714   -0.0005454     0.0001630   -0.0008574 
   0.003550875     0.4754481   -0.8321290    -0.0009149    0.0008589     0.0004318    0.0002465    -0.0000616   -0.0000543 
   0.003650900     0.4610566   -0.8605256     0.0013123    0.0002724    -0.0000450    0.0002976     0.0008859   -0.0007643 
   0.003750925     0.4175996   -0.8589131    -0.0004589    0.0006832     0.0001433    0.0002033     0.0000620   -0.0003162 
   0.003850950     0.4041362   -0.8837764    -0.0003571    0.0015435    -0.0004941    0.0003377    -0.0000688    0.0006405 
   0.003950975     0.3785133   -0.9038504     0.0001433    0.0022958    -0.0001032   -0.0002524     0.0001900   -0.0008077 
   0.004051001     0.3516214   -0.8771371    -0.0006698    0.0010214     0.0001920   -0.0000399     0.0001988    0.0002690 
   0.004151026     0.3402523   -0.9275225     0.0003236    0.0013876     0.0003304   -0.0002842    -0.0003665    0.0001171 
   0.004251051     0.2933357   -0.9619352    -0.0013564   -0.0003657    -0.0000471    0.0001293     0.0002337    0.0000751 
   0.004351076     0.2588335   -0.9765981     0.0000077    0.0003683    -0.0000568    0.0002436     0.0006883    0.0000186 
   0.004451101     0.2143235   -0.9659984     0.0009367    0.0005268    -0.0004457   -0.0002593     0.0002837   -0.0002696 
   0.004551126     0.1979230   -0.9783199    -0.0007279    0.0005224     0.0000322   -0.0004797    -0.0010487    0.0003402 
   0.004651151     0.1826407   -0.9468310    -0.0008638    0.0036884     0.0001181   -0.0000668    -0.0007433    0.0001023 
   0.004751176     0.1320779   -0.9534417    -0.0004002    0.0016462    -0.0001659    0.0001946     0.0006668   -0.0004611 
   0.004851201     0.1041336   -0.9663445    -0.0004001    0.0014324     0.0003584   -0.0000927     0.0004954    0.0006773 
   0.004951226     0.0879810   -0.9810483     0.0004293    0.0010726    -0.0000937   -0.0002062     0.0003590   -0.0001264 
   0.005051251     0.0199581   -0.9809862     0.0000300   -0.0005768     0.0002344    0.0003573    -0.0001770   -0.0002209 
   0.005151276     0.0135922   -0.9629966     0.0011895    0.0005783     0.0001175    0.0000125     0.0003071   -0.0001302 
   0.005251301    -0.0307799   -0.9758726     0.0001627    0.0007802     0.0001019    0.0003557     0.0001766    0.0010179 
   0.005351326    -0.0416841   -0.9803683     0.0006719    0.0000786     0.0002486   -0.0003575     0.0005705    0.0005516 
   0.005451351    -0.0905692   -0.9777457     0.0006764    0.0000334    -0.0001964    0.0002875     0.0003687    0.0009082 
   0.005551376    -0.1386166   -0.9673645    -0.0003627   -0.0005766     0.0000985   -0.0000695    -0.0003607   -0.0012072 
   0.005651401    -0.1594870   -0.9659272     0.0002000    0.0005964     0.0001870   -0.0001884    -0.0000288   -0.0003629 
   0.005751426    -0.1866122   -0.9443542    -0.0003278    0.0001802    -0.0001090    0.0000691     0.0003406   -0.0004864 
   0.005851451    -0.2417778   -0.9341493     0.0013992   -0.0004388     0.0001511    0.0001162    -0.0000460   -0.0000127 
   0.005951476    -0.2660910   -0.9428707     0.0002099    0.0002932    -0.0000309    0.0000297     0.0002409   -0.0002229 
   0.006051501    -0.2933829   -0.9140407    -0.0000398   -0.0003138    -0.0000401   -0.0001737    -0.0001944    0.0002792 
   0.006151526    -0.3211824   -0.8998620    -0.0004015    0.0008168    -0.0000714   -0.0000695     0.0003706   -0.0003870 
   0.006251551    -0.3634768   -0.9046572     0.0001964    0.0003341     0.0001871    0.0000895     0.0003383    0.0004779 
   0.006351576    -0.4000450   -0.8857699     0.0000415   -0.0000397    -0.0000158   -0.0000460     0.0002369   -0.0000932 
   0.006451601    -0.4285616   -0.8645383    -0.0000514    0.0003772     0.0000247   -0.0001182     0.0001143    0.0006543 
   0.006551626    -0.4507447   -0.8533011    -0.0001669    0.0002238    -0.0001611   -0.0000214    -0.0006521    0.0002466 
   0.006651651    -0.4848043   -0.8307684     0.0003781   -0.0003903     0.0000591   -0.0000613     0.0003100    0.0001038 
   0.006751676    -0.5098695   -0.8046989    -0.0001444   -0.0000581    -0.0000763    0.0000183     0.0005549   -0.0000070 
   0.006851701    -0.5569471   -0.7844817     0.0002178    0.0003512    -0.0001155    0.0000190    -0.0002029    0.0003016 
   0.006951726    -0.5712031   -0.7652322    -0.0006801    0.0001701    -0.0000290    0.0001726     0.0010351    0.0008238 
   0.007051751    -0.6033505   -0.7471017     0.0006857    0.0002386    -0.0000337    0.0001522     0.0004954   -0.0002175 
   0.007151776    -0.6273611   -0.7149609    -0.0007525   -0.0000704    -0.0000554    0.0000461     0.0004928    0.0001624 
   0.007251801    -0.6580936   -0.7014859    -0.0002307   -0.0000959     0.0000191   -0.0000591    -0.0003313    0.0002667 
   0.007351826    -0.6820001   -0.6736273    -0.0006100   -0.0000007    -0.0000342   -0.0000782     0.0003022    0.0005923 
   0.007451851    -0.7012703   -0.6323874     0.0003325    0.0002359    -0.0000254   -0.0000201     0.0008891   -0.0003614 
   0.007551876    -0.7307647   -0.6082851     0.0001442    0.0003158     0.0000681   -0.0000094     0.0004379    0.0001740 
   0.007651901    -0.7523711   -0.5810559     0.0001301    0.0000282     0.0000971    0.0000075     0.0003839   -0.0001246 
   0.007751926    -0.7761079   -0.5505803    -0.0005851   -0.0002693     0.0000199   -0.0000126     0.0003001   -0.0007025 
   0.007851951    -0.7901474   -0.5263601     0.0000396   -0.0003988    -0.0000298   -0.0000174     0.0002216   -0.0001448 
   0.007951976    -0.8098966   -0.4801272    -0.0004353   -0.0005341    -0.0000174    0.0000705     0.0004605    0.0001372 
   0.008052001    -0.8282158   -0.4524223     0.0001409    0.0000970    -0.0000139    0.0000139    -0.0000265    0.0001428 
   0.008152026    -0.8467945   -0.4224755     0.0001650   -0.0002331     0.0000073    0.0000266     0.0004652   -0.0002161 
   0.008252051    -0.8623620   -0.3888181    -0.0002614    0.0000831    -0.0000579   -0.0000149     0.0001868    0.0003399 
   0.008352076    -0.8892789   -0.3469096     0.0000351   -0.0003733    -0.0000235   -0.0000813     0.0007794   -0.0001852 
   0.008452101    -0.8905780   -0.3149564    -0.0002221    0.0001881    -0.0000493   -0.0000850     0.0005128   -0.0003221 
   0.008552126    -0.9047499   -0.2813741     0.0001358   -0.0001917     0.0000268   -0.0000661     0.0003498    0.0004392 
   0.008652151    -0.9100246   -0.2533441    -0.0001063    0.0004819    -0.0001503    0.0000756     0.0001690    0.0001026 
   0.008752176    -0.9175124   -0.2047442    -0.0001798    0.0000341     0.0001701    0.0000146    -0.0002218   -0.0009510 
   0.008852201    -0.9241018   -0.1794105    -0.0001082   -0.0000690    -0.0000122   -0.0001310     0.0001373   -0.0000069 
   0.008952226    -0.9236502   -0.1339256     0.0001623    0.0002780    -0.0000323    0.0000484     0.0007060   -0.0002145 
   0.009052251    -0.9344020   -0.0988240    -0.0001042   -0.0002994    -0.0000524    0.0000173    -0.0000437   -0.0001145 
   0.009152276    -0.9295202   -0.0638887    -0.0004826    0.0005201    -0.0000630    0.0000265     0.0010652    0.0003522 
   0.009252301    -0.9338557   -0.0168465    -0.0002171   -0.0002358    -0.0000284   -0.0000137     0.0001445   -0.0001443 
   0.009352326    -0.9280393    0.0157030    -0.0000244   -0.0002583     0.0000707   -0.0000302    -0.0001256   -0.0002718 
   0.009452351    -0.9295247    0.0500265     0.0002496   -0.0005733    -0.0000387   -0.0000038     0.0000568   -0.0001852 
   0.009552376    -0.9325871    0.0898505    -0.0003173   -0.0001582     0.0001242   -0.0000834     0.0001943    0.0000490 
   0.009652401    -0.9228415    0.1211879     0.0006523   -0.0006127     0.0001140   -0.0001895    -0.0001456    0.0002394 
   0.009752426    -0.9170053    0.1550364    -0.0002135    0.0004154    -0.0000166    0.0000174     0.0004225    0.0002482 
   0.009852451    -0.9056543    0.1953547    -0.0006357    0.0010045    -0.0000588   -0.0000020     0.0007006   -0.0000800 
   0.009952476    -0.8915638    0.2369375     0.0005731    0.0004799    -0.0001166    0.0000138    -0.0000471    0.0001245 
   0.010052501    -0.8896686    0.2753845     0.0004715    0.0004304    -0.0000547   -0.0000399    -0.0003012   -0.0003312 
   0.010152526    -0.8738279    0.3121301    -0.0009439   -0.0003314    -0.0002522    0.0000366    -0.0003214   -0.0000226 
   0.010252551    -0.8616372    0.3387450     0.0004869    0.0003670     0.0000789   -0.0000325     0.0002217    0.0000184 
   0.010352576    -0.8368360    0.3648632    -0.0008126   -0.0000901    -0.0001292    0.0001007     0.0002144   -0.0000106 
   0.010452601    -0.8290039    0.3976620     0.0001754   -0.0007673     0.0000492   -0.0001244     0.0002318   -0.0004588 
   0.010552626    -0.8146326    0.4351320    -0.0000517   -0.0000924    -0.0003029    0.0000882     0.0002501   -0.0000705 
   0.010652651    -0.7901267    0.4609185    -0.0001285    0.0006467     0.0000800   -0.0001428     0.0004526    0.0000433 
   0.010752676    -0.7901963    0.4864984    -0.0001132    0.0003610     0.0000955    0.0000215     0.0003879   -0.0001458 
   0.010852701    -0.7548832    0.5224228     0.0002726   -0.0002676     0.0001362    0.0001461     0.0001942    0.0004611 
   0.010952726    -0.7293486    0.5558726     0.0006436   -0.0001477    -0.0001570    0.0000522     0.0002261   -0.0000450 
   0.011052751    -0.7211186    0.5847602     0.0002526   -0.0000980     0.0001392   -0.0001364     0.0003791   -0.0002634 
   0.011152776    -0.7006794    0.6007079     0.0000779    0.0003357    -0.0000770    0.0001065     0.0001866    0.0001958 
   0.011252801    -0.6726203    0.6280130     0.0009864   -0.0004881    -0.0000739   -0.0001022    -0.0001787    0.0003141 
   0.011352826    -0.6476645    0.6503175     0.0008947   -0.0001202    -0.0000847   -0.0003469     0.0001316    0.0001402 
   0.011452851    -0.6132485    0.6932834     0.0001941   -0.0005227     0.0000798    0.0002561     0.0001902   -0.0000478 
   0.011552876    -0.5931721    0.7057295    -0.0008257    0.0007700     0.0002201    0.0001391     0.0003001    0.0000127 
   0.011652901    -0.5733418    0.7299463     0.0005342   -0.0006249    -0.0002486   -0.0002500     0.0002614    0.0006002 
   0.011752926    -0.5305058    0.7378647    -0.0002648   -0.0007440    -0.0001059    0.0000439     0.0005119   -0.0000314 
   0.011852951    -0.5130362    0.7530598     0.0001985    0.0010883     0.0005360    0.0001223     0.0004030   -0.0001257 
   0.011952976    -0.4804918    0.7744508    -0.0005351    0.0001054    -0.0000518    0.0001697    -0.0002175    0.0004508 
   0.012053002    -0.4387119    0.8038296    -0.0006525   -0.0000886     0.0002504    0.0001281     0.0000622    0.0002374 
   0.012153027    -0.4215664    0.8022808     0.0011586   -0.0004738    -0.0001394   -0.0000125     0.0005828   -0.0001797 
   0.012253052    -0.3833688    0.8310322     0.0012365   -0.0001632    -0.0003842   -0.0002327     0.0007855    0.0000403 
   0.012353077    -0.3444884    0.8340827    -0.0010553   -0.0001483     0.0001360   -0.0000484     0.0001664    0.0000349 
   0.012453102    -0.3313789    0.8455545    -0.0006368   -0.0013744     0.0000138   -0.0001093     0.0007728   -0.0002554 
   0.012553127    -0.2947988    0.8703523    -0.0002197   -0.0001733    -0.0001055   -0.0004832     0.0002904   -0.0002906 
   0.012653152    -0.2641988    0.8742127    -0.0008110   -0.0002329     0.0000892   -0.0000770     0.0002901   -0.0000562 
   0.012753177    -0.2268431    0.8863249    -0.0004647    0.0009484     0.0001792   -0.0001979     0.0000763   -0.0000148 
   0.012853202    -0.1973975    0.8743349     0.0007187   -0.0005710    -0.0001153    0.0001306     0.0002970    0.0003908 
   0.012953227    -0.1658093    0.8939035     0.0002912   -0.0004467    -0.0003236   -0.0001814     0.0009384    0.0001463 
   0.013053252    -0.1452448    0.9219804    -0.0000323   -0.0014479    -0.0000489   -0.0000944     0.0006248    0.0001142 
   0.013153277    -0.1162246    0.9145216    -0.0001975   -0.0008418     0.0002257   -0.0001661    -0.0001062   -0.0002355 
   0.013253302    -0.0804689    0.9191148    -0.0010261    0.0006214    -0.0000393   -0.0001290     0.0004950   -0.0000885 
   0.013353327    -0.0607458    0.9234502    -0.0003525    0.0010078    -0.0003713   -0.0003978     0.0001126   -0.0001301 
   0.013453352    -0.0157855    0.9123425    -0.0004161    0.0001393     0.0005215   -0.0001275     0.0002594   -0.0001893 
   0.013553377     0.0198129    0.9071695     0.0003248    0.0000436     0.0000591    0.0000107     0.0005311   -0.0001582 
   0.013653402     0.0502565    0.9069244    -0.0006435    0.0000600    -0.0000754   -0.0002519     0.0004260    0.0001494 
   0.013753427     0.0720367    0.9235713     0.0004651   -0.0000853     0.0004528   -0.0001344     0.0004008    0.0000071 
   0.013853452     0.0984667    0.9263127     0.0009709    0.0001756    -0.0001218    0.0003710     0.0004100   -0.0000976 
   0.013953477     0.1430065    0.9076725    -0.0013115   -0.0004733    -0.0002989    0.0000188     0.0006705    0.0004342 
   0.014053502     0.1760686    0.9078756    -0.0006162    0.0006537    -0.0000353   -0.0000419    -0.0003719   -0.0000802 
   0.014153527     0.1997198    0.9033669     0.0006754   -0.0004650     0.0003491    0.0000962     0.0005307    0.0001734 
   0.014253552     0.2241803    0.8962974    -0.0003371    0.0003531    -0.0002354    0.0000834     0.0004824   -0.0002253 
   0.014353577     0.2546688    0.8686980    -0.0011088    0.0009770    -0.0002282    0.0001353     0.0008516    0.0000849 
   0.014453602     0.2833215    0.8746014     0.0003714   -0.0011304    -0.0002045    0.0004849     0.0002760   -0.0000710 
   0.014553627     0.3157719    0.8690591    -0.0000648   -0.0003416    -0.0000387   -0.0000434     0.0001248    0.0001066 
   0.014653652     0.3433113    0.8432310     0.0001831   -0.0010915     0.0000838    0.0002536     0.0002787   -0.0000971 
   0.014753677     0.3717389    0.8263543     0.0000054    0.0008438    -0.0004926    0.0001269     0.0005614   -0.0000911 
   0.014853702     0.3892041    0.8328699     0.0003463    0.0002969     0.0000007   -0.0003119     0.0002922   -0.0002549 
   0.014953727     0.4300104    0.8162308    -0.0000054    0.0005213     0.0000259    0.0000811     0.0004867    0.0002321 
   0.015053752     0.4327077    0.8055887     0.0006207   -0.0011779     0.0001510   -0.0002107     0.0003183    0.0001491 
   0.015153777     0.4590888    0.7813885     0.0008190    0.0004610     0.0000308   -0.0001521     0.0002739   -0.0000943 
   0.015253802     0.4983611    0.7810852     0.0003742   -0.0005829    -0.0002124    0.0002218     0.0003793    0.0001635 
   0.015353827     0.5184534    0.7658781    -0.0006882    0.0013688     0.0001869    0.0004341     0.0009267    0.0000375 
   0.015453852     0.5307248    0.7447824    -0.0011076   -0.0002430     0.0004320   -0.0000125     0.0001636   -0.0000949 
   0.015553877     0.5811022    0.7370215    -0.0000953   -0.0005781     0.0001724   -0.0002664     0.0006079    0.0002039 
   0.015653902     0.5865672    0.7197483    -0.0001508    0.0009256     0.0000611   -0.0004622     0.0000337   -0.0001935 
