! 26-Feb-26 11:05:29 AM
! E:\VNA_MEASUREMENTS\LONGCAB_SPDT1_OPENSHORT\LONGCABSPDT1RF2_SHORT_1.S2P
! CHANNEL.1
! TR.MEASUREMENT
! CORRECTED.DATA
# GHZ S RI R 50.0
! FREQ.GHZ         S11RE         S11IM         S21RE         S21IM         S12RE         S12IM         S22RE         S22IM         
!; PortSelection: Port_12
   0.000050000     0.1309092    0.0004856     0.1814013    0.4249672    -0.0030184    0.0022791    -0.0194314    0.0430565 
   0.000150025    -0.1216891    0.0388729     0.2145763   -0.3371613     0.0001805   -0.0005771     0.0017492   -0.0014937 
   0.000250050     1.2037470    1.5755290     0.1784886   -0.6922665     0.0005231   -0.0019146     0.0003255   -0.0010614 
   0.000350075     1.0284230   -0.1607262    -0.0003716   -0.0134610     0.0004996   -0.0001598    -0.0012452    0.0001184 
   0.000450100     0.9988612   -0.1314702     0.0002613   -0.0087081     0.0008096    0.0001631    -0.0005820   -0.0012382 
   0.000550125     0.9952605   -0.1833045    -0.0090663   -0.0092293    -0.0005576    0.0012810     0.0002054    0.0003998 
   0.000650150     0.9660007   -0.1690330    -0.0037607   -0.0088750    -0.0004021   -0.0002157     0.0008972   -0.0010778 
   0.000750175     0.9430460   -0.2389925    -0.0095783   -0.0094311     0.0002743   -0.0005005    -0.0009369   -0.0001978 
   0.000850200     0.9042205   -0.2759295    -0.0059312   -0.0073434     0.0003407   -0.0000314    -0.0007864    0.0001244 
   0.000950225     0.9755880   -0.3072491    -0.0124647    0.0003519     0.0001905   -0.0003996     0.0008174    0.0009753 
   0.001050250     0.9147342   -0.3458638    -0.0112086   -0.0024426     0.0001628   -0.0005456    -0.0005009    0.0001545 
   0.001150275     0.9204312   -0.3651030    -0.0100464   -0.0041645     0.0005317    0.0001424     0.0009777   -0.0002926 
   0.001250300     0.9192357   -0.3188200    -0.0123357   -0.0058553    -0.0004067   -0.0003663     0.0013057    0.0001069 
   0.001350325     0.9145181   -0.3891234    -0.0082677   -0.0048773     0.0005349    0.0004848    -0.0001610   -0.0003254 
   0.001450350     0.9074714   -0.4109860    -0.0074434   -0.0023395     0.0002261    0.0004910     0.0004978    0.0010838 
   0.001550375     0.8885527   -0.4319371    -0.0090764   -0.0019195     0.0003217   -0.0001774     0.0013135    0.0001732 
   0.001650400     0.9298654   -0.4711557    -0.0104214    0.0010601     0.0009120    0.0000915    -0.0007456   -0.0003775 
   0.001750425     0.8034024   -0.4819491    -0.0095994    0.0019698     0.0005100   -0.0004543     0.0004558   -0.0011425 
   0.001850450     0.8479988   -0.4982609    -0.0048352    0.0040438    -0.0007039   -0.0009187     0.0002885    0.0009201 
   0.001950475     0.9003002   -0.5073686    -0.0079141    0.0026619    -0.0009194   -0.0000066     0.0003499   -0.0001044 
   0.002050500     0.8290821   -0.5440981    -0.0065143    0.0013506    -0.0004904   -0.0003921     0.0009577   -0.0003630 
   0.002150525     0.7971857   -0.5908227    -0.0027192    0.0042017    -0.0005681    0.0009027     0.0003176   -0.0000565 
   0.002250550     0.7777935   -0.5624569    -0.0052466    0.0032896    -0.0003110    0.0003150     0.0005230   -0.0004437 
   0.002350575     0.7496045   -0.6117362    -0.0033701    0.0039171     0.0003960   -0.0008607    -0.0000086   -0.0007380 
   0.002450600     0.7476699   -0.6578065    -0.0037032    0.0046796    -0.0005432    0.0000017     0.0005670    0.0006216 
   0.002550625     0.7707094   -0.6743134    -0.0054555    0.0042158    -0.0005400   -0.0008917     0.0003896    0.0010470 
   0.002650650     0.7637394   -0.7028671    -0.0015107    0.0021473    -0.0004809   -0.0004893    -0.0005124    0.0005897 
   0.002750675     0.7475908   -0.6957328    -0.0006320    0.0025662     0.0003219   -0.0003263    -0.0004866    0.0000251 
   0.002850700     0.6599061   -0.7202505    -0.0006675    0.0035595     0.0002622   -0.0004332    -0.0003535   -0.0000208 
   0.002950725     0.6403306   -0.7167704    -0.0028892    0.0037812    -0.0003244   -0.0001305     0.0006744    0.0000463 
   0.003050750     0.6326606   -0.7626199    -0.0005787    0.0025977    -0.0001752    0.0004672     0.0007942   -0.0003885 
   0.003150775     0.5693261   -0.7598468    -0.0014435    0.0037031    -0.0004365   -0.0000982    -0.0007940    0.0002911 
   0.003250800     0.5861517   -0.8085473    -0.0019015    0.0024156    -0.0001023    0.0004110    -0.0000485   -0.0001366 
   0.003350825     0.5441041   -0.8133144     0.0007246    0.0017969     0.0000617   -0.0002560    -0.0003839    0.0002924 
   0.003450850     0.4927940   -0.8264614     0.0015059    0.0004417    -0.0003801    0.0002221    -0.0004868   -0.0006544 
   0.003550875     0.4823635   -0.8088219    -0.0006921    0.0006738    -0.0004251   -0.0000456     0.0004163    0.0001067 
   0.003650900     0.4978369   -0.8584504     0.0003609    0.0033495     0.0003313   -0.0003048     0.0002467   -0.0004781 
   0.003750925     0.4297087   -0.8611076    -0.0021433   -0.0002836    -0.0002786   -0.0000705     0.0005100   -0.0002399 
   0.003850950     0.4238707   -0.8949799    -0.0004543    0.0022440     0.0000571    0.0003326     0.0001535    0.0005123 
   0.003950975     0.4089420   -0.9086269    -0.0013626   -0.0004354    -0.0002467   -0.0002527    -0.0005269   -0.0003716 
   0.004051001     0.3451035   -0.9048288     0.0007393    0.0026138     0.0000643    0.0002076     0.0000509   -0.0000823 
   0.004151026     0.3235979   -0.9491604    -0.0008564    0.0011831     0.0005574   -0.0000303    -0.0004018   -0.0004587 
   0.004251051     0.2864352   -0.9213036     0.0005056    0.0012512    -0.0002030   -0.0003474    -0.0005566   -0.0009205 
   0.004351076     0.2766208   -0.9513258     0.0013023    0.0000645    -0.0002575   -0.0000125     0.0012268    0.0001925 
   0.004451101     0.2165177   -0.9810715    -0.0017451    0.0005104     0.0000305   -0.0003031     0.0005137   -0.0002388 
   0.004551126     0.1763222   -0.9678742    -0.0008003    0.0013584     0.0001396   -0.0001296     0.0001177    0.0004369 
   0.004651151     0.1600590   -0.9581655    -0.0019403    0.0001914    -0.0000864   -0.0003416     0.0000566    0.0001574 
   0.004751176     0.1331464   -0.9663301    -0.0009185    0.0008323     0.0001724   -0.0001762    -0.0000879    0.0002387 
   0.004851201     0.1137107   -0.9445770    -0.0004335   -0.0007149    -0.0003593    0.0001131     0.0004662    0.0008597 
   0.004951226     0.0905581   -0.9794146    -0.0003332    0.0000385    -0.0000362    0.0001852     0.0003031   -0.0004688 
   0.005051251     0.0264882   -0.9872089     0.0003963   -0.0005341    -0.0000652    0.0001358     0.0004021   -0.0002204 
   0.005151276     0.0111613   -0.9804512    -0.0001775    0.0000816    -0.0001533   -0.0000597     0.0004026    0.0000160 
   0.005251301    -0.0271482   -0.9832832     0.0008217    0.0008519    -0.0000146   -0.0003211     0.0001133    0.0008164 
   0.005351326    -0.0378465   -0.9655080     0.0013027    0.0004017    -0.0001336   -0.0000757     0.0004499    0.0003324 
   0.005451351    -0.0917633   -0.9782920     0.0001275    0.0005057     0.0003282    0.0001640     0.0002015   -0.0001175 
   0.005551376    -0.1435819   -0.9621912    -0.0008770    0.0001190     0.0000647    0.0000895     0.0000915   -0.0004715 
   0.005651401    -0.1551848   -0.9616262    -0.0001471    0.0008943     0.0001471   -0.0001716     0.0003349   -0.0006400 
   0.005751426    -0.1942807   -0.9536510     0.0004307    0.0005904    -0.0000681    0.0001843     0.0003062    0.0003355 
   0.005851451    -0.2426284   -0.9374651     0.0004803   -0.0005909    -0.0001851    0.0001626     0.0000489   -0.0004521 
   0.005951476    -0.2552189   -0.9438151    -0.0006478    0.0004208    -0.0002227    0.0002627     0.0001892    0.0002724 
   0.006051501    -0.2972110   -0.9244981    -0.0001594   -0.0000364     0.0000962    0.0000793    -0.0000275   -0.0001682 
   0.006151526    -0.3270520   -0.9005035    -0.0001661    0.0000854     0.0000625    0.0000543     0.0005936    0.0000188 
   0.006251551    -0.3588081   -0.9043152     0.0004823    0.0002289    -0.0000108    0.0001357     0.0001357    0.0003457 
   0.006351576    -0.3994641   -0.8831128     0.0002233   -0.0002202     0.0000110   -0.0001187     0.0001255    0.0002019 
   0.006451601    -0.4317456   -0.8664697     0.0004279    0.0003326    -0.0002017    0.0001137    -0.0000842    0.0004255 
   0.006551626    -0.4543680   -0.8521358    -0.0003735    0.0001604    -0.0000744   -0.0001135    -0.0006979    0.0001138 
   0.006651651    -0.4844710   -0.8348182     0.0001033   -0.0000030     0.0000730    0.0000555     0.0001887   -0.0000209 
   0.006751676    -0.5122740   -0.8037826    -0.0000114    0.0007473    -0.0000709    0.0000764     0.0005337   -0.0000415 
   0.006851701    -0.5557234   -0.7867187     0.0002304    0.0000997     0.0001083    0.0001064     0.0000449    0.0000560 
   0.006951726    -0.5725861   -0.7656303    -0.0002115    0.0000937    -0.0001070    0.0000742     0.0005619    0.0003830 
   0.007051751    -0.6061208   -0.7519924    -0.0001656    0.0001692    -0.0000132    0.0000433     0.0003284   -0.0000283 
   0.007151776    -0.6273775   -0.7158502    -0.0001039   -0.0000642     0.0001022    0.0001207     0.0007866    0.0002726 
   0.007251801    -0.6605203   -0.7005613     0.0000291    0.0002950     0.0000400   -0.0000514     0.0000926   -0.0001457 
   0.007351826    -0.6790529   -0.6803131    -0.0005710    0.0001298    -0.0001308   -0.0000090     0.0008611    0.0002953 
   0.007451851    -0.7020902   -0.6338076    -0.0003525   -0.0001533    -0.0000880    0.0000004     0.0007286    0.0002797 
   0.007551876    -0.7313649   -0.6124291     0.0006211    0.0000406    -0.0001091   -0.0000156    -0.0001247   -0.0000673 
   0.007651901    -0.7529935   -0.5769745     0.0000710   -0.0000147     0.0000741   -0.0000460     0.0001750    0.0003308 
   0.007751926    -0.7741964   -0.5554380    -0.0003169   -0.0001072     0.0000270   -0.0000068    -0.0001460   -0.0005953 
   0.007851951    -0.7909912   -0.5242010    -0.0000553   -0.0000501    -0.0000501   -0.0001237     0.0000165   -0.0000165 
   0.007951976    -0.8112072   -0.4814539    -0.0004057    0.0002310    -0.0001469    0.0000153     0.0001583    0.0007401 
   0.008052001    -0.8306875   -0.4538051    -0.0001983    0.0001804    -0.0000644    0.0000918     0.0001677    0.0001111 
   0.008152026    -0.8442731   -0.4221300    -0.0001247    0.0002855    -0.0000023    0.0000278     0.0006804    0.0000893 
   0.008252051    -0.8641391   -0.3912488     0.0002419    0.0000948     0.0000534   -0.0000193     0.0006222    0.0002424 
   0.008352076    -0.8842955   -0.3459471    -0.0004780    0.0000846     0.0000752    0.0000186     0.0013441   -0.0000895 
   0.008452101    -0.8902138   -0.3159184    -0.0001910   -0.0002366    -0.0001112   -0.0000057     0.0001235   -0.0002301 
   0.008552126    -0.9004824   -0.2829579    -0.0006807   -0.0001530    -0.0000243    0.0001424    -0.0000146    0.0007795 
   0.008652151    -0.9093784   -0.2455311     0.0000136    0.0000365    -0.0000451   -0.0000239     0.0000257    0.0001574 
   0.008752176    -0.9128422   -0.2062587     0.0001021    0.0002000     0.0000415   -0.0000066    -0.0008328   -0.0007428 
   0.008852201    -0.9207106   -0.1773931     0.0007210   -0.0004050    -0.0000824   -0.0000743     0.0007819    0.0001787 
   0.008952226    -0.9298142   -0.1410019    -0.0000146    0.0001985     0.0000896   -0.0000390     0.0003834   -0.0002567 
   0.009052251    -0.9335450   -0.1013319    -0.0003540   -0.0003710    -0.0001638   -0.0001393     0.0002991    0.0000242 
   0.009152276    -0.9324030   -0.0643680     0.0002624   -0.0002272     0.0000860    0.0000378     0.0003194    0.0000787 
   0.009252301    -0.9390829   -0.0186908     0.0001551   -0.0005554     0.0000757   -0.0000128     0.0000848   -0.0000563 
   0.009352326    -0.9321674    0.0098008     0.0000134   -0.0001525     0.0000255   -0.0001373     0.0000381   -0.0004308 
   0.009452351    -0.9319948    0.0536860     0.0001177    0.0005945     0.0000333    0.0000114     0.0003473   -0.0000958 
   0.009552376    -0.9277251    0.0902106     0.0001251    0.0000287     0.0000672    0.0000745     0.0003397    0.0002412 
   0.009652401    -0.9241516    0.1178884     0.0000474   -0.0003304    -0.0000902    0.0000070    -0.0001869    0.0002910 
   0.009752426    -0.9152444    0.1575357     0.0000122   -0.0000397     0.0000180   -0.0000310     0.0005329    0.0005594 
   0.009852451    -0.9056156    0.1964863     0.0002073    0.0000536    -0.0000003    0.0000322     0.0001025   -0.0001820 
   0.009952476    -0.8933396    0.2350858     0.0003544    0.0001792    -0.0000894   -0.0001061     0.0001434   -0.0001589 
   0.010052501    -0.8898722    0.2628591     0.0011284   -0.0007327     0.0002350   -0.0000546     0.0002370   -0.0002831 
   0.010152526    -0.8727307    0.3072805     0.0000236   -0.0006962    -0.0001364    0.0000672     0.0004643    0.0001445 
   0.010252551    -0.8530928    0.3344201     0.0005977   -0.0001110    -0.0001682   -0.0000048     0.0000322    0.0001881 
   0.010352576    -0.8412379    0.3710296     0.0001564   -0.0011403    -0.0000593    0.0001986     0.0002399    0.0001717 
   0.010452601    -0.8270232    0.4009267     0.0005400   -0.0002774     0.0000742    0.0000778     0.0002666   -0.0001555 
   0.010552626    -0.8175366    0.4348267     0.0000687    0.0007275     0.0000585   -0.0002384     0.0002936   -0.0000235 
   0.010652651    -0.7963300    0.4610270    -0.0001200    0.0002246     0.0000034    0.0001906     0.0003418   -0.0000639 
   0.010752676    -0.7830715    0.4844377     0.0000248    0.0000841     0.0001713   -0.0000378     0.0001698    0.0000463 
   0.010852701    -0.7470475    0.5150111     0.0000970    0.0002611    -0.0001203   -0.0000178    -0.0001037    0.0003960 
   0.010952726    -0.7352512    0.5508018     0.0000549    0.0003706    -0.0001323   -0.0000266    -0.0004344   -0.0001281 
   0.011052751    -0.7077732    0.5818709    -0.0003706    0.0005745    -0.0001490   -0.0002221     0.0004513    0.0004751 
   0.011152776    -0.6908524    0.6019427    -0.0006708   -0.0003091    -0.0000800    0.0002296    -0.0000869    0.0003790 
   0.011252801    -0.6713104    0.6268830    -0.0004103   -0.0006121     0.0000493    0.0001664    -0.0001181    0.0002063 
   0.011352826    -0.6373618    0.6543880     0.0003207    0.0000390    -0.0000937    0.0003080     0.0003932   -0.0001299 
   0.011452851    -0.6172742    0.6822807     0.0010509   -0.0010265     0.0003797   -0.0002158     0.0004356    0.0000444 
   0.011552876    -0.5895334    0.7056758     0.0002746    0.0004312    -0.0000617   -0.0001443     0.0002921    0.0001582 
   0.011652901    -0.5670663    0.7220775     0.0005246    0.0002680     0.0002001    0.0001852     0.0002415    0.0006503 
   0.011752926    -0.5287306    0.7585586     0.0004684   -0.0003458    -0.0001474   -0.0000925     0.0001189    0.0001369 
   0.011852951    -0.5161571    0.7573933    -0.0007608    0.0012640     0.0000267   -0.0004066     0.0001963    0.0006047 
   0.011952976    -0.4902361    0.7785391    -0.0005221   -0.0001097    -0.0001255    0.0001729     0.0001304    0.0003137 
   0.012053002    -0.4430943    0.7983495    -0.0006060    0.0005294     0.0002039    0.0001675     0.0006713    0.0003227 
   0.012153027    -0.4201193    0.8086187    -0.0007148    0.0004329     0.0000086    0.0000297     0.0004741    0.0000063 
   0.012253052    -0.3927533    0.8337011     0.0000321   -0.0009232    -0.0001154    0.0000366     0.0004420    0.0003845 
   0.012353077    -0.3558780    0.8432169    -0.0008854   -0.0007381     0.0001649    0.0001568     0.0001869    0.0000903 
   0.012453102    -0.3280131    0.8512372    -0.0002010   -0.0001640     0.0003414    0.0000001    -0.0000256    0.0000739 
   0.012553127    -0.2969150    0.8693970    -0.0008729   -0.0005399    -0.0003831   -0.0002818     0.0004408   -0.0000014 
   0.012653152    -0.2665914    0.8647962     0.0005158    0.0006127     0.0003117   -0.0001766     0.0000806   -0.0001140 
   0.012753177    -0.2292742    0.8820674    -0.0005948   -0.0008883     0.0002689    0.0005215     0.0000975   -0.0002512 
   0.012853202    -0.2123786    0.8783830     0.0004328    0.0003038     0.0000602   -0.0001817     0.0005670    0.0004901 
   0.012953227    -0.1746873    0.8879968    -0.0001529   -0.0011959    -0.0000719    0.0002825     0.0001112    0.0001882 
   0.013053252    -0.1248958    0.9086659     0.0004312    0.0001767    -0.0003954    0.0000653     0.0003137   -0.0001462 
   0.013153277    -0.1148903    0.9077234    -0.0011107    0.0001077    -0.0002841    0.0000070     0.0001456    0.0001679 
   0.013253302    -0.0762558    0.9025894     0.0002298    0.0011314    -0.0000088    0.0000186     0.0002393   -0.0004094 
   0.013353327    -0.0414003    0.9093083     0.0014157   -0.0006994     0.0000735    0.0001124     0.0002379   -0.0002114 
   0.013453352    -0.0136076    0.9018216     0.0016400   -0.0010708    -0.0004705   -0.0003019     0.0002541   -0.0003447 
   0.013553377     0.0151639    0.9075987     0.0002442    0.0012169     0.0002425   -0.0001133     0.0000743   -0.0001039 
   0.013653402     0.0378132    0.9049615    -0.0004461    0.0009029    -0.0001785    0.0000899     0.0005830    0.0001136 
   0.013753427     0.0698350    0.9198888     0.0011615   -0.0000629    -0.0002518   -0.0002201     0.0002071    0.0004823 
   0.013853452     0.1058294    0.9270040    -0.0003792    0.0009134    -0.0000727    0.0002708     0.0008489    0.0001142 
   0.013953477     0.1407020    0.9064240     0.0000572    0.0023748    -0.0001710    0.0000068     0.0005017    0.0001887 
   0.014053502     0.1721775    0.9125949    -0.0004119   -0.0003204    -0.0004105    0.0000266     0.0001546    0.0000517 
   0.014153527     0.1946565    0.8998788    -0.0000117   -0.0009301     0.0000417    0.0001431     0.0003162    0.0001826 
   0.014253552     0.2137740    0.8968892     0.0016916   -0.0002887     0.0002513   -0.0003004     0.0004465   -0.0003741 
   0.014353577     0.2661638    0.8780536    -0.0000722   -0.0005257     0.0001293   -0.0002280     0.0007688    0.0004299 
   0.014453602     0.2898029    0.8784004     0.0005765    0.0004624     0.0001192    0.0001526     0.0000962   -0.0003167 
   0.014553627     0.3013183    0.8603242    -0.0016338   -0.0000544     0.0003871   -0.0002239     0.0004952   -0.0002418 
   0.014653652     0.3448102    0.8545867    -0.0013052   -0.0009601    -0.0002400   -0.0002680     0.0003238   -0.0001037 
   0.014753677     0.3799951    0.8314795     0.0007025    0.0000656     0.0000752   -0.0002259     0.0004372    0.0000166 
   0.014853702     0.3859734    0.8254787     0.0007774    0.0007627     0.0005009   -0.0000242     0.0005162    0.0001859 
   0.014953727     0.4292271    0.8175324    -0.0010200   -0.0002683     0.0003833   -0.0003054     0.0001717    0.0000189 
   0.015053752     0.4473195    0.7971014     0.0001964    0.0003409    -0.0001099    0.0002651     0.0003356    0.0002671 
   0.015153777     0.4669068    0.7837288     0.0004763    0.0001920    -0.0002449   -0.0003173     0.0004688   -0.0002689 
   0.015253802     0.4825576    0.7752257     0.0005069    0.0000600     0.0001526   -0.0001438     0.0002670    0.0000953 
   0.015353827     0.5159763    0.7539407    -0.0005058    0.0001421     0.0001037   -0.0001776     0.0006141    0.0002582 
   0.015453852     0.5429625    0.7518268     0.0007245   -0.0003010    -0.0001040   -0.0001272     0.0003664    0.0001441 
   0.015553877     0.5788345    0.7365004    -0.0009674   -0.0004355     0.0003015    0.0001239     0.0006898    0.0000952 
   0.015653902     0.5927971    0.7039034     0.0010485    0.0000087    -0.0001929   -0.0001653     0.0001951    0.0002133 
