! 26-Feb-26 11:06:32 AM
! E:\VNA_MEASUREMENTS\LONGCAB_SPDT1_OPENSHORT\LONGCABSPDT1RF1_OPEN_2.S2P
! CHANNEL.1
! TR.MEASUREMENT
! CORRECTED.DATA
# GHZ S RI R 50.0
! FREQ.GHZ         S11RE         S11IM         S21RE         S21IM         S12RE         S12IM         S22RE         S22IM         
!; PortSelection: Port_12
   0.000050000     0.3006015    0.6783414    -0.1306728    0.7496879     0.0007314   -0.0000812    -0.0009292    0.0095513 
   0.000150025     0.1233163    0.2346006    -0.1199311   -0.2876775    -0.0006436    0.0002283     0.0013960   -0.0009211 
   0.000250050     0.0164212   -0.2348894     0.3533776    0.3094945     0.0001611   -0.0006757    -0.0002728   -0.0029308 
   0.000350075     0.9918654   -0.1274487    -0.0013662   -0.0080354    -0.0004404    0.0000489     0.0004431    0.0016642 
   0.000450100     0.9745201   -0.1333030    -0.0024248   -0.0077740     0.0003394   -0.0005612     0.0007136   -0.0016850 
   0.000550125     0.9920183   -0.1438932    -0.0055935   -0.0117851    -0.0000106    0.0007372    -0.0001047    0.0002111 
   0.000650150     0.9787148   -0.1884107    -0.0088262   -0.0125485    -0.0006106   -0.0013209     0.0008463   -0.0012122 
   0.000750175     0.9478660   -0.2108576    -0.0087418   -0.0081882     0.0003052    0.0004770    -0.0003203    0.0000040 
   0.000850200     0.9709333   -0.2456537    -0.0108779   -0.0036372     0.0007890    0.0004390    -0.0006545    0.0017628 
   0.000950225     0.9481460   -0.2761568    -0.0064754   -0.0062472    -0.0002660    0.0015207    -0.0004439    0.0018725 
   0.001050250     0.9658510   -0.2771165    -0.0108631   -0.0024528    -0.0007149   -0.0011446     0.0001854   -0.0000842 
   0.001150275     0.9510729   -0.3371823    -0.0108558   -0.0055786    -0.0001295    0.0015333     0.0007296    0.0008350 
   0.001250300     0.9155810   -0.2904405    -0.0115790   -0.0049363    -0.0000945    0.0000313     0.0004432    0.0008392 
   0.001350325     0.9283646   -0.3761282    -0.0077938    0.0008229     0.0001596    0.0004309     0.0001251   -0.0000680 
   0.001450350     0.9001477   -0.3976184    -0.0117542   -0.0012531     0.0004752    0.0003553    -0.0004961    0.0001912 
   0.001550375     0.8875930   -0.3890898    -0.0034748    0.0014744    -0.0003317   -0.0007758     0.0009515   -0.0002291 
   0.001650400     0.8900316   -0.3912858    -0.0077388   -0.0014849    -0.0002046   -0.0002896     0.0000365   -0.0004807 
   0.001750425     0.8638892   -0.4247474    -0.0086449    0.0017558    -0.0002773   -0.0003039     0.0001590    0.0001644 
   0.001850450     0.8468341   -0.4606494    -0.0081051    0.0002136    -0.0006872   -0.0000965    -0.0002059    0.0010297 
   0.001950475     0.8623778   -0.4572954    -0.0076632    0.0049625    -0.0003868   -0.0000498     0.0008274   -0.0000027 
   0.002050500     0.8509849   -0.4760790    -0.0056077    0.0025713    -0.0006477    0.0001814     0.0010072   -0.0008384 
   0.002150525     0.8284109   -0.4816806    -0.0062714    0.0055472     0.0001085   -0.0003962     0.0002055    0.0002065 
   0.002250550     0.8158557   -0.5064738    -0.0044354    0.0000878    -0.0000389   -0.0001575    -0.0002847   -0.0003298 
   0.002350575     0.7734288   -0.5507194    -0.0036880    0.0018056     0.0003634   -0.0007170    -0.0004468   -0.0009113 
   0.002450600     0.8102595   -0.6148990    -0.0038929    0.0018848     0.0000794   -0.0001544    -0.0008195    0.0006123 
   0.002550625     0.7667267   -0.6107092    -0.0021139    0.0035463     0.0004571    0.0003377     0.0005925    0.0009269 
   0.002650650     0.7758474   -0.6253130    -0.0047427    0.0040215     0.0002837    0.0013090    -0.0002202    0.0001062 
   0.002750675     0.7778218   -0.6396810    -0.0004942    0.0036151    -0.0002359   -0.0009920     0.0002725   -0.0003087 
   0.002850700     0.7275187   -0.6684372    -0.0008669    0.0018311     0.0004342    0.0006165    -0.0004058   -0.0001819 
   0.002950725     0.7064809   -0.6282637    -0.0022081    0.0038823    -0.0000565    0.0001094     0.0000475    0.0004503 
   0.003050750     0.6803463   -0.6944665    -0.0030645    0.0041597    -0.0000819   -0.0005078     0.0003411   -0.0001439 
   0.003150775     0.6493097   -0.7316394    -0.0009431    0.0022940     0.0002285   -0.0000875    -0.0003065   -0.0008894 
   0.003250800     0.6446565   -0.7105461    -0.0002010    0.0030353     0.0003736   -0.0000223     0.0004763    0.0000950 
   0.003350825     0.6527444   -0.7419981    -0.0020754    0.0036721    -0.0005380    0.0000410    -0.0006633    0.0005292 
   0.003450850     0.5647975   -0.7552133     0.0003481    0.0036791     0.0006469    0.0004732     0.0006849   -0.0012501 
   0.003550875     0.5696639   -0.7583923     0.0019392    0.0033738    -0.0001333    0.0001058    -0.0001722   -0.0004103 
   0.003650900     0.5748551   -0.8106881    -0.0005372    0.0025280     0.0004324   -0.0005538     0.0004021    0.0000067 
   0.003750925     0.5147547   -0.8167163     0.0000900   -0.0006129     0.0000002   -0.0000009     0.0004759    0.0000527 
   0.003850950     0.5032530   -0.8168659    -0.0000070    0.0020645     0.0003001    0.0001197    -0.0001969    0.0007198 
   0.003950975     0.5265697   -0.8402103    -0.0008573    0.0022309    -0.0001980   -0.0001730     0.0004301   -0.0004602 
   0.004051001     0.4570791   -0.8349223     0.0005281    0.0011348    -0.0000131    0.0003677     0.0002475   -0.0001759 
   0.004151026     0.4389137   -0.8587626    -0.0008251    0.0033686    -0.0002111   -0.0003608     0.0001744   -0.0003267 
   0.004251051     0.4206759   -0.8686376    -0.0002958    0.0024289    -0.0004347   -0.0000234    -0.0000778   -0.0001353 
   0.004351076     0.4254824   -0.8739569    -0.0005890   -0.0005056    -0.0002304   -0.0001787     0.0005960    0.0004087 
   0.004451101     0.3525123   -0.9083443    -0.0005638   -0.0002194     0.0001440   -0.0008457     0.0010286   -0.0002894 
   0.004551126     0.3526921   -0.9282180    -0.0005073    0.0006967    -0.0000226   -0.0001203    -0.0005759    0.0004825 
   0.004651151     0.3215213   -0.9069610     0.0017737    0.0013472    -0.0002163    0.0003177     0.0008998    0.0000218 
   0.004751176     0.2747975   -0.9166841    -0.0020730    0.0012338    -0.0000270   -0.0003578     0.0001193   -0.0001061 
   0.004851201     0.2435764   -0.9053496     0.0005655    0.0004500     0.0001180    0.0001065     0.0002921    0.0003299 
   0.004951226     0.2408150   -0.9484364     0.0001744    0.0023435    -0.0000071    0.0001123     0.0002821   -0.0001239 
   0.005051251     0.1866847   -0.9658866     0.0005546    0.0001385     0.0001234   -0.0002614     0.0002520   -0.0002452 
   0.005151276     0.1853412   -0.9453918    -0.0000752    0.0007213     0.0001910    0.0000290    -0.0001769   -0.0000141 
   0.005251301     0.1459605   -0.9557093    -0.0000030    0.0007223    -0.0005003    0.0000238     0.0005449    0.0005263 
   0.005351326     0.1330304   -0.9371429     0.0016218    0.0011663    -0.0000826    0.0000614     0.0005923    0.0003730 
   0.005451351     0.0996094   -0.9745243    -0.0003043    0.0008962     0.0003032   -0.0001904    -0.0002333    0.0002276 
   0.005551376     0.0409649   -0.9742853     0.0006010    0.0004107     0.0002230   -0.0001685     0.0000566   -0.0006810 
   0.005651401     0.0367155   -0.9688184    -0.0001649    0.0008645    -0.0002568    0.0000181     0.0000062   -0.0004725 
   0.005751426     0.0029585   -0.9558511    -0.0006109    0.0004251     0.0001939   -0.0000826     0.0006606   -0.0000022 
   0.005851451    -0.0499393   -0.9614307     0.0000259    0.0008401     0.0000924    0.0001031     0.0002051   -0.0000065 
   0.005951476    -0.0542509   -0.9602267     0.0006584    0.0010605    -0.0000159    0.0001643     0.0000314    0.0001393 
   0.006051501    -0.0894534   -0.9581037     0.0002330   -0.0000434     0.0001489   -0.0000861    -0.0003000   -0.0000241 
   0.006151526    -0.1194495   -0.9434600     0.0003683    0.0008873     0.0001180    0.0000125     0.0002269   -0.0005233 
   0.006251551    -0.1438252   -0.9524706    -0.0006255    0.0001780    -0.0001919    0.0002823    -0.0002344    0.0003130 
   0.006351576    -0.1902742   -0.9506285    -0.0003253   -0.0008084     0.0001870   -0.0000115     0.0002727   -0.0004126 
   0.006451601    -0.2179993   -0.9281487    -0.0000406    0.0000662    -0.0001209   -0.0000239     0.0006383    0.0003893 
   0.006551626    -0.2365464   -0.9340097    -0.0002737    0.0000371    -0.0000135   -0.0002279    -0.0008307    0.0001675 
   0.006651651    -0.2580431   -0.9227441     0.0005439    0.0002503    -0.0002254   -0.0001725    -0.0000075   -0.0000708 
   0.006751676    -0.2986127   -0.8999259    -0.0002416   -0.0003813    -0.0001150   -0.0000342     0.0008359    0.0004791 
   0.006851701    -0.3392500   -0.8890594     0.0002965   -0.0008745     0.0000618    0.0000367    -0.0003271    0.0002307 
   0.006951726    -0.3607535   -0.8796723    -0.0005220    0.0003007    -0.0000995    0.0001714     0.0005432    0.0009382 
   0.007051751    -0.3920823   -0.8843872    -0.0002216   -0.0003664    -0.0001335   -0.0000545     0.0004729   -0.0001425 
   0.007151776    -0.4174856   -0.8522322    -0.0006365    0.0005564    -0.0001201    0.0000272     0.0003374   -0.0000558 
   0.007251801    -0.4500424   -0.8598682    -0.0000333   -0.0003326     0.0000394   -0.0000647    -0.0001844   -0.0001951 
   0.007351826    -0.4645481   -0.8283864    -0.0001309    0.0004660    -0.0000476   -0.0000940     0.0008271    0.0004621 
   0.007451851    -0.4960205   -0.8059786     0.0003122    0.0003372     0.0001216   -0.0000305     0.0004476    0.0002032 
   0.007551876    -0.5263740   -0.7900547    -0.0001015    0.0004251    -0.0001302   -0.0000890     0.0003923    0.0000044 
   0.007651901    -0.5521963   -0.7658858    -0.0001271    0.0001032     0.0000131   -0.0001234    -0.0003440   -0.0000674 
   0.007751926    -0.5733084   -0.7535872    -0.0002323   -0.0003693    -0.0001492   -0.0002283     0.0000150   -0.0008124 
   0.007851951    -0.5962551   -0.7305920    -0.0001539   -0.0000031    -0.0000468    0.0000098     0.0006479   -0.0000002 
   0.007951976    -0.6259578   -0.6968759     0.0002066    0.0000410     0.0000522    0.0001075     0.0003691    0.0001007 
   0.008052001    -0.6464749   -0.6895736     0.0000446    0.0003783    -0.0000285   -0.0000742     0.0004000    0.0001926 
   0.008152026    -0.6698343   -0.6621567    -0.0001598    0.0001905     0.0000095   -0.0000150     0.0005176    0.0002753 
   0.008252051    -0.6930231   -0.6460267    -0.0000133    0.0001151     0.0001493   -0.0000114     0.0009458    0.0003868 
   0.008352076    -0.7243547   -0.6111510    -0.0000973    0.0004095     0.0000380   -0.0000145     0.0006791   -0.0003176 
   0.008452101    -0.7378479   -0.5943721    -0.0000161   -0.0002361    -0.0000573    0.0000304     0.0004190   -0.0007259 
   0.008552126    -0.7592040   -0.5637644     0.0001161    0.0001066     0.0000128    0.0000400     0.0004897    0.0006351 
   0.008652151    -0.7641186   -0.5418227    -0.0003658    0.0001657     0.0000261    0.0000663     0.0002504    0.0000789 
   0.008752176    -0.7895413   -0.5086061    -0.0002040    0.0000756     0.0000015    0.0000627     0.0001013   -0.0005499 
   0.008852201    -0.8045231   -0.4864196    -0.0001292   -0.0001242    -0.0000208   -0.0000071     0.0005935    0.0001901 
   0.008952226    -0.8213496   -0.4523634     0.0001802    0.0000223    -0.0001189   -0.0001124     0.0006274   -0.0003941 
   0.009052251    -0.8366719   -0.4232753     0.0001440    0.0003966     0.0000341   -0.0000544     0.0002650   -0.0000860 
   0.009152276    -0.8443606   -0.3906685    -0.0006599    0.0004232    -0.0000101   -0.0000281     0.0004483    0.0000856 
   0.009252301    -0.8622553   -0.3577819    -0.0001344   -0.0002320     0.0000547    0.0001314     0.0003403   -0.0002769 
   0.009352326    -0.8761795   -0.3303192    -0.0003075   -0.0001807    -0.0000191    0.0000065     0.0001310    0.0000011 
   0.009452351    -0.8819904   -0.2986965    -0.0005103    0.0003814    -0.0000883   -0.0000535     0.0004590   -0.0001389 
   0.009552376    -0.8970146   -0.2652278    -0.0002324    0.0001098     0.0000167    0.0000137     0.0003398    0.0004709 
   0.009652401    -0.8950038   -0.2376492    -0.0002320   -0.0000202    -0.0000570   -0.0001985     0.0000538    0.0002211 
   0.009752426    -0.9043031   -0.2035738    -0.0001676    0.0002564     0.0001215   -0.0000135     0.0000466    0.0001683 
   0.009852451    -0.9136333   -0.1674863    -0.0002460    0.0000139     0.0000789    0.0001805     0.0001128    0.0001033 
   0.009952476    -0.9150633   -0.1325925    -0.0000046    0.0002407    -0.0000295   -0.0000633     0.0001554    0.0000408 
   0.010052501    -0.9257200   -0.1024629     0.0001258    0.0001718     0.0000775   -0.0000446     0.0002494   -0.0001264 
   0.010152526    -0.9177643   -0.0652957    -0.0006746   -0.0002571     0.0000227   -0.0000136     0.0006114    0.0003320 
   0.010252551    -0.9257797   -0.0348931     0.0006406   -0.0002488     0.0000386   -0.0000470     0.0002881   -0.0002530 
   0.010352576    -0.9244878    0.0009358    -0.0004646   -0.0004573    -0.0002582   -0.0000657     0.0002515   -0.0000588 
   0.010452601    -0.9190201    0.0387167    -0.0004013   -0.0002961    -0.0001386   -0.0000906     0.0002111    0.0000490 
   0.010552626    -0.9198748    0.0643177    -0.0005136    0.0000501    -0.0001609    0.0001246     0.0004471    0.0000406 
   0.010652651    -0.9217281    0.0984334     0.0000837   -0.0006847     0.0000035   -0.0002876     0.0002897    0.0001783 
   0.010752676    -0.9054904    0.1209008    -0.0006736   -0.0008594    -0.0000902    0.0002412     0.0001996   -0.0000825 
   0.010852701    -0.9047554    0.1606220     0.0005886   -0.0002355     0.0000083    0.0001017     0.0002403    0.0000146 
   0.010952726    -0.8925205    0.1905036     0.0002962    0.0006916    -0.0000145    0.0003438     0.0000983   -0.0000506 
   0.011052751    -0.8874063    0.2296354     0.0005965   -0.0002762     0.0000445    0.0001375     0.0006945    0.0000701 
   0.011152776    -0.8814422    0.2565839     0.0008695    0.0002478    -0.0000760   -0.0001790     0.0000255    0.0004549 
   0.011252801    -0.8644996    0.2897470     0.0002343   -0.0002289    -0.0000241    0.0000392     0.0001757    0.0005205 
   0.011352826    -0.8589409    0.3144944     0.0006170    0.0007662     0.0000649    0.0001618     0.0005154   -0.0001018 
   0.011452851    -0.8437783    0.3483593     0.0007027    0.0001505     0.0001914    0.0002919     0.0001847    0.0001080 
   0.011552876    -0.8407421    0.3792503    -0.0002315    0.0000367     0.0001400   -0.0000753     0.0004700   -0.0001887 
   0.011652901    -0.8271249    0.3974254    -0.0006215    0.0001808     0.0002482   -0.0002992     0.0003708    0.0004098 
   0.011752926    -0.8018824    0.4436612     0.0005692   -0.0001445     0.0000465    0.0000229     0.0002341   -0.0001839 
   0.011852951    -0.7870003    0.4607701    -0.0004109    0.0002940     0.0001324    0.0000814     0.0003252    0.0000251 
   0.011952976    -0.7693627    0.4744437     0.0005239    0.0010521    -0.0001735   -0.0001482     0.0004861    0.0004237 
   0.012053002    -0.7552637    0.5231315    -0.0005378    0.0000584    -0.0000744   -0.0000377     0.0006440    0.0005161 
   0.012153027    -0.7435364    0.5475250     0.0007416   -0.0000514    -0.0002665   -0.0002446     0.0004597   -0.0000549 
   0.012253052    -0.7078103    0.5647769    -0.0000084    0.0002221    -0.0001925   -0.0000459     0.0005955    0.0003910 
   0.012353077    -0.6921697    0.5901341     0.0003249    0.0008240     0.0001442    0.0000688     0.0000365    0.0003154 
   0.012453102    -0.6760964    0.6067975    -0.0005560   -0.0000127    -0.0000085   -0.0001686     0.0005823    0.0003043 
   0.012553127    -0.6523724    0.6299360    -0.0001746   -0.0002316     0.0001340    0.0001158     0.0002582   -0.0002390 
   0.012653152    -0.6438336    0.6536562     0.0000902    0.0000721    -0.0001933   -0.0000068     0.0001293    0.0002292 
   0.012753177    -0.6159426    0.6844130    -0.0002081    0.0002811     0.0001253   -0.0000729     0.0000653   -0.0001023 
   0.012853202    -0.5792012    0.6897941     0.0000066    0.0003721    -0.0000090   -0.0002637     0.0003806    0.0004367 
   0.012953227    -0.5674967    0.7122682    -0.0003545    0.0000495    -0.0001019   -0.0001344     0.0004734    0.0001440 
   0.013053252    -0.5394533    0.7282393    -0.0007196    0.0006317    -0.0003810   -0.0000885     0.0002994   -0.0000169 
   0.013153277    -0.5104593    0.7499762     0.0002169    0.0007764     0.0001696   -0.0000283     0.0002252    0.0002590 
   0.013253302    -0.4945268    0.7767879     0.0002837    0.0007576    -0.0001838   -0.0001109     0.0002928   -0.0000108 
   0.013353327    -0.4517040    0.7927469    -0.0003204    0.0000583     0.0003537   -0.0002150     0.0006638   -0.0001421 
   0.013453352    -0.4298490    0.8050641     0.0005713    0.0006397    -0.0000419    0.0002360     0.0003256   -0.0002543 
   0.013553377    -0.4009754    0.8162286    -0.0002181   -0.0004320    -0.0000893   -0.0002254     0.0002326    0.0000922 
   0.013653402    -0.3831286    0.8440835     0.0011739    0.0010669     0.0000160   -0.0001971     0.0002040    0.0000108 
   0.013753427    -0.3435560    0.8365853     0.0002789    0.0000762    -0.0004557   -0.0002867     0.0000424    0.0003973 
   0.013853452    -0.3328142    0.8585615    -0.0006956    0.0007578    -0.0003851   -0.0000930     0.0000332    0.0000527 
   0.013953477    -0.2928272    0.8640000     0.0000875    0.0001254    -0.0001147   -0.0001129     0.0004700    0.0003251 
   0.014053502    -0.2694576    0.8777853    -0.0005009    0.0005541    -0.0000059    0.0002168     0.0002112   -0.0000357 
   0.014153527    -0.2486065    0.8660748    -0.0004219   -0.0004466    -0.0003718   -0.0001447     0.0003723   -0.0000364 
   0.014253552    -0.2255942    0.8762720     0.0002225    0.0009935     0.0005272   -0.0000756     0.0005363   -0.0003667 
   0.014353577    -0.1938215    0.8803942     0.0016171    0.0010968    -0.0000267    0.0000654     0.0005464    0.0000520 
   0.014453602    -0.1501913    0.9064116    -0.0012067   -0.0010064     0.0002669   -0.0000665     0.0001283    0.0000217 
   0.014553627    -0.1297447    0.9045401     0.0011048    0.0003375    -0.0000640    0.0002527     0.0005692    0.0001868 
   0.014653652    -0.0969577    0.9224213    -0.0001609   -0.0006004    -0.0001476    0.0000450     0.0006527    0.0000945 
   0.014753677    -0.0661060    0.9069586    -0.0007701    0.0016412    -0.0002437   -0.0003398     0.0003163    0.0002744 
   0.014853702    -0.0458801    0.9159545     0.0005344   -0.0002623     0.0000409    0.0001233     0.0005481    0.0002131 
   0.014953727     0.0007664    0.9160723     0.0004634    0.0001159     0.0001757   -0.0000113     0.0002156    0.0001832 
   0.015053752     0.0103108    0.9127689     0.0006663    0.0006301    -0.0003496   -0.0002521     0.0002767    0.0001989 
   0.015153777     0.0315897    0.9019074     0.0005087   -0.0002098     0.0001845   -0.0001259     0.0003043   -0.0003085 
   0.015253802     0.0660541    0.9200357     0.0011993   -0.0002535    -0.0000792   -0.0002146     0.0003611   -0.0000308 
   0.015353827     0.0768974    0.9109153    -0.0001909   -0.0000702     0.0000286   -0.0000543     0.0005808    0.0001384 
   0.015453852     0.1075497    0.9173100     0.0000671   -0.0002169     0.0000057   -0.0001641     0.0003694    0.0000772 
   0.015553877     0.1579943    0.9131704     0.0004883   -0.0003650     0.0003329    0.0003818    -0.0000008    0.0002961 
   0.015653902     0.1841795    0.9102444    -0.0008606    0.0016203    -0.0002925    0.0004586     0.0001449    0.0000675 
