! 26-Feb-26 11:04:28 AM
! E:\VNA_MEASUREMENTS\LONGCAB_SPDT1_OPENSHORT\LONGCABSPDT1RF1_OPEN_1.S2P
! CHANNEL.1
! TR.MEASUREMENT
! CORRECTED.DATA
# GHZ S RI R 50.0
! FREQ.GHZ         S11RE         S11IM         S21RE         S21IM         S12RE         S12IM         S22RE         S22IM         
!; PortSelection: Port_12
   0.000050000    -0.1463176    0.2867256     0.2060676    0.1232318    -0.0081713   -0.0006981    -0.0103822    0.0309886 
   0.000150025     0.0825899    0.0357598    -0.2043275    0.2678557     0.0007210   -0.0007449     0.0038822   -0.0049367 
   0.000250050    -0.2966895   -0.2746443    -0.2444806    0.0733666    -0.0002728    0.0003526    -0.0034500   -0.0009439 
   0.000350075     0.9940668   -0.1154706    -0.0028265   -0.0087525    -0.0000678   -0.0007186    -0.0000836   -0.0014563 
   0.000450100     0.9978386   -0.1389971    -0.0005748   -0.0062866    -0.0009534   -0.0001430    -0.0008272   -0.0014539 
   0.000550125     1.0001440   -0.1507314    -0.0076859   -0.0115769     0.0014429    0.0004716     0.0018691   -0.0001127 
   0.000650150     0.9314836   -0.1347513    -0.0053880   -0.0064446     0.0001044    0.0001613     0.0003343   -0.0005178 
   0.000750175     0.9450527   -0.1902279    -0.0049983   -0.0067361     0.0010148    0.0000261    -0.0013895   -0.0002590 
   0.000850200     0.9686781   -0.2778501    -0.0090921   -0.0043685    -0.0003464    0.0004323    -0.0015391   -0.0008062 
   0.000950225     0.9450276   -0.2282372    -0.0078258   -0.0019047     0.0002131   -0.0004699    -0.0002903    0.0012159 
   0.001050250     0.9726842   -0.2704913    -0.0062157    0.0005157    -0.0000838   -0.0010447     0.0001058   -0.0002299 
   0.001150275     0.9664426   -0.2768483    -0.0142727   -0.0011631     0.0012026   -0.0001160     0.0007810    0.0008590 
   0.001250300     0.9153414   -0.2885043    -0.0108932   -0.0064195    -0.0000346   -0.0006297     0.0014274    0.0009977 
   0.001350325     0.9548553   -0.3811978    -0.0069955   -0.0013039    -0.0003050   -0.0006881    -0.0007275   -0.0002511 
   0.001450350     0.8868990   -0.4151519    -0.0094830    0.0013809    -0.0003449    0.0000863    -0.0001780    0.0005600 
   0.001550375     0.8973838   -0.3984218    -0.0113767   -0.0011569    -0.0004052    0.0008259    -0.0002715    0.0003942 
   0.001650400     0.8974741   -0.4021391    -0.0040276    0.0010670     0.0011635    0.0002111    -0.0004374   -0.0000360 
   0.001750425     0.8794888   -0.4296450    -0.0045024    0.0031978    -0.0006691   -0.0002095    -0.0003918    0.0003100 
   0.001850450     0.8448362   -0.4704566    -0.0077087    0.0029258    -0.0006877    0.0001050    -0.0004557    0.0004605 
   0.001950475     0.8773895   -0.4378254    -0.0076729    0.0044930     0.0003906   -0.0002544     0.0013982    0.0004058 
   0.002050500     0.8532530   -0.5250903    -0.0056352   -0.0013484     0.0003480   -0.0003935     0.0010982   -0.0005100 
   0.002150525     0.8140653   -0.5249314    -0.0058305    0.0045187    -0.0007515    0.0001719     0.0005787    0.0002276 
   0.002250550     0.8343903   -0.5182648    -0.0051234    0.0017369    -0.0000762   -0.0006958    -0.0007575    0.0000735 
   0.002350575     0.7521891   -0.5671101    -0.0037877    0.0045089     0.0014251    0.0008620     0.0005986   -0.0002499 
   0.002450600     0.7813654   -0.5819490    -0.0051925    0.0022564     0.0008034   -0.0000068    -0.0006415   -0.0006524 
   0.002550625     0.8021255   -0.5992998    -0.0035936    0.0052054    -0.0002060    0.0004544     0.0001975    0.0000960 
   0.002650650     0.7980169   -0.6132891    -0.0024595    0.0042636     0.0000723    0.0001778     0.0000312    0.0002958 
   0.002750675     0.7641348   -0.6243940    -0.0031650    0.0035907    -0.0000696   -0.0003406    -0.0010563    0.0004591 
   0.002850700     0.7038937   -0.6767001     0.0007178    0.0051714    -0.0007912    0.0001270     0.0000568    0.0004516 
   0.002950725     0.6876820   -0.6712284    -0.0017212    0.0032108     0.0011511    0.0002146     0.0005369    0.0000042 
   0.003050750     0.6836004   -0.7104500    -0.0012454    0.0025009     0.0006790    0.0008771    -0.0002673   -0.0003225 
   0.003150775     0.6424906   -0.7647197    -0.0017836    0.0021363    -0.0004365   -0.0005537     0.0001812    0.0001184 
   0.003250800     0.6292444   -0.7221000     0.0012578    0.0040967     0.0003634    0.0003539    -0.0002576    0.0003570 
   0.003350825     0.6406034   -0.7422584    -0.0024311    0.0012785    -0.0001733   -0.0005136    -0.0002633    0.0006114 
   0.003450850     0.5705098   -0.7587526    -0.0024687    0.0032381     0.0000125   -0.0003182    -0.0000901   -0.0004382 
   0.003550875     0.5385256   -0.7573709     0.0005806    0.0006313     0.0000121   -0.0003851     0.0003311   -0.0000672 
   0.003650900     0.5779792   -0.7941673    -0.0004547    0.0016838     0.0000352   -0.0001162     0.0003817    0.0003215 
   0.003750925     0.5226188   -0.8008053     0.0003095    0.0026354     0.0002329    0.0001262     0.0003713   -0.0000780 
   0.003850950     0.5116074   -0.7958896    -0.0001579    0.0006259     0.0000396    0.0001465    -0.0006083    0.0003334 
   0.003950975     0.4977138   -0.8557949    -0.0001300   -0.0000907    -0.0002145    0.0005246     0.0000391   -0.0004288 
   0.004051001     0.4445131   -0.8452434     0.0001753    0.0016170     0.0003115    0.0000362     0.0002794    0.0000501 
   0.004151026     0.4266926   -0.8771268     0.0013949    0.0020974    -0.0002757   -0.0004682    -0.0004907   -0.0001082 
   0.004251051     0.4098150   -0.8685959    -0.0013465    0.0009110    -0.0002716    0.0000928    -0.0000711   -0.0005676 
   0.004351076     0.4193504   -0.8926587     0.0009647    0.0007012    -0.0003764   -0.0001758     0.0002969    0.0008703 
   0.004451101     0.3631202   -0.9050295     0.0000066    0.0017371     0.0001663    0.0002327     0.0005507   -0.0004700 
   0.004551126     0.3390073   -0.9189112    -0.0001069    0.0006953     0.0005235    0.0000105    -0.0006911    0.0005551 
   0.004651151     0.3285019   -0.9142653     0.0018682   -0.0008032    -0.0004783   -0.0001563     0.0001242    0.0003789 
   0.004751176     0.2683945   -0.9333330     0.0022876    0.0015394     0.0001725   -0.0002977     0.0003630   -0.0001832 
   0.004851201     0.2722717   -0.9101729     0.0003762    0.0011197    -0.0001239   -0.0000915     0.0006079    0.0000239 
   0.004951226     0.2357450   -0.9426236    -0.0001364    0.0014907     0.0002242   -0.0002204     0.0000987   -0.0003298 
   0.005051251     0.1871150   -0.9597095     0.0004796   -0.0001335     0.0001185   -0.0000010     0.0000475   -0.0004911 
   0.005151276     0.1929732   -0.9385554    -0.0007282    0.0009544    -0.0000592   -0.0004174     0.0005625    0.0001823 
   0.005251301     0.1472564   -0.9453517    -0.0002454    0.0000559    -0.0003813   -0.0000482     0.0001659    0.0004166 
   0.005351326     0.1304425   -0.9544812     0.0002052    0.0004815    -0.0001297   -0.0002088     0.0001703    0.0006741 
   0.005451351     0.1077068   -0.9688960    -0.0005311    0.0002381    -0.0001641   -0.0000728     0.0003512    0.0000789 
   0.005551376     0.0354155   -0.9683986    -0.0009724    0.0008376    -0.0000251    0.0000912     0.0000901   -0.0005126 
   0.005651401     0.0305611   -0.9760886    -0.0000312    0.0010408    -0.0000286    0.0001408    -0.0007774   -0.0003589 
   0.005751426    -0.0165301   -0.9587806     0.0015819    0.0000440    -0.0000258    0.0002914     0.0001756    0.0000026 
   0.005851451    -0.0447335   -0.9578868     0.0000953   -0.0003904     0.0000760   -0.0000568    -0.0006364   -0.0001243 
   0.005951476    -0.0517107   -0.9693930    -0.0007581    0.0011670    -0.0001519    0.0000923     0.0001554    0.0005399 
   0.006051501    -0.1028124   -0.9590276     0.0000751    0.0007827    -0.0000865   -0.0001389    -0.0003937   -0.0000624 
   0.006151526    -0.1207192   -0.9470132    -0.0005850   -0.0001021    -0.0001629    0.0002674     0.0009912   -0.0005144 
   0.006251551    -0.1408106   -0.9581465     0.0002513    0.0001093    -0.0000057   -0.0000645     0.0002076    0.0009218 
   0.006351576    -0.1831655   -0.9438754     0.0009183    0.0003981    -0.0001349    0.0000016     0.0003031    0.0000770 
   0.006451601    -0.2175339   -0.9311748    -0.0002550    0.0003217     0.0000239    0.0001780    -0.0002928    0.0002930 
   0.006551626    -0.2427294   -0.9294367     0.0000671   -0.0003232     0.0001353    0.0000967    -0.0009875   -0.0000815 
   0.006651651    -0.2692399   -0.9098100    -0.0003763    0.0003704     0.0000842   -0.0000304    -0.0000591   -0.0000472 
   0.006751676    -0.2993894   -0.8995778    -0.0001369    0.0001714     0.0000034    0.0001438     0.0004403    0.0005748 
   0.006851701    -0.3483178   -0.8924877     0.0000119    0.0000297    -0.0000384    0.0003548    -0.0002402   -0.0001348 
   0.006951726    -0.3511450   -0.8809736    -0.0009372    0.0003183     0.0001086   -0.0000010     0.0007402    0.0004458 
   0.007051751    -0.3914876   -0.8794315     0.0004494    0.0002305     0.0000403   -0.0000244     0.0000472   -0.0003737 
   0.007151776    -0.4134461   -0.8555685    -0.0002552    0.0005479     0.0001096   -0.0000187     0.0006206    0.0001173 
   0.007251801    -0.4494980   -0.8498558    -0.0002553    0.0000322    -0.0001431   -0.0000482     0.0000540   -0.0001248 
   0.007351826    -0.4659386   -0.8285225    -0.0002137   -0.0003216     0.0000388    0.0000116     0.0013093    0.0002740 
   0.007451851    -0.4939650   -0.7965305    -0.0001402   -0.0001282    -0.0001012   -0.0001489     0.0006221    0.0000527 
   0.007551876    -0.5297339   -0.7848542    -0.0000599   -0.0001425    -0.0000071    0.0001151     0.0003498   -0.0001015 
   0.007651901    -0.5567995   -0.7681879     0.0006448   -0.0003065     0.0000102   -0.0000776     0.0002775    0.0003684 
   0.007751926    -0.5795891   -0.7529663    -0.0004426    0.0003521    -0.0000056    0.0000574     0.0002424   -0.0002870 
   0.007851951    -0.5979224   -0.7343054     0.0002389   -0.0001996     0.0000622   -0.0000517     0.0004917   -0.0002448 
   0.007951976    -0.6275497   -0.6990499     0.0003311    0.0001089    -0.0000046    0.0000629     0.0001246    0.0000758 
   0.008052001    -0.6499900   -0.6857328    -0.0001662   -0.0001336     0.0000062   -0.0000729    -0.0001907    0.0004667 
   0.008152026    -0.6684607   -0.6660792     0.0001479    0.0002184     0.0000207    0.0000763     0.0007332    0.0003321 
   0.008252051    -0.6936613   -0.6501919    -0.0001856    0.0001690     0.0000305   -0.0000603     0.0003421    0.0003951 
   0.008352076    -0.7257367   -0.6129153    -0.0001505    0.0001310     0.0000120    0.0000398     0.0005423   -0.0003373 
   0.008452101    -0.7357215   -0.5916117    -0.0001112    0.0002580     0.0000279    0.0000668    -0.0000114   -0.0007157 
   0.008552126    -0.7536331   -0.5616280     0.0001632   -0.0000694    -0.0000228   -0.0000528     0.0003705    0.0004075 
   0.008652151    -0.7672040   -0.5434847     0.0003848    0.0001026     0.0000092   -0.0000094     0.0002335   -0.0001930 
   0.008752176    -0.7919316   -0.5086242    -0.0000365    0.0001432     0.0000548   -0.0001054     0.0002316   -0.0006457 
   0.008852201    -0.8047374   -0.4886904     0.0000227   -0.0002365     0.0000735    0.0000258     0.0003216    0.0003595 
   0.008952226    -0.8223236   -0.4490073    -0.0001367   -0.0002556     0.0000242    0.0000307     0.0001828   -0.0004388 
   0.009052251    -0.8373824   -0.4207908    -0.0001004   -0.0001830    -0.0000811    0.0000138     0.0004742   -0.0001517 
   0.009152276    -0.8470374   -0.3924960    -0.0002587   -0.0002378    -0.0001317   -0.0001253     0.0006308    0.0001359 
   0.009252301    -0.8643810   -0.3562468    -0.0001067    0.0002640     0.0000127   -0.0000248     0.0004591   -0.0005429 
   0.009352326    -0.8724312   -0.3293890    -0.0002451   -0.0002719     0.0000519   -0.0000157     0.0001238    0.0001143 
   0.009452351    -0.8802556   -0.3002998    -0.0002585   -0.0002110    -0.0000200    0.0001000     0.0002876   -0.0001751 
   0.009552376    -0.8972318   -0.2626658     0.0002555   -0.0005451     0.0000199    0.0000108     0.0003244    0.0002104 
   0.009652401    -0.8954804   -0.2360855     0.0000657   -0.0001185    -0.0000891    0.0000072     0.0004365    0.0004013 
   0.009752426    -0.9034104   -0.2025843     0.0002283    0.0000122    -0.0000718   -0.0000563     0.0002783    0.0002721 
   0.009852451    -0.9120727   -0.1674965     0.0001249    0.0003214    -0.0000584    0.0000245     0.0001287   -0.0001865 
   0.009952476    -0.9198729   -0.1306374    -0.0000256    0.0007970     0.0000911    0.0001049     0.0001986   -0.0000160 
   0.010052501    -0.9252172   -0.1002291     0.0000890    0.0001562     0.0001025   -0.0001004    -0.0000459   -0.0003336 
   0.010152526    -0.9266016   -0.0670984     0.0008394    0.0002402     0.0001502   -0.0000279     0.0003435    0.0002261 
   0.010252551    -0.9239074   -0.0408149     0.0002355   -0.0000984    -0.0000172    0.0002074     0.0002575   -0.0000072 
   0.010352576    -0.9227818    0.0014194     0.0000208   -0.0000577     0.0000000    0.0001569     0.0004355    0.0001125 
   0.010452601    -0.9184343    0.0302378     0.0004217    0.0000776     0.0000325    0.0001539     0.0004949    0.0000135 
   0.010552626    -0.9269033    0.0602075    -0.0001737   -0.0005378     0.0000433   -0.0000870    -0.0000479    0.0000651 
   0.010652651    -0.9100676    0.0934454     0.0003193    0.0001058    -0.0000159    0.0001152     0.0008222    0.0002127 
   0.010752676    -0.9148026    0.1241252     0.0003345    0.0001594    -0.0002205    0.0000898     0.0000011    0.0002141 
   0.010852701    -0.9012542    0.1569517     0.0002163   -0.0000270    -0.0000895    0.0001719     0.0004993    0.0001677 
   0.010952726    -0.8875592    0.1896007    -0.0004447    0.0002502    -0.0001069   -0.0000759    -0.0001305   -0.0001401 
   0.011052751    -0.8928276    0.2283017    -0.0005704   -0.0000605     0.0000905   -0.0000685     0.0002478    0.0001095 
   0.011152776    -0.8795877    0.2568774     0.0005981   -0.0004996    -0.0000662   -0.0000156     0.0001607    0.0002857 
   0.011252801    -0.8716854    0.2852159    -0.0008016    0.0000653    -0.0000619   -0.0000374     0.0002387    0.0006482 
   0.011352826    -0.8546214    0.3172321     0.0001294   -0.0005402    -0.0000150   -0.0001623    -0.0000919    0.0001424 
   0.011452851    -0.8489473    0.3510434     0.0002828    0.0002203    -0.0003428    0.0000624    -0.0001870    0.0000791 
   0.011552876    -0.8413419    0.3871616     0.0004613   -0.0002481    -0.0001151    0.0002007     0.0002771   -0.0001422 
   0.011652901    -0.8247830    0.4079040     0.0010270   -0.0000545    -0.0000806    0.0002741     0.0003845    0.0003954 
   0.011752926    -0.8063529    0.4454360     0.0007741   -0.0008045     0.0002732    0.0000678     0.0003204    0.0000096 
   0.011852951    -0.7813175    0.4556929    -0.0000441   -0.0003008    -0.0003501   -0.0000884     0.0000397   -0.0002176 
   0.011952976    -0.7733952    0.4809309    -0.0007844    0.0002485     0.0000040    0.0000935    -0.0001617    0.0002846 
   0.012053002    -0.7534713    0.5208706    -0.0008289    0.0001887     0.0000929   -0.0002213     0.0001903    0.0004379 
   0.012153027    -0.7476003    0.5473397     0.0006206    0.0001658     0.0000575   -0.0001702     0.0003622   -0.0001511 
   0.012253052    -0.7125378    0.5682345     0.0000283   -0.0003409    -0.0000487    0.0002144     0.0003996    0.0001966 
   0.012353077    -0.7000815    0.5857611    -0.0001022   -0.0006117    -0.0000857   -0.0001535    -0.0000035    0.0004622 
   0.012453102    -0.6806815    0.6116290    -0.0009589    0.0004872    -0.0001707    0.0003224     0.0005058   -0.0002930 
   0.012553127    -0.6599039    0.6348260    -0.0002768   -0.0002969     0.0004362    0.0004779     0.0003670   -0.0003986 
   0.012653152    -0.6394626    0.6546548    -0.0000734   -0.0000147    -0.0001012   -0.0000408     0.0005038   -0.0000325 
   0.012753177    -0.6117752    0.6831690     0.0003112   -0.0011270    -0.0002932    0.0001422    -0.0001723   -0.0002670 
   0.012853202    -0.5924642    0.7010702     0.0006093    0.0002889    -0.0001137   -0.0004517     0.0005110    0.0007226 
   0.012953227    -0.5553459    0.7166772    -0.0008364   -0.0002422    -0.0000427    0.0002466     0.0007189    0.0003047 
   0.013053252    -0.5425203    0.7441614     0.0000721   -0.0001233    -0.0001921    0.0002029     0.0000968    0.0000296 
   0.013153277    -0.5089322    0.7536665    -0.0006334    0.0000185    -0.0002634   -0.0000661     0.0000761    0.0002009 
   0.013253302    -0.4874741    0.7651263     0.0000234   -0.0006853     0.0000426   -0.0001018     0.0005178    0.0000497 
   0.013353327    -0.4588533    0.7885857     0.0001231   -0.0008707    -0.0001637    0.0000914     0.0005159    0.0002438 
   0.013453352    -0.4396937    0.7943420     0.0009036   -0.0002759     0.0003238   -0.0000116     0.0003206    0.0001710 
   0.013553377    -0.4088674    0.8187776     0.0004330    0.0009566    -0.0000258    0.0000552     0.0002015   -0.0003536 
   0.013653402    -0.3729124    0.8272256     0.0004074    0.0009201    -0.0005466   -0.0000792     0.0006206    0.0001130 
   0.013753427    -0.3504882    0.8315371     0.0014174    0.0000185     0.0001967   -0.0001854     0.0000644    0.0004400 
   0.013853452    -0.3228754    0.8513960     0.0002456   -0.0017544    -0.0000256    0.0001327     0.0005035    0.0003633 
   0.013953477    -0.3043881    0.8583232     0.0001067    0.0010441    -0.0002044    0.0002162     0.0002835    0.0004715 
   0.014053502    -0.2667363    0.8815047    -0.0000967    0.0007054     0.0001716   -0.0000020     0.0003296   -0.0000873 
   0.014153527    -0.2361618    0.8776333    -0.0006204   -0.0004615     0.0002622    0.0004352     0.0004339    0.0001338 
   0.014253552    -0.2124682    0.8944234     0.0001800    0.0005729     0.0000682    0.0001432     0.0004628   -0.0001257 
   0.014353577    -0.1870167    0.8892981     0.0006320   -0.0001492     0.0002728   -0.0001609     0.0002015    0.0000520 
   0.014453602    -0.1528013    0.8917453    -0.0003549    0.0006742    -0.0001762    0.0002498     0.0004566    0.0000692 
   0.014553627    -0.1198262    0.9030539     0.0004864   -0.0019040     0.0000973    0.0003127     0.0000372    0.0001848 
   0.014653652    -0.0995327    0.9133553    -0.0011341    0.0003475    -0.0000548   -0.0000592     0.0001950   -0.0002974 
   0.014753677    -0.0557862    0.9200863     0.0012173   -0.0006920     0.0000745    0.0002493     0.0003029   -0.0003927 
   0.014853702    -0.0431115    0.9288011    -0.0000332    0.0000106     0.0004516   -0.0000352     0.0003368    0.0002960 
   0.014953727    -0.0038741    0.9190431    -0.0008716    0.0001793    -0.0001310   -0.0000919     0.0001305   -0.0000367 
   0.015053752     0.0020554    0.9143135    -0.0002555    0.0006413    -0.0002674    0.0002373     0.0005230    0.0001831 
   0.015153777     0.0331508    0.9208198    -0.0001427   -0.0000695    -0.0000790    0.0000226     0.0004196   -0.0003365 
   0.015253802     0.0712908    0.9041709     0.0008651   -0.0005198     0.0001192    0.0002376     0.0003322   -0.0004549 
   0.015353827     0.1005832    0.9133217     0.0010848    0.0006288     0.0001785    0.0005198     0.0011531   -0.0001388 
   0.015453852     0.1108793    0.9156500    -0.0004107    0.0005183     0.0001478   -0.0000375     0.0006346   -0.0001151 
   0.015553877     0.1562557    0.9029903    -0.0004206    0.0003485    -0.0001836   -0.0001822     0.0003575   -0.0000500 
   0.015653902     0.1771336    0.8930148     0.0006073    0.0006592     0.0002631   -0.0003155    -0.0001742    0.0002319 
