! 26-Feb-26 11:03:27 AM
! E:\VNA_MEASUREMENTS\LONGCAB_SPDT1_OPENSHORT\LONGCABSPDT1RF2_SHORT_0.S2P
! CHANNEL.1
! TR.MEASUREMENT
! CORRECTED.DATA
# GHZ S RI R 50.0
! FREQ.GHZ         S11RE         S11IM         S21RE         S21IM         S12RE         S12IM         S22RE         S22IM         
!; PortSelection: Port_12
   0.000050000     0.0151666    0.3302754     0.3194652   -0.1417553    -0.0037005   -0.0010064    -0.0235806    0.0328720 
   0.000150025     0.7750996   -0.1524863    -0.1918459   -0.4477218    -0.0006390    0.0012849     0.0040853   -0.0017734 
   0.000250050    -0.1515144    0.0465507     0.0744051    0.2446437    -0.0001326   -0.0003531     0.0015951   -0.0025708 
   0.000350075     0.9725094   -0.0884235     0.0009516   -0.0114170     0.0001090   -0.0013868    -0.0016590   -0.0001234 
   0.000450100     1.0240360   -0.2113110    -0.0029022   -0.0135178     0.0000560   -0.0001600    -0.0005153   -0.0017882 
   0.000550125     0.9817137   -0.1198211    -0.0032731   -0.0094383     0.0004650    0.0000898     0.0005485    0.0002016 
   0.000650150     0.9849241   -0.1672379    -0.0007371   -0.0089730    -0.0001783   -0.0007098     0.0008803   -0.0016521 
   0.000750175     0.9693945   -0.2499696    -0.0074308   -0.0096675     0.0002119   -0.0005772    -0.0001720   -0.0008271 
   0.000850200     0.9470269   -0.2934491    -0.0076966   -0.0036362     0.0003470   -0.0010642    -0.0006703   -0.0001347 
   0.000950225     0.9515957   -0.2436192    -0.0041919   -0.0033142    -0.0005082   -0.0007881     0.0007907    0.0010306 
   0.001050250     0.9166597   -0.2623700    -0.0076028   -0.0040677     0.0004489    0.0006445     0.0005115    0.0000461 
   0.001150275     0.9288076   -0.3133093    -0.0145065   -0.0018911    -0.0006432    0.0001554     0.0006089    0.0006356 
   0.001250300     0.9289563   -0.2954227    -0.0096113   -0.0004589     0.0006712    0.0002158     0.0000778    0.0008815 
   0.001350325     0.8898708   -0.4018918    -0.0095073   -0.0026747     0.0002303   -0.0000228     0.0005529    0.0010586 
   0.001450350     0.8771425   -0.4187379    -0.0120585    0.0011542     0.0009549    0.0002527     0.0004410    0.0001161 
   0.001550375     0.8838723   -0.4417070    -0.0037540   -0.0023905    -0.0000638   -0.0002459     0.0005980    0.0003253 
   0.001650400     0.8960087   -0.4233546    -0.0108868    0.0011820    -0.0008761    0.0000034    -0.0000145    0.0003091 
   0.001750425     0.8295444   -0.5052913    -0.0106473    0.0017934    -0.0002603   -0.0001030     0.0004261    0.0000333 
   0.001850450     0.8435186   -0.5047727    -0.0051545    0.0032864    -0.0003382   -0.0001963    -0.0003202    0.0014443 
   0.001950475     0.8918728   -0.5471267    -0.0064673    0.0052485    -0.0000265   -0.0006446     0.0000542   -0.0006729 
   0.002050500     0.8346977   -0.5489105    -0.0033927    0.0018314    -0.0006572    0.0006769     0.0006594   -0.0001048 
   0.002150525     0.8117148   -0.5901360    -0.0045386    0.0035000     0.0007551    0.0001890     0.0004409    0.0003602 
   0.002250550     0.8176335   -0.5408499    -0.0032600    0.0019157     0.0007360    0.0000351     0.0001751   -0.0006843 
   0.002350575     0.7628788   -0.6187910    -0.0014950    0.0004650     0.0005019   -0.0004984     0.0007205   -0.0003113 
   0.002450600     0.7388366   -0.6494640    -0.0047103    0.0027249     0.0002749   -0.0005481     0.0004237   -0.0002941 
   0.002550625     0.7354381   -0.6738399    -0.0031404    0.0020053     0.0000285   -0.0001548    -0.0000735    0.0003826 
   0.002650650     0.7389650   -0.6918043    -0.0012877    0.0045374    -0.0003728    0.0002798    -0.0002490    0.0008680 
   0.002750675     0.7402269   -0.6602892    -0.0027262    0.0048298    -0.0004457   -0.0006733    -0.0006328    0.0007311 
   0.002850700     0.6768655   -0.7258399    -0.0015623    0.0014850    -0.0002753   -0.0006889     0.0002219    0.0004015 
   0.002950725     0.6231589   -0.7441821    -0.0007494    0.0021618     0.0004448    0.0006701     0.0003566    0.0005051 
   0.003050750     0.6318573   -0.7640960    -0.0013818    0.0001401     0.0004039   -0.0001018     0.0003038   -0.0003964 
   0.003150775     0.5545086   -0.7962365    -0.0042506    0.0028512     0.0003554    0.0002618    -0.0003831   -0.0003540 
   0.003250800     0.5733292   -0.7791107     0.0020100    0.0012741     0.0000201    0.0000527     0.0001498    0.0002044 
   0.003350825     0.5554218   -0.8236032    -0.0018470    0.0006159    -0.0001205    0.0005231    -0.0000684    0.0002927 
   0.003450850     0.5059373   -0.8296767     0.0002875    0.0020638     0.0001559   -0.0000519     0.0002520   -0.0006969 
   0.003550875     0.4993632   -0.7933430    -0.0003948    0.0064766    -0.0007599    0.0000641     0.0000186   -0.0003283 
   0.003650900     0.4798544   -0.8507338     0.0005683    0.0013016    -0.0003211   -0.0001146     0.0003170   -0.0002599 
   0.003750925     0.4474355   -0.8672507     0.0016449    0.0022407     0.0001262   -0.0001111     0.0002450   -0.0004890 
   0.003850950     0.4172710   -0.8605847    -0.0001187    0.0023762    -0.0005263   -0.0005661    -0.0005109    0.0003258 
   0.003950975     0.4077408   -0.9019225     0.0008584    0.0020003    -0.0004397   -0.0000330    -0.0000322   -0.0002541 
   0.004051001     0.3279544   -0.8833430    -0.0002842   -0.0002246    -0.0000941    0.0000594     0.0002023    0.0004970 
   0.004151026     0.3231354   -0.9286398    -0.0010461    0.0012775    -0.0002370   -0.0002060    -0.0005363   -0.0004865 
   0.004251051     0.2906278   -0.9362471     0.0003459    0.0014867     0.0002125   -0.0001754    -0.0004626   -0.0000407 
   0.004351076     0.2912504   -0.9342907     0.0001846    0.0030351     0.0000623   -0.0001260     0.0009872    0.0008777 
   0.004451101     0.2065810   -0.9608483    -0.0011739    0.0036510    -0.0000118   -0.0001396     0.0006219   -0.0006980 
   0.004551126     0.1797487   -0.9786612     0.0000213    0.0030761     0.0001566   -0.0000387    -0.0005336    0.0004976 
   0.004651151     0.1740989   -0.9710517    -0.0007054    0.0013069     0.0004082    0.0004251     0.0005971    0.0007615 
   0.004751176     0.1198931   -0.9556396     0.0000019    0.0005729     0.0000679    0.0001517     0.0002963   -0.0001000 
   0.004851201     0.1088865   -0.9497992     0.0003095   -0.0000519     0.0004494    0.0001525     0.0001926   -0.0003538 
   0.004951226     0.0810775   -0.9777780     0.0005960    0.0010708    -0.0000508    0.0000685    -0.0002215    0.0000209 
   0.005051251     0.0288421   -0.9926407     0.0001863   -0.0000674     0.0002752   -0.0000391    -0.0001756   -0.0003087 
   0.005151276     0.0260002   -0.9782172     0.0008773    0.0009020     0.0000465    0.0000360     0.0002848   -0.0003194 
   0.005251301    -0.0284978   -0.9671382     0.0005160    0.0001779     0.0002440    0.0002404     0.0011675    0.0007581 
   0.005351326    -0.0453380   -0.9734080    -0.0000383   -0.0003647     0.0000675    0.0000625     0.0006150    0.0004992 
   0.005451351    -0.0875101   -0.9772735     0.0004432    0.0014730     0.0001939    0.0000368     0.0003152    0.0006565 
   0.005551376    -0.1499179   -0.9747301     0.0001276    0.0002807    -0.0000886    0.0001880    -0.0000824   -0.0007854 
   0.005651401    -0.1596248   -0.9722559     0.0001264    0.0006452    -0.0002357    0.0001315    -0.0002720   -0.0005783 
   0.005751426    -0.2025852   -0.9433313     0.0004864    0.0008553     0.0000142    0.0000211     0.0004931    0.0001529 
   0.005851451    -0.2410503   -0.9469567     0.0006441    0.0002642     0.0001191    0.0002337    -0.0003335   -0.0004477 
   0.005951476    -0.2623174   -0.9451941     0.0002211    0.0007565    -0.0000992   -0.0000370    -0.0001053    0.0002016 
   0.006051501    -0.2973852   -0.9291770     0.0010129   -0.0003941    -0.0000917   -0.0002086    -0.0004897   -0.0003663 
   0.006151526    -0.3288141   -0.9057876     0.0004735    0.0004472    -0.0001910    0.0000655     0.0000360   -0.0005072 
   0.006251551    -0.3615282   -0.9073166     0.0001192   -0.0004815    -0.0000198   -0.0000221     0.0002468    0.0003503 
   0.006351576    -0.3944578   -0.8780595     0.0000503    0.0006290    -0.0000808   -0.0000442    -0.0001188    0.0002927 
   0.006451601    -0.4347840   -0.8649234     0.0005052   -0.0000406    -0.0000350   -0.0000361    -0.0000353    0.0001235 
   0.006551626    -0.4523450   -0.8499817    -0.0008016   -0.0000547     0.0001709   -0.0001149    -0.0006387   -0.0000045 
   0.006651651    -0.4842224   -0.8281463    -0.0002554    0.0004339     0.0001125   -0.0000108    -0.0000204    0.0001789 
   0.006751676    -0.5147095   -0.7997980     0.0004863    0.0000740     0.0000909   -0.0000347     0.0006937    0.0000625 
   0.006851701    -0.5561783   -0.7781820     0.0003314   -0.0001962    -0.0000771   -0.0001434    -0.0002248   -0.0000018 
   0.006951726    -0.5637982   -0.7653487    -0.0002702    0.0006252    -0.0000485    0.0000142     0.0006112    0.0008201 
   0.007051751    -0.6026537   -0.7502490    -0.0001142    0.0003550    -0.0000176    0.0000801     0.0005097   -0.0001385 
   0.007151776    -0.6238484   -0.7165375    -0.0000209    0.0000595     0.0002607    0.0000369     0.0010235   -0.0000691 
   0.007251801    -0.6603464   -0.7034141     0.0002921    0.0001191     0.0000161   -0.0001159    -0.0001328    0.0004030 
   0.007351826    -0.6787176   -0.6749638    -0.0000813   -0.0003308     0.0000225    0.0000149     0.0010463    0.0007388 
   0.007451851    -0.6977115   -0.6345460     0.0000623   -0.0003127     0.0000429    0.0000333     0.0003196    0.0000721 
   0.007551876    -0.7301097   -0.6061829     0.0000770   -0.0000591     0.0000830   -0.0001974     0.0001700   -0.0004286 
   0.007651901    -0.7562714   -0.5796907    -0.0004022    0.0000781    -0.0001524    0.0000525    -0.0002006    0.0001966 
   0.007751926    -0.7746599   -0.5547761    -0.0002661    0.0001640     0.0000194   -0.0000691     0.0003717   -0.0003124 
   0.007851951    -0.7888216   -0.5217335    -0.0002200    0.0001947    -0.0000944   -0.0001372     0.0002835   -0.0003387 
   0.007951976    -0.8131477   -0.4802946    -0.0001415    0.0000439    -0.0000294    0.0000214    -0.0001514    0.0000813 
   0.008052001    -0.8280153   -0.4522018     0.0004087   -0.0002345    -0.0000375   -0.0000808    -0.0000825    0.0002339 
   0.008152026    -0.8441375   -0.4210285    -0.0001662   -0.0003057    -0.0000276    0.0000840     0.0000234    0.0000477 
   0.008252051    -0.8620063   -0.3878830    -0.0001477   -0.0000110     0.0000350    0.0000759     0.0005909    0.0003262 
   0.008352076    -0.8870140   -0.3407633    -0.0002533   -0.0000552    -0.0000508   -0.0000222     0.0003232   -0.0003279 
   0.008452101    -0.8894287   -0.3162702     0.0002877   -0.0002309     0.0000888   -0.0000606     0.0002820   -0.0002454 
   0.008552126    -0.8996885   -0.2837971     0.0000018    0.0002073     0.0000254    0.0000932     0.0002706    0.0005228 
   0.008652151    -0.9035830   -0.2523040     0.0000456   -0.0004032    -0.0001146   -0.0000027    -0.0001914    0.0003598 
   0.008752176    -0.9206958   -0.2090542     0.0002517   -0.0001154     0.0000718   -0.0000678     0.0002060   -0.0002114 
   0.008852201    -0.9237922   -0.1774738    -0.0001889    0.0003511     0.0000050   -0.0000785     0.0003490   -0.0000842 
   0.008952226    -0.9287174   -0.1344819    -0.0000616    0.0003624    -0.0000542   -0.0001014     0.0003300   -0.0004222 
   0.009052251    -0.9275281   -0.0974160    -0.0006831    0.0003894     0.0001132    0.0000040     0.0002667   -0.0002860 
   0.009152276    -0.9334766   -0.0561404    -0.0000341    0.0001101     0.0000085    0.0000397     0.0005732   -0.0000090 
   0.009252301    -0.9365948   -0.0195858    -0.0002136   -0.0003319     0.0000487   -0.0000302     0.0003590   -0.0002911 
   0.009352326    -0.9362778    0.0158759     0.0000775    0.0004118     0.0000480    0.0001438     0.0001348   -0.0000382 
   0.009452351    -0.9259695    0.0464965    -0.0000249    0.0001635    -0.0000554    0.0001016     0.0002701   -0.0001098 
   0.009552376    -0.9306778    0.0908196    -0.0002236    0.0004733    -0.0001127   -0.0001729     0.0002538    0.0003231 
   0.009652401    -0.9234639    0.1234467    -0.0004624    0.0002993    -0.0001524    0.0000440    -0.0000773    0.0003513 
   0.009752426    -0.9149762    0.1561595    -0.0002990   -0.0001389    -0.0001208    0.0000439     0.0000973    0.0002487 
   0.009852451    -0.9053698    0.1972489     0.0008071    0.0000334     0.0000216    0.0000917    -0.0002090   -0.0000718 
   0.009952476    -0.8976340    0.2393611    -0.0000978   -0.0002939    -0.0000168   -0.0000276     0.0003361    0.0002914 
   0.010052501    -0.8867298    0.2665578     0.0004100    0.0001764     0.0000068   -0.0001125     0.0004475   -0.0003489 
   0.010152526    -0.8738626    0.3113888     0.0010671    0.0005558    -0.0000804    0.0000439     0.0006028    0.0000077 
   0.010252551    -0.8623018    0.3361654    -0.0007199    0.0003408     0.0000300    0.0000236     0.0002634   -0.0001722 
   0.010352576    -0.8475325    0.3612779    -0.0003410   -0.0010377    -0.0002634   -0.0000615     0.0001293    0.0002936 
   0.010452601    -0.8226513    0.3937102     0.0001441    0.0011716     0.0002019    0.0000306     0.0003855   -0.0005453 
   0.010552626    -0.8102235    0.4350969    -0.0004300    0.0002810    -0.0002071    0.0002497     0.0001549   -0.0000321 
   0.010652651    -0.7959806    0.4630323     0.0000839    0.0006279     0.0001468    0.0001012     0.0003734   -0.0005060 
   0.010752676    -0.7703556    0.4866807     0.0012603    0.0006212    -0.0001450    0.0004512    -0.0001019    0.0001528 
   0.010852701    -0.7531157    0.5157649     0.0008032   -0.0000363    -0.0001767   -0.0001346    -0.0001619    0.0000479 
   0.010952726    -0.7379130    0.5530858     0.0002549    0.0000929    -0.0001302    0.0001238    -0.0004247   -0.0000537 
   0.011052751    -0.7100397    0.5817822    -0.0000613    0.0003867    -0.0000561    0.0001347     0.0005400    0.0002384 
   0.011152776    -0.6968297    0.5998575    -0.0002685    0.0006080     0.0002623   -0.0000295     0.0001949   -0.0000060 
   0.011252801    -0.6674352    0.6267845     0.0005619    0.0000870    -0.0000286   -0.0002959     0.0002746    0.0002142 
   0.011352826    -0.6483727    0.6512222     0.0007148   -0.0000401    -0.0000109    0.0000307     0.0003305    0.0001736 
   0.011452851    -0.6174009    0.6879169    -0.0002614   -0.0008012     0.0002908   -0.0000801     0.0003200    0.0001237 
   0.011552876    -0.5967419    0.6999993    -0.0004860    0.0005493    -0.0001972   -0.0002838     0.0002928    0.0000970 
   0.011652901    -0.5557346    0.7286080    -0.0000519    0.0002068     0.0000915    0.0002713     0.0005478    0.0004771 
   0.011752926    -0.5330669    0.7491847     0.0001082    0.0012619    -0.0000417    0.0000835     0.0001734    0.0001247 
   0.011852951    -0.5133458    0.7568562    -0.0001175    0.0000497     0.0002157    0.0002104    -0.0001545   -0.0000255 
   0.011952976    -0.4945668    0.7657998    -0.0006932    0.0011057     0.0000368   -0.0002534     0.0002241    0.0001891 
   0.012053002    -0.4440723    0.8066165     0.0007553    0.0004902    -0.0004250    0.0000351     0.0001700    0.0003465 
   0.012153027    -0.4152089    0.8206989    -0.0008769    0.0004184    -0.0002279   -0.0000801     0.0002802   -0.0001954 
   0.012253052    -0.3793596    0.8416478     0.0006604   -0.0005592     0.0001933   -0.0003796     0.0007072    0.0001781 
   0.012353077    -0.3505199    0.8346277    -0.0003247   -0.0001461    -0.0001526   -0.0000205     0.0001188   -0.0001419 
   0.012453102    -0.3358402    0.8549882     0.0001315   -0.0001892    -0.0002003    0.0000712     0.0003993    0.0000214 
   0.012553127    -0.2860609    0.8751787    -0.0001738    0.0004581     0.0001856   -0.0001303     0.0003042   -0.0002690 
   0.012653152    -0.2765065    0.8727177    -0.0010483   -0.0001527    -0.0002704   -0.0002185     0.0001963   -0.0000349 
   0.012753177    -0.2384443    0.8853803    -0.0000667    0.0007600     0.0000060   -0.0001429     0.0002014   -0.0000794 
   0.012853202    -0.2029984    0.8776550    -0.0007839    0.0009784     0.0003582   -0.0002192     0.0010592    0.0004240 
   0.012953227    -0.1847330    0.8896283     0.0003695   -0.0012366    -0.0000732    0.0000861     0.0004549    0.0001491 
   0.013053252    -0.1430159    0.9038494    -0.0004320    0.0002272     0.0001365    0.0001071     0.0002290    0.0000186 
   0.013153277    -0.1177953    0.9184925     0.0007955   -0.0011058     0.0000855    0.0000895     0.0004481    0.0000918 
   0.013253302    -0.0813316    0.9083326     0.0005099    0.0003090     0.0002606   -0.0002497     0.0000868   -0.0003063 
   0.013353327    -0.0518234    0.9077682    -0.0006921    0.0021089     0.0004682   -0.0001002     0.0004932    0.0000003 
   0.013453352    -0.0128876    0.9223609     0.0008577    0.0003589    -0.0001032   -0.0000562     0.0003296    0.0001583 
   0.013553377     0.0158000    0.9085876     0.0000127    0.0003171     0.0000799   -0.0002098     0.0001280   -0.0001650 
   0.013653402     0.0515793    0.9201959    -0.0002121    0.0002998    -0.0001657    0.0003083     0.0007133   -0.0001076 
   0.013753427     0.0747568    0.9172333     0.0003379    0.0004381     0.0000976   -0.0003844     0.0000938    0.0001622 
   0.013853452     0.1113688    0.9296085    -0.0006490    0.0000920    -0.0002023   -0.0001782     0.0003056    0.0000242 
   0.013953477     0.1370795    0.8991340     0.0005634    0.0005030    -0.0000135   -0.0002083     0.0002945   -0.0000524 
   0.014053502     0.1662510    0.9160094     0.0000746   -0.0003562     0.0000610    0.0003867    -0.0000542   -0.0000002 
   0.014153527     0.2115378    0.8945269     0.0007121   -0.0002840    -0.0000453   -0.0001908     0.0003003    0.0001519 
   0.014253552     0.2118454    0.8913392     0.0006215   -0.0002680     0.0000158   -0.0002841     0.0002489   -0.0006831 
   0.014353577     0.2579843    0.8822924    -0.0013246   -0.0008982    -0.0003018   -0.0000670     0.0003762    0.0000670 
   0.014453602     0.2762005    0.8600957     0.0009129    0.0000500    -0.0000328    0.0001725     0.0002842   -0.0000065 
   0.014553627     0.3155551    0.8630347     0.0000653    0.0006192    -0.0000789    0.0005647    -0.0000280   -0.0000687 
   0.014653652     0.3472477    0.8505239    -0.0009027   -0.0011815    -0.0000466   -0.0003855     0.0002994   -0.0001444 
   0.014753677     0.3596116    0.8258525     0.0001834    0.0004303     0.0001041    0.0004442     0.0002848   -0.0000101 
   0.014853702     0.3910851    0.8373365    -0.0008190   -0.0003458    -0.0001110   -0.0001342     0.0003845    0.0003082 
   0.014953727     0.4331669    0.8195698     0.0003393    0.0002749     0.0000714   -0.0003015    -0.0000130    0.0000620 
   0.015053752     0.4421128    0.7973014     0.0011615    0.0002729    -0.0001722   -0.0001571     0.0004842    0.0001765 
   0.015153777     0.4758176    0.8027551     0.0001526   -0.0015273    -0.0003025    0.0000898     0.0004982   -0.0005584 
   0.015253802     0.4905427    0.7702345    -0.0004651    0.0000914     0.0000646    0.0003905     0.0002803   -0.0001751 
   0.015353827     0.5207507    0.7801065     0.0005065    0.0009293    -0.0001938   -0.0003321     0.0005531    0.0004846 
   0.015453852     0.5461015    0.7429992    -0.0016006    0.0000427    -0.0000722   -0.0002973     0.0009237    0.0002683 
   0.015553877     0.5786073    0.7288461     0.0005241    0.0001961    -0.0000828    0.0000749     0.0001949    0.0001403 
   0.015653902     0.5871732    0.7086391     0.0004520    0.0000323     0.0004126    0.0001998     0.0003219    0.0000662 
