! 26-Feb-26 11:34:32 AM
! E:\VNA_MEASUREMENTS\SP8T\SP8T_P2_RF5.S2P
! CHANNEL.1
! TR.MEASUREMENT
! CORRECTED.DATA
# GHZ S RI R 50.0
! FREQ.GHZ         S11RE         S11IM         S21RE         S21IM         S12RE         S12IM         S22RE         S22IM         
!; PortSelection: Port_12
   0.000050000     0.3459440    0.2477163    -0.2055447   -0.1836613    -0.0008976    0.0016862     0.9813180    0.0491779 
   0.000150025    -0.4206440   -0.2558679     0.9187717   -0.2788420     0.0001755   -0.0004446     1.0132080   -0.0043256 
   0.000250050    -0.3483071    0.0493225     0.0018291   -0.0017332     0.0001762   -0.0010628     0.9963123   -0.0111325 
   0.000350075     1.0164050   -0.1053628    -0.0044257   -0.0081180    -0.0002568   -0.0011164     0.9880754   -0.0294178 
   0.000450100     1.0205680   -0.0710011    -0.0088197   -0.0123758    -0.0003747    0.0001089     0.9899817   -0.0271046 
   0.000550125     0.9788868   -0.0308308    -0.0086693   -0.0089735     0.0014979    0.0002201     0.9900182   -0.0329091 
   0.000650150     0.9801246   -0.0732688    -0.0076379   -0.0104945     0.0002659   -0.0012925     1.0073320   -0.0465172 
   0.000750175     0.9767469   -0.1032443    -0.0061054   -0.0076016    -0.0001936    0.0001819     0.9981893   -0.0502260 
   0.000850200     0.9770541   -0.0446985    -0.0078018   -0.0064736     0.0005358    0.0003889     0.9935254   -0.0507311 
   0.000950225     1.0693560   -0.1204132    -0.0135587   -0.0036489    -0.0006900   -0.0007420     0.9886646   -0.0600330 
   0.001050250     1.0161750   -0.0827004    -0.0103595   -0.0073822    -0.0003575    0.0002193     0.9900778   -0.0642320 
   0.001150275     0.9559563   -0.0512097    -0.0077862   -0.0086999    -0.0002099    0.0000773     0.9892094   -0.0743251 
   0.001250300     0.9775790   -0.0747839    -0.0100711   -0.0037244    -0.0005740   -0.0001580     0.9958270   -0.0871214 
   0.001350325     1.0119850   -0.1102535    -0.0110937   -0.0017948     0.0004532   -0.0012512     0.9887328   -0.0920262 
   0.001450350     1.0098710   -0.0546471    -0.0099623    0.0001617    -0.0001551   -0.0012062     0.9941968   -0.0880267 
   0.001550375     0.9786839   -0.0275358    -0.0169278    0.0031922     0.0002789    0.0001383     0.9951298   -0.0893703 
   0.001650400     0.9927655   -0.0316063    -0.0067084   -0.0001244     0.0003167    0.0009170     0.9812386   -0.0994156 
   0.001750425     0.9708348   -0.0826127    -0.0116601   -0.0014455     0.0003036    0.0004906     0.9813057   -0.1103243 
   0.001850450     0.9574756   -0.0657208    -0.0071160    0.0000222     0.0000332   -0.0006996     0.9820246   -0.1148750 
   0.001950475     1.0044230   -0.0365791    -0.0102198   -0.0000464     0.0001873    0.0008311     0.9882665   -0.1145851 
   0.002050500     0.9537995   -0.0499947    -0.0084568    0.0054516     0.0001471   -0.0005034     0.9817208   -0.1403247 
   0.002150525     1.0217530   -0.0659572    -0.0058895    0.0002352    -0.0009487   -0.0001722     0.9707440   -0.1416674 
   0.002250550     0.9556513   -0.0589079    -0.0040065   -0.0000717    -0.0001771    0.0002137     0.9749972   -0.1385161 
   0.002350575     0.9783882   -0.1005755    -0.0057715    0.0054810    -0.0001170   -0.0001532     0.9768703   -0.1477596 
   0.002450600     1.0099430   -0.1133351    -0.0036066    0.0024491    -0.0006454    0.0002386     0.9749545   -0.1583643 
   0.002550625     0.9785700   -0.1182586    -0.0044020    0.0039342     0.0000966   -0.0002542     0.9771220   -0.1615712 
   0.002650650     0.9787462   -0.0797907    -0.0013932    0.0041301     0.0005062   -0.0000610     0.9681851   -0.1661468 
   0.002750675     0.9930676   -0.0013084    -0.0013993    0.0028779     0.0002909   -0.0002006     0.9605103   -0.1729231 
   0.002850700     0.9799464   -0.0804796    -0.0037720    0.0011774     0.0013587    0.0001173     0.9627403   -0.1787727 
   0.002950725     0.9233000   -0.0917537    -0.0031575    0.0026409     0.0004975   -0.0005161     0.9598251   -0.1803540 
   0.003050750     1.0298950   -0.0943627     0.0024080    0.0022316     0.0006630    0.0004647     0.9580150   -0.1842868 
   0.003150775     0.9992915   -0.1108996    -0.0005870    0.0003446     0.0003049   -0.0001090     0.9550025   -0.1981566 
   0.003250800     0.9787136   -0.1440063    -0.0007501    0.0006401    -0.0002537   -0.0003576     0.9533185   -0.1901034 
   0.003350825     0.9681979   -0.1225858    -0.0026886    0.0032366    -0.0001028    0.0002474     0.9468929   -0.2038358 
   0.003450850     0.9454609   -0.1514877    -0.0018638    0.0044253     0.0002014    0.0009836     0.9470985   -0.2157159 
   0.003550875     0.9487741   -0.1167924    -0.0034005    0.0038240    -0.0003752   -0.0006887     0.9467733   -0.2147245 
   0.003650900     0.9822584   -0.1118852     0.0018559    0.0037710    -0.0001303   -0.0004367     0.9396716   -0.2289212 
   0.003750925     0.9579062   -0.1546844     0.0002607    0.0000658    -0.0001475   -0.0001714     0.9334639   -0.2285637 
   0.003850950     0.9647924   -0.1607602    -0.0015207    0.0012191     0.0002560    0.0001048     0.9356943   -0.2332579 
   0.003950975     1.0021000   -0.1229433    -0.0004494    0.0001298     0.0001117    0.0003651     0.9280765   -0.2370048 
   0.004051001     0.9594940   -0.1391336    -0.0005700    0.0005067     0.0004260   -0.0004913     0.9215616   -0.2433086 
   0.004151026     0.9492550   -0.1374795    -0.0022489    0.0008743    -0.0003172   -0.0004250     0.9244354   -0.2514437 
   0.004251051     0.9504362   -0.1487530    -0.0005983   -0.0001786    -0.0004094   -0.0004929     0.9192553   -0.2521090 
   0.004351076     0.9645994   -0.1198528    -0.0017389    0.0019674    -0.0001476   -0.0001229     0.9133573   -0.2486715 
   0.004451101     0.9986030   -0.1714378     0.0007232   -0.0009148    -0.0006971    0.0003067     0.9141898   -0.2583119 
   0.004551126     0.9795465   -0.1541160     0.0010357    0.0002994     0.0001815    0.0002567     0.9131607   -0.2599302 
   0.004651151     0.9778310   -0.1631619     0.0006460    0.0044947     0.0002332   -0.0000385     0.9116390   -0.2695464 
   0.004751176     0.9410199   -0.1644018    -0.0025335    0.0014921     0.0002495    0.0002240     0.9032527   -0.2746637 
   0.004851201     0.9315525   -0.1643280     0.0007088    0.0012779     0.0002169    0.0004747     0.8970901   -0.2795859 
   0.004951226     0.9463104   -0.1549135    -0.0012661    0.0019054    -0.0002227   -0.0004589     0.8953182   -0.2818618 
   0.005051251     0.9880368   -0.1676110    -0.0002942   -0.0012393     0.0002810   -0.0000263     0.8908471   -0.2885528 
   0.005151276     0.9456028   -0.1818652    -0.0006204    0.0011778    -0.0001120   -0.0003749     0.8908813   -0.2888407 
   0.005251301     0.9416869   -0.1895021    -0.0013276    0.0011069    -0.0003117    0.0002591     0.8861505   -0.2903464 
   0.005351326     0.9276485   -0.1706854     0.0005199    0.0025508     0.0000264    0.0003668     0.8836000   -0.2998927 
   0.005451351     0.9802115   -0.1725449    -0.0013447   -0.0002363     0.0001681    0.0001559     0.8799329   -0.3086088 
   0.005551376     0.9708586   -0.2008662    -0.0001581   -0.0001463    -0.0002056   -0.0000977     0.8720228   -0.3038279 
   0.005651401     0.9327062   -0.1795242     0.0003750    0.0010158    -0.0000534    0.0000509     0.8681128   -0.3138948 
   0.005751426     0.9303228   -0.1707674    -0.0004532    0.0001608    -0.0001182   -0.0000894     0.8645145   -0.3116892 
   0.005851451     0.9502392   -0.2306508    -0.0001418    0.0003096    -0.0006957   -0.0000180     0.8637465   -0.3193634 
   0.005951476     0.9517182   -0.1974549     0.0002012   -0.0000065    -0.0000189    0.0003506     0.8595850   -0.3177913 
   0.006051501     0.9542356   -0.1901790     0.0003222    0.0005393     0.0001350   -0.0000990     0.8575612   -0.3249097 
   0.006151526     0.9355578   -0.2068894     0.0010620    0.0008697     0.0004672   -0.0001730     0.8559664   -0.3271208 
   0.006251551     0.9311727   -0.1686895    -0.0004075    0.0005195    -0.0002520    0.0005697     0.8478480   -0.3335959 
   0.006351576     0.9328116   -0.2031382     0.0005634    0.0001906     0.0004596   -0.0004688     0.8416225   -0.3385339 
   0.006451601     0.9336073   -0.2136894     0.0004045    0.0021449    -0.0006639    0.0005746     0.8353740   -0.3418957 
   0.006551626     0.9229515   -0.2148187     0.0008275    0.0008108     0.0000929   -0.0002733     0.8319770   -0.3429794 
   0.006651651     0.9240901   -0.2206692     0.0014040   -0.0010619     0.0003435   -0.0001344     0.8275223   -0.3489527 
   0.006751676     0.9205853   -0.2134209     0.0004501    0.0005318    -0.0002744    0.0001124     0.8291987   -0.3476769 
   0.006851701     0.9288436   -0.2476063    -0.0008753    0.0004059    -0.0001603    0.0000078     0.8235302   -0.3519231 
   0.006951726     0.8987440   -0.2221884     0.0002470   -0.0015516    -0.0000440   -0.0000040     0.8197468   -0.3556537 
   0.007051751     0.9212675   -0.2258222     0.0001640   -0.0003360    -0.0004700    0.0001374     0.8148116   -0.3598430 
   0.007151776     0.9138790   -0.2143330     0.0006391    0.0001652     0.0001475   -0.0000148     0.8053202   -0.3587103 
   0.007251801     0.9498590   -0.2050984    -0.0000233    0.0005571     0.0002026    0.0000313     0.8024586   -0.3634525 
   0.007351826     0.9157848   -0.2555662     0.0017475    0.0008282    -0.0001278   -0.0004160     0.8006870   -0.3677292 
   0.007451851     0.9250602   -0.2375986    -0.0009742   -0.0013557     0.0000704   -0.0000524     0.7932186   -0.3711665 
   0.007551876     0.9088796   -0.2453782    -0.0006152    0.0012647     0.0004378   -0.0002133     0.7933723   -0.3777004 
   0.007651901     0.9260454   -0.2563048    -0.0001101   -0.0006051    -0.0000240    0.0001669     0.7852815   -0.3736842 
   0.007751926     0.9102520   -0.2438204    -0.0015357    0.0007884    -0.0001619    0.0003179     0.7808198   -0.3757696 
   0.007851951     0.9038040   -0.2392514    -0.0010785    0.0003170     0.0000547    0.0000775     0.7813666   -0.3791277 
   0.007951976     0.9273396   -0.2442533    -0.0000484   -0.0011004     0.0005012    0.0002000     0.7733350   -0.3810665 
   0.008052001     0.9209741   -0.2491261     0.0006194   -0.0001358     0.0000490    0.0002825     0.7716892   -0.3841421 
   0.008152026     0.9111181   -0.2691877     0.0013673    0.0004301    -0.0002877   -0.0000402     0.7680804   -0.3892297 
   0.008252051     0.8868536   -0.2355250     0.0002192    0.0003664    -0.0001569    0.0001011     0.7623707   -0.3898925 
   0.008352076     0.9062373   -0.2795217     0.0004688    0.0011605    -0.0004711   -0.0001375     0.7614681   -0.3925770 
   0.008452101     0.9187589   -0.2508767     0.0007188   -0.0002586    -0.0000911   -0.0000896     0.7539062   -0.3934833 
   0.008552126     0.9112396   -0.2584424     0.0006059    0.0001609     0.0002203   -0.0000785     0.7517642   -0.3932152 
   0.008652151     0.9172218   -0.2722415    -0.0001240    0.0000209    -0.0003066   -0.0002567     0.7470564   -0.3977950 
   0.008752176     0.9213141   -0.2515710     0.0004418    0.0006077     0.0002700   -0.0001217     0.7440049   -0.4002801 
   0.008852201     0.9008799   -0.2620512    -0.0004480   -0.0008733     0.0000732    0.0000825     0.7357197   -0.3990332 
   0.008952226     0.9105955   -0.2683829     0.0008359    0.0000946    -0.0006637   -0.0002367     0.7343739   -0.3988926 
   0.009052251     0.8980199   -0.2711516    -0.0008056    0.0000552    -0.0004019   -0.0000903     0.7293471   -0.4037585 
   0.009152276     0.8867000   -0.2686866     0.0004972   -0.0005607     0.0003195    0.0000605     0.7231926   -0.4063965 
   0.009252301     0.8970955   -0.2702954    -0.0008533   -0.0002931     0.0002105    0.0001050     0.7197617   -0.4131182 
   0.009352326     0.9107303   -0.2746969     0.0010916   -0.0007114     0.0003104    0.0000483     0.7169852   -0.4086342 
   0.009452351     0.8985093   -0.2786383     0.0003831    0.0003287    -0.0000635   -0.0000239     0.7118438   -0.4087148 
   0.009552376     0.8953547   -0.2907652    -0.0007816    0.0006474     0.0000035   -0.0001258     0.7086198   -0.4095377 
   0.009652401     0.8772298   -0.2938419     0.0011776   -0.0007391    -0.0002132   -0.0002423     0.7044103   -0.4135089 
   0.009752426     0.8775657   -0.2903971    -0.0002769   -0.0006740     0.0001912   -0.0003385     0.7006662   -0.4119984 
   0.009852451     0.8726405   -0.3092339    -0.0002101    0.0005254    -0.0000328    0.0000111     0.6955934   -0.4153132 
   0.009952476     0.8799802   -0.3038363     0.0010793    0.0000731     0.0003389    0.0000012     0.6906610   -0.4141747 
   0.010052501     0.8817540   -0.2985916     0.0001252   -0.0007664     0.0000641    0.0000324     0.6902522   -0.4143292 
   0.010152526     0.8689363   -0.2943609     0.0002225    0.0001959    -0.0000330    0.0000051     0.6840835   -0.4169531 
   0.010252551     0.8694869   -0.3022181    -0.0004212   -0.0001269    -0.0000527   -0.0000147     0.6833797   -0.4219714 
   0.010352576     0.8917562   -0.3182973     0.0011900   -0.0006985     0.0001852    0.0000909     0.6764572   -0.4210158 
   0.010452601     0.8907970   -0.3052053     0.0004186    0.0008703     0.0001407   -0.0001490     0.6711732   -0.4252468 
   0.010552626     0.8600564   -0.3055136    -0.0003381   -0.0003385     0.0002138    0.0000119     0.6676756   -0.4237269 
   0.010652651     0.8788634   -0.3035739     0.0004447   -0.0003254    -0.0000582   -0.0000543     0.6627580   -0.4268980 
   0.010752676     0.8761824   -0.3131600    -0.0011658   -0.0006557     0.0001798   -0.0001133     0.6591707   -0.4248887 
   0.010852701     0.8690607   -0.3075768     0.0012346    0.0005473    -0.0000044   -0.0004942     0.6581187   -0.4259097 
   0.010952726     0.8716039   -0.3097929    -0.0007715   -0.0003961     0.0000467    0.0003227     0.6513048   -0.4276082 
   0.011052751     0.8684941   -0.3369300    -0.0011359    0.0008003     0.0001792   -0.0004803     0.6497829   -0.4282334 
   0.011152776     0.8587953   -0.3242253    -0.0004106    0.0000568    -0.0000007   -0.0001339     0.6443530   -0.4289998 
   0.011252801     0.8557597   -0.3218846     0.0004215    0.0006926     0.0001322    0.0003702     0.6424285   -0.4291329 
   0.011352826     0.8500983   -0.3418579    -0.0003459    0.0001736    -0.0000778   -0.0001845     0.6405628   -0.4278558 
   0.011452851     0.8390644   -0.3247645    -0.0005467    0.0010817    -0.0000175    0.0001262     0.6325915   -0.4322341 
   0.011552876     0.8454577   -0.3271109     0.0000723   -0.0007563     0.0004992    0.0000945     0.6312385   -0.4327169 
   0.011652901     0.8398306   -0.3475010    -0.0006716    0.0002795    -0.0002696   -0.0000660     0.6288391   -0.4311929 
   0.011752926     0.8438088   -0.3452271     0.0005543   -0.0003209    -0.0000678   -0.0001196     0.6236454   -0.4309983 
   0.011852951     0.8504564   -0.3476168    -0.0000534   -0.0003993     0.0001904   -0.0002299     0.6196243   -0.4330631 
   0.011952976     0.8402993   -0.3358637     0.0004731    0.0004947    -0.0000317   -0.0000413     0.6148533   -0.4344557 
   0.012053002     0.8365473   -0.3612756    -0.0004801    0.0002604    -0.0002002    0.0001116     0.6136195   -0.4329552 
   0.012153027     0.8311526   -0.3470757     0.0013468   -0.0000517    -0.0001715    0.0000329     0.6101786   -0.4331819 
   0.012253052     0.8122398   -0.3509166    -0.0006712   -0.0005500     0.0000508    0.0002187     0.6066231   -0.4342794 
   0.012353077     0.8428745   -0.3467062     0.0007170    0.0005800     0.0004200    0.0000898     0.6042133   -0.4336516 
   0.012453102     0.8382671   -0.3570204    -0.0004718    0.0001841    -0.0001329    0.0001867     0.5968613   -0.4375999 
   0.012553127     0.8286134   -0.3618042    -0.0006625    0.0005988     0.0001927   -0.0001412     0.5938362   -0.4356645 
   0.012653152     0.8264221   -0.3530152     0.0001326   -0.0001573     0.0001064    0.0001478     0.5922156   -0.4373375 
   0.012753177     0.8261216   -0.3493450     0.0005836   -0.0005704    -0.0001050   -0.0001753     0.5906746   -0.4356972 
   0.012853202     0.8279251   -0.3549868     0.0005870   -0.0001939    -0.0002870    0.0003119     0.5825737   -0.4346019 
   0.012953227     0.8253565   -0.3537141    -0.0001383   -0.0004115    -0.0000873    0.0003722     0.5824479   -0.4361345 
   0.013053252     0.8049911   -0.3667317     0.0005004   -0.0000230    -0.0001618    0.0002378     0.5806556   -0.4344029 
   0.013153277     0.8251964   -0.3540163     0.0005486    0.0009276    -0.0000392   -0.0004069     0.5739528   -0.4374197 
   0.013253302     0.8160938   -0.3653938    -0.0003501   -0.0000580     0.0001587   -0.0000985     0.5723657   -0.4344360 
   0.013353327     0.8101327   -0.3610948     0.0008164   -0.0001776     0.0000790   -0.0001345     0.5695109   -0.4372721 
   0.013453352     0.8161460   -0.3563533     0.0006126    0.0003426    -0.0000085   -0.0000110     0.5656445   -0.4370508 
   0.013553377     0.7921043   -0.3645863    -0.0003709    0.0000114     0.0001988    0.0005215     0.5623590   -0.4367833 
   0.013653402     0.8033251   -0.3771056    -0.0004152   -0.0007839    -0.0001523   -0.0001555     0.5597433   -0.4363389 
   0.013753427     0.8115946   -0.3724235     0.0003043   -0.0004308    -0.0000670    0.0001027     0.5532014   -0.4369747 
   0.013853452     0.8035097   -0.3854896     0.0001294    0.0002272     0.0000366    0.0002954     0.5551924   -0.4352196 
   0.013953477     0.7849834   -0.3660347     0.0000590   -0.0001014     0.0000606    0.0001637     0.5508856   -0.4343679 
   0.014053502     0.8038995   -0.3836601     0.0006492    0.0000575    -0.0000029    0.0003754     0.5463407   -0.4331691 
   0.014153527     0.7992357   -0.3905170     0.0004553   -0.0002935    -0.0001425    0.0000383     0.5448433   -0.4333923 
   0.014253552     0.7970200   -0.3847815    -0.0002257    0.0004819     0.0001636   -0.0000527     0.5412831   -0.4362161 
   0.014353577     0.7773852   -0.3876290    -0.0005146    0.0003855    -0.0002841   -0.0000023     0.5365529   -0.4348167 
   0.014453602     0.7793211   -0.3824029    -0.0000138   -0.0000078    -0.0000249    0.0002360     0.5359596   -0.4351316 
   0.014553627     0.7875559   -0.3853807     0.0001312   -0.0004295     0.0002396    0.0001660     0.5340939   -0.4353258 
   0.014653652     0.7905869   -0.3965511     0.0011552   -0.0000836    -0.0003557    0.0000518     0.5299659   -0.4339779 
   0.014753677     0.7845759   -0.3844709    -0.0006255    0.0010576     0.0000435   -0.0000695     0.5248346   -0.4322254 
   0.014853702     0.7902386   -0.3773642    -0.0001255    0.0004227     0.0001380    0.0000024     0.5224075   -0.4321173 
   0.014953727     0.7725978   -0.4039209     0.0001599   -0.0008299    -0.0000405   -0.0001412     0.5194416   -0.4313980 
   0.015053752     0.7759411   -0.3889413    -0.0012181    0.0003090    -0.0000849   -0.0000160     0.5151589   -0.4330957 
   0.015153777     0.7776933   -0.3939306    -0.0008668    0.0001587    -0.0001894    0.0000344     0.5163505   -0.4333358 
   0.015253802     0.7648441   -0.3975824     0.0000453    0.0000277     0.0000522   -0.0001690     0.5113539   -0.4326212 
   0.015353827     0.7672259   -0.4097504     0.0005424   -0.0005093     0.0001342   -0.0001848     0.5081506   -0.4317521 
   0.015453852     0.7702764   -0.3985395     0.0005368    0.0008793     0.0001550   -0.0000861     0.5066174   -0.4317983 
   0.015553877     0.7678893   -0.4067385    -0.0003970    0.0010243    -0.0001397   -0.0000580     0.5048731   -0.4319567 
   0.015653902     0.7602976   -0.4032750    -0.0003264   -0.0001381    -0.0001631    0.0000122     0.4993926   -0.4335448 
