! 26-Feb-26 11:21:29 AM
! E:\VNA_MEASUREMENTS\SP8T\SP8T_P1_RF2.S2P
! CHANNEL.1
! TR.MEASUREMENT
! CORRECTED.DATA
# GHZ S RI R 50.0
! FREQ.GHZ         S11RE         S11IM         S21RE         S21IM         S12RE         S12IM         S22RE         S22IM         
!; PortSelection: Port_12
   0.000050000     0.0255830   -0.1104321    -0.2241893   -0.1758545    -0.0001872    0.0031618     0.9691679    0.0640422 
   0.000150025     0.0128453    0.1277567     0.3399526   -0.6050888    -0.0010112   -0.0000311     1.0019830   -0.0023018 
   0.000250050    -0.7726670   -0.2369032    -0.0002303   -0.0108819    -0.0004041   -0.0003139     1.0004800   -0.0130291 
   0.000350075     0.9908404   -0.0793299    -0.0002403   -0.0108252     0.0010267    0.0009413     0.9999040   -0.0381401 
   0.000450100     1.0076580   -0.0608564    -0.0028504   -0.0089164    -0.0002043    0.0004138     0.9935313   -0.0282180 
   0.000550125     0.9479091   -0.0206607    -0.0084233   -0.0070084    -0.0015734    0.0008499     1.0031250   -0.0352120 
   0.000650150     0.9867821   -0.0547219    -0.0015757   -0.0130611     0.0002383   -0.0003826     1.0032120   -0.0482464 
   0.000750175     1.0048300   -0.0812536    -0.0061385   -0.0114077     0.0003490    0.0001881     0.9927333   -0.0494744 
   0.000850200     0.9942589   -0.0621829    -0.0089063   -0.0060591    -0.0006629    0.0014690     0.9937283   -0.0428938 
   0.000950225     1.0349410   -0.0360177    -0.0129987   -0.0039964     0.0002318   -0.0001732     0.9910563   -0.0693697 
   0.001050250     1.0052660   -0.0717512    -0.0127899   -0.0023215     0.0010634   -0.0007380     0.9874549   -0.0611887 
   0.001150275     1.0037920   -0.0332668    -0.0127964   -0.0050384    -0.0003657   -0.0001190     0.9846130   -0.0641916 
   0.001250300     0.9618730   -0.0307752    -0.0091600   -0.0033013     0.0003695   -0.0001409     0.9999501   -0.0854389 
   0.001350325     0.9955776   -0.0653315    -0.0118844   -0.0025051     0.0002249   -0.0008605     0.9843162   -0.0930132 
   0.001450350     1.0089980   -0.0858092    -0.0089744   -0.0018691    -0.0003240   -0.0003628     0.9895603   -0.0855056 
   0.001550375     1.0071600   -0.0923042    -0.0112803   -0.0000557    -0.0001304   -0.0018176     1.0000770   -0.0941849 
   0.001650400     0.9666516   -0.0291588    -0.0111655    0.0003676    -0.0000941   -0.0004343     0.9810798   -0.1026986 
   0.001750425     0.9917604   -0.0726751    -0.0065654   -0.0010117    -0.0002812    0.0005363     0.9836532   -0.1163275 
   0.001850450     0.9899508   -0.0922983    -0.0090114    0.0014470    -0.0000017    0.0003515     0.9862872   -0.1117885 
   0.001950475     1.0363090   -0.0451179    -0.0075114    0.0032012    -0.0001024    0.0003472     0.9846956   -0.1187480 
   0.002050500     1.0103190   -0.0349535    -0.0046918    0.0045706    -0.0007069   -0.0007684     0.9833034   -0.1304145 
   0.002150525     0.9854048   -0.0742305    -0.0023390    0.0007999    -0.0004857    0.0005434     0.9770141   -0.1274775 
   0.002250550     0.9816891   -0.0842704    -0.0017542    0.0001213     0.0002319    0.0008387     0.9774405   -0.1427554 
   0.002350575     0.9302143   -0.1367449    -0.0056149    0.0034544    -0.0010945   -0.0000992     0.9771937   -0.1421559 
   0.002450600     1.0474120   -0.0941628    -0.0055638    0.0056187     0.0009688    0.0000445     0.9783304   -0.1477755 
   0.002550625     0.9755729   -0.1154390    -0.0047230    0.0072916     0.0000697    0.0003809     0.9647478   -0.1562690 
   0.002650650     1.0060110   -0.0655722    -0.0078309    0.0038440     0.0001610   -0.0000532     0.9689397   -0.1670498 
   0.002750675     1.0206060   -0.0305281    -0.0037341    0.0022679    -0.0004318    0.0004548     0.9613934   -0.1724876 
   0.002850700     1.0161880   -0.0995404    -0.0003124    0.0027468    -0.0002491    0.0004090     0.9645792   -0.1751733 
   0.002950725     0.9546324   -0.1025108    -0.0014599    0.0049969     0.0007616    0.0007239     0.9632570   -0.1787659 
   0.003050750     0.9491271   -0.0850395     0.0001085    0.0072663    -0.0004280   -0.0003530     0.9563819   -0.1838515 
   0.003150775     0.9910558   -0.1290426    -0.0028376    0.0014786    -0.0008151    0.0004591     0.9515736   -0.1925292 
   0.003250800     0.9912432   -0.0779156    -0.0020840    0.0028825    -0.0001192   -0.0001145     0.9534035   -0.1972745 
   0.003350825     0.9845672   -0.0817713    -0.0021263    0.0013816     0.0003659   -0.0001367     0.9505202   -0.2030343 
   0.003450850     0.9488920   -0.1536289    -0.0022567    0.0026579     0.0003276    0.0003932     0.9492251   -0.2076211 
   0.003550875     0.9727708   -0.1093129    -0.0034263    0.0021791     0.0000326    0.0004607     0.9448994   -0.2093510 
   0.003650900     0.9895283   -0.1043995    -0.0019674    0.0017220     0.0002493   -0.0002735     0.9429151   -0.2200204 
   0.003750925     0.9541650   -0.1582848     0.0013155    0.0022487    -0.0002662   -0.0000178     0.9343320   -0.2265161 
   0.003850950     0.9800696   -0.1400992    -0.0026011   -0.0000333     0.0001059    0.0002945     0.9341950   -0.2274073 
   0.003950975     0.9736435   -0.1185704    -0.0025514    0.0010790     0.0002169    0.0006390     0.9303787   -0.2313651 
   0.004051001     0.9752931   -0.1635384    -0.0037142   -0.0017115    -0.0003811    0.0011178     0.9275803   -0.2315310 
   0.004151026     1.0026920   -0.1261519    -0.0012201    0.0008149    -0.0013700   -0.0000473     0.9230494   -0.2476978 
   0.004251051     0.9626309   -0.1460057    -0.0010006    0.0010232     0.0004324    0.0000852     0.9220158   -0.2453076 
   0.004351076     0.9614924   -0.1499723    -0.0013096    0.0019128    -0.0005979   -0.0002258     0.9194172   -0.2487916 
   0.004451101     0.9988073   -0.1437003     0.0017475    0.0003901     0.0003051   -0.0000287     0.9147394   -0.2512348 
   0.004551126     0.9755092   -0.1568967    -0.0029455    0.0006679    -0.0002590   -0.0007065     0.9136102   -0.2611059 
   0.004651151     0.9603074   -0.1504910     0.0046494   -0.0010792    -0.0001864    0.0001206     0.9136937   -0.2647651 
   0.004751176     0.9534827   -0.1542193    -0.0013933    0.0018798    -0.0001443   -0.0001105     0.9053287   -0.2723054 
   0.004851201     0.9478805   -0.1507268    -0.0014908    0.0012703     0.0000310    0.0000430     0.9020724   -0.2735526 
   0.004951226     0.9854149   -0.1651969     0.0007749    0.0007266    -0.0004076    0.0000920     0.9009343   -0.2749200 
   0.005051251     0.9871119   -0.1755225    -0.0013640    0.0019078     0.0001147    0.0000306     0.8979211   -0.2767827 
   0.005151276     0.9402311   -0.1598186    -0.0001830    0.0017471     0.0001585    0.0004482     0.8912371   -0.2859928 
   0.005251301     0.9457394   -0.1773818     0.0006602   -0.0009073    -0.0000057    0.0001477     0.8873402   -0.2887455 
   0.005351326     0.9311224   -0.1579028    -0.0010427    0.0008865    -0.0000863   -0.0000697     0.8849123   -0.2946243 
   0.005451351     0.9547383   -0.1537475    -0.0006946   -0.0024875    -0.0004705    0.0000821     0.8790452   -0.3014114 
   0.005551376     0.9541957   -0.1984991     0.0010953    0.0012478     0.0000871    0.0005451     0.8765140   -0.2979098 
   0.005651401     0.9684798   -0.1800122     0.0012935    0.0036515    -0.0001239   -0.0003823     0.8702077   -0.3088507 
   0.005751426     0.9323068   -0.1769261    -0.0013685    0.0025854    -0.0000252    0.0002088     0.8664536   -0.3110971 
   0.005851451     0.9473961   -0.2147571    -0.0012702    0.0010595     0.0010475    0.0000409     0.8666509   -0.3145486 
   0.005951476     0.9450392   -0.1709765     0.0004518    0.0011921     0.0005388    0.0000686     0.8616597   -0.3155183 
   0.006051501     0.9543602   -0.1903916    -0.0007340    0.0009092    -0.0000371    0.0004333     0.8559816   -0.3273830 
   0.006151526     0.9496866   -0.2080879    -0.0024968   -0.0002570    -0.0000103   -0.0003109     0.8515732   -0.3256054 
   0.006251551     0.9515187   -0.1853181    -0.0002836    0.0004560    -0.0004002    0.0004352     0.8516240   -0.3319169 
   0.006351576     0.9407805   -0.2194519    -0.0003561   -0.0000548    -0.0000487    0.0003785     0.8435498   -0.3336146 
   0.006451601     0.9529154   -0.2165796    -0.0018127   -0.0006404    -0.0001569    0.0000598     0.8387650   -0.3391088 
   0.006551626     0.9244005   -0.2019578    -0.0016022    0.0023455    -0.0002755   -0.0000063     0.8401564   -0.3390122 
   0.006651651     0.9329792   -0.2192320     0.0007037    0.0004473     0.0001794    0.0000578     0.8329300   -0.3474023 
   0.006751676     0.9334615   -0.2344572     0.0003793   -0.0003858    -0.0000297    0.0003020     0.8319232   -0.3452128 
   0.006851701     0.9361939   -0.2253030    -0.0010243    0.0001383    -0.0004604    0.0004044     0.8223680   -0.3513185 
   0.006951726     0.9099269   -0.2295053    -0.0007655    0.0000973     0.0000097    0.0003823     0.8203378   -0.3474445 
   0.007051751     0.9262913   -0.2174207    -0.0002583    0.0003825    -0.0001774    0.0003128     0.8151140   -0.3537930 
   0.007151776     0.9086082   -0.2258406     0.0002205    0.0004014    -0.0000863   -0.0000836     0.8094167   -0.3582142 
   0.007251801     0.9463552   -0.2193882    -0.0000292    0.0011718    -0.0006945    0.0001140     0.8029108   -0.3603221 
   0.007351826     0.9395697   -0.2336280    -0.0017389    0.0009811     0.0001107   -0.0002227     0.8029448   -0.3634104 
   0.007451851     0.8955867   -0.2363543     0.0002822   -0.0003034     0.0000420    0.0004676     0.7969893   -0.3668365 
   0.007551876     0.9078914   -0.2436656     0.0012429    0.0004605     0.0000465    0.0003767     0.7975041   -0.3683418 
   0.007651901     0.9406379   -0.2570380     0.0006297    0.0012858     0.0000348    0.0001001     0.7933800   -0.3714069 
   0.007751926     0.9291238   -0.2311362     0.0011498   -0.0003895    -0.0001244    0.0000749     0.7845483   -0.3773637 
   0.007851951     0.9220868   -0.2571018     0.0004056    0.0006878     0.0000948    0.0000986     0.7851672   -0.3757584 
   0.007951976     0.9449390   -0.2567292    -0.0010411    0.0005497     0.0002448    0.0003314     0.7768254   -0.3789003 
   0.008052001     0.9345122   -0.2537944     0.0011515    0.0012483     0.0008383    0.0002032     0.7746964   -0.3795399 
   0.008152026     0.9136249   -0.2663438     0.0003733   -0.0008470     0.0001692    0.0001200     0.7731748   -0.3822608 
   0.008252051     0.8963985   -0.2468043     0.0023377   -0.0017533    -0.0000713    0.0002252     0.7635515   -0.3856950 
   0.008352076     0.9026326   -0.2444498     0.0002725    0.0000159     0.0002413    0.0000037     0.7622560   -0.3886651 
   0.008452101     0.9240897   -0.2488992    -0.0001301    0.0007460    -0.0002917    0.0001956     0.7581411   -0.3873978 
   0.008552126     0.9062052   -0.2654124    -0.0017750   -0.0004948     0.0002668   -0.0000065     0.7561717   -0.3896923 
   0.008652151     0.9099104   -0.2634121     0.0004449   -0.0007861    -0.0002144   -0.0002438     0.7497801   -0.3925495 
   0.008752176     0.9194907   -0.2479586    -0.0006683    0.0018001    -0.0002598   -0.0000316     0.7484753   -0.3970014 
   0.008852201     0.8975597   -0.2483594    -0.0005910    0.0010454    -0.0001823    0.0002145     0.7398701   -0.3960170 
   0.008952226     0.9116668   -0.2839324    -0.0018877   -0.0001420    -0.0000243    0.0000377     0.7358677   -0.3948114 
   0.009052251     0.9004227   -0.2546835    -0.0005138   -0.0005184    -0.0001257    0.0001315     0.7341517   -0.3995587 
   0.009152276     0.9159117   -0.2632279    -0.0005082   -0.0003401    -0.0000506    0.0003489     0.7238079   -0.4031045 
   0.009252301     0.8879821   -0.2671265    -0.0001460    0.0010243    -0.0001707    0.0001989     0.7263745   -0.4081556 
   0.009352326     0.9048981   -0.2816063     0.0014227    0.0014531    -0.0001212    0.0000036     0.7227194   -0.4046895 
   0.009452351     0.8996034   -0.2633818     0.0005429    0.0008311    -0.0001327    0.0002066     0.7164365   -0.4063274 
   0.009552376     0.9031818   -0.2970673    -0.0013854    0.0017581    -0.0002787    0.0006475     0.7112728   -0.4049297 
   0.009652401     0.8927083   -0.2998835     0.0003812    0.0010407     0.0000104    0.0002680     0.7066069   -0.4084775 
   0.009752426     0.8947692   -0.2932543    -0.0006950   -0.0003584    -0.0001155   -0.0000563     0.7043864   -0.4099826 
   0.009852451     0.8892457   -0.2962123    -0.0002364    0.0009614     0.0000882   -0.0002387     0.6985681   -0.4119057 
   0.009952476     0.9044914   -0.3106004     0.0007885    0.0008155    -0.0001802    0.0003472     0.6974323   -0.4104594 
   0.010052501     0.8794515   -0.2950616     0.0010290   -0.0006556    -0.0000818    0.0002851     0.6952251   -0.4115034 
   0.010152526     0.8786178   -0.2968290     0.0012771   -0.0012375     0.0002221   -0.0000498     0.6860904   -0.4136164 
   0.010252551     0.8760918   -0.3012417    -0.0001497   -0.0002762    -0.0003297   -0.0000819     0.6868774   -0.4164084 
   0.010352576     0.8903984   -0.3149305    -0.0017867   -0.0000661     0.0005067    0.0000722     0.6797624   -0.4184072 
   0.010452601     0.8942420   -0.2792565    -0.0004931   -0.0008458    -0.0003018   -0.0000246     0.6769972   -0.4229905 
   0.010552626     0.8652963   -0.3083741    -0.0006045    0.0001517    -0.0000691    0.0003370     0.6735408   -0.4232893 
   0.010652651     0.8683304   -0.3192700     0.0006230    0.0002553    -0.0000364    0.0001050     0.6697790   -0.4228150 
   0.010752676     0.8790339   -0.3159648    -0.0003624    0.0009142     0.0000215    0.0003458     0.6644720   -0.4229075 
   0.010852701     0.8806708   -0.3023739    -0.0005323    0.0010952    -0.0000466    0.0003383     0.6655704   -0.4210305 
   0.010952726     0.8629279   -0.3147853    -0.0018092   -0.0000040     0.0001068    0.0002837     0.6587944   -0.4232562 
   0.011052751     0.8747339   -0.3297581     0.0007304   -0.0005859    -0.0000939    0.0001768     0.6542143   -0.4259046 
   0.011152776     0.8590697   -0.3203535    -0.0008443   -0.0001309     0.0000173    0.0005709     0.6503245   -0.4273074 
   0.011252801     0.8732570   -0.3280073    -0.0006369    0.0005708    -0.0002875   -0.0000873     0.6469433   -0.4260498 
   0.011352826     0.8524264   -0.3378703     0.0003734    0.0007226    -0.0003289    0.0000486     0.6441091   -0.4267265 
   0.011452851     0.8589537   -0.3326466     0.0010096    0.0001931    -0.0000945    0.0002116     0.6358432   -0.4264264 
   0.011552876     0.8409957   -0.3337160    -0.0007403   -0.0004546    -0.0003689   -0.0002109     0.6366596   -0.4277681 
   0.011652901     0.8517311   -0.3449705    -0.0009199   -0.0010059     0.0001730    0.0005476     0.6310303   -0.4288134 
   0.011752926     0.8512918   -0.3297393     0.0000041    0.0013567     0.0000273    0.0000573     0.6268403   -0.4279847 
   0.011852951     0.8638951   -0.3469898     0.0007963    0.0002422    -0.0000222    0.0000413     0.6268460   -0.4293290 
   0.011952976     0.8447343   -0.3406179    -0.0008539    0.0004163    -0.0002013    0.0001357     0.6198617   -0.4298942 
   0.012053002     0.8446658   -0.3525055     0.0004552    0.0004356     0.0002013    0.0003848     0.6171894   -0.4302080 
   0.012153027     0.8455100   -0.3476520     0.0000523   -0.0007111    -0.0002553    0.0001764     0.6147360   -0.4313839 
   0.012253052     0.8325076   -0.3566410    -0.0012193   -0.0010402    -0.0001541   -0.0000033     0.6109449   -0.4329454 
   0.012353077     0.8521031   -0.3427560    -0.0013598    0.0010890    -0.0002407    0.0002382     0.6087273   -0.4323770 
   0.012453102     0.8500614   -0.3526479     0.0012859    0.0012581     0.0003601    0.0000703     0.6035281   -0.4328700 
   0.012553127     0.8331078   -0.3645760     0.0003664    0.0000629     0.0000156    0.0001101     0.5983686   -0.4314654 
   0.012653152     0.8427215   -0.3423538    -0.0011718   -0.0015196    -0.0000367   -0.0000796     0.5974533   -0.4322461 
   0.012753177     0.8269442   -0.3598009    -0.0000258    0.0003610     0.0002415    0.0001616     0.5952944   -0.4312700 
   0.012853202     0.8274007   -0.3521198     0.0007967   -0.0006810    -0.0000175    0.0001112     0.5884824   -0.4294166 
   0.012953227     0.8313251   -0.3581409    -0.0003719    0.0003837    -0.0000319    0.0003358     0.5903581   -0.4318442 
   0.013053252     0.8151230   -0.3685518    -0.0004346    0.0007468     0.0001371    0.0000984     0.5849575   -0.4328392 
   0.013153277     0.8405672   -0.3593135    -0.0017596    0.0003983    -0.0001033    0.0003267     0.5806323   -0.4349959 
   0.013253302     0.8289089   -0.3649667     0.0005250    0.0009941    -0.0000233    0.0003319     0.5765601   -0.4329302 
   0.013353327     0.8148140   -0.3672043    -0.0001282   -0.0003699     0.0000628    0.0000965     0.5733440   -0.4342284 
   0.013453352     0.8229251   -0.3549944     0.0002472    0.0000424    -0.0002000   -0.0000387     0.5694732   -0.4336815 
   0.013553377     0.8085731   -0.3724459    -0.0006546   -0.0007268    -0.0001790    0.0002451     0.5669398   -0.4302962 
   0.013653402     0.8133893   -0.3681776     0.0001700    0.0009393    -0.0001517    0.0000387     0.5649775   -0.4327903 
   0.013753427     0.8181913   -0.3796415    -0.0004353    0.0004860     0.0000708   -0.0001805     0.5594595   -0.4330046 
   0.013853452     0.8203087   -0.3776942    -0.0010287    0.0000269    -0.0000560    0.0005052     0.5611323   -0.4314505 
   0.013953477     0.8046399   -0.3714760    -0.0000448    0.0005187     0.0001131    0.0001765     0.5555751   -0.4342684 
   0.014053502     0.8093303   -0.3935030    -0.0003239   -0.0004968     0.0001192    0.0002582     0.5522029   -0.4308589 
   0.014153527     0.8107481   -0.3783780     0.0005119    0.0006931     0.0000902    0.0002300     0.5514046   -0.4337281 
   0.014253552     0.8105457   -0.3677706     0.0005167    0.0002406    -0.0000620    0.0001506     0.5485183   -0.4332164 
   0.014353577     0.8000788   -0.3835550     0.0000415   -0.0004317    -0.0000655    0.0005443     0.5422440   -0.4322997 
   0.014453602     0.7858667   -0.3861414    -0.0003527   -0.0000402    -0.0000435    0.0004202     0.5390832   -0.4317201 
   0.014553627     0.7938336   -0.3856637    -0.0001544   -0.0002295    -0.0001540    0.0005195     0.5390328   -0.4318095 
   0.014653652     0.7956844   -0.3884620    -0.0001718   -0.0007221     0.0001370    0.0003941     0.5358877   -0.4338013 
   0.014753677     0.7898929   -0.3788062     0.0001598    0.0005407    -0.0000017    0.0001335     0.5308712   -0.4285576 
   0.014853702     0.7928289   -0.3808872    -0.0008056    0.0000805    -0.0001886    0.0000485     0.5267331   -0.4294690 
   0.014953727     0.7795199   -0.3987421    -0.0003474    0.0002216    -0.0003399    0.0002299     0.5253689   -0.4297415 
   0.015053752     0.7793411   -0.3889341    -0.0009843    0.0004646    -0.0001576    0.0002059     0.5213583   -0.4306574 
   0.015153777     0.7988431   -0.3944686    -0.0000094    0.0004334    -0.0001644    0.0000963     0.5226766   -0.4318740 
   0.015253802     0.7784228   -0.3983365    -0.0011788   -0.0000436    -0.0000812    0.0002760     0.5170467   -0.4312189 
   0.015353827     0.7786646   -0.4005652    -0.0003102   -0.0012735    -0.0001881    0.0001581     0.5155870   -0.4302112 
   0.015453852     0.7795094   -0.3982693     0.0004990    0.0003305     0.0000056    0.0003001     0.5099164   -0.4284069 
   0.015553877     0.7788484   -0.4139947    -0.0008495    0.0000547     0.0000283    0.0003610     0.5109490   -0.4285823 
   0.015653902     0.7706670   -0.3968462    -0.0009800    0.0000297    -0.0000678    0.0003480     0.5084087   -0.4300466 
