! 26-Feb-26 12:31:30 PM
! E:\VNA_MEASUREMENTS\SP8T\SP8T_P6_RF6.S2P
! CHANNEL.1
! TR.MEASUREMENT
! CORRECTED.DATA
# GHZ S RI R 50.0
! FREQ.GHZ         S11RE         S11IM         S21RE         S21IM         S12RE         S12IM         S22RE         S22IM         
!; PortSelection: Port_12
   0.000050000     0.1772442    0.1072127    -0.0358916    0.0768898    -0.0073437    0.0033705     1.0019930   -0.0042258 
   0.000150025    -0.3803909   -0.1874755    -0.1391362   -0.6455522    -0.0007367    0.0017911     0.9956445    0.0052369 
   0.000250050     0.1096204   -0.6721809    -0.0021037   -0.0075337     0.0020019    0.0050869     0.9965392   -0.0131897 
   0.000350075     1.0293990   -0.0022415     0.0018284   -0.0022948    -0.0010689    0.0083175     1.0035940   -0.0224767 
   0.000450100     0.9990097   -0.0282427    -0.0004763    0.0012846    -0.0009977    0.0111550     0.9961288   -0.0066654 
   0.000550125     0.9675746   -0.0419166    -0.0038605    0.0051000    -0.0010378    0.0139013     0.9936643   -0.0179345 
   0.000650150     1.0350230   -0.0282042    -0.0085932    0.0027699    -0.0019677    0.0172341     1.0003930   -0.0324111 
   0.000750175     1.0098390   -0.0968875    -0.0099173    0.0093481     0.0004220    0.0199642     0.9968757   -0.0322373 
   0.000850200     0.9301458   -0.1056807    -0.0111810    0.0135294    -0.0013243    0.0225607     0.9978780   -0.0257532 
   0.000950225     0.9679934   -0.0156901    -0.0118778    0.0147678    -0.0027986    0.0247152     0.9886475   -0.0395018 
   0.001050250     1.0061000   -0.0727619    -0.0089801    0.0265511    -0.0026308    0.0284778     0.9905524   -0.0357806 
   0.001150275     0.9755279   -0.0341671    -0.0110140    0.0233778    -0.0026927    0.0328735     0.9912675   -0.0426512 
   0.001250300     0.9662865   -0.0551073    -0.0123305    0.0322529    -0.0023363    0.0348564     0.9984474   -0.0519547 
   0.001350325     0.9775469   -0.0746027    -0.0095931    0.0356182    -0.0025880    0.0370869     0.9898619   -0.0568020 
   0.001450350     1.0359980   -0.0811124    -0.0098564    0.0423892    -0.0022887    0.0415003     0.9829865   -0.0536815 
   0.001550375     0.9830313   -0.0482468    -0.0189719    0.0406935    -0.0027877    0.0435387     0.9940095   -0.0523503 
   0.001650400     1.0309860   -0.0150642    -0.0162109    0.0473145    -0.0039943    0.0467835     0.9852575   -0.0545248 
   0.001750425     1.0107330   -0.0726657    -0.0106494    0.0543916    -0.0026813    0.0498073     0.9881724   -0.0588088 
   0.001850450     0.9559862   -0.0987983    -0.0095947    0.0529374    -0.0014889    0.0527548     0.9841326   -0.0625353 
   0.001950475     1.0009200   -0.0179451    -0.0127257    0.0610068    -0.0039740    0.0562066     0.9872154   -0.0694541 
   0.002050500     0.9540314   -0.0661143    -0.0078890    0.0593517    -0.0021164    0.0588319     0.9938712   -0.0769160 
   0.002150525     0.9966075   -0.0494028    -0.0084891    0.0636202    -0.0015397    0.0630520     0.9837205   -0.0768240 
   0.002250550     0.9772406   -0.0673617    -0.0060078    0.0669417    -0.0025925    0.0662456     0.9909247   -0.0769240 
   0.002350575     0.9670843   -0.1017169    -0.0033625    0.0710183    -0.0005623    0.0681261     0.9825907   -0.0777419 
   0.002450600     1.0127440   -0.0963068    -0.0079619    0.0750139    -0.0015280    0.0727819     0.9854137   -0.0877480 
   0.002550625     0.9658947   -0.1293755    -0.0001203    0.0788046     0.0005701    0.0744561     0.9895343   -0.0856220 
   0.002650650     0.9913815   -0.1193841    -0.0015535    0.0806144     0.0015873    0.0787014     0.9807865   -0.0989576 
   0.002750675     0.9708084   -0.0261740    -0.0055057    0.0883305    -0.0010583    0.0813792     0.9880635   -0.1006832 
   0.002850700     0.9994051   -0.1115035    -0.0015707    0.0860188     0.0009373    0.0849390     0.9799991   -0.0980276 
   0.002950725     0.9217057   -0.1103744     0.0003300    0.0833978     0.0014681    0.0861541     0.9821587   -0.0981255 
   0.003050750     1.0178780   -0.1034171    -0.0033650    0.0983492     0.0017715    0.0912084     0.9813523   -0.1034549 
   0.003150775     0.9781563   -0.1161214     0.0032763    0.0977995     0.0035362    0.0927210     0.9758433   -0.1147917 
   0.003250800     0.9649426   -0.0888685    -0.0034567    0.0992473     0.0017957    0.0956511     0.9785618   -0.1095227 
   0.003350825     0.9639800   -0.0660616    -0.0053843    0.1018727     0.0013554    0.0991233     0.9687666   -0.1115815 
   0.003450850     0.9684707   -0.1149979     0.0029309    0.1079591     0.0049589    0.1038358     0.9802852   -0.1219005 
   0.003550875     0.9514757   -0.1015996     0.0044981    0.1108650     0.0028729    0.1057589     0.9767263   -0.1185185 
   0.003650900     1.0023900   -0.1135538     0.0034135    0.1170082     0.0054681    0.1112451     0.9731056   -0.1263999 
   0.003750925     0.9522313   -0.1282758     0.0056596    0.1105264     0.0059939    0.1115217     0.9720562   -0.1251136 
   0.003850950     0.9652173   -0.1394008     0.0087219    0.1146454     0.0073117    0.1149077     0.9775488   -0.1297191 
   0.003950975     1.0096510   -0.1245655     0.0081046    0.1217605     0.0077704    0.1205384     0.9746651   -0.1311339 
   0.004051001     0.9499376   -0.1628236     0.0115913    0.1239965     0.0093606    0.1199557     0.9699939   -0.1386350 
   0.004151026     1.0136800   -0.1370859     0.0077595    0.1314325     0.0098748    0.1278087     0.9724718   -0.1405711 
   0.004251051     0.9743173   -0.1216768     0.0047455    0.1286031     0.0095567    0.1281769     0.9681900   -0.1437048 
   0.004351076     0.9505840   -0.1176265     0.0101016    0.1304207     0.0105965    0.1287410     0.9666479   -0.1472678 
   0.004451101     0.9747946   -0.1481890     0.0100802    0.1342447     0.0124298    0.1326973     0.9652854   -0.1505965 
   0.004551126     0.9798168   -0.1694922     0.0139221    0.1417170     0.0142644    0.1362698     0.9640353   -0.1457793 
   0.004651151     0.9650387   -0.1421051     0.0142420    0.1409345     0.0132916    0.1405558     0.9726011   -0.1539997 
   0.004751176     0.9527605   -0.1815352     0.0152574    0.1407815     0.0167333    0.1418609     0.9689516   -0.1593467 
   0.004851201     0.9447850   -0.1610952     0.0177844    0.1454120     0.0168355    0.1437640     0.9633512   -0.1643478 
   0.004951226     0.9513140   -0.1566198     0.0171838    0.1470206     0.0158159    0.1472960     0.9604955   -0.1614380 
   0.005051251     0.9948974   -0.1886094     0.0224382    0.1562635     0.0194538    0.1529451     0.9616992   -0.1658419 
   0.005151276     0.9458441   -0.1711048     0.0175958    0.1555457     0.0195253    0.1539433     0.9593312   -0.1701835 
   0.005251301     0.9560994   -0.1759859     0.0232502    0.1591325     0.0200119    0.1568826     0.9628938   -0.1671766 
   0.005351326     0.9433784   -0.1465980     0.0179585    0.1613193     0.0195558    0.1599515     0.9630389   -0.1745306 
   0.005451351     0.9694465   -0.1608797     0.0189532    0.1649390     0.0218045    0.1648004     0.9603407   -0.1811583 
   0.005551376     0.9711637   -0.2160994     0.0290363    0.1667829     0.0253324    0.1655048     0.9555228   -0.1796756 
   0.005651401     0.9596065   -0.1763768     0.0259594    0.1699400     0.0243824    0.1687850     0.9552671   -0.1919131 
   0.005751426     0.9191000   -0.2000076     0.0299783    0.1653735     0.0267703    0.1698206     0.9581885   -0.1897328 
   0.005851451     0.9716803   -0.2046312     0.0314226    0.1768593     0.0279309    0.1755408     0.9503471   -0.1912072 
   0.005951476     0.9542031   -0.1600799     0.0216575    0.1767161     0.0264456    0.1787643     0.9544660   -0.1930363 
   0.006051501     0.9711571   -0.2036733     0.0334782    0.1882858     0.0313023    0.1814326     0.9502155   -0.1981701 
   0.006151526     0.9284028   -0.2219959     0.0347970    0.1791141     0.0328694    0.1803683     0.9497915   -0.2013937 
   0.006251551     0.9458610   -0.1808984     0.0292428    0.1839424     0.0310708    0.1859582     0.9465528   -0.2064175 
   0.006351576     0.9247791   -0.2062548     0.0310516    0.1848477     0.0335477    0.1861836     0.9454861   -0.2093308 
   0.006451601     0.9347240   -0.1902504     0.0303395    0.1886138     0.0336314    0.1905171     0.9413222   -0.2101219 
   0.006551626     0.9225160   -0.2058373     0.0348373    0.1917945     0.0343392    0.1927570     0.9434177   -0.2103545 
   0.006651651     0.9120498   -0.2146141     0.0359517    0.1881856     0.0366353    0.1942089     0.9404592   -0.2163740 
   0.006751676     0.9320003   -0.2162485     0.0365150    0.2003676     0.0388938    0.1992169     0.9433551   -0.2145961 
   0.006851701     0.9552743   -0.2252696     0.0417188    0.2052541     0.0410674    0.2034840     0.9370860   -0.2186521 
   0.006951726     0.9113185   -0.2327437     0.0419025    0.2012090     0.0413308    0.2032049     0.9395035   -0.2197863 
   0.007051751     0.9429033   -0.2434171     0.0489792    0.2073344     0.0445997    0.2069586     0.9334671   -0.2250838 
   0.007151776     0.9270060   -0.2167566     0.0408934    0.2128531     0.0434026    0.2100653     0.9311249   -0.2318977 
   0.007251801     0.9673455   -0.2242068     0.0473012    0.2208364     0.0473155    0.2161963     0.9305004   -0.2324478 
   0.007351826     0.9178388   -0.2404118     0.0468731    0.2133708     0.0477911    0.2129321     0.9302824   -0.2357005 
   0.007451851     0.9379087   -0.2311567     0.0479904    0.2188911     0.0483081    0.2186685     0.9274668   -0.2338942 
   0.007551876     0.9423010   -0.2375323     0.0500527    0.2270458     0.0504243    0.2236946     0.9309509   -0.2403345 
   0.007651901     0.9193318   -0.2517181     0.0520130    0.2214522     0.0508751    0.2219844     0.9280028   -0.2371351 
   0.007751926     0.9264204   -0.2501540     0.0535045    0.2273695     0.0540616    0.2253326     0.9235304   -0.2445347 
   0.007851951     0.9101740   -0.2452665     0.0543645    0.2251637     0.0535907    0.2270172     0.9229152   -0.2477918 
   0.007951976     0.9180689   -0.2674897     0.0563562    0.2308620     0.0567444    0.2294659     0.9200031   -0.2475772 
   0.008052001     0.9228260   -0.2570721     0.0594797    0.2356666     0.0593803    0.2334225     0.9188551   -0.2562152 
   0.008152026     0.9171182   -0.2646294     0.0596540    0.2334279     0.0608731    0.2343610     0.9206929   -0.2571377 
   0.008252051     0.8848087   -0.2403752     0.0557212    0.2340982     0.0581078    0.2354524     0.9161304   -0.2614221 
   0.008352076     0.9426000   -0.2668908     0.0641066    0.2462393     0.0643918    0.2430434     0.9152477   -0.2582839 
   0.008452101     0.9102667   -0.2495127     0.0615678    0.2437269     0.0631915    0.2450949     0.9187723   -0.2620930 
   0.008552126     0.9102443   -0.2694477     0.0672917    0.2428062     0.0672705    0.2447563     0.9143398   -0.2663485 
   0.008652151     0.9064934   -0.2646806     0.0721908    0.2460195     0.0671344    0.2471252     0.9092911   -0.2706757 
   0.008752176     0.9205291   -0.2511838     0.0660232    0.2539001     0.0690248    0.2530286     0.9127217   -0.2767359 
   0.008852201     0.8970112   -0.2459308     0.0655610    0.2496098     0.0671058    0.2543834     0.9097190   -0.2714005 
   0.008952226     0.9073112   -0.2827469     0.0775510    0.2516411     0.0729063    0.2552944     0.9066045   -0.2753652 
   0.009052251     0.9325094   -0.2785411     0.0798328    0.2645395     0.0768723    0.2609703     0.9062876   -0.2784918 
   0.009152276     0.9064489   -0.2679440     0.0764889    0.2616391     0.0760852    0.2605434     0.8988311   -0.2864143 
   0.009252301     0.9039512   -0.2707963     0.0751961    0.2623417     0.0771091    0.2633938     0.9002968   -0.2883193 
   0.009352326     0.9074389   -0.2966347     0.0817718    0.2669335     0.0806794    0.2656946     0.9006315   -0.2837183 
   0.009452351     0.9053626   -0.2896382     0.0863721    0.2687114     0.0815609    0.2677428     0.8963050   -0.2874125 
   0.009552376     0.8991591   -0.2969877     0.0831849    0.2708931     0.0826890    0.2686741     0.8937230   -0.2908533 
   0.009652401     0.8832371   -0.2847106     0.0818955    0.2667708     0.0831649    0.2709849     0.8921925   -0.2950242 
   0.009752426     0.8945558   -0.2913857     0.0888940    0.2745762     0.0869419    0.2742526     0.8918815   -0.2963320 
   0.009852451     0.8830315   -0.3036960     0.0892622    0.2715814     0.0893446    0.2749100     0.8879327   -0.3007514 
   0.009952476     0.8885127   -0.3007813     0.0907528    0.2786156     0.0906283    0.2772515     0.8863150   -0.3000236 
   0.010052501     0.8890316   -0.2950371     0.0877695    0.2799453     0.0904337    0.2821658     0.8871371   -0.3005979 
   0.010152526     0.8900461   -0.2940825     0.0933491    0.2818174     0.0921777    0.2834692     0.8809181   -0.3026778 
   0.010252551     0.8753849   -0.3016872     0.0963569    0.2858540     0.0942858    0.2852039     0.8833141   -0.3065037 
   0.010352576     0.8879892   -0.3130718     0.0958908    0.2842607     0.0992553    0.2879460     0.8794492   -0.3120631 
   0.010452601     0.9011017   -0.2866586     0.0917190    0.2951926     0.0995433    0.2932866     0.8745342   -0.3167022 
   0.010552626     0.8623177   -0.3068756     0.0977841    0.2908853     0.1006368    0.2920666     0.8805797   -0.3169537 
   0.010652651     0.8830580   -0.2984094     0.1020268    0.2956357     0.1032714    0.2957841     0.8752997   -0.3195594 
   0.010752676     0.8739402   -0.3338102     0.1083695    0.2963860     0.1066275    0.2940834     0.8704782   -0.3186953 
   0.010852701     0.8875954   -0.3095106     0.1081900    0.3014717     0.1072766    0.3016931     0.8718337   -0.3190616 
   0.010952726     0.8720828   -0.3044717     0.1038599    0.3020788     0.1056834    0.3020979     0.8663011   -0.3235952 
   0.011052751     0.8650165   -0.3274549     0.1106459    0.3002879     0.1121810    0.3015228     0.8666821   -0.3293408 
   0.011152776     0.8711150   -0.3151453     0.1075424    0.3056467     0.1115843    0.3052910     0.8621035   -0.3278362 
   0.011252801     0.8583297   -0.3416860     0.1171020    0.2991990     0.1168975    0.3032704     0.8606100   -0.3336298 
   0.011352826     0.8640313   -0.3588643     0.1232229    0.3086751     0.1198394    0.3057838     0.8613166   -0.3296698 
   0.011452851     0.8576936   -0.3347741     0.1189093    0.3081896     0.1189590    0.3098160     0.8593494   -0.3362741 
   0.011552876     0.8474021   -0.3376479     0.1214572    0.3068390     0.1209943    0.3103609     0.8582010   -0.3421257 
   0.011652901     0.8525327   -0.3613541     0.1274731    0.3092422     0.1256236    0.3117792     0.8565336   -0.3422566 
   0.011752926     0.8371291   -0.3318698     0.1204819    0.3111604     0.1210571    0.3139861     0.8530796   -0.3414028 
   0.011852951     0.8435267   -0.3385726     0.1212179    0.3151985     0.1262048    0.3181519     0.8517625   -0.3464205 
   0.011952976     0.8429608   -0.3415153     0.1303192    0.3157589     0.1257970    0.3189671     0.8504680   -0.3428430 
   0.012053002     0.8371807   -0.3404333     0.1251785    0.3172845     0.1299057    0.3200660     0.8455701   -0.3503191 
   0.012153027     0.8501574   -0.3557480     0.1325385    0.3227730     0.1346386    0.3216724     0.8421265   -0.3506966 
   0.012253052     0.8399805   -0.3552932     0.1362051    0.3253895     0.1349320    0.3240528     0.8437650   -0.3512812 
   0.012353077     0.8499231   -0.3436503     0.1344146    0.3295101     0.1349202    0.3277566     0.8394570   -0.3509781 
   0.012453102     0.8441206   -0.3571515     0.1434905    0.3292440     0.1399296    0.3277814     0.8380670   -0.3573036 
   0.012553127     0.8293998   -0.3641376     0.1384762    0.3250986     0.1401232    0.3297000     0.8383164   -0.3572972 
   0.012653152     0.8474450   -0.3442614     0.1409728    0.3355266     0.1422222    0.3346373     0.8327110   -0.3595967 
   0.012753177     0.8221580   -0.3486780     0.1404959    0.3286109     0.1405957    0.3348784     0.8319981   -0.3597226 
   0.012853202     0.8243374   -0.3548794     0.1490846    0.3335805     0.1457327    0.3347790     0.8277696   -0.3641577 
   0.012953227     0.8207317   -0.3484730     0.1454400    0.3328496     0.1454775    0.3397235     0.8324358   -0.3659011 
   0.013053252     0.8240365   -0.3745960     0.1527877    0.3356740     0.1514017    0.3387355     0.8276657   -0.3669013 
   0.013153277     0.8252769   -0.3641007     0.1545057    0.3395189     0.1538222    0.3410116     0.8249021   -0.3708418 
   0.013253302     0.8250579   -0.3680788     0.1587176    0.3418339     0.1546100    0.3433715     0.8225812   -0.3652616 
   0.013353327     0.8225951   -0.3590029     0.1554623    0.3449809     0.1559496    0.3465788     0.8192641   -0.3730144 
   0.013453352     0.8223026   -0.3579417     0.1556606    0.3447898     0.1571651    0.3481005     0.8168004   -0.3743043 
   0.013553377     0.7998732   -0.3714854     0.1630146    0.3427918     0.1574160    0.3457332     0.8160887   -0.3760345 
   0.013653402     0.8063949   -0.3757119     0.1611024    0.3440876     0.1621283    0.3465363     0.8134035   -0.3794529 
   0.013753427     0.8217326   -0.3879770     0.1689118    0.3515568     0.1688484    0.3489021     0.8102659   -0.3825889 
   0.013853452     0.8137879   -0.3747670     0.1641817    0.3521846     0.1662950    0.3526910     0.8095518   -0.3791802 
   0.013953477     0.7986758   -0.3664089     0.1654229    0.3531528     0.1671986    0.3557566     0.8084120   -0.3868295 
   0.014053502     0.8147328   -0.3908535     0.1751868    0.3553828     0.1736621    0.3541005     0.8039380   -0.3823872 
   0.014153527     0.8053064   -0.3884769     0.1774952    0.3539197     0.1745908    0.3573094     0.8056815   -0.3858601 
   0.014253552     0.8117896   -0.3780238     0.1778904    0.3644766     0.1764857    0.3626262     0.8035110   -0.3843861 
   0.014353577     0.7882159   -0.3766618     0.1721423    0.3562911     0.1745932    0.3571469     0.7944747   -0.3914363 
   0.014453602     0.7861835   -0.3895042     0.1825709    0.3549150     0.1771137    0.3618068     0.7998911   -0.3895229 
   0.014553627     0.7952161   -0.3872662     0.1828125    0.3608343     0.1810176    0.3636836     0.7959445   -0.3921755 
   0.014653652     0.8036106   -0.4055138     0.1877181    0.3685116     0.1872573    0.3618154     0.7899853   -0.3933049 
   0.014753677     0.7947184   -0.3898189     0.1885737    0.3686520     0.1861914    0.3673915     0.7889299   -0.3954675 
   0.014853702     0.8012766   -0.3879118     0.1905701    0.3641002     0.1898564    0.3703975     0.7891271   -0.3984151 
   0.014953727     0.7769928   -0.4135050     0.1968823    0.3624799     0.1905171    0.3632674     0.7868354   -0.4006417 
   0.015053752     0.7855009   -0.3896965     0.1849041    0.3661218     0.1922014    0.3712775     0.7811396   -0.4021165 
   0.015153777     0.7982756   -0.4011428     0.1964707    0.3758804     0.1993442    0.3732929     0.7830794   -0.4010922 
   0.015253802     0.7788425   -0.3920561     0.1953967    0.3730818     0.1957461    0.3754190     0.7795280   -0.4043849 
   0.015353827     0.7767004   -0.4049812     0.2065944    0.3717681     0.1990790    0.3727878     0.7792835   -0.4050817 
   0.015453852     0.7813590   -0.3976680     0.2006591    0.3765748     0.2013370    0.3765101     0.7733607   -0.4059235 
   0.015553877     0.7883663   -0.3992541     0.2055574    0.3810589     0.2054442    0.3817088     0.7750553   -0.4048274 
   0.015653902     0.7734843   -0.4093546     0.2085334    0.3771201     0.2080111    0.3776385     0.7723623   -0.4116766 
