! 26-Feb-26 11:37:15 AM
! E:\VNA_MEASUREMENTS\SP8T\SP8T_P2_RF8.S2P
! CHANNEL.1
! TR.MEASUREMENT
! CORRECTED.DATA
# GHZ S RI R 50.0
! FREQ.GHZ         S11RE         S11IM         S21RE         S21IM         S12RE         S12IM         S22RE         S22IM         
!; PortSelection: Port_12
   0.000050000     0.8998094    0.5581948    -0.4094613   -0.0725599    -0.0093582    0.0049693     1.0139420    0.0460004 
   0.000150025    -0.0888559   -0.1453977     0.2717206    1.0170540    -0.0003668   -0.0006870     0.9954697   -0.0051694 
   0.000250050     0.2423510    0.1701750    -0.0105727    0.0073873    -0.0001304   -0.0008125     1.0110500   -0.0155923 
   0.000350075     1.0292660   -0.0354866    -0.0021619   -0.0080461    -0.0012702    0.0000773     0.9883964   -0.0354110 
   0.000450100     0.9944750   -0.0407263    -0.0029015   -0.0126134     0.0010329    0.0014989     0.9947836   -0.0176709 
   0.000550125     0.9685382   -0.0519834    -0.0078424   -0.0139534    -0.0007641   -0.0014275     0.9861455   -0.0372543 
   0.000650150     1.0132520   -0.0573289    -0.0092442   -0.0136019     0.0002123   -0.0005131     1.0050850   -0.0482856 
   0.000750175     1.0000780   -0.0514677    -0.0100193   -0.0053596     0.0014882   -0.0006852     1.0029520   -0.0576420 
   0.000850200     0.9894390   -0.1122980    -0.0081732   -0.0060731    -0.0009245   -0.0012712     0.9969905   -0.0479200 
   0.000950225     1.0112790   -0.0511998    -0.0146221   -0.0052768    -0.0004326   -0.0009243     0.9882678   -0.0646188 
   0.001050250     1.0186670   -0.0142635    -0.0047157   -0.0039511    -0.0002791    0.0012142     0.9909534   -0.0636422 
   0.001150275     1.0135200   -0.0831522    -0.0082095   -0.0105801    -0.0009730    0.0001794     0.9872585   -0.0657190 
   0.001250300     0.9606472   -0.0519952    -0.0121980   -0.0025888     0.0006286    0.0005001     0.9887879   -0.0854554 
   0.001350325     0.9567088   -0.0959553    -0.0060414   -0.0013524    -0.0002796   -0.0001612     0.9906994   -0.0894178 
   0.001450350     1.0019860   -0.0614252    -0.0080071   -0.0022664    -0.0001910    0.0004316     0.9914680   -0.0875337 
   0.001550375     0.9635997   -0.1373718    -0.0109084   -0.0023022    -0.0000946    0.0005014     0.9949835   -0.0905722 
   0.001650400     1.0051030   -0.0346978    -0.0095949    0.0020615    -0.0002892    0.0001052     0.9758277   -0.0985295 
   0.001750425     1.0145920   -0.0502875    -0.0101918   -0.0003100     0.0005609   -0.0007149     0.9889259   -0.1170761 
   0.001850450     0.9575782   -0.0747519    -0.0080676    0.0022855    -0.0005498    0.0001778     0.9768038   -0.1193158 
   0.001950475     1.0400290   -0.0062648    -0.0052575    0.0009460     0.0003492   -0.0008721     0.9826961   -0.1138810 
   0.002050500     0.9822633   -0.1045288    -0.0069673    0.0050400     0.0005670   -0.0002513     0.9780614   -0.1262914 
   0.002150525     0.9612966   -0.0508491    -0.0060009    0.0034590    -0.0009399    0.0006993     0.9762668   -0.1369921 
   0.002250550     0.9676294   -0.0573830    -0.0074282    0.0023483     0.0010703   -0.0001828     0.9751551   -0.1436844 
   0.002350575     0.9666704   -0.1061383    -0.0035536    0.0006604    -0.0000909    0.0006215     0.9797753   -0.1507895 
   0.002450600     1.0237830   -0.0768174    -0.0061514    0.0002847    -0.0001156    0.0000176     0.9774160   -0.1588130 
   0.002550625     0.9712356   -0.0948974    -0.0058667    0.0016166     0.0001611   -0.0004392     0.9811419   -0.1524977 
   0.002650650     0.9860137   -0.0535963    -0.0040761    0.0033889    -0.0007501   -0.0005453     0.9695125   -0.1721520 
   0.002750675     0.9973860   -0.0555067    -0.0025177    0.0035495    -0.0002857   -0.0003127     0.9667233   -0.1722170 
   0.002850700     1.0121280   -0.1107235    -0.0024356    0.0004194     0.0001603   -0.0003496     0.9593387   -0.1713953 
   0.002950725     0.9583378   -0.0842754     0.0000728    0.0009532    -0.0004557    0.0003050     0.9550277   -0.1780895 
   0.003050750     0.9983292   -0.1021005    -0.0031759    0.0015561    -0.0002195   -0.0002162     0.9555582   -0.1915630 
   0.003150775     0.9539587   -0.1296062    -0.0009109    0.0026599    -0.0001253   -0.0001918     0.9494925   -0.1922978 
   0.003250800     0.9805813   -0.0536410    -0.0012383    0.0038585     0.0003022    0.0002668     0.9613541   -0.1967397 
   0.003350825     0.9955323   -0.0472607    -0.0050619    0.0028919     0.0000914    0.0005127     0.9475158   -0.2059826 
   0.003450850     0.9601221   -0.1455078    -0.0010771    0.0022940    -0.0002268    0.0001661     0.9464385   -0.2072785 
   0.003550875     0.9664993   -0.1441384     0.0020544    0.0015663     0.0000592   -0.0002000     0.9367732   -0.2159040 
   0.003650900     0.9733781   -0.0879097    -0.0011112    0.0045560    -0.0001918   -0.0003645     0.9368566   -0.2192997 
   0.003750925     0.9678441   -0.1588704    -0.0013700    0.0030908    -0.0004561    0.0001937     0.9383662   -0.2283307 
   0.003850950     0.9919286   -0.1593427     0.0007668    0.0002016     0.0001886   -0.0003017     0.9351701   -0.2328727 
   0.003950975     0.9926985   -0.1221100    -0.0014099    0.0030895     0.0002678   -0.0009231     0.9341766   -0.2311136 
   0.004051001     0.9539772   -0.1486373    -0.0003925    0.0029391    -0.0001187   -0.0007756     0.9278623   -0.2375736 
   0.004151026     0.9945270   -0.1588043    -0.0023191    0.0020542     0.0012110    0.0000694     0.9206630   -0.2484419 
   0.004251051     0.9927204   -0.1206361    -0.0016000    0.0021643     0.0002922    0.0000805     0.9250590   -0.2518955 
   0.004351076     0.9626216   -0.1249771    -0.0003097    0.0010162    -0.0000554    0.0003360     0.9113909   -0.2559973 
   0.004451101     0.9815380   -0.1594525    -0.0034337    0.0007461    -0.0002110    0.0006506     0.9085271   -0.2591681 
   0.004551126     0.9907251   -0.1534766     0.0026891    0.0002616     0.0005839    0.0003388     0.9153053   -0.2628103 
   0.004651151     0.9579797   -0.1454523    -0.0096132   -0.0066141    -0.0001775    0.0004509     0.9065809   -0.2669623 
   0.004751176     0.9900157   -0.1707321     0.0001788    0.0003306    -0.0002466    0.0004291     0.9051731   -0.2766759 
   0.004851201     0.9620387   -0.1619703    -0.0018186    0.0020654    -0.0001364    0.0008653     0.8987314   -0.2750887 
   0.004951226     0.9828653   -0.1452653    -0.0002971   -0.0001778     0.0008609   -0.0002247     0.9000274   -0.2770853 
   0.005051251     1.0108380   -0.1957639     0.0012987    0.0015295     0.0002055   -0.0003570     0.8932492   -0.2858669 
   0.005151276     0.9522982   -0.1829558     0.0007798   -0.0008747     0.0005856    0.0003761     0.8893916   -0.2917629 
   0.005251301     0.9530531   -0.1598159    -0.0023592    0.0021894    -0.0002484   -0.0001973     0.8830603   -0.2924422 
   0.005351326     0.9581429   -0.1924031     0.0001148    0.0022536    -0.0001244   -0.0000683     0.8808206   -0.2950695 
   0.005451351     0.9774027   -0.1751628    -0.0005813   -0.0001657    -0.0001395   -0.0001199     0.8776356   -0.3033646 
   0.005551376     0.9794850   -0.1797236     0.0019318   -0.0003637     0.0002450    0.0001394     0.8734405   -0.3018246 
   0.005651401     0.9483241   -0.1804820     0.0003487    0.0018392     0.0002886   -0.0003300     0.8696774   -0.3203063 
   0.005751426     0.9654835   -0.1892747     0.0013824    0.0015540    -0.0003062   -0.0004152     0.8672134   -0.3177499 
   0.005851451     0.9638023   -0.2124298    -0.0004975   -0.0007063     0.0002831    0.0001003     0.8629029   -0.3169766 
   0.005951476     0.9577518   -0.1779782     0.0006786    0.0026952     0.0001400   -0.0001110     0.8629013   -0.3183570 
   0.006051501     0.9661924   -0.2034981     0.0002496    0.0014560     0.0002861    0.0002867     0.8561168   -0.3293815 
   0.006151526     0.9508356   -0.1958751    -0.0009482    0.0011939    -0.0000038   -0.0000516     0.8535565   -0.3308235 
   0.006251551     0.9658417   -0.1783782     0.0008357   -0.0008812     0.0000371    0.0001155     0.8481975   -0.3370940 
   0.006351576     0.9499013   -0.2007861    -0.0013544    0.0002262    -0.0000559   -0.0000916     0.8429995   -0.3376780 
   0.006451601     0.9849514   -0.2161809    -0.0003401    0.0006409     0.0003176   -0.0001437     0.8359240   -0.3430514 
   0.006551626     0.9521385   -0.2151651     0.0004269    0.0005080    -0.0005329   -0.0002300     0.8327458   -0.3422851 
   0.006651651     0.9384788   -0.2047509     0.0001514   -0.0000839     0.0000955    0.0003285     0.8281277   -0.3493564 
   0.006751676     0.9368228   -0.2339746     0.0007419    0.0000124     0.0002386    0.0002211     0.8270426   -0.3490405 
   0.006851701     0.9627782   -0.2292102    -0.0010797    0.0010132     0.0004084    0.0001234     0.8178955   -0.3539578 
   0.006951726     0.9289690   -0.2400587     0.0020151    0.0011718    -0.0002453   -0.0000787     0.8180323   -0.3536397 
   0.007051751     0.9584633   -0.2192055    -0.0007419   -0.0009488     0.0002854   -0.0002756     0.8133199   -0.3598617 
   0.007151776     0.9433647   -0.2113298    -0.0019366    0.0008256     0.0003726   -0.0000301     0.8072592   -0.3625301 
   0.007251801     0.9783531   -0.2261648     0.0002290    0.0007319     0.0001646   -0.0001178     0.8054458   -0.3643011 
   0.007351826     0.9613810   -0.2507448     0.0007491   -0.0011322    -0.0002691    0.0003688     0.7983807   -0.3680123 
   0.007451851     0.9413386   -0.2345133     0.0002208   -0.0010269     0.0003739    0.0003057     0.7964966   -0.3692838 
   0.007551876     0.9419002   -0.2390094     0.0012520   -0.0002804    -0.0003315   -0.0000948     0.7915956   -0.3745061 
   0.007651901     0.9739023   -0.2717872    -0.0008015    0.0005688     0.0002185   -0.0002267     0.7886038   -0.3728730 
   0.007751926     0.9560315   -0.2429493     0.0002986    0.0010554    -0.0000971    0.0005522     0.7837594   -0.3742850 
   0.007851951     0.9555253   -0.2378428    -0.0010414   -0.0006543     0.0002010   -0.0000167     0.7759160   -0.3790084 
   0.007951976     0.9652286   -0.2782032     0.0013113   -0.0018621     0.0000519    0.0000155     0.7728394   -0.3813025 
   0.008052001     0.9513211   -0.2524128     0.0006056   -0.0005148    -0.0006186   -0.0001357     0.7707478   -0.3864370 
   0.008152026     0.9401492   -0.2724280     0.0003415    0.0001064     0.0001477   -0.0003188     0.7677681   -0.3869726 
   0.008252051     0.9270574   -0.2541190    -0.0006663   -0.0005934    -0.0003128    0.0002632     0.7644940   -0.3885999 
   0.008352076     0.9524765   -0.2807820     0.0003548   -0.0000757     0.0000132    0.0001807     0.7576519   -0.3900549 
   0.008452101     0.9329481   -0.2722581    -0.0003641    0.0000763    -0.0000212    0.0000170     0.7550603   -0.3938709 
   0.008552126     0.9437239   -0.2769328     0.0009190    0.0005949     0.0004357   -0.0003957     0.7519071   -0.3942213 
   0.008652151     0.9353778   -0.2653919    -0.0003815   -0.0002186     0.0003009    0.0000418     0.7440711   -0.3990119 
   0.008752176     0.9604412   -0.2623718    -0.0004891    0.0003991     0.0003753    0.0001135     0.7434565   -0.4029519 
   0.008852201     0.9284748   -0.2636153    -0.0013059   -0.0001609    -0.0001667   -0.0000602     0.7341073   -0.3981866 
   0.008952226     0.9550399   -0.2864871    -0.0000023   -0.0009071     0.0000444   -0.0003460     0.7341065   -0.4014272 
   0.009052251     0.9618706   -0.2864080     0.0003844    0.0003812    -0.0004068    0.0001226     0.7327230   -0.4063373 
   0.009152276     0.9510906   -0.2892635    -0.0007650    0.0005168    -0.0001015   -0.0001957     0.7239175   -0.4084890 
   0.009252301     0.9495901   -0.2883315    -0.0001924   -0.0002610    -0.0000326   -0.0001038     0.7209741   -0.4108688 
   0.009352326     0.9426159   -0.2979090     0.0009900   -0.0009495    -0.0000438    0.0001167     0.7190561   -0.4079953 
   0.009452351     0.9491455   -0.3078982    -0.0000257   -0.0004871    -0.0000817    0.0000922     0.7122094   -0.4085293 
   0.009552376     0.9503689   -0.3134736    -0.0007406   -0.0019819     0.0000490   -0.0001417     0.7061055   -0.4141117 
   0.009652401     0.9232596   -0.3007338     0.0006727   -0.0001711     0.0004005   -0.0001841     0.7045865   -0.4117917 
   0.009752426     0.9426792   -0.3215574     0.0008128    0.0005586    -0.0000872    0.0000291     0.7017537   -0.4127584 
   0.009852451     0.9262811   -0.3305468    -0.0000694    0.0005360     0.0000819   -0.0000128     0.6979257   -0.4173066 
   0.009952476     0.9281251   -0.3341154    -0.0002286    0.0003045    -0.0001442    0.0001770     0.6930001   -0.4130588 
   0.010052501     0.9373054   -0.3046245    -0.0002774   -0.0011408     0.0004265   -0.0001545     0.6899469   -0.4137866 
   0.010152526     0.9476512   -0.3106753     0.0008857   -0.0009871     0.0000905    0.0001842     0.6846609   -0.4151481 
   0.010252551     0.9285397   -0.3209839     0.0007062   -0.0005105     0.0001199    0.0002788     0.6805176   -0.4218493 
   0.010352576     0.9342837   -0.3432863     0.0001384   -0.0012558    -0.0001378    0.0002029     0.6756119   -0.4200678 
   0.010452601     0.9280823   -0.3111860     0.0011788    0.0005857     0.0000706    0.0001073     0.6732779   -0.4244301 
   0.010552626     0.9192690   -0.3364884     0.0000594    0.0000583    -0.0002061   -0.0000224     0.6701950   -0.4252888 
   0.010652651     0.9261300   -0.3439171     0.0005823   -0.0006096     0.0001035    0.0000625     0.6637135   -0.4259212 
   0.010752676     0.9382330   -0.3404254     0.0007867   -0.0000271     0.0001525    0.0003117     0.6622819   -0.4249050 
   0.010852701     0.9402913   -0.3332174    -0.0007973    0.0008392    -0.0002021    0.0000121     0.6590142   -0.4229238 
   0.010952726     0.9221987   -0.3531929    -0.0006994    0.0011772     0.0000755    0.0002300     0.6520793   -0.4268321 
   0.011052751     0.9238691   -0.3568157     0.0000436    0.0002536     0.0000344   -0.0004006     0.6505367   -0.4280861 
   0.011152776     0.9246411   -0.3486536    -0.0011313   -0.0005684     0.0002963    0.0001165     0.6456215   -0.4292981 
   0.011252801     0.9074644   -0.3632527     0.0005796    0.0004319     0.0000320   -0.0000176     0.6410258   -0.4283369 
   0.011352826     0.9135877   -0.3625483     0.0009457   -0.0005785    -0.0002790    0.0003186     0.6424605   -0.4279506 
   0.011452851     0.9057674   -0.3518768    -0.0009384   -0.0005606    -0.0001941   -0.0004261     0.6303527   -0.4308721 
   0.011552876     0.9030641   -0.3748931     0.0002368    0.0000441     0.0002132    0.0001820     0.6321371   -0.4316191 
   0.011652901     0.9043172   -0.3710020     0.0000105   -0.0004178     0.0000011   -0.0000180     0.6263054   -0.4312054 
   0.011752926     0.8991100   -0.3648650     0.0002191    0.0001920     0.0001193    0.0000327     0.6234826   -0.4320135 
   0.011852951     0.9026571   -0.3897209     0.0004374    0.0012236    -0.0000423   -0.0000108     0.6229923   -0.4330782 
   0.011952976     0.8881965   -0.3639991    -0.0006583    0.0002066    -0.0004181   -0.0003233     0.6156726   -0.4332177 
   0.012053002     0.9003432   -0.3938747     0.0006773   -0.0003638    -0.0001090   -0.0000116     0.6116946   -0.4327913 
   0.012153027     0.8989765   -0.3918886    -0.0005894   -0.0009905    -0.0001655    0.0001852     0.6085873   -0.4331492 
   0.012253052     0.8964190   -0.3898405     0.0006857    0.0003624    -0.0002334    0.0000187     0.6060587   -0.4336166 
   0.012353077     0.9112224   -0.3917676     0.0005006   -0.0013245     0.0003015   -0.0001737     0.6056597   -0.4338017 
   0.012453102     0.8987536   -0.3756042     0.0000407    0.0001097     0.0001135    0.0000481     0.6010410   -0.4372035 
   0.012553127     0.8863053   -0.4055948     0.0001826    0.0001913     0.0002431   -0.0001909     0.5912341   -0.4337546 
   0.012653152     0.9075266   -0.3820256     0.0003025    0.0013209    -0.0000159    0.0001326     0.5914806   -0.4362220 
   0.012753177     0.8946455   -0.3921789     0.0003140   -0.0011637     0.0000251   -0.0002107     0.5903314   -0.4355113 
   0.012853202     0.8975773   -0.3828377    -0.0002986    0.0015764     0.0004379    0.0002119     0.5823054   -0.4338997 
   0.012953227     0.8985751   -0.3859278     0.0004287   -0.0001486    -0.0003200    0.0001081     0.5839143   -0.4359592 
   0.013053252     0.8796536   -0.4187199     0.0006009    0.0001421     0.0000923    0.0001756     0.5794619   -0.4351145 
   0.013153277     0.8980660   -0.3988537     0.0000474    0.0013542    -0.0001917    0.0002868     0.5752193   -0.4382634 
   0.013253302     0.8810278   -0.4031157     0.0000970    0.0003958     0.0001722   -0.0000014     0.5729222   -0.4339996 
   0.013353327     0.8859413   -0.4129977     0.0001395   -0.0004238     0.0001495   -0.0000911     0.5684391   -0.4362663 
   0.013453352     0.9047732   -0.3960895     0.0002838    0.0003959     0.0000325   -0.0001406     0.5662569   -0.4376653 
   0.013553377     0.8716606   -0.4067134     0.0004604   -0.0001395    -0.0001321   -0.0000761     0.5633714   -0.4379955 
   0.013653402     0.8640575   -0.4233518     0.0006641   -0.0003409    -0.0000227   -0.0002458     0.5605890   -0.4371962 
   0.013753427     0.8819754   -0.4361260     0.0008102   -0.0002533    -0.0002310    0.0000508     0.5551622   -0.4363866 
   0.013853452     0.8866284   -0.4328326     0.0003663   -0.0003324     0.0000783   -0.0000148     0.5555025   -0.4351239 
   0.013953477     0.8644315   -0.4133888     0.0001380   -0.0002331     0.0002517    0.0001602     0.5507179   -0.4362157 
   0.014053502     0.8883006   -0.4314527    -0.0004542   -0.0000032     0.0001945   -0.0002384     0.5463256   -0.4350397 
   0.014153527     0.8840232   -0.4457525     0.0007172    0.0003198     0.0000946    0.0000673     0.5449293   -0.4350890 
   0.014253552     0.8897434   -0.4318205     0.0003534    0.0002040     0.0000643   -0.0000662     0.5427883   -0.4350232 
   0.014353577     0.8664938   -0.4315800     0.0001313    0.0007276     0.0000043   -0.0001641     0.5371698   -0.4338449 
   0.014453602     0.8538448   -0.4441437    -0.0004101   -0.0004908     0.0002117    0.0002077     0.5377662   -0.4336176 
   0.014553627     0.8635656   -0.4400569     0.0000138    0.0004088    -0.0001502   -0.0001137     0.5321266   -0.4351524 
   0.014653652     0.8704004   -0.4415664    -0.0002000    0.0011270    -0.0003258    0.0000920     0.5277758   -0.4330936 
   0.014753677     0.8695017   -0.4510214    -0.0006110    0.0012847     0.0000309    0.0000934     0.5252777   -0.4332686 
   0.014853702     0.8717333   -0.4441741     0.0006456   -0.0002079    -0.0001864   -0.0001783     0.5210899   -0.4324698 
   0.014953727     0.8648965   -0.4669519     0.0004708    0.0003441     0.0003895   -0.0001888     0.5195015   -0.4338529 
   0.015053752     0.8614768   -0.4624022    -0.0001750   -0.0002491    -0.0002551    0.0000880     0.5172226   -0.4301356 
   0.015153777     0.8627952   -0.4665862     0.0004014    0.0003769     0.0000375    0.0000838     0.5157406   -0.4346254 
   0.015253802     0.8510584   -0.4649090    -0.0009550   -0.0000084    -0.0000296   -0.0000135     0.5119289   -0.4329819 
   0.015353827     0.8476443   -0.4716121     0.0003847    0.0003392     0.0000668    0.0002084     0.5089356   -0.4320367 
   0.015453852     0.8576412   -0.4691787     0.0002553   -0.0011974    -0.0001998    0.0000085     0.5057744   -0.4300574 
   0.015553877     0.8459812   -0.4760873    -0.0005369   -0.0000221     0.0001639   -0.0001759     0.5038408   -0.4304969 
   0.015653902     0.8514464   -0.4737515    -0.0009760   -0.0004887    -0.0000275   -0.0000378     0.5003577   -0.4347748 
