! 26-Feb-26 1:14:30 PM
! E:\VNA_MEASUREMENTS\SP8T\SP8T_P8_RF6.S2P
! CHANNEL.1
! TR.MEASUREMENT
! CORRECTED.DATA
# GHZ S RI R 50.0
! FREQ.GHZ         S11RE         S11IM         S21RE         S21IM         S12RE         S12IM         S22RE         S22IM         
!; PortSelection: Port_12
   0.000050000     0.2621236    0.6058946    -0.1295262   -0.4700947    -0.0032648    0.0027782     1.0670520    0.0391514 
   0.000150025     0.0297002    0.1041655    -0.0385274   -0.1926341     0.0005173   -0.0010935     1.0097290    0.0079039 
   0.000250050    -0.6857094    0.0184597    -0.0125651   -0.0050581     0.0006882    0.0002915     0.9988076   -0.0235873 
   0.000350075     0.9899566   -0.0405545     0.0004657   -0.0107933    -0.0011670    0.0003394     0.9982803   -0.0275445 
   0.000450100     0.9726345   -0.0240948    -0.0027525   -0.0134180     0.0001200   -0.0013046     0.9879006   -0.0172997 
   0.000550125     1.0203600   -0.0047543    -0.0047853   -0.0146161    -0.0006001    0.0011117     0.9850625   -0.0376606 
   0.000650150     0.9727856   -0.0491999    -0.0018887   -0.0144825    -0.0003818    0.0003352     1.0045160   -0.0552726 
   0.000750175     0.9402010   -0.0618052    -0.0070012   -0.0117142     0.0000390    0.0003167     0.9986503   -0.0491632 
   0.000850200     1.0040510   -0.1195935    -0.0162937   -0.0077499     0.0007708    0.0006334     0.9999945   -0.0473663 
   0.000950225     1.0378010   -0.0583184    -0.0149350   -0.0030294     0.0004890    0.0006247     0.9886827   -0.0675897 
   0.001050250     0.9733147   -0.0345944    -0.0064437   -0.0065286    -0.0007614   -0.0005382     0.9881622   -0.0580331 
   0.001150275     0.9646439   -0.0928102    -0.0078841   -0.0032233    -0.0003456    0.0005906     0.9816908   -0.0640353 
   0.001250300     0.9643524    0.0212300    -0.0108273   -0.0039263     0.0001245    0.0002914     0.9961269   -0.0826235 
   0.001350325     0.9894314   -0.0567063    -0.0069021   -0.0020449     0.0003169    0.0002732     0.9803479   -0.0955318 
   0.001450350     1.0322950   -0.0582780    -0.0060342   -0.0027415     0.0004127    0.0012323     0.9904686   -0.0881528 
   0.001550375     0.9794909   -0.0807336    -0.0084887    0.0040723     0.0005013   -0.0002254     0.9902494   -0.0977864 
   0.001650400     0.9869681   -0.0149196    -0.0102860   -0.0007059     0.0003019    0.0001738     0.9772933   -0.1016082 
   0.001750425     0.9899075   -0.0656667    -0.0070068   -0.0032467     0.0003697    0.0005696     0.9847711   -0.1112987 
   0.001850450     0.9470348   -0.0745100    -0.0068803   -0.0026277     0.0000967    0.0011394     0.9799972   -0.1125014 
   0.001950475     1.0074050   -0.0275765    -0.0080292   -0.0003425     0.0002712    0.0001155     0.9814131   -0.1131252 
   0.002050500     0.9671279   -0.0617064    -0.0056436    0.0014930     0.0000064   -0.0000368     0.9832523   -0.1344944 
   0.002150525     1.0035860   -0.1064187    -0.0055080    0.0014689     0.0000211    0.0004401     0.9730775   -0.1403457 
   0.002250550     0.9935332   -0.0836537    -0.0043046   -0.0003543    -0.0000410    0.0005835     0.9760758   -0.1379985 
   0.002350575     0.9861190   -0.1234290    -0.0095587    0.0036898     0.0006071   -0.0008768     0.9792013   -0.1452034 
   0.002450600     1.0187970   -0.0998294    -0.0022009   -0.0008013     0.0002452   -0.0004730     0.9764243   -0.1508354 
   0.002550625     0.9753785   -0.1031259    -0.0057352    0.0002664     0.0007079   -0.0000113     0.9730853   -0.1567261 
   0.002650650     1.0128960   -0.0599853    -0.0062335   -0.0017583    -0.0005292    0.0001929     0.9670042   -0.1683024 
   0.002750675     0.9898084   -0.0267691    -0.0057947    0.0021047    -0.0000576   -0.0000438     0.9623866   -0.1675494 
   0.002850700     0.9802531   -0.0945564    -0.0046092    0.0054462    -0.0003230   -0.0002873     0.9679911   -0.1718134 
   0.002950725     0.9978505   -0.1061133    -0.0022861    0.0047598    -0.0001123    0.0000267     0.9637415   -0.1772074 
   0.003050750     0.9618527   -0.0566484    -0.0027702    0.0027025     0.0001382    0.0001259     0.9578878   -0.1898362 
   0.003150775     0.9763283   -0.1074369    -0.0034172    0.0032434     0.0005858   -0.0008451     0.9511782   -0.1970100 
   0.003250800     1.0043390   -0.1112362    -0.0021057    0.0021621    -0.0000277    0.0006616     0.9555858   -0.1983441 
   0.003350825     0.9895161   -0.0926767    -0.0058692    0.0031998    -0.0005642   -0.0002397     0.9410756   -0.2037899 
   0.003450850     0.9458784   -0.1448060    -0.0010808    0.0019197     0.0000661    0.0006041     0.9517035   -0.2058753 
   0.003550875     0.9610749   -0.1495205     0.0009243    0.0014620    -0.0003976    0.0000457     0.9431633   -0.2190608 
   0.003650900     1.0001960   -0.1314795    -0.0012893    0.0029209     0.0001152    0.0002997     0.9446720   -0.2201861 
   0.003750925     0.9694568   -0.1232504    -0.0002892    0.0017276    -0.0001631    0.0003217     0.9363144   -0.2254934 
   0.003850950     0.9634812   -0.1354171    -0.0007456    0.0025004     0.0003270   -0.0000011     0.9338443   -0.2288199 
   0.003950975     1.0125930   -0.1081662     0.0000409    0.0000197    -0.0000022    0.0002939     0.9312282   -0.2353923 
   0.004051001     0.9532582   -0.1760603     0.0013177   -0.0000021     0.0000493   -0.0001286     0.9292586   -0.2341569 
   0.004151026     0.9741648   -0.1424853    -0.0013026    0.0001275    -0.0003200   -0.0000064     0.9201223   -0.2422535 
   0.004251051     0.9962627   -0.1392198    -0.0021140    0.0013113    -0.0004626    0.0003646     0.9240617   -0.2485796 
   0.004351076     0.9825938   -0.1437058     0.0008141    0.0017154    -0.0001818   -0.0001292     0.9126507   -0.2502953 
   0.004451101     0.9881680   -0.1442949    -0.0009022    0.0019703     0.0000772    0.0008267     0.9138343   -0.2592976 
   0.004551126     0.9821508   -0.1661581    -0.0011525   -0.0008503     0.0003842    0.0005067     0.9120352   -0.2562372 
   0.004651151     0.9659764   -0.1518815    -0.0016021    0.0040177    -0.0001256   -0.0000987     0.9087201   -0.2700221 
   0.004751176     0.9781616   -0.1739678     0.0011563    0.0007755     0.0001300    0.0002976     0.9092575   -0.2761147 
   0.004851201     0.9323175   -0.1443521     0.0020418    0.0022531    -0.0006460   -0.0003200     0.8995358   -0.2784968 
   0.004951226     0.9469666   -0.1389210     0.0003650    0.0023098     0.0001319   -0.0002018     0.8994329   -0.2764306 
   0.005051251     0.9762455   -0.1805213    -0.0008343    0.0026056    -0.0001792    0.0002686     0.8932152   -0.2798747 
   0.005151276     0.9449881   -0.1422836    -0.0020473    0.0001581     0.0002215    0.0001241     0.8856932   -0.2855528 
   0.005251301     0.9515285   -0.1825286     0.0009001   -0.0005919    -0.0005684   -0.0000990     0.8889561   -0.2930427 
   0.005351326     0.9404873   -0.1460743     0.0011728    0.0025653    -0.0002712    0.0001350     0.8853233   -0.2984290 
   0.005451351     0.9559044   -0.1595752    -0.0007102    0.0008888    -0.0001245    0.0003657     0.8784129   -0.3054005 
   0.005551376     0.9806750   -0.1610446    -0.0000607    0.0007301     0.0007072   -0.0001603     0.8726091   -0.2998954 
   0.005651401     0.9593506   -0.1628263    -0.0004466    0.0015166     0.0002314   -0.0002626     0.8701283   -0.3133409 
   0.005751426     0.9396956   -0.1872041     0.0008081    0.0007080    -0.0006911   -0.0003864     0.8629909   -0.3123893 
   0.005851451     0.9586398   -0.2112867    -0.0018560   -0.0003138     0.0000037    0.0002098     0.8629821   -0.3138997 
   0.005951476     0.9505582   -0.1872502    -0.0010488    0.0013175    -0.0000119    0.0004071     0.8609439   -0.3179111 
   0.006051501     0.9578399   -0.2071186    -0.0010253    0.0000616     0.0000229   -0.0000639     0.8528128   -0.3267528 
   0.006151526     0.9618672   -0.2304177    -0.0004013    0.0015007     0.0009255   -0.0000335     0.8518118   -0.3267142 
   0.006251551     0.9613477   -0.1784839    -0.0014396    0.0023309     0.0001197    0.0001462     0.8498614   -0.3310906 
   0.006351576     0.9292454   -0.2097574    -0.0008899    0.0007089    -0.0003337    0.0005571     0.8399113   -0.3330717 
   0.006451601     0.9458074   -0.1916476    -0.0010930    0.0011070     0.0001320    0.0001442     0.8369020   -0.3380268 
   0.006551626     0.9474199   -0.2026712     0.0013210    0.0000033    -0.0001042   -0.0000275     0.8346459   -0.3406445 
   0.006651651     0.9300528   -0.2068103    -0.0014007    0.0013360    -0.0001136   -0.0001789     0.8288191   -0.3468238 
   0.006751676     0.9301834   -0.2419575    -0.0008670    0.0004284    -0.0003238    0.0004023     0.8282064   -0.3435377 
   0.006851701     0.9539378   -0.2559082     0.0012155   -0.0003381    -0.0003642   -0.0000783     0.8182457   -0.3540801 
   0.006951726     0.9285871   -0.2422294     0.0006688    0.0002035    -0.0002414    0.0001196     0.8202292   -0.3544665 
   0.007051751     0.9643385   -0.1871189     0.0009481    0.0001260    -0.0002189    0.0001465     0.8092503   -0.3566307 
   0.007151776     0.9272624   -0.2300168     0.0030974    0.0014026     0.0002410    0.0001155     0.8069333   -0.3587274 
   0.007251801     0.9681943   -0.2286315    -0.0025453    0.0002262     0.0003183   -0.0003127     0.8076439   -0.3627402 
   0.007351826     0.9539368   -0.2428922     0.0010997    0.0009654     0.0002165    0.0002294     0.7977346   -0.3661754 
   0.007451851     0.9133122   -0.2213821     0.0014561    0.0007845     0.0000940    0.0001494     0.7944394   -0.3625224 
   0.007551876     0.9231862   -0.2504119    -0.0008685    0.0015019    -0.0004006   -0.0000040     0.7925219   -0.3688956 
   0.007651901     0.9318243   -0.2636817    -0.0002017    0.0016979    -0.0002811    0.0000209     0.7910101   -0.3723221 
   0.007751926     0.9289449   -0.2492879    -0.0005941    0.0001025    -0.0000875   -0.0002162     0.7823368   -0.3757731 
   0.007851951     0.9289107   -0.2436536    -0.0009070   -0.0009263    -0.0002734    0.0002192     0.7797822   -0.3791328 
   0.007951976     0.9159448   -0.2725717     0.0010652   -0.0003179     0.0001627    0.0003436     0.7750090   -0.3803054 
   0.008052001     0.9361740   -0.2551555    -0.0009245   -0.0002441    -0.0003071    0.0001829     0.7694777   -0.3829308 
   0.008152026     0.9107218   -0.2572899     0.0001555   -0.0009040     0.0004247    0.0001686     0.7688613   -0.3848253 
   0.008252051     0.8997092   -0.2467412    -0.0006347    0.0011914     0.0002158   -0.0001781     0.7606812   -0.3858609 
   0.008352076     0.9225225   -0.2635189     0.0009915   -0.0019610     0.0000568    0.0000632     0.7579817   -0.3879349 
   0.008452101     0.9107122   -0.2483781    -0.0000219   -0.0003940     0.0001923    0.0001175     0.7568206   -0.3879103 
   0.008552126     0.9367499   -0.2733914     0.0002922    0.0001891     0.0000650    0.0000980     0.7487501   -0.3889351 
   0.008652151     0.9073789   -0.2673540     0.0012641   -0.0002173    -0.0000972    0.0000661     0.7454342   -0.3938098 
   0.008752176     0.8996727   -0.2570235     0.0001065    0.0000044     0.0000918    0.0003806     0.7415956   -0.3989136 
   0.008852201     0.8928793   -0.2585884    -0.0013096    0.0009372    -0.0001307   -0.0001751     0.7385104   -0.3954737 
   0.008952226     0.9215083   -0.2702430    -0.0013731   -0.0006022    -0.0002558    0.0001061     0.7357346   -0.3980689 
   0.009052251     0.9359581   -0.2585456    -0.0004452   -0.0003074     0.0000773    0.0002970     0.7297072   -0.4019603 
   0.009152276     0.9042459   -0.2698680    -0.0010320   -0.0008479     0.0000680    0.0000085     0.7244837   -0.4049914 
   0.009252301     0.9016833   -0.2603127    -0.0005647   -0.0009374    -0.0004000    0.0001633     0.7197550   -0.4100010 
   0.009352326     0.9117745   -0.2714716    -0.0007814    0.0006602    -0.0002214    0.0000378     0.7198050   -0.4037161 
   0.009452351     0.9173560   -0.2828968     0.0001565    0.0005421     0.0001820   -0.0002803     0.7124048   -0.4055421 
   0.009552376     0.9046925   -0.2891976     0.0000953    0.0006394     0.0000893    0.0001272     0.7094382   -0.4089117 
   0.009652401     0.8808270   -0.2752205    -0.0005333    0.0008945     0.0000200    0.0003601     0.7038440   -0.4088343 
   0.009752426     0.8846292   -0.2874256     0.0006436    0.0018142     0.0001939    0.0000128     0.7053208   -0.4080546 
   0.009852451     0.8917429   -0.2974739    -0.0007367    0.0004642     0.0001271    0.0000289     0.6978153   -0.4109274 
   0.009952476     0.8917863   -0.3012943     0.0001438    0.0008358     0.0000871    0.0002495     0.6919352   -0.4122574 
   0.010052501     0.8846519   -0.2925823     0.0011295    0.0003343    -0.0002141    0.0003328     0.6904975   -0.4108841 
   0.010152526     0.8760783   -0.2883859    -0.0006273   -0.0003797     0.0001348    0.0001004     0.6851177   -0.4164549 
   0.010252551     0.8732524   -0.2946842     0.0003898    0.0009048    -0.0000192    0.0001866     0.6847975   -0.4190183 
   0.010352576     0.8905763   -0.3105186    -0.0012169    0.0010373    -0.0002553    0.0000711     0.6773162   -0.4179294 
   0.010452601     0.8948514   -0.2983511     0.0000833   -0.0001237    -0.0000806    0.0000679     0.6737238   -0.4192905 
   0.010552626     0.8565093   -0.3203672    -0.0011833    0.0007424     0.0000007    0.0002894     0.6696765   -0.4219845 
   0.010652651     0.8741444   -0.3136306     0.0003556   -0.0003178    -0.0002027    0.0005564     0.6658641   -0.4221583 
   0.010752676     0.8705764   -0.3261967    -0.0004556   -0.0010589    -0.0001613    0.0001416     0.6616232   -0.4218777 
   0.010852701     0.8806616   -0.3120021     0.0006554    0.0004622     0.0000077    0.0002003     0.6607596   -0.4192841 
   0.010952726     0.8607555   -0.3173897    -0.0004620    0.0009865    -0.0000727   -0.0000837     0.6535479   -0.4238527 
   0.011052751     0.8649179   -0.3338086     0.0005340    0.0009897     0.0002362    0.0001942     0.6506112   -0.4261742 
   0.011152776     0.8703348   -0.3150305    -0.0003485   -0.0002243    -0.0000763   -0.0001106     0.6463147   -0.4260031 
   0.011252801     0.8634900   -0.3249780     0.0004005    0.0003972     0.0001105   -0.0000857     0.6433358   -0.4265749 
   0.011352826     0.8639910   -0.3490414     0.0006798   -0.0006465     0.0000299    0.0003316     0.6391767   -0.4248765 
   0.011452851     0.8458568   -0.3415455    -0.0003452    0.0004702     0.0000871    0.0001484     0.6355274   -0.4294381 
   0.011552876     0.8606687   -0.3358981    -0.0001656   -0.0010826     0.0001181   -0.0000044     0.6332408   -0.4308226 
   0.011652901     0.8553545   -0.3516760     0.0007163   -0.0000654    -0.0001091    0.0001640     0.6282486   -0.4281172 
   0.011752926     0.8334014   -0.3342108    -0.0005517    0.0002031    -0.0003408    0.0003966     0.6256527   -0.4266536 
   0.011852951     0.8496388   -0.3343563     0.0000245    0.0006474    -0.0001314    0.0001898     0.6226975   -0.4281029 
   0.011952976     0.8520615   -0.3387485    -0.0001791    0.0007477    -0.0000692    0.0002723     0.6170404   -0.4287331 
   0.012053002     0.8405915   -0.3550076    -0.0002520   -0.0004921    -0.0000987    0.0001485     0.6151280   -0.4296307 
   0.012153027     0.8559873   -0.3458939     0.0005724    0.0001435    -0.0002252    0.0001100     0.6105660   -0.4322996 
   0.012253052     0.8299901   -0.3528273     0.0003000    0.0012260     0.0000905    0.0000992     0.6090833   -0.4297431 
   0.012353077     0.8444229   -0.3534516     0.0005317   -0.0002360    -0.0001457    0.0000212     0.6042782   -0.4316982 
   0.012453102     0.8420672   -0.3490787    -0.0004828   -0.0006316     0.0001465   -0.0002899     0.5996391   -0.4348414 
   0.012553127     0.8318721   -0.3740124    -0.0002613   -0.0002489     0.0001085    0.0002158     0.5955886   -0.4296626 
   0.012653152     0.8361109   -0.3480616    -0.0003019    0.0006795    -0.0001251    0.0004373     0.5929679   -0.4330936 
   0.012753177     0.8337728   -0.3464059     0.0005586    0.0003689    -0.0000993    0.0001881     0.5914438   -0.4318175 
   0.012853202     0.8249723   -0.3455567    -0.0011536    0.0001166    -0.0000808   -0.0000795     0.5841467   -0.4315339 
   0.012953227     0.8380071   -0.3542637     0.0004389   -0.0001925     0.0001449   -0.0001011     0.5863845   -0.4332561 
   0.013053252     0.8135083   -0.3692840     0.0004949   -0.0006626     0.0001112    0.0000737     0.5830812   -0.4320220 
   0.013153277     0.8201640   -0.3592857    -0.0000589   -0.0000727    -0.0000860   -0.0000208     0.5770767   -0.4339978 
   0.013253302     0.8176858   -0.3583131     0.0003303    0.0001459    -0.0002796    0.0000609     0.5764716   -0.4311459 
   0.013353327     0.8190136   -0.3691775     0.0001518    0.0006605     0.0000403    0.0000405     0.5681685   -0.4344562 
   0.013453352     0.8243760   -0.3716118     0.0001479    0.0004993    -0.0001970    0.0001420     0.5680504   -0.4323092 
   0.013553377     0.8114440   -0.3658305    -0.0001625   -0.0001287     0.0002254    0.0002992     0.5649128   -0.4337138 
   0.013653402     0.8040745   -0.3800894    -0.0003351    0.0000864     0.0002255    0.0001827     0.5603554   -0.4322265 
   0.013753427     0.8193236   -0.3733858    -0.0001803   -0.0000864    -0.0001626    0.0001978     0.5579466   -0.4315476 
   0.013853452     0.8218545   -0.3880956    -0.0003592    0.0001645    -0.0002635    0.0001094     0.5565864   -0.4313374 
   0.013953477     0.7992384   -0.3742994    -0.0010524   -0.0001212    -0.0000013    0.0001617     0.5518724   -0.4322827 
   0.014053502     0.8152729   -0.3883105     0.0003359    0.0002269    -0.0000977    0.0003772     0.5480520   -0.4313468 
   0.014153527     0.7989842   -0.3850600     0.0000561    0.0003176    -0.0000463    0.0004818     0.5462775   -0.4335883 
   0.014253552     0.8019376   -0.3777027     0.0010798   -0.0001113    -0.0001939    0.0001349     0.5436690   -0.4330169 
   0.014353577     0.7876475   -0.3866861     0.0000314    0.0012611     0.0004554    0.0001712     0.5393334   -0.4313346 
   0.014453602     0.7919233   -0.3813324    -0.0001693   -0.0001826     0.0001289   -0.0000225     0.5356591   -0.4309754 
   0.014553627     0.7955983   -0.3872162     0.0003216   -0.0000663    -0.0001867    0.0002655     0.5362430   -0.4324380 
   0.014653652     0.7999789   -0.3787631     0.0000772   -0.0001906     0.0001287    0.0000404     0.5289713   -0.4300544 
   0.014753677     0.7832726   -0.3921258     0.0000449    0.0000533    -0.0003229    0.0000107     0.5289556   -0.4292394 
   0.014853702     0.7897213   -0.3910979     0.0003157    0.0005596    -0.0001720    0.0003160     0.5258797   -0.4301237 
   0.014953727     0.7811361   -0.4007595    -0.0003547    0.0001908    -0.0000749    0.0004542     0.5228177   -0.4285058 
   0.015053752     0.7836739   -0.3954215     0.0002768   -0.0006887    -0.0000227    0.0001054     0.5191351   -0.4292441 
   0.015153777     0.7843583   -0.4003069    -0.0007271    0.0003536     0.0001522    0.0001598     0.5180559   -0.4301361 
   0.015253802     0.7727032   -0.3965202     0.0003066    0.0010808     0.0002665    0.0001788     0.5149640   -0.4288504 
   0.015353827     0.7707087   -0.4024394    -0.0003707    0.0000578     0.0001311   -0.0001351     0.5092646   -0.4294351 
   0.015453852     0.7815400   -0.3977370     0.0002216    0.0001418    -0.0000732    0.0002275     0.5082209   -0.4276249 
   0.015553877     0.7736732   -0.3963139     0.0005579    0.0006253    -0.0000571    0.0005085     0.5084337   -0.4288497 
   0.015653902     0.7706283   -0.3999125     0.0003552    0.0003635    -0.0001388    0.0002120     0.5018370   -0.4273664 
