! 26-Feb-26 11:32:42 AM
! E:\VNA_MEASUREMENTS\SP8T\SP8T_P2_RF3.S2P
! CHANNEL.1
! TR.MEASUREMENT
! CORRECTED.DATA
# GHZ S RI R 50.0
! FREQ.GHZ         S11RE         S11IM         S21RE         S21IM         S12RE         S12IM         S22RE         S22IM         
!; PortSelection: Port_12
   0.000050000     0.0263732    0.0048497    -0.1508526    0.1350252     0.0016633    0.0011933     0.9723106    0.0127566 
   0.000150025    -0.1525325    0.1200853    -0.0355554   -0.4594187    -0.0011513    0.0000232     0.9940912   -0.0132395 
   0.000250050    -0.2348193    0.6336320    -0.0014082   -0.0008830    -0.0003451    0.0005242     1.0041430   -0.0185999 
   0.000350075     0.9923162   -0.1039466    -0.0044499   -0.0125606     0.0007612   -0.0006864     0.9957029   -0.0254580 
   0.000450100     1.0070450   -0.0272689    -0.0022141   -0.0091624     0.0012430    0.0012115     0.9855416   -0.0206306 
   0.000550125     0.9960044    0.0128760    -0.0068807   -0.0127724     0.0000676   -0.0000301     0.9913062   -0.0303406 
   0.000650150     1.0242060   -0.0529207    -0.0069582   -0.0109286    -0.0007080    0.0002936     1.0075550   -0.0546218 
   0.000750175     1.0091890   -0.0188824    -0.0128107   -0.0121911     0.0003289   -0.0006154     0.9966322   -0.0466208 
   0.000850200     1.0192440   -0.0276889    -0.0078850   -0.0121083     0.0000767    0.0008885     0.9847063   -0.0490885 
   0.000950225     1.0239260   -0.0294488    -0.0086458   -0.0082685     0.0004390   -0.0005541     0.9861182   -0.0658575 
   0.001050250     0.9943500   -0.0620967    -0.0113335   -0.0104559     0.0010241   -0.0016034     0.9897799   -0.0649981 
   0.001150275     1.0216190   -0.0244551    -0.0100523   -0.0083606     0.0001996    0.0007980     0.9852552   -0.0712362 
   0.001250300     0.9535771   -0.0574953    -0.0079168   -0.0020703    -0.0015096   -0.0008901     0.9912215   -0.0887955 
   0.001350325     1.0263910   -0.0720521    -0.0059137   -0.0030458    -0.0002517   -0.0003812     0.9826242   -0.0858253 
   0.001450350     0.9960881   -0.0979034    -0.0100596    0.0010579    -0.0005198   -0.0002860     0.9858735   -0.0945430 
   0.001550375     0.9614468   -0.0925812    -0.0095761    0.0020227     0.0002468   -0.0006852     0.9931673   -0.0944666 
   0.001650400     0.9777393   -0.0347500    -0.0118027    0.0018458    -0.0002385    0.0011685     0.9848527   -0.1054841 
   0.001750425     1.0013750   -0.0566426    -0.0057961   -0.0019732     0.0001836    0.0005482     0.9859896   -0.1188435 
   0.001850450     0.9607137   -0.0763202    -0.0062526    0.0021245     0.0005805    0.0006188     0.9866816   -0.1150043 
   0.001950475     0.9983309   -0.0201950    -0.0085987    0.0018367     0.0000635    0.0013709     0.9867004   -0.1172894 
   0.002050500     0.9727386   -0.0421964    -0.0075647    0.0020181     0.0005556   -0.0004917     0.9845714   -0.1304272 
   0.002150525     1.0330790   -0.0216983    -0.0037207    0.0025538     0.0003938    0.0004631     0.9740126   -0.1332610 
   0.002250550     0.9738773   -0.0975969    -0.0075291   -0.0014000     0.0004435    0.0008342     0.9781773   -0.1450638 
   0.002350575     0.9992808   -0.1067849    -0.0077368    0.0011622     0.0007122   -0.0000890     0.9811309   -0.1394456 
   0.002450600     0.9947962   -0.0828101    -0.0042040    0.0028715    -0.0002205   -0.0009778     0.9767480   -0.1561093 
   0.002550625     0.9932517   -0.1052638    -0.0045793    0.0045619     0.0001542    0.0003783     0.9717885   -0.1587460 
   0.002650650     1.0371790   -0.0619220    -0.0066749    0.0058799     0.0002208    0.0009516     0.9701519   -0.1686059 
   0.002750675     0.9796935   -0.0570517    -0.0060178    0.0052916     0.0000709   -0.0001450     0.9664571   -0.1760214 
   0.002850700     1.0045710   -0.0878130    -0.0033611    0.0032736     0.0008754    0.0005828     0.9610712   -0.1749112 
   0.002950725     0.9817526   -0.0953569    -0.0022927    0.0005365     0.0002887   -0.0001614     0.9617807   -0.1782881 
   0.003050750     0.9648555   -0.1126355    -0.0006542    0.0044880     0.0001831    0.0000583     0.9622582   -0.1878329 
   0.003150775     0.9651287   -0.1379467     0.0000661    0.0021482     0.0001944    0.0008815     0.9477291   -0.1966938 
   0.003250800     0.9647405   -0.0828195     0.0004822    0.0032101    -0.0003735    0.0004539     0.9555058   -0.2009807 
   0.003350825     0.9926349   -0.0872510    -0.0005430    0.0033663     0.0014303    0.0005340     0.9442196   -0.2062135 
   0.003450850     0.9387038   -0.1495945    -0.0014278    0.0033155     0.0000676    0.0001038     0.9454042   -0.2096264 
   0.003550875     0.9445495   -0.1153266     0.0016741    0.0038314    -0.0007380   -0.0003433     0.9395879   -0.2162965 
   0.003650900     0.9908569   -0.1147966    -0.0004516    0.0018781    -0.0003273   -0.0003764     0.9400142   -0.2217247 
   0.003750925     0.9660538   -0.1400295     0.0003708    0.0035049    -0.0001719    0.0001246     0.9351172   -0.2288321 
   0.003850950     0.9613671   -0.1400675     0.0002864    0.0016658    -0.0005614    0.0005339     0.9338144   -0.2278666 
   0.003950975     1.0118830   -0.1252764    -0.0024658    0.0046198    -0.0001777   -0.0003427     0.9309448   -0.2329898 
   0.004051001     0.9298233   -0.1575945    -0.0007147    0.0027732     0.0002172   -0.0003217     0.9241782   -0.2386981 
   0.004151026     1.0008870   -0.1201926    -0.0027858    0.0017265     0.0000324    0.0000270     0.9216411   -0.2482241 
   0.004251051     0.9664418   -0.1513883    -0.0025072   -0.0010575    -0.0003287   -0.0002070     0.9238165   -0.2571561 
   0.004351076     0.9652394   -0.1465422     0.0007633    0.0022534    -0.0001226    0.0000563     0.9117141   -0.2533690 
   0.004451101     0.9712816   -0.1393760     0.0011169    0.0002907    -0.0005423    0.0006246     0.9099712   -0.2570316 
   0.004551126     0.9791172   -0.1526402    -0.0004913   -0.0003643    -0.0007934   -0.0002701     0.9122217   -0.2600743 
   0.004651151     0.9658957   -0.1529668    -0.0042036    0.0103810     0.0002768    0.0004081     0.9080130   -0.2687437 
   0.004751176     0.9751529   -0.1660886     0.0005627    0.0048791     0.0006676    0.0005763     0.9078115   -0.2762071 
   0.004851201     0.9490232   -0.1525799    -0.0016122    0.0031817     0.0006242    0.0003387     0.8989202   -0.2786490 
   0.004951226     0.9753649   -0.1639846     0.0011572    0.0012494    -0.0003519    0.0001877     0.8971906   -0.2788500 
   0.005051251     0.9717675   -0.1677269    -0.0012138   -0.0008240     0.0002246    0.0002243     0.8961473   -0.2862075 
   0.005151276     0.9316391   -0.1535712    -0.0014939   -0.0012173    -0.0003005    0.0002685     0.8855316   -0.2910939 
   0.005251301     0.9494148   -0.1693834    -0.0007602   -0.0002338    -0.0004518   -0.0001566     0.8866008   -0.2930600 
   0.005351326     0.9560879   -0.1532420     0.0007676    0.0013165    -0.0002580   -0.0006649     0.8838980   -0.2967864 
   0.005451351     0.9679952   -0.1754278     0.0000308    0.0015296    -0.0000011    0.0000804     0.8812559   -0.3048973 
   0.005551376     0.9909976   -0.1748627    -0.0003381    0.0011047     0.0002162   -0.0002972     0.8762810   -0.3060507 
   0.005651401     0.9530833   -0.1592887     0.0002387    0.0005747    -0.0004264   -0.0000714     0.8724613   -0.3165547 
   0.005751426     0.9347032   -0.1656588    -0.0011853   -0.0012009     0.0002122   -0.0000594     0.8679637   -0.3124626 
   0.005851451     0.9612644   -0.2187323     0.0001216   -0.0004663     0.0002193    0.0002029     0.8651474   -0.3196096 
   0.005951476     0.9543706   -0.1911188     0.0000574    0.0017899     0.0001260   -0.0002199     0.8593668   -0.3156897 
   0.006051501     0.9657022   -0.1935742     0.0006228    0.0027172     0.0003740   -0.0002103     0.8555247   -0.3237298 
   0.006151526     0.9302337   -0.1932897    -0.0008392   -0.0005161    -0.0002009   -0.0000961     0.8527242   -0.3288053 
   0.006251551     0.9441484   -0.1815510     0.0005798   -0.0000119    -0.0004022    0.0004093     0.8487329   -0.3349292 
   0.006351576     0.9411780   -0.2167880     0.0008409   -0.0003354    -0.0002169    0.0001355     0.8419483   -0.3348415 
   0.006451601     0.9544432   -0.2070381     0.0013062   -0.0003801    -0.0002510   -0.0001706     0.8375505   -0.3401902 
   0.006551626     0.9266472   -0.2079020    -0.0008011    0.0018572     0.0000485   -0.0000890     0.8373557   -0.3413637 
   0.006651651     0.9392830   -0.2123710     0.0001045   -0.0007078    -0.0000159   -0.0000893     0.8259429   -0.3455938 
   0.006751676     0.9488183   -0.2415364     0.0008241   -0.0020180     0.0000604    0.0000356     0.8283491   -0.3477630 
   0.006851701     0.9502899   -0.2181127    -0.0014172    0.0001379     0.0001280    0.0005763     0.8205590   -0.3549169 
   0.006951726     0.9258221   -0.2266128     0.0000880   -0.0003156    -0.0000836   -0.0000967     0.8171773   -0.3527559 
   0.007051751     0.9404040   -0.2343487     0.0000225   -0.0001728    -0.0001405    0.0000167     0.8120423   -0.3580931 
   0.007151776     0.9230784   -0.2372313     0.0006953    0.0029010     0.0003962    0.0002498     0.8028621   -0.3602965 
   0.007251801     0.9448476   -0.2357488     0.0002544   -0.0002190     0.0000586    0.0000474     0.8009678   -0.3622548 
   0.007351826     0.9416418   -0.2186231     0.0013213    0.0011324    -0.0001914    0.0002509     0.7986595   -0.3678493 
   0.007451851     0.9138508   -0.2386967     0.0005505    0.0004768     0.0002646    0.0001148     0.7925251   -0.3704515 
   0.007551876     0.9269992   -0.2482648     0.0013648    0.0003062    -0.0003246    0.0002897     0.7944084   -0.3743826 
   0.007651901     0.9411042   -0.2460866     0.0002774    0.0021447    -0.0002296    0.0002540     0.7892862   -0.3738879 
   0.007751926     0.9176433   -0.2438393    -0.0002783   -0.0001676     0.0001028    0.0000216     0.7845607   -0.3754634 
   0.007851951     0.9240885   -0.2384389     0.0008599    0.0001671    -0.0001520    0.0002678     0.7796114   -0.3754429 
   0.007951976     0.9310001   -0.2435930    -0.0009605    0.0017656    -0.0004347    0.0002281     0.7714176   -0.3790789 
   0.008052001     0.9326956   -0.2512402    -0.0003722   -0.0006918    -0.0001161    0.0001190     0.7692624   -0.3811156 
   0.008152026     0.9333075   -0.2624294     0.0004723    0.0005951     0.0001722    0.0002010     0.7668855   -0.3868915 
   0.008252051     0.9177627   -0.2339731     0.0005761    0.0001681     0.0001502    0.0001639     0.7604431   -0.3909155 
   0.008352076     0.9108055   -0.2553732    -0.0000948    0.0009617    -0.0003689    0.0008614     0.7587299   -0.3914976 
   0.008452101     0.9119227   -0.2778158     0.0007510    0.0019715    -0.0002212    0.0004947     0.7572690   -0.3904957 
   0.008552126     0.9078454   -0.2564048     0.0001544    0.0002098    -0.0002427   -0.0000210     0.7513403   -0.3945447 
   0.008652151     0.9214718   -0.2635266     0.0002476   -0.0003412    -0.0000802    0.0000183     0.7443536   -0.3979934 
   0.008752176     0.9183772   -0.2473272    -0.0017390    0.0000919     0.0001432   -0.0000014     0.7456556   -0.3998100 
   0.008852201     0.8917050   -0.2501951    -0.0001277    0.0013889    -0.0001308   -0.0004260     0.7361746   -0.3978990 
   0.008952226     0.9189066   -0.2662280     0.0007516    0.0006626    -0.0000372    0.0004160     0.7347127   -0.4024065 
   0.009052251     0.9294451   -0.2660185     0.0002932   -0.0005522     0.0001143   -0.0000081     0.7317166   -0.4055240 
   0.009152276     0.9167119   -0.2666962     0.0012321    0.0005640    -0.0004093    0.0000791     0.7240316   -0.4051985 
   0.009252301     0.9054510   -0.2767358    -0.0000198    0.0015609    -0.0004640    0.0000276     0.7204819   -0.4075423 
   0.009352326     0.9139876   -0.2885923     0.0005426    0.0007543    -0.0000088    0.0000507     0.7167779   -0.4038366 
   0.009452351     0.9256992   -0.2703251    -0.0006736    0.0010691     0.0001149    0.0003839     0.7117053   -0.4100248 
   0.009552376     0.9080717   -0.2913630     0.0001374    0.0006916     0.0003718    0.0001525     0.7085872   -0.4093582 
   0.009652401     0.8824210   -0.2868114    -0.0011382    0.0003998     0.0001144    0.0002393     0.7042142   -0.4116178 
   0.009752426     0.8939146   -0.2854510    -0.0004543    0.0006411     0.0002322    0.0001523     0.7014526   -0.4110058 
   0.009852451     0.8931376   -0.2940673     0.0003419   -0.0005318    -0.0002928    0.0004201     0.6977848   -0.4166508 
   0.009952476     0.8912241   -0.2968343    -0.0002812   -0.0001587    -0.0000350    0.0002949     0.6914898   -0.4142314 
   0.010052501     0.8782911   -0.3130727     0.0006555   -0.0003298    -0.0001999    0.0004400     0.6891142   -0.4165831 
   0.010152526     0.8753058   -0.2849599    -0.0005054    0.0015274     0.0000204    0.0002254     0.6825346   -0.4161832 
   0.010252551     0.8668334   -0.3081622     0.0001404    0.0007455     0.0002131   -0.0001185     0.6820151   -0.4224499 
   0.010352576     0.9023246   -0.3146900     0.0002978   -0.0005677     0.0002483    0.0003584     0.6760527   -0.4225245 
   0.010452601     0.8938321   -0.2952792    -0.0014507   -0.0010941    -0.0000224   -0.0000713     0.6701328   -0.4230140 
   0.010552626     0.8642935   -0.3114315    -0.0002164   -0.0005035    -0.0001008    0.0001405     0.6686835   -0.4240538 
   0.010652651     0.8863330   -0.3281160     0.0008618   -0.0004426     0.0002870    0.0001533     0.6635435   -0.4262155 
   0.010752676     0.8834467   -0.3225837    -0.0003291    0.0000830    -0.0001586    0.0001407     0.6593972   -0.4265451 
   0.010852701     0.8883045   -0.2974226    -0.0012008    0.0002216    -0.0001372    0.0003365     0.6606513   -0.4210596 
   0.010952726     0.8701039   -0.3154179    -0.0013780    0.0001379    -0.0000702    0.0004090     0.6521575   -0.4266647 
   0.011052751     0.8813923   -0.3194921     0.0006056   -0.0006299     0.0003051    0.0001622     0.6490121   -0.4282764 
   0.011152776     0.8787175   -0.3257627     0.0000324    0.0012117    -0.0000960    0.0002074     0.6436910   -0.4296083 
   0.011252801     0.8713821   -0.3332221    -0.0003119   -0.0006851    -0.0002623    0.0004955     0.6412666   -0.4287106 
   0.011352826     0.8584099   -0.3490977    -0.0004511    0.0005225     0.0003723    0.0002296     0.6421220   -0.4283841 
   0.011452851     0.8567884   -0.3214200     0.0000488    0.0005140     0.0001059    0.0000347     0.6329564   -0.4308285 
   0.011552876     0.8503618   -0.3311166    -0.0001020    0.0012254    -0.0001920    0.0001114     0.6314630   -0.4329307 
   0.011652901     0.8498534   -0.3428558     0.0007657   -0.0005423     0.0001505    0.0000535     0.6258481   -0.4324863 
   0.011752926     0.8557086   -0.3314056     0.0001711    0.0003372     0.0002429    0.0005006     0.6251264   -0.4322076 
   0.011852951     0.8631932   -0.3380865     0.0012995   -0.0011229    -0.0001759    0.0002388     0.6213878   -0.4327827 
   0.011952976     0.8484392   -0.3247114     0.0003372   -0.0004990     0.0000634    0.0007428     0.6151735   -0.4355465 
   0.012053002     0.8528926   -0.3500086    -0.0009990    0.0003398    -0.0000153    0.0002784     0.6118750   -0.4323958 
   0.012153027     0.8466120   -0.3492160     0.0000241    0.0005462     0.0000369    0.0000068     0.6085849   -0.4352278 
   0.012253052     0.8453915   -0.3609114    -0.0001510   -0.0006540     0.0001068    0.0001802     0.6075587   -0.4336977 
   0.012353077     0.8489430   -0.3605292     0.0008532    0.0009524    -0.0000097    0.0001550     0.6046874   -0.4353421 
   0.012453102     0.8438559   -0.3550152     0.0011678   -0.0001961    -0.0001617    0.0000477     0.5980400   -0.4384686 
   0.012553127     0.8371261   -0.3603762     0.0000652    0.0002161     0.0001822    0.0002282     0.5937103   -0.4354602 
   0.012653152     0.8537211   -0.3476845     0.0005455    0.0004478    -0.0000906    0.0000052     0.5928435   -0.4364243 
   0.012753177     0.8327116   -0.3564246     0.0007362    0.0002768     0.0000026    0.0001702     0.5899474   -0.4341029 
   0.012853202     0.8227437   -0.3366954     0.0008257    0.0005079    -0.0000111    0.0002685     0.5834439   -0.4341329 
   0.012953227     0.8401435   -0.3570519    -0.0000340   -0.0000705     0.0002629    0.0001291     0.5835825   -0.4346142 
   0.013053252     0.8187975   -0.3670667     0.0007008    0.0002151     0.0000401    0.0004746     0.5801991   -0.4351291 
   0.013153277     0.8313938   -0.3713240     0.0003748    0.0007372     0.0002535    0.0004583     0.5741048   -0.4361843 
   0.013253302     0.8180846   -0.3544403    -0.0007808    0.0003524    -0.0000818    0.0000285     0.5726418   -0.4348415 
   0.013353327     0.8073713   -0.3673601    -0.0005178    0.0003414     0.0000022    0.0004274     0.5696000   -0.4353059 
   0.013453352     0.8336141   -0.3490024     0.0008719   -0.0000245     0.0000911   -0.0001062     0.5642851   -0.4361174 
   0.013553377     0.8164738   -0.3656862     0.0005364    0.0004875     0.0000154    0.0004947     0.5619600   -0.4355159 
   0.013653402     0.8054142   -0.3625511    -0.0004050    0.0013520    -0.0004787    0.0002682     0.5562969   -0.4361787 
   0.013753427     0.8262919   -0.3754078    -0.0002624    0.0010312     0.0000906    0.0002347     0.5565856   -0.4354084 
   0.013853452     0.8180651   -0.3831303     0.0002462    0.0002464    -0.0002786    0.0003015     0.5545050   -0.4340374 
   0.013953477     0.8083660   -0.3600181     0.0007384    0.0001084     0.0000969    0.0001072     0.5483926   -0.4365852 
   0.014053502     0.8115573   -0.3911714    -0.0005056   -0.0003461     0.0002490   -0.0000097     0.5451614   -0.4343830 
   0.014153527     0.8121215   -0.3763289     0.0008024   -0.0000861     0.0001722    0.0002571     0.5436769   -0.4335051 
   0.014253552     0.8173881   -0.3913656     0.0005858    0.0004666     0.0003202    0.0002059     0.5422932   -0.4374691 
   0.014353577     0.7922962   -0.3863583    -0.0000081    0.0015335     0.0002015    0.0002008     0.5384583   -0.4354905 
   0.014453602     0.7908913   -0.3774595    -0.0003551    0.0013575     0.0001237    0.0000539     0.5359548   -0.4342493 
   0.014553627     0.7947481   -0.3766826     0.0007573    0.0006386     0.0002963    0.0004504     0.5330679   -0.4341604 
   0.014653652     0.7893638   -0.3857310    -0.0005271    0.0005848    -0.0000631    0.0005306     0.5266094   -0.4344073 
   0.014753677     0.7903708   -0.3809738     0.0009395   -0.0001531    -0.0000931    0.0001062     0.5255569   -0.4333399 
   0.014853702     0.7990487   -0.3915279    -0.0000041   -0.0001389     0.0001364    0.0000942     0.5222015   -0.4334011 
   0.014953727     0.7834604   -0.4097559     0.0000561   -0.0000374     0.0001505    0.0000044     0.5197173   -0.4330557 
   0.015053752     0.7881133   -0.3942039    -0.0004185   -0.0000497     0.0001774    0.0003723     0.5161696   -0.4327299 
   0.015153777     0.7914227   -0.3985446    -0.0002605    0.0005312     0.0002497    0.0000503     0.5152990   -0.4329873 
   0.015253802     0.7860686   -0.3891939    -0.0003096   -0.0003200    -0.0001118    0.0001724     0.5101745   -0.4336088 
   0.015353827     0.7822289   -0.3938861     0.0001844   -0.0003097     0.0001477    0.0001167     0.5089816   -0.4336005 
   0.015453852     0.7805662   -0.3968969    -0.0004851   -0.0000044    -0.0000780    0.0000838     0.5052956   -0.4318388 
   0.015553877     0.7844310   -0.4032823    -0.0002696    0.0002964     0.0000779    0.0003240     0.5039847   -0.4315235 
   0.015653902     0.7727492   -0.4063256     0.0004956    0.0002788    -0.0000847    0.0002748     0.4996526   -0.4326168 
