! 26-Feb-26 12:22:24 PM
! E:\VNA_MEASUREMENTS\SP8T\SP8T_P5_RF7.S2P
! CHANNEL.1
! TR.MEASUREMENT
! CORRECTED.DATA
# GHZ S RI R 50.0
! FREQ.GHZ         S11RE         S11IM         S21RE         S21IM         S12RE         S12IM         S22RE         S22IM         
!; PortSelection: Port_12
   0.000050000     0.9315842    0.8371641     0.5162357   -0.5959117     0.0075371   -0.0030106     1.0449390    0.0131379 
   0.000150025     0.0887580   -0.1864530     0.7235049    0.6294794    -0.0011137   -0.0005040     1.0057170   -0.0129334 
   0.000250050    -0.2468301   -0.1388927     0.0033270   -0.0045697     0.0007079   -0.0001693     1.0067390   -0.0123846 
   0.000350075     1.0835630   -0.1002984     0.0000800   -0.0102868    -0.0006983   -0.0002563     1.0040990   -0.0265484 
   0.000450100     1.0077290   -0.0133380    -0.0049376   -0.0071115    -0.0015961    0.0010754     0.9919446   -0.0217821 
   0.000550125     0.9645718    0.0163354    -0.0069865   -0.0117392    -0.0007421    0.0002292     0.9928185   -0.0432026 
   0.000650150     1.0043430    0.0116236    -0.0071868   -0.0097302    -0.0001505   -0.0001675     1.0132500   -0.0516939 
   0.000750175     0.9845237   -0.0918323    -0.0059916   -0.0115514    -0.0003547   -0.0008155     0.9937384   -0.0558071 
   0.000850200     0.9717982   -0.0917757    -0.0095752   -0.0071283     0.0006611    0.0003482     0.9878363   -0.0502119 
   0.000950225     1.0420400   -0.0390673    -0.0117072   -0.0058684    -0.0005548   -0.0002557     1.0012650   -0.0671429 
   0.001050250     0.9859810   -0.0957039    -0.0133137   -0.0099694     0.0002728   -0.0006997     0.9984172   -0.0660341 
   0.001150275     0.9946608   -0.0271712    -0.0060721   -0.0024539     0.0014335    0.0007839     0.9862479   -0.0696265 
   0.001250300     0.9677392   -0.0107016    -0.0122598   -0.0029655     0.0007127    0.0006133     0.9857270   -0.0860237 
   0.001350325     1.0284590   -0.1179031    -0.0090423   -0.0034183     0.0004181    0.0006210     0.9872355   -0.0915316 
   0.001450350     1.0219960   -0.0957327    -0.0061293    0.0026977     0.0000472   -0.0007077     0.9895788   -0.0887291 
   0.001550375     0.9956306   -0.0960457    -0.0051686    0.0021367    -0.0003088   -0.0002738     0.9960849   -0.0966872 
   0.001650400     1.0148110   -0.0227904    -0.0083665    0.0012070    -0.0003657    0.0010063     0.9812633   -0.1032806 
   0.001750425     0.9833046   -0.0632528    -0.0114486   -0.0005994     0.0002779   -0.0007196     0.9884041   -0.1100139 
   0.001850450     0.9673074   -0.0712616    -0.0110678    0.0013090    -0.0000968   -0.0001782     0.9798599   -0.1203961 
   0.001950475     1.0353430   -0.0096667    -0.0079732    0.0034014    -0.0003170    0.0005715     0.9832374   -0.1264481 
   0.002050500     0.9906651   -0.0704631    -0.0035461    0.0092085     0.0001742    0.0008070     0.9813182   -0.1306636 
   0.002150525     1.0046500   -0.0779008    -0.0023243    0.0040564    -0.0000577   -0.0000431     0.9766644   -0.1330426 
   0.002250550     1.0157710   -0.0553249    -0.0049083    0.0045535    -0.0010690    0.0007600     0.9760186   -0.1426266 
   0.002350575     0.9541969   -0.0901700    -0.0022071    0.0019909    -0.0001167   -0.0001530     0.9695354   -0.1427821 
   0.002450600     1.0124860   -0.0869451    -0.0033409    0.0045854    -0.0003564   -0.0002391     0.9763053   -0.1559187 
   0.002550625     1.0017100   -0.0993439    -0.0047211   -0.0005203     0.0002080    0.0007083     0.9621662   -0.1571858 
   0.002650650     1.0057620   -0.0755769    -0.0045736    0.0012136     0.0001355    0.0001093     0.9672928   -0.1664997 
   0.002750675     0.9699405   -0.0707629    -0.0032831    0.0003050     0.0005270    0.0003478     0.9616816   -0.1747058 
   0.002850700     0.9831478   -0.0992700    -0.0038139    0.0022902    -0.0002833   -0.0000361     0.9634493   -0.1849178 
   0.002950725     0.9832740   -0.0811241    -0.0039360   -0.0024754     0.0009015    0.0005318     0.9637377   -0.1804843 
   0.003050750     0.9708474   -0.1209392    -0.0020487    0.0040483    -0.0001064    0.0000744     0.9551628   -0.1916295 
   0.003150775     0.9584652   -0.1400864    -0.0021218    0.0032803     0.0004833    0.0001348     0.9479739   -0.1964733 
   0.003250800     0.9658574   -0.1263526    -0.0037462    0.0003760    -0.0003748   -0.0004039     0.9503801   -0.1976044 
   0.003350825     0.9839317   -0.1010330    -0.0032828    0.0035995     0.0005329    0.0002796     0.9454072   -0.2082501 
   0.003450850     0.9468997   -0.1248888     0.0006404    0.0010621    -0.0003367   -0.0000806     0.9455693   -0.2130283 
   0.003550875     0.9609856   -0.1112147    -0.0047333    0.0057629     0.0008888    0.0005545     0.9425566   -0.2223985 
   0.003650900     0.9836372   -0.1098534     0.0001520    0.0009567    -0.0001639   -0.0001265     0.9356734   -0.2240677 
   0.003750925     0.9578023   -0.1380636     0.0013690    0.0018580     0.0002342   -0.0002269     0.9331031   -0.2321857 
   0.003850950     0.9803228   -0.1331284     0.0009943    0.0003649    -0.0005129   -0.0005494     0.9314309   -0.2325268 
   0.003950975     0.9872135   -0.1424168     0.0010341    0.0033743    -0.0004061   -0.0001123     0.9234738   -0.2354413 
   0.004051001     0.9811384   -0.1673407     0.0018885    0.0015601     0.0003342    0.0003575     0.9219055   -0.2365176 
   0.004151026     0.9918361   -0.1542969     0.0003440    0.0024838    -0.0001946   -0.0001478     0.9242195   -0.2521617 
   0.004251051     0.9583798   -0.1469749     0.0025775    0.0012746     0.0002023   -0.0001730     0.9220038   -0.2546474 
   0.004351076     0.9736921   -0.1228503     0.0005347   -0.0010942     0.0003990   -0.0001629     0.9131070   -0.2637466 
   0.004451101     0.9883375   -0.1561864    -0.0016189    0.0023148     0.0004662    0.0005611     0.9073657   -0.2645584 
   0.004551126     0.9681989   -0.1645715    -0.0015053    0.0000525     0.0001847    0.0001352     0.9101042   -0.2657411 
   0.004651151     0.9659443   -0.1568427    -0.0006104    0.0027303     0.0003031   -0.0002173     0.9072977   -0.2694724 
   0.004751176     0.9751604   -0.1609797     0.0009260    0.0020272    -0.0003979    0.0001695     0.9028901   -0.2753403 
   0.004851201     0.9477339   -0.1627056    -0.0012221    0.0007433    -0.0001526    0.0001504     0.8910981   -0.2861556 
   0.004951226     0.9461070   -0.1581997    -0.0025766    0.0003349     0.0004585    0.0001923     0.8946357   -0.2854505 
   0.005051251     0.9950759   -0.1770623    -0.0002807    0.0008481    -0.0000352    0.0001079     0.8904941   -0.2816525 
   0.005151276     0.9416103   -0.1553912     0.0006669    0.0034213    -0.0003216   -0.0003714     0.8833136   -0.2945704 
   0.005251301     0.9547155   -0.1707896     0.0004695   -0.0002977     0.0001395    0.0000094     0.8835616   -0.2966427 
   0.005351326     0.9254938   -0.1329545     0.0012911    0.0023679     0.0003416   -0.0001121     0.8803442   -0.3033618 
   0.005451351     0.9730865   -0.1466660    -0.0014518    0.0024190    -0.0002335   -0.0003264     0.8750200   -0.3064041 
   0.005551376     0.9685919   -0.1748613    -0.0030946    0.0003429    -0.0000695   -0.0002715     0.8716618   -0.3057236 
   0.005651401     0.9686887   -0.1618415     0.0001212    0.0019228    -0.0002865    0.0002493     0.8669355   -0.3197221 
   0.005751426     0.9300243   -0.1649958    -0.0023932   -0.0001884     0.0005568   -0.0004957     0.8584027   -0.3179289 
   0.005851451     0.9659569   -0.2073319    -0.0010876   -0.0009537     0.0001259   -0.0004189     0.8568552   -0.3220022 
   0.005951476     0.9557489   -0.1679183    -0.0010076    0.0006681     0.0003522    0.0001167     0.8539901   -0.3217306 
   0.006051501     0.9272838   -0.1985136     0.0018486   -0.0013598     0.0006695    0.0000438     0.8514987   -0.3248748 
   0.006151526     0.9300949   -0.2119765     0.0005827   -0.0002614     0.0005797    0.0001289     0.8474377   -0.3337103 
   0.006251551     0.9538184   -0.1846181     0.0002170   -0.0006613     0.0002129   -0.0001214     0.8407671   -0.3380317 
   0.006351576     0.9485782   -0.2025483    -0.0007686   -0.0004880     0.0000221    0.0001039     0.8357445   -0.3406851 
   0.006451601     0.9354194   -0.2063095     0.0031788   -0.0015499    -0.0001008    0.0003033     0.8288352   -0.3457420 
   0.006551626     0.9423865   -0.2146291    -0.0008700    0.0000354     0.0003286    0.0000385     0.8303427   -0.3437476 
   0.006651651     0.9458815   -0.2152859    -0.0006197   -0.0000057     0.0000979    0.0000533     0.8202009   -0.3468992 
   0.006751676     0.9499539   -0.2191302     0.0008293    0.0007158     0.0005848   -0.0001114     0.8229986   -0.3484625 
   0.006851701     0.9455094   -0.2168527    -0.0008481    0.0005648     0.0001037    0.0001323     0.8161708   -0.3569841 
   0.006951726     0.9206184   -0.2268959     0.0000430    0.0007141    -0.0001803   -0.0002368     0.8105599   -0.3574497 
   0.007051751     0.9330984   -0.2327596    -0.0000041    0.0009502    -0.0000080    0.0002340     0.8028250   -0.3602583 
   0.007151776     0.9132913   -0.2208348    -0.0011974   -0.0001995    -0.0000245   -0.0001465     0.7969379   -0.3651926 
   0.007251801     0.9453582   -0.2132174     0.0004953   -0.0004285     0.0001431    0.0002153     0.7986149   -0.3647009 
   0.007351826     0.9272630   -0.2307294     0.0016257   -0.0001067     0.0001514    0.0004559     0.7916363   -0.3715608 
   0.007451851     0.9172158   -0.2435810    -0.0015846   -0.0006303     0.0000784    0.0001471     0.7899440   -0.3680002 
   0.007551876     0.9395853   -0.2448404    -0.0011227   -0.0005507     0.0002360   -0.0001415     0.7879335   -0.3742765 
   0.007651901     0.9192366   -0.2526314    -0.0018553   -0.0000973    -0.0002311    0.0000381     0.7839590   -0.3803129 
   0.007751926     0.9020607   -0.2433064    -0.0003128   -0.0009941     0.0000269    0.0002457     0.7783490   -0.3787888 
   0.007851951     0.9293696   -0.2430803    -0.0000738    0.0005506    -0.0001920   -0.0003732     0.7736002   -0.3796526 
   0.007951976     0.9311152   -0.2639795     0.0003376   -0.0004503     0.0003104    0.0000561     0.7690410   -0.3837304 
   0.008052001     0.9421487   -0.2553550    -0.0014800   -0.0004036     0.0002327   -0.0002953     0.7635803   -0.3855675 
   0.008152026     0.9289058   -0.2744238    -0.0016330   -0.0008024    -0.0005409    0.0002790     0.7599586   -0.3893126 
   0.008252051     0.9058707   -0.2373589    -0.0014227    0.0005334     0.0001897    0.0000053     0.7539369   -0.3898960 
   0.008352076     0.9227465   -0.2529064     0.0011868    0.0015778    -0.0002132   -0.0002024     0.7528676   -0.3914094 
   0.008452101     0.9050607   -0.2500675     0.0004345   -0.0005138    -0.0001674   -0.0002976     0.7487795   -0.3938880 
   0.008552126     0.9128608   -0.2521432    -0.0012492   -0.0009342     0.0002911   -0.0002264     0.7423761   -0.3934339 
   0.008652151     0.9066049   -0.2579545     0.0007200   -0.0007063     0.0003869   -0.0001998     0.7382559   -0.3984863 
   0.008752176     0.9109289   -0.2635109     0.0002997   -0.0002537    -0.0004886    0.0002123     0.7347404   -0.4017191 
   0.008852201     0.8976116   -0.2558179    -0.0012974    0.0001649    -0.0001263   -0.0001349     0.7283331   -0.3947892 
   0.008952226     0.9155501   -0.2784604     0.0006966   -0.0003268     0.0000383   -0.0001332     0.7286512   -0.4015470 
   0.009052251     0.9102929   -0.2684456     0.0006239   -0.0009236    -0.0000149    0.0002753     0.7239001   -0.4043214 
   0.009152276     0.9037479   -0.2696557    -0.0005839   -0.0003268     0.0002139   -0.0001543     0.7146515   -0.4090696 
   0.009252301     0.9008005   -0.2706670    -0.0006183    0.0003898     0.0002783   -0.0001962     0.7130156   -0.4108945 
   0.009352326     0.9015104   -0.2864007     0.0002143    0.0015786    -0.0000923    0.0001105     0.7108613   -0.4050276 
   0.009452351     0.8950819   -0.2801228    -0.0004836   -0.0007134    -0.0001956   -0.0004763     0.7045048   -0.4102111 
   0.009552376     0.8964524   -0.2856943     0.0004911   -0.0003160     0.0001716    0.0002020     0.6987760   -0.4100776 
   0.009652401     0.8917581   -0.2856033     0.0007984    0.0011171     0.0001522   -0.0002204     0.6975228   -0.4139028 
   0.009752426     0.8818887   -0.2869780     0.0009714   -0.0003269     0.0001895    0.0001565     0.6930446   -0.4132375 
   0.009852451     0.8978131   -0.3049170    -0.0005116   -0.0008476    -0.0001334    0.0003435     0.6888736   -0.4162175 
   0.009952476     0.8918871   -0.3055839    -0.0000170   -0.0000759     0.0001641   -0.0001283     0.6836388   -0.4144100 
   0.010052501     0.8822537   -0.2914376     0.0003630    0.0005456    -0.0000435   -0.0000879     0.6816689   -0.4164382 
   0.010152526     0.8925843   -0.2941434     0.0002323    0.0012418     0.0002556   -0.0000895     0.6752344   -0.4181007 
   0.010252551     0.8700156   -0.3028490     0.0006307    0.0003113    -0.0001699   -0.0000366     0.6729271   -0.4226442 
   0.010352576     0.8993919   -0.3175043     0.0019012    0.0003776    -0.0003608   -0.0002622     0.6679708   -0.4221045 
   0.010452601     0.8866181   -0.2988434     0.0010353   -0.0000110     0.0001442   -0.0002213     0.6653582   -0.4226869 
   0.010552626     0.8551390   -0.3172057     0.0017906   -0.0001486    -0.0001745    0.0003025     0.6608132   -0.4236368 
   0.010652651     0.8761820   -0.3054783     0.0008409    0.0005098    -0.0000472   -0.0002364     0.6572057   -0.4243508 
   0.010752676     0.8783679   -0.3296648     0.0006109    0.0003242     0.0001341    0.0000730     0.6512010   -0.4234131 
   0.010852701     0.8712833   -0.3061128     0.0005148    0.0007017    -0.0002457    0.0001858     0.6542408   -0.4211853 
   0.010952726     0.8772069   -0.3178336    -0.0008195   -0.0001258     0.0002748   -0.0000455     0.6442307   -0.4278841 
   0.011052751     0.8646044   -0.3318478     0.0007699   -0.0001770     0.0000341    0.0001822     0.6411731   -0.4279093 
   0.011152776     0.8699130   -0.3252934     0.0005981    0.0001243    -0.0003286    0.0002013     0.6393880   -0.4261995 
   0.011252801     0.8611835   -0.3348155    -0.0002610   -0.0007007    -0.0002082   -0.0002448     0.6314746   -0.4270665 
   0.011352826     0.8557077   -0.3444210    -0.0006686   -0.0000939     0.0000360    0.0000508     0.6319549   -0.4276531 
   0.011452851     0.8499066   -0.3377007    -0.0008098   -0.0007565     0.0000490    0.0002453     0.6250952   -0.4295003 
   0.011552876     0.8512867   -0.3375425     0.0003514    0.0001171     0.0001369   -0.0000775     0.6249822   -0.4312781 
   0.011652901     0.8564951   -0.3456118     0.0000475   -0.0005340     0.0000642   -0.0000277     0.6198838   -0.4317152 
   0.011752926     0.8452295   -0.3290415     0.0004915   -0.0007552     0.0001456    0.0000948     0.6168697   -0.4304199 
   0.011852951     0.8526078   -0.3311706     0.0003462   -0.0004826     0.0001987   -0.0000535     0.6134178   -0.4326015 
   0.011952976     0.8547646   -0.3344539    -0.0008340   -0.0001025     0.0002493    0.0000485     0.6067488   -0.4295889 
   0.012053002     0.8351489   -0.3595830     0.0010306    0.0005980     0.0000376   -0.0000599     0.6036036   -0.4316329 
   0.012153027     0.8493770   -0.3602285    -0.0009668   -0.0000991     0.0002198   -0.0000178     0.6011829   -0.4325371 
   0.012253052     0.8350146   -0.3517732     0.0002921    0.0001250     0.0000748   -0.0001921     0.5985606   -0.4331525 
   0.012353077     0.8453981   -0.3489960     0.0006782   -0.0006118     0.0000252    0.0002583     0.5985395   -0.4338802 
   0.012453102     0.8442487   -0.3344911     0.0004558    0.0005075    -0.0001408   -0.0001608     0.5906633   -0.4339257 
   0.012553127     0.8338552   -0.3653483     0.0010943   -0.0002690     0.0001737   -0.0002402     0.5854744   -0.4331342 
   0.012653152     0.8523634   -0.3457991    -0.0000619    0.0006241     0.0000934    0.0001409     0.5832688   -0.4333966 
   0.012753177     0.8205175   -0.3538325     0.0002303   -0.0002996    -0.0001179   -0.0000729     0.5811360   -0.4342821 
   0.012853202     0.8263957   -0.3441397    -0.0013934    0.0001223     0.0000946    0.0000806     0.5757552   -0.4325494 
   0.012953227     0.8325303   -0.3614143     0.0002303    0.0000992     0.0001269    0.0000763     0.5768114   -0.4338650 
   0.013053252     0.8077724   -0.3666740     0.0008888   -0.0002242    -0.0001499    0.0003781     0.5724877   -0.4317033 
   0.013153277     0.8264112   -0.3618372     0.0004814   -0.0000436     0.0000768    0.0000681     0.5669180   -0.4359371 
   0.013253302     0.8225565   -0.3617965     0.0000652   -0.0012514    -0.0000249   -0.0000072     0.5653986   -0.4298301 
   0.013353327     0.8211327   -0.3649459    -0.0006799   -0.0003729    -0.0001167    0.0000479     0.5619590   -0.4351884 
   0.013453352     0.8201180   -0.3537553     0.0006085    0.0007163     0.0000211    0.0002058     0.5591496   -0.4320121 
   0.013553377     0.8079082   -0.3701977    -0.0003047    0.0005989     0.0002457    0.0001184     0.5521641   -0.4349993 
   0.013653402     0.8100184   -0.3708214     0.0014445    0.0002551    -0.0001279    0.0000360     0.5507902   -0.4312276 
   0.013753427     0.8172688   -0.3715682    -0.0003545    0.0004097     0.0001394   -0.0002848     0.5480480   -0.4312141 
   0.013853452     0.8238249   -0.3864720     0.0000198   -0.0001443    -0.0000044   -0.0000898     0.5465010   -0.4316209 
   0.013953477     0.7994897   -0.3689192     0.0005063    0.0015710     0.0001163    0.0001895     0.5431657   -0.4322367 
   0.014053502     0.8055592   -0.3943814    -0.0003115   -0.0012327     0.0002742    0.0001742     0.5378971   -0.4299404 
   0.014153527     0.7950692   -0.3819325     0.0005966   -0.0011150     0.0001026    0.0000184     0.5358160   -0.4300302 
   0.014253552     0.8029625   -0.3795260     0.0009673   -0.0004263     0.0000553   -0.0000086     0.5362530   -0.4329102 
   0.014353577     0.7899686   -0.3783343     0.0004476    0.0003012     0.0001953   -0.0001179     0.5296803   -0.4300177 
   0.014453602     0.7800708   -0.3873614    -0.0004584   -0.0006287    -0.0000181    0.0001778     0.5274516   -0.4310041 
   0.014553627     0.7968656   -0.3866330     0.0002474   -0.0003628     0.0000232   -0.0001597     0.5248845   -0.4316199 
   0.014653652     0.7893462   -0.3874726     0.0000946   -0.0002162    -0.0000042    0.0001960     0.5186720   -0.4290985 
   0.014753677     0.7788942   -0.3861050    -0.0002758    0.0000840     0.0004026    0.0001890     0.5183160   -0.4276088 
   0.014853702     0.7905883   -0.3851759     0.0001075   -0.0004916     0.0000683    0.0003339     0.5162715   -0.4292708 
   0.014953727     0.7769404   -0.4061472    -0.0004169   -0.0002355     0.0000567    0.0001970     0.5139469   -0.4286037 
   0.015053752     0.7836518   -0.3971600     0.0003417    0.0009142    -0.0001622   -0.0000193     0.5099030   -0.4280134 
   0.015153777     0.7754501   -0.3975783     0.0004668    0.0001091     0.0001231    0.0000468     0.5084531   -0.4301048 
   0.015253802     0.7711595   -0.3962176     0.0000489    0.0000316     0.0001701    0.0000616     0.5033968   -0.4276376 
   0.015353827     0.7768809   -0.4049829    -0.0000887    0.0009692     0.0001349   -0.0000321     0.5013611   -0.4284219 
   0.015453852     0.7721041   -0.4068254    -0.0004936    0.0002167     0.0000268    0.0001615     0.4977586   -0.4267296 
   0.015553877     0.7725172   -0.4043478    -0.0007042    0.0001549    -0.0001676    0.0000123     0.4977660   -0.4275937 
   0.015653902     0.7725663   -0.4129027     0.0000088   -0.0003878    -0.0001105   -0.0001588     0.4950347   -0.4279711 
