! 26-Feb-26 11:45:22 AM
! E:\VNA_MEASUREMENTS\SP8T\SP8T_P3_RF6.S2P
! CHANNEL.1
! TR.MEASUREMENT
! CORRECTED.DATA
# GHZ S RI R 50.0
! FREQ.GHZ         S11RE         S11IM         S21RE         S21IM         S12RE         S12IM         S22RE         S22IM         
!; PortSelection: Port_12
   0.000050000     0.5339269    0.6913638     0.0694598   -0.4093920    -0.0034774   -0.0025043     1.0051340    0.0435621 
   0.000150025    -0.0766306   -0.2367103     0.1115212    0.0561700     0.0006391    0.0023996     1.0011310   -0.0087723 
   0.000250050     0.4213132    0.4309730     0.0020991   -0.0133405     0.0005237   -0.0000512     1.0058050   -0.0136984 
   0.000350075     1.0198360   -0.0631722     0.0004036   -0.0078269     0.0000757   -0.0019069     1.0020850   -0.0367114 
   0.000450100     0.9486704   -0.0329530    -0.0010022   -0.0081871    -0.0017549   -0.0012523     0.9934973   -0.0189105 
   0.000550125     0.9858586   -0.0069520     0.0006517   -0.0104758    -0.0015736   -0.0000476     0.9933174   -0.0277998 
   0.000650150     1.0013560   -0.0449053    -0.0025184   -0.0134112     0.0008934    0.0008214     1.0084010   -0.0525061 
   0.000750175     1.0049670   -0.0568418    -0.0057538   -0.0087268     0.0002388   -0.0006197     0.9939853   -0.0522067 
   0.000850200     0.9787339   -0.0717932    -0.0098439   -0.0073259    -0.0006203    0.0000971     0.9942354   -0.0499585 
   0.000950225     1.0124110   -0.0517426    -0.0075858   -0.0007228     0.0003291    0.0006186     0.9931446   -0.0642496 
   0.001050250     0.9751974   -0.0435172    -0.0132493   -0.0042637     0.0006109    0.0004686     0.9948623   -0.0607064 
   0.001150275     0.9964765   -0.0407792    -0.0098507   -0.0037006    -0.0006119   -0.0005607     0.9931952   -0.0716256 
   0.001250300     0.9903370   -0.0635612    -0.0104824   -0.0030514     0.0000456    0.0003555     0.9940097   -0.0852527 
   0.001350325     0.9704410   -0.0517992    -0.0099410   -0.0016086    -0.0010809   -0.0007308     0.9862935   -0.0848911 
   0.001450350     0.9807080   -0.0485725    -0.0102643   -0.0076174     0.0016023   -0.0002092     0.9937372   -0.0880323 
   0.001550375     0.9424038   -0.0760000    -0.0135162    0.0020081     0.0008953   -0.0007450     0.9806649   -0.0919286 
   0.001650400     1.0372430   -0.0356146    -0.0074100   -0.0012839     0.0003894    0.0004562     0.9870503   -0.0973477 
   0.001750425     1.0038940   -0.0833113    -0.0098196    0.0044973     0.0002803    0.0009636     0.9810395   -0.1060322 
   0.001850450     0.9759014   -0.0443282    -0.0091991    0.0032482    -0.0003096    0.0002073     0.9831907   -0.1157747 
   0.001950475     0.9932551   -0.0323177    -0.0091598    0.0013219     0.0006896   -0.0004921     0.9798880   -0.1151910 
   0.002050500     0.9737982   -0.0710383    -0.0084225    0.0010879    -0.0000965   -0.0002668     0.9860224   -0.1353812 
   0.002150525     1.0013410   -0.0642138    -0.0054484    0.0041268     0.0004615    0.0003178     0.9732273   -0.1337730 
   0.002250550     1.0233320   -0.1246368    -0.0081450    0.0031825    -0.0005252    0.0009526     0.9761218   -0.1377774 
   0.002350575     0.9659464   -0.1209738    -0.0082153    0.0008665    -0.0002062   -0.0004287     0.9711275   -0.1436868 
   0.002450600     0.9912143   -0.1172963    -0.0062144    0.0031977    -0.0001451   -0.0003043     0.9804273   -0.1454088 
   0.002550625     0.9739059   -0.0884233    -0.0071946    0.0010739    -0.0003107    0.0002135     0.9706300   -0.1509888 
   0.002650650     0.9674743   -0.0707614     0.0000763    0.0064563    -0.0004275   -0.0004466     0.9753715   -0.1714949 
   0.002750675     0.9947081   -0.0640032    -0.0058352    0.0033266    -0.0005070   -0.0003859     0.9612347   -0.1747937 
   0.002850700     1.0058850   -0.0894756    -0.0048727    0.0055074    -0.0001772   -0.0001651     0.9603951   -0.1768200 
   0.002950725     0.9311066   -0.0756195    -0.0051974   -0.0002893    -0.0000165    0.0005396     0.9648133   -0.1785511 
   0.003050750     0.9898685   -0.0986769     0.0000972    0.0031632    -0.0000921    0.0004757     0.9617828   -0.1871317 
   0.003150775     1.0066050   -0.1223539     0.0004213    0.0025876    -0.0001488    0.0006238     0.9497752   -0.1899138 
   0.003250800     0.9646928   -0.0722297     0.0006252    0.0040917     0.0004125   -0.0001041     0.9537631   -0.1999602 
   0.003350825     0.9664023   -0.0861907    -0.0006462    0.0022370    -0.0000826   -0.0001257     0.9564089   -0.2036241 
   0.003450850     0.9589652   -0.1619159    -0.0017226    0.0022596     0.0001939    0.0004603     0.9495364   -0.2096136 
   0.003550875     0.9427364   -0.1187893    -0.0004804    0.0038786     0.0000138    0.0002800     0.9425673   -0.2121898 
   0.003650900     0.9801318   -0.0962879    -0.0000215    0.0036522     0.0007815   -0.0007863     0.9463228   -0.2272473 
   0.003750925     0.9676452   -0.1365917     0.0006182    0.0002844    -0.0004500    0.0003848     0.9317107   -0.2254750 
   0.003850950     0.9769716   -0.1615516    -0.0005278    0.0026900    -0.0000966    0.0011562     0.9370657   -0.2257163 
   0.003950975     0.9654078   -0.0959278    -0.0024803    0.0013303     0.0000447   -0.0002099     0.9319001   -0.2279399 
   0.004051001     0.9669621   -0.1598713    -0.0010690    0.0010145    -0.0003965    0.0003788     0.9322197   -0.2332922 
   0.004151026     0.9819335   -0.1176433     0.0022870    0.0027351    -0.0000143    0.0001435     0.9254126   -0.2411338 
   0.004251051     0.9540628   -0.1263942    -0.0025950    0.0005249     0.0000494   -0.0001877     0.9224148   -0.2457379 
   0.004351076     0.9775047   -0.1037880     0.0002375   -0.0000034     0.0003156   -0.0002925     0.9140443   -0.2534288 
   0.004451101     0.9767375   -0.1540950    -0.0021228    0.0006601    -0.0000015    0.0004688     0.9113525   -0.2555956 
   0.004551126     0.9750503   -0.1598205    -0.0006184   -0.0010793    -0.0001085    0.0001644     0.9172456   -0.2548681 
   0.004651151     0.9504068   -0.1565271     0.0008770    0.0110047     0.0003062   -0.0002783     0.9143214   -0.2637590 
   0.004751176     0.9597684   -0.2040366    -0.0009565    0.0011722     0.0001253    0.0003318     0.9088470   -0.2739281 
   0.004851201     0.9408047   -0.1621568    -0.0016009    0.0016519     0.0000340   -0.0001732     0.9027918   -0.2721020 
   0.004951226     0.9540754   -0.1436842     0.0000985    0.0017655     0.0003448    0.0000638     0.9012578   -0.2773044 
   0.005051251     1.0170400   -0.1712426    -0.0014933   -0.0005888     0.0007098   -0.0000255     0.8969726   -0.2797848 
   0.005151276     0.9481575   -0.1549996     0.0017228   -0.0010266     0.0003377    0.0001258     0.8907540   -0.2839426 
   0.005251301     0.9565825   -0.1560904    -0.0007066    0.0012694     0.0001201    0.0000386     0.8906769   -0.2916019 
   0.005351326     0.9415022   -0.1819255    -0.0001499   -0.0002074    -0.0001560   -0.0004028     0.8863797   -0.2961800 
   0.005451351     0.9366213   -0.1551575     0.0002456    0.0015746     0.0003289   -0.0001792     0.8812047   -0.3029057 
   0.005551376     0.9932350   -0.1747155     0.0016540    0.0012170     0.0001708    0.0003861     0.8746534   -0.2970631 
   0.005651401     0.9547536   -0.1930243     0.0008434    0.0011310     0.0000833   -0.0002807     0.8768535   -0.3131132 
   0.005751426     0.9151117   -0.1857180    -0.0001065    0.0008650     0.0000040    0.0002972     0.8657930   -0.3125497 
   0.005851451     0.9477746   -0.1977568    -0.0003142   -0.0004824     0.0003567    0.0001351     0.8664328   -0.3132531 
   0.005951476     0.9349869   -0.1968239    -0.0002603    0.0019219    -0.0000922   -0.0001476     0.8649983   -0.3149664 
   0.006051501     0.9311544   -0.1968672    -0.0001962   -0.0000618     0.0000864    0.0010182     0.8585214   -0.3222009 
   0.006151526     0.9266942   -0.2060672     0.0010873   -0.0005593     0.0000823   -0.0002540     0.8552229   -0.3277484 
   0.006251551     0.9353288   -0.1872030     0.0014409   -0.0011373     0.0001737    0.0001640     0.8480902   -0.3304260 
   0.006351576     0.9614455   -0.2008912     0.0005402    0.0002034     0.0005021    0.0001506     0.8462105   -0.3352684 
   0.006451601     0.9419808   -0.2177117     0.0005128    0.0004833     0.0004004    0.0001265     0.8388550   -0.3405965 
   0.006551626     0.9329443   -0.2063069    -0.0014412    0.0003055     0.0002132   -0.0006287     0.8384006   -0.3420868 
   0.006651651     0.9468406   -0.2207027    -0.0004565   -0.0002770     0.0004887   -0.0003818     0.8333259   -0.3450920 
   0.006751676     0.9204379   -0.2347738    -0.0007232   -0.0012296    -0.0002743   -0.0001565     0.8320790   -0.3447069 
   0.006851701     0.9597820   -0.2088398     0.0002534    0.0005461    -0.0001477    0.0000601     0.8229615   -0.3509630 
   0.006951726     0.9459332   -0.2366863    -0.0008194    0.0005850    -0.0002809    0.0006977     0.8196208   -0.3507343 
   0.007051751     0.9515392   -0.2266228     0.0006797    0.0016743     0.0000787    0.0000515     0.8138660   -0.3553331 
   0.007151776     0.9147577   -0.2288679    -0.0006353   -0.0004392    -0.0005371   -0.0001303     0.8109888   -0.3600668 
   0.007251801     0.9432995   -0.2448909     0.0000627   -0.0000079     0.0002621    0.0001410     0.8087737   -0.3595430 
   0.007351826     0.9241946   -0.2491523     0.0005000   -0.0014387     0.0001680    0.0002356     0.8066083   -0.3635982 
   0.007451851     0.9173128   -0.2246631     0.0004203   -0.0014955    -0.0001717   -0.0000222     0.7970920   -0.3677028 
   0.007551876     0.9391346   -0.2466779     0.0000930   -0.0012911    -0.0002057    0.0002942     0.7967981   -0.3696468 
   0.007651901     0.9465184   -0.2409351     0.0012127   -0.0000486     0.0001292   -0.0002124     0.7927358   -0.3712989 
   0.007751926     0.9303969   -0.2387925     0.0002304    0.0008341    -0.0001474   -0.0003518     0.7889524   -0.3771536 
   0.007851951     0.9406918   -0.2307622     0.0010341    0.0009413    -0.0003417    0.0004029     0.7833849   -0.3736322 
   0.007951976     0.9312905   -0.2611448    -0.0009908    0.0007318    -0.0000889    0.0004783     0.7809338   -0.3783353 
   0.008052001     0.9258439   -0.2564149     0.0001090   -0.0006454     0.0002597   -0.0003379     0.7742584   -0.3807635 
   0.008152026     0.9261376   -0.2641613     0.0003577   -0.0008394    -0.0000586   -0.0009266     0.7743033   -0.3841503 
   0.008252051     0.8943858   -0.2470042    -0.0003332    0.0005272    -0.0005615    0.0002096     0.7662078   -0.3862131 
   0.008352076     0.9169509   -0.2738389     0.0005609   -0.0001056    -0.0000417   -0.0000500     0.7637410   -0.3907302 
   0.008452101     0.9153910   -0.2566776     0.0002772    0.0002784     0.0000329   -0.0001282     0.7592273   -0.3886222 
   0.008552126     0.9208285   -0.2602204    -0.0008655    0.0006462    -0.0000774   -0.0001387     0.7557051   -0.3910711 
   0.008652151     0.9174033   -0.2730008     0.0010771    0.0012492     0.0001061    0.0004884     0.7502165   -0.3954210 
   0.008752176     0.9114293   -0.2697843    -0.0003430    0.0007392     0.0002021   -0.0002565     0.7462597   -0.3973239 
   0.008852201     0.9153334   -0.2647839    -0.0014355    0.0006124    -0.0001185    0.0003818     0.7413302   -0.3997025 
   0.008952226     0.9089946   -0.2652600    -0.0003298   -0.0016674     0.0003638    0.0000606     0.7396964   -0.3990950 
   0.009052251     0.8986222   -0.2766809    -0.0006773    0.0005451    -0.0002654    0.0003640     0.7375591   -0.4030396 
   0.009152276     0.9028433   -0.2674775    -0.0002704    0.0011481     0.0001088    0.0001730     0.7291723   -0.4025368 
   0.009252301     0.9017776   -0.2753316    -0.0000955   -0.0003435    -0.0002205    0.0003564     0.7297722   -0.4081095 
   0.009352326     0.8968571   -0.2929865    -0.0003592   -0.0003312    -0.0002944   -0.0001648     0.7241186   -0.4042417 
   0.009452351     0.9102821   -0.2833295    -0.0006256   -0.0004059    -0.0000634   -0.0000635     0.7185597   -0.4055247 
   0.009552376     0.9003996   -0.2788000     0.0011735   -0.0000319    -0.0001011   -0.0001977     0.7146676   -0.4077436 
   0.009652401     0.8809022   -0.2968976    -0.0003409   -0.0006617    -0.0000983    0.0001776     0.7110357   -0.4105226 
   0.009752426     0.8911439   -0.2986168     0.0002905   -0.0014977    -0.0001013    0.0001672     0.7064341   -0.4126832 
   0.009852451     0.8784822   -0.2935253     0.0011499    0.0000721     0.0000521    0.0000264     0.6998255   -0.4123102 
   0.009952476     0.8766838   -0.3126235    -0.0007278    0.0006175     0.0003353    0.0001184     0.6962278   -0.4120416 
   0.010052501     0.8929250   -0.2932639    -0.0000715   -0.0007765    -0.0002688   -0.0000128     0.6969294   -0.4129691 
   0.010152526     0.8816161   -0.2955731    -0.0006271   -0.0003470    -0.0001640   -0.0002471     0.6897199   -0.4137861 
   0.010252551     0.8728739   -0.2980962     0.0003229    0.0001435    -0.0002902    0.0003859     0.6841771   -0.4206762 
   0.010352576     0.8892219   -0.3181376    -0.0000046    0.0007360     0.0000307   -0.0002548     0.6809114   -0.4198254 
   0.010452601     0.8873726   -0.2968432    -0.0003512    0.0018197    -0.0003380   -0.0001878     0.6767277   -0.4232493 
   0.010552626     0.8563828   -0.2983255    -0.0011850   -0.0002598    -0.0000669   -0.0000705     0.6764911   -0.4210574 
   0.010652651     0.8753936   -0.3077766     0.0003940   -0.0020213    -0.0002235   -0.0002582     0.6716456   -0.4227557 
   0.010752676     0.8813518   -0.3301711     0.0004065   -0.0008698    -0.0000325   -0.0001095     0.6679001   -0.4249863 
   0.010852701     0.8893206   -0.3093434    -0.0002415   -0.0007756    -0.0001900   -0.0000219     0.6655306   -0.4216951 
   0.010952726     0.8748636   -0.3106766    -0.0008428   -0.0009406     0.0003650   -0.0002839     0.6593520   -0.4253487 
   0.011052751     0.8710572   -0.3229561    -0.0004103   -0.0005148    -0.0003876   -0.0000983     0.6569792   -0.4267131 
   0.011152776     0.8717186   -0.3393601     0.0011219   -0.0004614    -0.0000748    0.0000485     0.6522762   -0.4267801 
   0.011252801     0.8518625   -0.3328671     0.0011572    0.0002387     0.0000754   -0.0002133     0.6463763   -0.4261921 
   0.011352826     0.8640159   -0.3467892    -0.0006458    0.0013785     0.0001652   -0.0001367     0.6456552   -0.4277580 
   0.011452851     0.8492473   -0.3270131     0.0004715    0.0003030    -0.0000187    0.0000325     0.6390812   -0.4308634 
   0.011552876     0.8557931   -0.3455504     0.0006258   -0.0005598    -0.0000116   -0.0001648     0.6362023   -0.4307733 
   0.011652901     0.8563144   -0.3439971     0.0000221    0.0001053     0.0001859    0.0004308     0.6312246   -0.4306625 
   0.011752926     0.8341235   -0.3311507     0.0011369    0.0001683     0.0000612    0.0000990     0.6271480   -0.4306033 
   0.011852951     0.8548211   -0.3488868     0.0000622    0.0015267     0.0002871   -0.0000267     0.6295459   -0.4310653 
   0.011952976     0.8546319   -0.3345380    -0.0000906    0.0004421    -0.0000961    0.0002035     0.6230660   -0.4309247 
   0.012053002     0.8456291   -0.3553908    -0.0013971    0.0007583    -0.0004173   -0.0003215     0.6163990   -0.4311973 
   0.012153027     0.8344586   -0.3564019     0.0001541    0.0008722     0.0000940    0.0000958     0.6174207   -0.4320031 
   0.012253052     0.8228314   -0.3502907     0.0002514    0.0000441     0.0000860   -0.0001843     0.6125559   -0.4325223 
   0.012353077     0.8421819   -0.3456641     0.0004614   -0.0004921    -0.0000254   -0.0001969     0.6087383   -0.4342627 
   0.012453102     0.8366877   -0.3482611    -0.0000180    0.0003701    -0.0002533   -0.0000896     0.6036815   -0.4354018 
   0.012553127     0.8338983   -0.3812562    -0.0003015    0.0002618    -0.0001153   -0.0000164     0.5980033   -0.4344271 
   0.012653152     0.8412394   -0.3379375     0.0007910   -0.0003540     0.0000445   -0.0000381     0.5969701   -0.4347973 
   0.012753177     0.8143313   -0.3574522     0.0002915   -0.0008336     0.0000144   -0.0002677     0.5943827   -0.4312748 
   0.012853202     0.8344054   -0.3388740     0.0003426   -0.0001409     0.0002141   -0.0002779     0.5873638   -0.4338000 
   0.012953227     0.8306664   -0.3492426    -0.0000776   -0.0013496     0.0000073    0.0000608     0.5902870   -0.4351953 
   0.013053252     0.8170834   -0.3739606     0.0003361    0.0000584    -0.0000911   -0.0000321     0.5855135   -0.4331726 
   0.013153277     0.8235576   -0.3539748    -0.0005249    0.0004657    -0.0000785    0.0003345     0.5806192   -0.4366261 
   0.013253302     0.8246697   -0.3589025    -0.0001489   -0.0002224    -0.0002690   -0.0001654     0.5792827   -0.4325229 
   0.013353327     0.8166623   -0.3583230    -0.0000699    0.0010575     0.0000206    0.0000451     0.5758922   -0.4351143 
   0.013453352     0.8233178   -0.3527344    -0.0005068    0.0004111     0.0000371   -0.0004588     0.5721256   -0.4347766 
   0.013553377     0.8017743   -0.3626925    -0.0007429    0.0003301     0.0003957    0.0000748     0.5665990   -0.4341080 
   0.013653402     0.8051305   -0.3722183    -0.0000322    0.0010255    -0.0000327    0.0001377     0.5661780   -0.4350038 
   0.013753427     0.8196229   -0.3722154    -0.0003281    0.0001467    -0.0001294   -0.0001931     0.5600950   -0.4336144 
   0.013853452     0.8082619   -0.3780490     0.0009914   -0.0007406    -0.0002293   -0.0001389     0.5604479   -0.4313907 
   0.013953477     0.8056190   -0.3662717     0.0004643    0.0015502    -0.0003333   -0.0000329     0.5568814   -0.4350728 
   0.014053502     0.8097320   -0.3773494    -0.0007636    0.0000691    -0.0001296   -0.0000205     0.5517827   -0.4341126 
   0.014153527     0.8099890   -0.3742509    -0.0004924    0.0003794    -0.0002755    0.0000089     0.5508172   -0.4340595 
   0.014253552     0.8140398   -0.3823695     0.0008094    0.0006717     0.0001949   -0.0003044     0.5469843   -0.4352582 
   0.014353577     0.7925706   -0.3754705    -0.0013526    0.0007148    -0.0000880    0.0000271     0.5411303   -0.4341828 
   0.014453602     0.7922894   -0.3814076     0.0004699   -0.0000366    -0.0001409    0.0002438     0.5411705   -0.4331712 
   0.014553627     0.7976225   -0.3865175    -0.0005171   -0.0002022    -0.0001162   -0.0002497     0.5389523   -0.4333898 
   0.014653652     0.7983487   -0.3939221     0.0004695    0.0001145    -0.0000643    0.0000136     0.5352986   -0.4344749 
   0.014753677     0.7865737   -0.3853176    -0.0008620   -0.0003843    -0.0000891    0.0000196     0.5314333   -0.4320928 
   0.014853702     0.7899309   -0.3769999    -0.0007683   -0.0003915    -0.0003461    0.0001597     0.5285418   -0.4327942 
   0.014953727     0.7889234   -0.3976648    -0.0001706    0.0004961     0.0001289    0.0003250     0.5263945   -0.4330881 
   0.015053752     0.7832946   -0.3985602    -0.0007269    0.0005555     0.0001138   -0.0003125     0.5213115   -0.4323846 
   0.015153777     0.7842160   -0.3926309    -0.0008726    0.0000925    -0.0003328    0.0001488     0.5206567   -0.4328841 
   0.015253802     0.7779423   -0.3931010    -0.0000972   -0.0006443     0.0000398   -0.0001691     0.5184333   -0.4307815 
   0.015353827     0.7690856   -0.3929711    -0.0001713    0.0000271    -0.0001075   -0.0000274     0.5149496   -0.4313433 
   0.015453852     0.7798371   -0.3928154    -0.0006998    0.0000603     0.0001598   -0.0000993     0.5111347   -0.4327841 
   0.015553877     0.7768605   -0.4045018    -0.0003709    0.0002733     0.0001774   -0.0000263     0.5098668   -0.4314623 
   0.015653902     0.7715905   -0.4119810     0.0001215   -0.0000146     0.0000195   -0.0001145     0.5071281   -0.4314229 
