! 26-Feb-26 11:52:08 AM
! E:\VNA_MEASUREMENTS\SP8T\SP8T_P4_RF3.S2P
! CHANNEL.1
! TR.MEASUREMENT
! CORRECTED.DATA
# GHZ S RI R 50.0
! FREQ.GHZ         S11RE         S11IM         S21RE         S21IM         S12RE         S12IM         S22RE         S22IM         
!; PortSelection: Port_12
   0.000050000     0.1434561    0.2572564    -0.1780465   -0.1164302    -0.0078068   -0.0080209     0.9946623    0.0185583 
   0.000150025    -0.1206861   -0.1979959    -0.8558437    2.4292140     0.0003135    0.0009634     0.9978924    0.0029471 
   0.000250050    -0.1037655   -0.4253246     0.0041874   -0.0035003     0.0000301    0.0003743     1.0009070   -0.0224146 
   0.000350075     0.9835840   -0.0401102     0.0040086   -0.0076762    -0.0005018   -0.0004630     0.9930229   -0.0326935 
   0.000450100     1.0088200   -0.0748580    -0.0004918   -0.0093881     0.0008818    0.0002355     0.9959109   -0.0109079 
   0.000550125     1.0278280   -0.0268458    -0.0096312   -0.0112083    -0.0008640   -0.0007155     0.9963791   -0.0266322 
   0.000650150     0.9555219   -0.0562258    -0.0064677   -0.0051038     0.0006104   -0.0008640     1.0037540   -0.0480274 
   0.000750175     1.0053270   -0.0476231    -0.0100690   -0.0092841    -0.0001522   -0.0004994     0.9869853   -0.0490860 
   0.000850200     1.0074380   -0.0224610    -0.0059421   -0.0087467    -0.0002242    0.0004635     0.9948804   -0.0450770 
   0.000950225     0.9904732   -0.0631269    -0.0079229   -0.0074030     0.0007697   -0.0009701     0.9950146   -0.0601472 
   0.001050250     0.9699125   -0.0159104    -0.0079327   -0.0060010     0.0001277   -0.0006204     0.9975978   -0.0541653 
   0.001150275     1.0243110   -0.0372362    -0.0103171   -0.0065314    -0.0008403   -0.0008553     0.9877453   -0.0668187 
   0.001250300     0.9890770    0.0172529    -0.0109915   -0.0058025     0.0002657    0.0002577     0.9999986   -0.0841315 
   0.001350325     1.0561110   -0.0711569    -0.0136117    0.0000881    -0.0000107    0.0004761     0.9867356   -0.0903712 
   0.001450350     0.9783328   -0.0307006    -0.0093337    0.0004732    -0.0009682    0.0003150     0.9846779   -0.0890844 
   0.001550375     0.9834194   -0.0439770    -0.0108841   -0.0025132    -0.0005753    0.0000596     0.9898933   -0.0939658 
   0.001650400     1.0230220   -0.0255882    -0.0076074   -0.0012905     0.0005420   -0.0002652     0.9813872   -0.1006660 
   0.001750425     0.9569445   -0.0559332    -0.0073813   -0.0021817     0.0001869    0.0001530     0.9809263   -0.1094287 
   0.001850450     0.9412761   -0.0140014    -0.0088245   -0.0006878    -0.0013811   -0.0007219     0.9867226   -0.1089235 
   0.001950475     1.0211470    0.0136141    -0.0084853   -0.0009352     0.0014821    0.0000481     0.9828784   -0.1173431 
   0.002050500     0.9672874   -0.0361887    -0.0056772    0.0017615     0.0009538   -0.0011666     0.9840799   -0.1238884 
   0.002150525     0.9739888   -0.0271190    -0.0063390   -0.0011049     0.0002808   -0.0002291     0.9734282   -0.1327721 
   0.002250550     0.9824603   -0.0001799    -0.0061175    0.0035602    -0.0004840    0.0006800     0.9785615   -0.1357299 
   0.002350575     0.9725554   -0.0313611    -0.0042024    0.0031641     0.0006309   -0.0001087     0.9739229   -0.1425154 
   0.002450600     0.9730622   -0.0243708    -0.0030463    0.0031022    -0.0001367   -0.0005207     0.9757468   -0.1525560 
   0.002550625     1.0000540   -0.0196631    -0.0031058    0.0040861    -0.0001523   -0.0008276     0.9767645   -0.1588135 
   0.002650650     0.9994544    0.0382525    -0.0055401    0.0020606     0.0005583   -0.0005726     0.9718170   -0.1670779 
   0.002750675     0.9589283    0.0263542    -0.0058140    0.0060704    -0.0001805    0.0000006     0.9691705   -0.1700670 
   0.002850700     0.9977556   -0.0394774    -0.0024245    0.0035160     0.0001689   -0.0003759     0.9573364   -0.1757880 
   0.002950725     0.9494979   -0.0062334    -0.0034899    0.0030011    -0.0002412   -0.0003496     0.9691912   -0.1768106 
   0.003050750     0.9645964   -0.0093908    -0.0021053    0.0025733     0.0000028    0.0001338     0.9640502   -0.1828057 
   0.003150775     0.9043641   -0.0466758    -0.0034181    0.0027616    -0.0001088    0.0002857     0.9485654   -0.1897196 
   0.003250800     0.9693909   -0.0262685    -0.0023830    0.0014339    -0.0002765   -0.0000592     0.9546163   -0.1943740 
   0.003350825     1.0000510   -0.0018503    -0.0041685    0.0026439    -0.0005129    0.0004750     0.9546838   -0.2003430 
   0.003450850     0.9569044   -0.0449795    -0.0001937    0.0037963    -0.0000653   -0.0002159     0.9496003   -0.2063548 
   0.003550875     0.9647884   -0.0248077    -0.0010359    0.0018263    -0.0004508   -0.0002612     0.9484236   -0.2146511 
   0.003650900     0.9659594    0.0035437    -0.0041079    0.0025029    -0.0001538   -0.0005849     0.9429829   -0.2178560 
   0.003750925     0.9569950   -0.0268949    -0.0030127    0.0015558     0.0000579    0.0003089     0.9325943   -0.2258687 
   0.003850950     0.9596176   -0.0397372    -0.0010373    0.0012738    -0.0002115    0.0000846     0.9379737   -0.2258335 
   0.003950975     0.9835277   -0.0148542    -0.0004984    0.0004583     0.0002463   -0.0006326     0.9294506   -0.2311084 
   0.004051001     0.9602351   -0.0799133    -0.0009022    0.0017502    -0.0001745   -0.0003354     0.9245198   -0.2309869 
   0.004151026     0.9751334   -0.0359598    -0.0020621    0.0022645    -0.0000913   -0.0000079     0.9256660   -0.2450785 
   0.004251051     0.9712715   -0.0034487    -0.0012360    0.0010269    -0.0001516    0.0003143     0.9205753   -0.2446922 
   0.004351076     0.9682447   -0.0222250    -0.0001918    0.0021760     0.0002443    0.0001139     0.9191653   -0.2518362 
   0.004451101     1.0000200   -0.0481143    -0.0011351    0.0004104    -0.0001784    0.0004319     0.9149770   -0.2494415 
   0.004551126     0.9858153   -0.0190929    -0.0005295    0.0019098     0.0000449    0.0000020     0.9197029   -0.2592183 
   0.004651151     0.9564441   -0.0240390     0.0077374   -0.0090417     0.0003969   -0.0002582     0.9147828   -0.2635322 
   0.004751176     0.9727958   -0.0524894    -0.0004251    0.0009648     0.0000101    0.0002841     0.9077929   -0.2705689 
   0.004851201     0.9295842   -0.0156054     0.0007352    0.0011888    -0.0001056   -0.0000518     0.9052389   -0.2721849 
   0.004951226     0.9550976    0.0015116    -0.0023104   -0.0005913    -0.0001440   -0.0004356     0.9022007   -0.2778472 
   0.005051251     0.9764165   -0.0224265     0.0008865   -0.0004857    -0.0000013   -0.0000204     0.9023824   -0.2743054 
   0.005151276     0.9443719   -0.0220767    -0.0017877    0.0028579    -0.0001607    0.0000875     0.8934924   -0.2837648 
   0.005251301     0.9656136   -0.0293072     0.0030277    0.0005604     0.0000816   -0.0003756     0.8907036   -0.2879961 
   0.005351326     0.9209562   -0.0072739     0.0002860   -0.0009834    -0.0003654    0.0000291     0.8862551   -0.2896613 
   0.005451351     0.9768363   -0.0140392     0.0004146   -0.0018654     0.0000489   -0.0002605     0.8787786   -0.3024424 
   0.005551376     0.9693338   -0.0519212    -0.0021664    0.0007466    -0.0000017    0.0003854     0.8775057   -0.2998352 
   0.005651401     0.9512408   -0.0293837     0.0029734   -0.0004330    -0.0004138    0.0004127     0.8767214   -0.3115097 
   0.005751426     0.9479249   -0.0364864    -0.0010443   -0.0016009    -0.0002743    0.0001847     0.8722873   -0.3070669 
   0.005851451     0.9822820   -0.0615534     0.0019061   -0.0012580     0.0001693    0.0002356     0.8687822   -0.3136201 
   0.005951476     0.9713744   -0.0208010     0.0010430   -0.0005509     0.0000807    0.0001977     0.8632950   -0.3144188 
   0.006051501     0.9573784   -0.0497855    -0.0006042    0.0001344     0.0002561    0.0000900     0.8612829   -0.3217654 
   0.006151526     0.9612891   -0.0472272    -0.0013714   -0.0018009    -0.0000261    0.0004338     0.8537713   -0.3250203 
   0.006251551     0.9486600   -0.0196856     0.0014323   -0.0004022     0.0003434    0.0001626     0.8515891   -0.3279853 
   0.006351576     0.9666869   -0.0448478    -0.0016213   -0.0000987    -0.0005284   -0.0004998     0.8427154   -0.3309728 
   0.006451601     0.9569473   -0.0263235    -0.0020148    0.0005876     0.0004728    0.0004334     0.8423560   -0.3358689 
   0.006551626     0.9622753   -0.0398078     0.0018069    0.0000614    -0.0000868    0.0001738     0.8389178   -0.3393686 
   0.006651651     0.9546931   -0.0181170     0.0001677    0.0007909     0.0002854    0.0003119     0.8326710   -0.3411003 
   0.006751676     0.9423575   -0.0347872    -0.0004074    0.0010626     0.0001255   -0.0001685     0.8356369   -0.3437116 
   0.006851701     0.9769464   -0.0562441     0.0010062   -0.0001515     0.0000360    0.0004428     0.8272005   -0.3477677 
   0.006951726     0.9426520   -0.0484691     0.0015426   -0.0005442     0.0002103    0.0001273     0.8216069   -0.3458883 
   0.007051751     0.9570057   -0.0274241     0.0016914    0.0005544    -0.0000773    0.0003328     0.8160135   -0.3506871 
   0.007151776     0.9323154   -0.0346297     0.0004229    0.0001300    -0.0001012   -0.0002607     0.8098632   -0.3543791 
   0.007251801     0.9824937   -0.0115813    -0.0011242   -0.0001260    -0.0001568    0.0004754     0.8087241   -0.3599522 
   0.007351826     0.9667817   -0.0297899     0.0004296    0.0002278    -0.0003560    0.0000569     0.8047620   -0.3633925 
   0.007451851     0.9504798   -0.0284725    -0.0002256    0.0014914    -0.0004315    0.0000995     0.7995651   -0.3618395 
   0.007551876     0.9488406   -0.0558775    -0.0000829   -0.0006725    -0.0000856   -0.0002579     0.8009731   -0.3685147 
   0.007651901     0.9741583   -0.0596295     0.0002870    0.0013306    -0.0000582   -0.0000311     0.7926285   -0.3697412 
   0.007751926     0.9632932   -0.0378949    -0.0018475   -0.0006419    -0.0000785    0.0003209     0.7900648   -0.3730020 
   0.007851951     0.9681498   -0.0491056     0.0011051   -0.0001354     0.0000330    0.0001193     0.7849582   -0.3726609 
   0.007951976     0.9728218   -0.0531231     0.0008458    0.0006024    -0.0000999    0.0003185     0.7784519   -0.3769337 
   0.008052001     0.9521857   -0.0376244     0.0002820    0.0014591    -0.0006338    0.0003803     0.7780644   -0.3789471 
   0.008152026     0.9500488   -0.0499311    -0.0007611    0.0000548    -0.0001494    0.0001852     0.7725682   -0.3824398 
   0.008252051     0.9335400   -0.0406122    -0.0001997    0.0002984     0.0001708    0.0003489     0.7653515   -0.3825211 
   0.008352076     0.9591262   -0.0351334     0.0000808    0.0011660     0.0005273    0.0002959     0.7635144   -0.3867731 
   0.008452101     0.9357954   -0.0559975    -0.0022577    0.0004053     0.0000424   -0.0000703     0.7610266   -0.3873139 
   0.008552126     0.9673682   -0.0390741    -0.0008833    0.0008881    -0.0005199    0.0000234     0.7577518   -0.3890644 
   0.008652151     0.9626550   -0.0175686    -0.0003478    0.0002029    -0.0001319   -0.0002085     0.7507018   -0.3917163 
   0.008752176     0.9566445   -0.0232888     0.0008554    0.0003767    -0.0003687    0.0002515     0.7499649   -0.3954386 
   0.008852201     0.9391680   -0.0334378     0.0009402   -0.0001036    -0.0001187    0.0000216     0.7456877   -0.3948212 
   0.008952226     0.9646145   -0.0360781    -0.0004238    0.0004758    -0.0002373   -0.0003007     0.7414313   -0.3985813 
   0.009052251     0.9540660   -0.0237414    -0.0002978    0.0020072     0.0005856   -0.0000434     0.7376031   -0.4025666 
   0.009152276     0.9609988   -0.0325274    -0.0014293   -0.0005497     0.0002088   -0.0001381     0.7281645   -0.4036523 
   0.009252301     0.9510702   -0.0356640     0.0004543   -0.0003523    -0.0000484    0.0001325     0.7291310   -0.4051782 
   0.009352326     0.9538139   -0.0422532    -0.0003842    0.0008469     0.0000058    0.0004296     0.7215704   -0.4049715 
   0.009452351     0.9666539   -0.0252228    -0.0005088    0.0005706     0.0002096    0.0000900     0.7177539   -0.4045059 
   0.009552376     0.9727095   -0.0432699     0.0003979    0.0000786    -0.0000454    0.0001700     0.7146872   -0.4070608 
   0.009652401     0.9416510   -0.0314064    -0.0001760    0.0000243     0.0001800    0.0000501     0.7101964   -0.4074551 
   0.009752426     0.9610765   -0.0398447    -0.0010691   -0.0000798     0.0000603    0.0000836     0.7087045   -0.4076306 
   0.009852451     0.9521598   -0.0512019     0.0002434    0.0002320    -0.0000243    0.0000273     0.7017853   -0.4120788 
   0.009952476     0.9633541   -0.0594941     0.0000795   -0.0004874     0.0000516    0.0001219     0.6995691   -0.4088433 
   0.010052501     0.9560388   -0.0409804    -0.0012855    0.0005232     0.0002417    0.0000839     0.6954808   -0.4101607 
   0.010152526     0.9507816   -0.0374162     0.0011337   -0.0008320     0.0001095    0.0003606     0.6920112   -0.4109228 
   0.010252551     0.9583408   -0.0524127     0.0000372   -0.0006271     0.0000475    0.0000972     0.6895518   -0.4163776 
   0.010352576     0.9775160   -0.0464162    -0.0010761    0.0002969    -0.0000584    0.0000432     0.6813228   -0.4183888 
   0.010452601     0.9571102   -0.0289640    -0.0001995    0.0010114    -0.0001760    0.0000588     0.6791934   -0.4184445 
   0.010552626     0.9481491   -0.0397673    -0.0000368    0.0006995    -0.0005202    0.0005332     0.6750214   -0.4196746 
   0.010652651     0.9617892   -0.0293233     0.0012727   -0.0001038    -0.0001894   -0.0000566     0.6696854   -0.4221120 
   0.010752676     0.9674276   -0.0465734    -0.0008723    0.0010855    -0.0005073    0.0000311     0.6656526   -0.4204971 
   0.010852701     0.9421452   -0.0252014     0.0007346    0.0005674    -0.0001836   -0.0000987     0.6681695   -0.4221919 
   0.010952726     0.9542050   -0.0354967    -0.0001261    0.0002326    -0.0002926    0.0001475     0.6605702   -0.4214629 
   0.011052751     0.9674672   -0.0459700    -0.0016798    0.0001012    -0.0001623    0.0000030     0.6549758   -0.4243888 
   0.011152776     0.9632300   -0.0416282     0.0010602   -0.0000512    -0.0000512    0.0003525     0.6535573   -0.4251310 
   0.011252801     0.9712065   -0.0546828     0.0000546    0.0009030    -0.0000557    0.0001513     0.6493162   -0.4262025 
   0.011352826     0.9769443   -0.0641736    -0.0009767   -0.0003345     0.0001292    0.0002082     0.6471517   -0.4246188 
   0.011452851     0.9600243   -0.0595988    -0.0003850    0.0002535    -0.0002087    0.0000820     0.6414527   -0.4280556 
   0.011552876     0.9524304   -0.0588154     0.0004903   -0.0006346    -0.0001299   -0.0001686     0.6376747   -0.4293571 
   0.011652901     0.9630618   -0.0637479    -0.0003683   -0.0001511     0.0001012   -0.0001151     0.6348289   -0.4268942 
   0.011752926     0.9466684   -0.0516423     0.0016261   -0.0008962    -0.0000127   -0.0002243     0.6318049   -0.4274172 
   0.011852951     0.9680858   -0.0701511     0.0007054   -0.0006969    -0.0000549    0.0002119     0.6285451   -0.4297634 
   0.011952976     0.9622895   -0.0430965     0.0008932    0.0003489    -0.0003549    0.0004956     0.6239021   -0.4283885 
   0.012053002     0.9528857   -0.0672095    -0.0004504   -0.0008257    -0.0000870    0.0000537     0.6204649   -0.4293485 
   0.012153027     0.9581359   -0.0610825     0.0002906    0.0010572    -0.0000653    0.0001077     0.6157195   -0.4325165 
   0.012253052     0.9720554   -0.0448101    -0.0004678    0.0001368    -0.0000595    0.0001935     0.6155055   -0.4319666 
   0.012353077     0.9591907   -0.0474011    -0.0006922   -0.0004072    -0.0000200    0.0000830     0.6125629   -0.4299690 
   0.012453102     0.9744574   -0.0421623    -0.0009673    0.0002160    -0.0001857    0.0002635     0.6053141   -0.4336558 
   0.012553127     0.9583545   -0.0690023    -0.0008790    0.0012844    -0.0004012    0.0001803     0.5994878   -0.4290419 
   0.012653152     0.9570431   -0.0372159     0.0006527    0.0011888    -0.0000083    0.0003607     0.5972122   -0.4320687 
   0.012753177     0.9620493   -0.0484957    -0.0001456    0.0000620     0.0002294    0.0000944     0.5962603   -0.4304653 
   0.012853202     0.9423991   -0.0267759    -0.0004601   -0.0002315    -0.0002219   -0.0001916     0.5909330   -0.4312964 
   0.012953227     0.9552951   -0.0532762    -0.0003429   -0.0000798    -0.0003064    0.0004920     0.5902402   -0.4327553 
   0.013053252     0.9460738   -0.0753701     0.0003863    0.0008948     0.0000118    0.0003108     0.5897121   -0.4333635 
   0.013153277     0.9594116   -0.0491933     0.0003144    0.0004863    -0.0000976    0.0000001     0.5826078   -0.4332630 
   0.013253302     0.9552223   -0.0595049     0.0001916   -0.0003692    -0.0002008    0.0002038     0.5830967   -0.4324661 
   0.013353327     0.9498308   -0.0517275     0.0003592    0.0002871     0.0000171    0.0002639     0.5761698   -0.4322512 
   0.013453352     0.9522486   -0.0459882     0.0004218   -0.0010407     0.0000679    0.0001995     0.5736991   -0.4332136 
   0.013553377     0.9494811   -0.0525676     0.0000035    0.0008012     0.0001378    0.0004193     0.5683650   -0.4317311 
   0.013653402     0.9564524   -0.0522300    -0.0004711    0.0005184    -0.0005066    0.0003261     0.5668851   -0.4326344 
   0.013753427     0.9699649   -0.0519335    -0.0006949    0.0007508    -0.0000320    0.0000990     0.5618403   -0.4330328 
   0.013853452     0.9806206   -0.0722284    -0.0013435    0.0005872    -0.0001304   -0.0000396     0.5599537   -0.4332459 
   0.013953477     0.9327179   -0.0551928    -0.0003485    0.0009276    -0.0001762    0.0000977     0.5585514   -0.4322629 
   0.014053502     0.9610139   -0.0703930    -0.0003512    0.0002746    -0.0002538   -0.0000002     0.5548662   -0.4327949 
   0.014153527     0.9591997   -0.0570312    -0.0009643    0.0007893    -0.0004358    0.0002959     0.5521144   -0.4320596 
   0.014253552     0.9560643   -0.0569844    -0.0007960   -0.0000238    -0.0000572    0.0002391     0.5502111   -0.4323734 
   0.014353577     0.9489501   -0.0520374     0.0005902    0.0012073    -0.0002785    0.0000018     0.5441067   -0.4318653 
   0.014453602     0.9458771   -0.0814025    -0.0003271    0.0001363    -0.0005189    0.0002741     0.5460121   -0.4283926 
   0.014553627     0.9473162   -0.0622207    -0.0005773   -0.0006466    -0.0001462    0.0003867     0.5422403   -0.4331772 
   0.014653652     0.9648437   -0.0599423    -0.0001582   -0.0002571    -0.0002374    0.0001801     0.5363415   -0.4311046 
   0.014753677     0.9499697   -0.0710133    -0.0005373    0.0011233     0.0001198    0.0000028     0.5346510   -0.4291428 
   0.014853702     0.9603109   -0.0467720    -0.0004116    0.0002299    -0.0002325    0.0001598     0.5310684   -0.4284953 
   0.014953727     0.9489160   -0.0746629    -0.0005141    0.0007651     0.0001558    0.0004819     0.5279484   -0.4286884 
   0.015053752     0.9548649   -0.0594999    -0.0000969   -0.0000717    -0.0000895    0.0001815     0.5265359   -0.4311640 
   0.015153777     0.9573762   -0.0717036    -0.0002086   -0.0001630    -0.0004275    0.0003913     0.5254270   -0.4312340 
   0.015253802     0.9557968   -0.0680383    -0.0000499   -0.0014363    -0.0000588    0.0004344     0.5197397   -0.4308958 
   0.015353827     0.9543951   -0.0708072     0.0006350   -0.0000680     0.0000042    0.0002342     0.5157766   -0.4306926 
   0.015453852     0.9645738   -0.0682514     0.0001399    0.0009760    -0.0002241    0.0002350     0.5132319   -0.4297596 
   0.015553877     0.9518704   -0.0746941     0.0003395    0.0001188    -0.0001083    0.0004144     0.5120391   -0.4271390 
   0.015653902     0.9550150   -0.0567279    -0.0003681    0.0003501    -0.0001768    0.0004699     0.5105815   -0.4316126 
