! 26-Feb-26 12:17:35 PM
! E:\VNA_MEASUREMENTS\SP8T\SP8T_P5_RF2.S2P
! CHANNEL.1
! TR.MEASUREMENT
! CORRECTED.DATA
# GHZ S RI R 50.0
! FREQ.GHZ         S11RE         S11IM         S21RE         S21IM         S12RE         S12IM         S22RE         S22IM         
!; PortSelection: Port_12
   0.000050000     0.1948430    0.2444888    -0.6820895   -0.3572065     0.0011706   -0.0069025     0.9622169    0.0031007 
   0.000150025     0.0147516    0.2360453    -0.2723016    0.0946889    -0.0003150   -0.0009566     1.0038340   -0.0041051 
   0.000250050    -0.8449370    1.0347550     0.0044810    0.0030837     0.0004641    0.0006314     1.0020610   -0.0140828 
   0.000350075     0.9755730   -0.0286808     0.0022540   -0.0123221    -0.0001334   -0.0017100     0.9929634   -0.0384169 
   0.000450100     0.9913566   -0.0509184    -0.0076283   -0.0109917     0.0001199   -0.0013591     1.0024800   -0.0210116 
   0.000550125     0.9908817   -0.0268521    -0.0017337   -0.0033991    -0.0009520    0.0001138     0.9908767   -0.0324849 
   0.000650150     0.9500452    0.0047857    -0.0066553   -0.0131013    -0.0006236    0.0005942     1.0037560   -0.0445875 
   0.000750175     0.9394149   -0.0449291    -0.0051207   -0.0082560    -0.0005040    0.0006527     0.9997547   -0.0510982 
   0.000850200     1.0160770   -0.0789402    -0.0031327   -0.0120127     0.0003493    0.0003055     1.0014010   -0.0570440 
   0.000950225     1.1463110   -0.0476100    -0.0062808   -0.0068521    -0.0001084    0.0011118     0.9923494   -0.0719946 
   0.001050250     0.9803174   -0.0712885    -0.0113285   -0.0036596     0.0005940   -0.0009132     0.9927245   -0.0695703 
   0.001150275     1.0211500   -0.0559115    -0.0107596   -0.0041417    -0.0004515   -0.0000066     0.9869004   -0.0739062 
   0.001250300     0.9713173   -0.0137596    -0.0086485   -0.0040367     0.0002160    0.0002665     0.9994678   -0.0857575 
   0.001350325     0.9969451   -0.0730463    -0.0076029   -0.0045226    -0.0011452   -0.0003792     0.9887016   -0.0911424 
   0.001450350     1.0266910   -0.0807463    -0.0091951   -0.0004516    -0.0009758    0.0001613     0.9875465   -0.0868558 
   0.001550375     0.9815089   -0.0561148    -0.0093971    0.0013171    -0.0007779   -0.0006551     0.9888623   -0.1022524 
   0.001650400     1.0203740   -0.0588297    -0.0085718    0.0006462    -0.0004582   -0.0004706     0.9795536   -0.1001203 
   0.001750425     0.9897280   -0.0753514    -0.0060669   -0.0002898     0.0001697   -0.0006448     0.9802617   -0.1094588 
   0.001850450     0.9505400   -0.0658157    -0.0074557    0.0033142    -0.0006944   -0.0007858     0.9859270   -0.1137620 
   0.001950475     0.9784752   -0.0202895    -0.0050069    0.0015736    -0.0000772   -0.0002427     0.9815683   -0.1225486 
   0.002050500     0.9614692   -0.0692248    -0.0039252    0.0017501     0.0002824    0.0002915     0.9879813   -0.1391945 
   0.002150525     0.9938202   -0.0603364    -0.0081014   -0.0008797     0.0004342   -0.0004286     0.9771833   -0.1439906 
   0.002250550     0.9617586   -0.0539931    -0.0072385    0.0039295    -0.0002050    0.0002530     0.9751199   -0.1336256 
   0.002350575     0.9637282   -0.1168412    -0.0042041    0.0015616     0.0006516    0.0002236     0.9735590   -0.1450810 
   0.002450600     1.0166530   -0.0785622    -0.0045138    0.0018225     0.0007529    0.0001605     0.9779696   -0.1556999 
   0.002550625     0.9862086   -0.1205156    -0.0040621    0.0038438     0.0011284   -0.0005980     0.9751804   -0.1656180 
   0.002650650     1.0275210   -0.0703098    -0.0055577    0.0020583    -0.0001903   -0.0003455     0.9680696   -0.1696374 
   0.002750675     1.0199390   -0.0585887    -0.0036317    0.0047290    -0.0002738    0.0000818     0.9612152   -0.1729065 
   0.002850700     1.0199620   -0.1092775    -0.0038970    0.0032129    -0.0003181   -0.0002351     0.9581850   -0.1787056 
   0.002950725     0.9914659   -0.0863560    -0.0028521    0.0025602     0.0006048    0.0000037     0.9590209   -0.1841512 
   0.003050750     0.9855978   -0.0734693    -0.0016440    0.0039643     0.0003335    0.0000232     0.9608625   -0.1930787 
   0.003150775     0.9907072   -0.1292485    -0.0039295    0.0009380     0.0001376   -0.0003507     0.9450900   -0.1991483 
   0.003250800     0.9866484   -0.1106464    -0.0005523    0.0009841    -0.0001239    0.0000417     0.9483674   -0.1967671 
   0.003350825     0.9583237   -0.1228666    -0.0023873    0.0021901    -0.0009008   -0.0002059     0.9448647   -0.2028298 
   0.003450850     0.9287937   -0.1228597    -0.0035835    0.0019677     0.0007192   -0.0002990     0.9502273   -0.2112026 
   0.003550875     0.9443953   -0.1352593     0.0014037    0.0021728     0.0003684   -0.0001374     0.9453337   -0.2158707 
   0.003650900     0.9672058   -0.1144157    -0.0017525    0.0022088     0.0001991   -0.0000196     0.9406694   -0.2234441 
   0.003750925     0.9819799   -0.1310198     0.0006666    0.0033810    -0.0003058    0.0001535     0.9286708   -0.2272555 
   0.003850950     0.9889502   -0.1225557    -0.0030581    0.0005217     0.0006873   -0.0009417     0.9354153   -0.2339796 
   0.003950975     1.0089830   -0.1286001    -0.0010401   -0.0004873    -0.0000268   -0.0001306     0.9303554   -0.2336416 
   0.004051001     0.9522064   -0.1488356     0.0003307    0.0022681     0.0003120   -0.0002694     0.9250425   -0.2416456 
   0.004151026     0.9717428   -0.1279868     0.0014232    0.0032028     0.0000673   -0.0000340     0.9203072   -0.2513655 
   0.004251051     0.9882748   -0.1242622     0.0014149    0.0015639     0.0000326   -0.0010993     0.9165956   -0.2548946 
   0.004351076     0.9433421   -0.1348300     0.0012283    0.0010942     0.0002646    0.0003453     0.9128738   -0.2607163 
   0.004451101     0.9887549   -0.1856409     0.0002148    0.0018175    -0.0000958    0.0007736     0.9122691   -0.2583277 
   0.004551126     0.9916765   -0.1542312    -0.0004180    0.0012204     0.0005913   -0.0004908     0.9113951   -0.2596645 
   0.004651151     0.9603981   -0.1568519     0.0000663   -0.0004981    -0.0000360    0.0006258     0.9038250   -0.2716807 
   0.004751176     0.9721512   -0.1780612    -0.0017011    0.0018964    -0.0000466   -0.0000386     0.9026639   -0.2803153 
   0.004851201     0.9551259   -0.1531258     0.0019959    0.0006851     0.0000790    0.0002473     0.8953907   -0.2798197 
   0.004951226     0.9494259   -0.1560411    -0.0005477    0.0005639    -0.0000292   -0.0000371     0.8922932   -0.2825361 
   0.005051251     0.9973702   -0.1654196    -0.0017907    0.0014764    -0.0000501    0.0001379     0.8893554   -0.2847329 
   0.005151276     0.9497892   -0.1784468     0.0000419    0.0007556     0.0000327    0.0007940     0.8870323   -0.2893057 
   0.005251301     0.9695100   -0.1620533    -0.0015744    0.0016053     0.0002368   -0.0000538     0.8810927   -0.2981981 
   0.005351326     0.9418200   -0.1456239     0.0003622    0.0017245     0.0003180   -0.0002265     0.8793970   -0.3034927 
   0.005451351     0.9702981   -0.1683234     0.0000264   -0.0002515     0.0004471    0.0001274     0.8715705   -0.3061219 
   0.005551376     0.9909864   -0.1759370    -0.0008489    0.0008804     0.0005407    0.0001043     0.8681548   -0.3109721 
   0.005651401     0.9590266   -0.1949584     0.0001210    0.0012889    -0.0003564    0.0004831     0.8660212   -0.3225327 
   0.005751426     0.9300767   -0.1754330    -0.0000264   -0.0010433     0.0005468   -0.0007040     0.8590084   -0.3165037 
   0.005851451     0.9402159   -0.2092303    -0.0002308   -0.0010913     0.0001595   -0.0003591     0.8585277   -0.3208664 
   0.005951476     0.9413074   -0.1765990     0.0000989   -0.0001394     0.0000319   -0.0000709     0.8520092   -0.3222699 
   0.006051501     0.9575562   -0.1929368    -0.0004905   -0.0011091    -0.0005105   -0.0002865     0.8514572   -0.3279048 
   0.006151526     0.9392399   -0.2021448    -0.0001240    0.0011008    -0.0003003   -0.0003392     0.8404547   -0.3362982 
   0.006251551     0.9446998   -0.1845117     0.0005089    0.0011137     0.0003514    0.0002654     0.8406679   -0.3390670 
   0.006351576     0.9259399   -0.2139525     0.0005095   -0.0007042     0.0001155   -0.0004420     0.8385460   -0.3381835 
   0.006451601     0.9604732   -0.2007974     0.0009345    0.0012468    -0.0000856    0.0001950     0.8285268   -0.3447850 
   0.006551626     0.9265205   -0.2044821     0.0008199    0.0002211     0.0005444    0.0003691     0.8285837   -0.3484589 
   0.006651651     0.9378158   -0.1987777     0.0015577    0.0001031     0.0001704   -0.0001295     0.8207332   -0.3497913 
   0.006751676     0.9211699   -0.2104598    -0.0004931   -0.0002646     0.0001658    0.0001439     0.8205776   -0.3513532 
   0.006851701     0.9438609   -0.2314127     0.0004547    0.0022181    -0.0001083    0.0003802     0.8178877   -0.3576769 
   0.006951726     0.9164453   -0.2477730    -0.0013064    0.0005631    -0.0002788    0.0005727     0.8100068   -0.3577383 
   0.007051751     0.9243056   -0.2366111    -0.0009516   -0.0004232    -0.0000760   -0.0005064     0.8047956   -0.3611408 
   0.007151776     0.9174970   -0.2287527     0.0011484   -0.0006381    -0.0001537   -0.0007308     0.7996784   -0.3617343 
   0.007251801     0.9435907   -0.2070135     0.0018728   -0.0003811     0.0000222    0.0003037     0.7978761   -0.3650867 
   0.007351826     0.9327831   -0.2307927     0.0020313   -0.0001971     0.0002338    0.0003334     0.7934610   -0.3721225 
   0.007451851     0.9205590   -0.2427332     0.0000914    0.0003738     0.0001008   -0.0002674     0.7881274   -0.3680851 
   0.007551876     0.9340066   -0.2446677    -0.0012197   -0.0013421    -0.0000529    0.0000364     0.7840889   -0.3749999 
   0.007651901     0.9398109   -0.2576108    -0.0004984    0.0008480    -0.0002753    0.0001699     0.7801293   -0.3772426 
   0.007751926     0.9272694   -0.2378593     0.0004569   -0.0005837    -0.0001176    0.0000329     0.7775220   -0.3750008 
   0.007851951     0.9003358   -0.2475386     0.0004562   -0.0007059    -0.0001565    0.0000688     0.7759381   -0.3798757 
   0.007951976     0.9198989   -0.2530578    -0.0001807    0.0008229    -0.0000263    0.0001662     0.7687901   -0.3805261 
   0.008052001     0.9362898   -0.2399519    -0.0003186   -0.0006576     0.0001169   -0.0000643     0.7611992   -0.3842238 
   0.008152026     0.9145685   -0.2691031     0.0008943   -0.0000689    -0.0001553   -0.0003402     0.7629964   -0.3881688 
   0.008252051     0.9029456   -0.2459737    -0.0004949    0.0018514    -0.0001948   -0.0000771     0.7547815   -0.3879390 
   0.008352076     0.8978795   -0.2718588     0.0012324   -0.0019764    -0.0000571    0.0001006     0.7526590   -0.3905407 
   0.008452101     0.9256625   -0.2505526     0.0002848    0.0005756    -0.0002048   -0.0001010     0.7502239   -0.3909045 
   0.008552126     0.9247059   -0.2598753    -0.0002101    0.0001246    -0.0001771    0.0001993     0.7425411   -0.3929150 
   0.008652151     0.9351857   -0.2629960    -0.0002208    0.0002984     0.0000049   -0.0000267     0.7361790   -0.4005602 
   0.008752176     0.9273075   -0.2572253    -0.0017828   -0.0010385     0.0000315    0.0000208     0.7362978   -0.4034617 
   0.008852201     0.9025452   -0.2677946     0.0008474   -0.0004607    -0.0005194    0.0004982     0.7300423   -0.4004867 
   0.008952226     0.9178014   -0.2658199    -0.0002704   -0.0002893     0.0000458    0.0001229     0.7280685   -0.4012658 
   0.009052251     0.9041764   -0.2604837     0.0000409   -0.0013664    -0.0002011    0.0000816     0.7248470   -0.4067619 
   0.009152276     0.9158524   -0.2708538     0.0011036   -0.0006497     0.0001722    0.0001862     0.7167398   -0.4070973 
   0.009252301     0.8948767   -0.2846709     0.0002833   -0.0007984     0.0000868    0.0003715     0.7134604   -0.4085865 
   0.009352326     0.9122933   -0.2719028    -0.0006840   -0.0009598    -0.0001452    0.0001113     0.7102293   -0.4063338 
   0.009452351     0.9044015   -0.2782420    -0.0000989    0.0018859    -0.0002582   -0.0000717     0.7062926   -0.4103083 
   0.009552376     0.9004529   -0.2954942    -0.0005497    0.0000933    -0.0000527   -0.0002431     0.7025698   -0.4088896 
   0.009652401     0.8851186   -0.2840028    -0.0011019    0.0000446    -0.0003449    0.0002867     0.6956079   -0.4149116 
   0.009752426     0.8781217   -0.2949769     0.0002019   -0.0000733     0.0000951    0.0000486     0.6909603   -0.4138105 
   0.009852451     0.8903303   -0.2922908    -0.0012734    0.0006980    -0.0000193    0.0001084     0.6876249   -0.4187743 
   0.009952476     0.8918371   -0.3057373     0.0007209   -0.0005460     0.0004195   -0.0001185     0.6822684   -0.4173694 
   0.010052501     0.8815805   -0.2909025    -0.0001626    0.0002909    -0.0001133    0.0002003     0.6813931   -0.4153156 
   0.010152526     0.8933356   -0.2953629     0.0008723    0.0012362    -0.0002875    0.0002303     0.6758032   -0.4170839 
   0.010252551     0.8920130   -0.2887706     0.0006371    0.0010640    -0.0000448   -0.0000663     0.6744718   -0.4211968 
   0.010352576     0.8911528   -0.3153745     0.0002134   -0.0001164     0.0002528    0.0000167     0.6691346   -0.4232025 
   0.010452601     0.8920491   -0.2929172    -0.0000091   -0.0004149     0.0001967    0.0003655     0.6645848   -0.4224564 
   0.010552626     0.8576728   -0.3113969    -0.0001037    0.0000668    -0.0001735   -0.0001020     0.6634731   -0.4246480 
   0.010652651     0.8834388   -0.3183935    -0.0002825   -0.0008134    -0.0002751    0.0001227     0.6561803   -0.4235513 
   0.010752676     0.8795380   -0.3278280    -0.0005585    0.0007352    -0.0003752   -0.0002811     0.6536250   -0.4237131 
   0.010852701     0.8756874   -0.3093288    -0.0001504    0.0003792    -0.0000201   -0.0001294     0.6522220   -0.4239941 
   0.010952726     0.8664252   -0.3108237    -0.0003425   -0.0007875     0.0004027    0.0004947     0.6461681   -0.4267794 
   0.011052751     0.8691527   -0.3368829    -0.0015945   -0.0002400     0.0002108   -0.0001874     0.6398637   -0.4262533 
   0.011152776     0.8762872   -0.3302037     0.0004188    0.0002150    -0.0003954   -0.0005332     0.6359599   -0.4277276 
   0.011252801     0.8721648   -0.3467266     0.0002558   -0.0007321    -0.0000941    0.0001259     0.6338974   -0.4293448 
   0.011352826     0.8470212   -0.3511083    -0.0000128    0.0000205    -0.0001456   -0.0002418     0.6315705   -0.4271200 
   0.011452851     0.8666496   -0.3383776    -0.0002168   -0.0004162    -0.0000263   -0.0000621     0.6264821   -0.4296655 
   0.011552876     0.8503365   -0.3405622     0.0000960    0.0008408    -0.0000319   -0.0003103     0.6223496   -0.4315146 
   0.011652901     0.8563815   -0.3277940     0.0003656   -0.0005690    -0.0003910   -0.0003019     0.6169584   -0.4287353 
   0.011752926     0.8345931   -0.3231721    -0.0001981   -0.0003131    -0.0001936    0.0002177     0.6177603   -0.4306364 
   0.011852951     0.8435663   -0.3499303     0.0001592   -0.0011270     0.0000516   -0.0000880     0.6119676   -0.4305691 
   0.011952976     0.8502850   -0.3337414     0.0007644   -0.0001070    -0.0000221    0.0002973     0.6085624   -0.4288132 
   0.012053002     0.8411415   -0.3471593    -0.0006704    0.0004949     0.0001257    0.0000050     0.6044177   -0.4314104 
   0.012153027     0.8334107   -0.3570298    -0.0004054   -0.0010956    -0.0000424   -0.0002458     0.6031251   -0.4333002 
   0.012253052     0.8422869   -0.3525016     0.0009794    0.0004980    -0.0003253   -0.0001162     0.5986310   -0.4315167 
   0.012353077     0.8326934   -0.3491739     0.0004625    0.0006705    -0.0002406   -0.0001128     0.5953774   -0.4296907 
   0.012453102     0.8538113   -0.3491011     0.0001943    0.0002967     0.0002393   -0.0000743     0.5899048   -0.4335508 
   0.012553127     0.8279290   -0.3608746     0.0013222   -0.0000143    -0.0002304   -0.0001117     0.5873078   -0.4331863 
   0.012653152     0.8544936   -0.3542663    -0.0002388   -0.0013273    -0.0000030   -0.0000446     0.5828879   -0.4334400 
   0.012753177     0.8306790   -0.3557939     0.0002593    0.0001836     0.0000748    0.0000892     0.5822116   -0.4321671 
   0.012853202     0.8351918   -0.3471473    -0.0001916    0.0002290     0.0002160    0.0000115     0.5749953   -0.4325656 
   0.012953227     0.8282498   -0.3487485    -0.0011169    0.0000519     0.0000963   -0.0000705     0.5761706   -0.4322989 
   0.013053252     0.8070849   -0.3643524     0.0006228    0.0005177    -0.0003121   -0.0001587     0.5733517   -0.4338203 
   0.013153277     0.8194825   -0.3647331    -0.0002497    0.0004021    -0.0002482   -0.0000522     0.5663600   -0.4345674 
   0.013253302     0.8188398   -0.3605012     0.0007166    0.0009784    -0.0002192    0.0001681     0.5655181   -0.4314675 
   0.013353327     0.8214324   -0.3652661     0.0005507    0.0000817     0.0001452    0.0003186     0.5621843   -0.4318176 
   0.013453352     0.8249055   -0.3548242     0.0000910   -0.0005327    -0.0003215    0.0002832     0.5575755   -0.4346304 
   0.013553377     0.8079568   -0.3644660     0.0000000   -0.0002496     0.0001469   -0.0000967     0.5535199   -0.4309087 
   0.013653402     0.8130761   -0.3664723     0.0006970   -0.0008821     0.0000408   -0.0000389     0.5512687   -0.4324520 
   0.013753427     0.8107367   -0.3796517    -0.0002798    0.0000728     0.0000653    0.0000379     0.5477333   -0.4316443 
   0.013853452     0.8167400   -0.3888104     0.0001306    0.0001501    -0.0003004   -0.0002593     0.5485404   -0.4299970 
   0.013953477     0.7949314   -0.3653328    -0.0003400    0.0003933    -0.0000872   -0.0002123     0.5434842   -0.4332452 
   0.014053502     0.8131481   -0.3954225    -0.0000729   -0.0005837    -0.0002860    0.0001853     0.5394889   -0.4321260 
   0.014153527     0.8063810   -0.3791433     0.0006212    0.0008057    -0.0001559   -0.0001365     0.5349458   -0.4309011 
   0.014253552     0.8034930   -0.3825888     0.0000049   -0.0003339    -0.0000152    0.0000519     0.5344002   -0.4315899 
   0.014353577     0.7887760   -0.3785264     0.0001231   -0.0014096    -0.0000895    0.0002812     0.5297705   -0.4281952 
   0.014453602     0.7826689   -0.3762510     0.0002494    0.0002801    -0.0001380    0.0001342     0.5275418   -0.4295913 
   0.014553627     0.7882131   -0.3847452    -0.0003130    0.0000847    -0.0001547    0.0002343     0.5246523   -0.4290179 
   0.014653652     0.8018491   -0.3939058     0.0001006    0.0007487    -0.0001711   -0.0000947     0.5193160   -0.4300589 
   0.014753677     0.7857721   -0.3749931    -0.0004064   -0.0004017     0.0001906   -0.0002780     0.5191313   -0.4287216 
   0.014853702     0.7993687   -0.3870599    -0.0001798    0.0005893    -0.0000607    0.0003119     0.5148063   -0.4292827 
   0.014953727     0.7834520   -0.4061596     0.0004858    0.0000461    -0.0002369   -0.0001429     0.5119179   -0.4280351 
   0.015053752     0.7855676   -0.3972284    -0.0004723   -0.0006898    -0.0000168    0.0001269     0.5087971   -0.4278990 
   0.015153777     0.7980090   -0.3942209     0.0001447    0.0005826     0.0001332   -0.0001281     0.5093156   -0.4299383 
   0.015253802     0.7809349   -0.3962172     0.0000687   -0.0001800     0.0001449   -0.0002259     0.5042143   -0.4279803 
   0.015353827     0.7739622   -0.4042028    -0.0002312   -0.0002277     0.0003940    0.0003544     0.5007690   -0.4284103 
   0.015453852     0.7801433   -0.3920283     0.0000727    0.0002562     0.0000940   -0.0001218     0.4971845   -0.4260417 
   0.015553877     0.7789525   -0.4079412     0.0008121   -0.0003239     0.0001482    0.0004242     0.4961188   -0.4258386 
   0.015653902     0.7772960   -0.4048601     0.0001402    0.0004001    -0.0001917   -0.0000119     0.4938335   -0.4276386 
