! 26-Feb-26 1:06:15 PM
! E:\VNA_MEASUREMENTS\SP8T\SP8T_P7_RF8.S2P
! CHANNEL.1
! TR.MEASUREMENT
! CORRECTED.DATA
# GHZ S RI R 50.0
! FREQ.GHZ         S11RE         S11IM         S21RE         S21IM         S12RE         S12IM         S22RE         S22IM         
!; PortSelection: Port_12
   0.000050000     0.6228335    0.3520920    -0.3916673    0.0306937    -0.0029485   -0.0017607     1.0598160    0.0130342 
   0.000150025     0.8673617    0.6983946    -0.9493907    0.3105249    -0.0005498    0.0012207     0.9988392   -0.0070362 
   0.000250050     0.1195791   -0.1946699     0.0025917    0.0030777    -0.0011439    0.0003962     1.0057200   -0.0182327 
   0.000350075     1.0349590   -0.0309030    -0.0046095   -0.0098440     0.0007497   -0.0002734     0.9941948   -0.0270682 
   0.000450100     0.9979154   -0.0913375    -0.0043704   -0.0094591     0.0007783   -0.0004480     0.9908875   -0.0228742 
   0.000550125     1.0280100   -0.0629381    -0.0067641   -0.0152386     0.0001455    0.0001613     0.9943677   -0.0375159 
   0.000650150     0.9840493   -0.0172134    -0.0096597   -0.0092028    -0.0003510    0.0011479     0.9924231   -0.0419274 
   0.000750175     0.9768344   -0.0536225    -0.0092498   -0.0084133     0.0008485   -0.0000608     0.9936886   -0.0502372 
   0.000850200     0.9819183   -0.0615648    -0.0083038   -0.0063420     0.0008238   -0.0001864     0.9951723   -0.0487250 
   0.000950225     1.0248060   -0.0457699    -0.0109731   -0.0053118    -0.0002322   -0.0001432     0.9874898   -0.0611516 
   0.001050250     0.9965525   -0.0884793    -0.0108288   -0.0000508     0.0000380   -0.0000039     0.9884222   -0.0700478 
   0.001150275     0.9995152   -0.0671087    -0.0118814   -0.0069581     0.0001398   -0.0000507     0.9920011   -0.0689226 
   0.001250300     0.9473213   -0.0132765    -0.0110968   -0.0036042    -0.0000666   -0.0002581     0.9895152   -0.0887671 
   0.001350325     0.9990765   -0.0831048    -0.0104949   -0.0011460    -0.0011207   -0.0001240     0.9863362   -0.0865107 
   0.001450350     1.0338490   -0.0788707    -0.0081766   -0.0027987    -0.0011985   -0.0007045     0.9920645   -0.0968056 
   0.001550375     0.9573050   -0.0527039    -0.0094046   -0.0020900     0.0003814   -0.0007236     0.9904561   -0.0995873 
   0.001650400     1.0204260   -0.0535656    -0.0091763   -0.0039131     0.0002579    0.0008075     0.9759469   -0.0927637 
   0.001750425     1.0045120   -0.0813809    -0.0053945    0.0019823    -0.0004149    0.0004993     0.9807631   -0.1123435 
   0.001850450     0.9576401   -0.0740201    -0.0082302    0.0012239    -0.0004456    0.0003739     0.9788308   -0.1180202 
   0.001950475     1.0386990   -0.0530277    -0.0073621    0.0006907    -0.0006957   -0.0003978     0.9780011   -0.1224035 
   0.002050500     0.9207991   -0.0842010    -0.0062745   -0.0002733     0.0003464   -0.0001706     0.9826738   -0.1407406 
   0.002150525     0.9994222   -0.0792383    -0.0061035    0.0013195     0.0008254   -0.0007283     0.9754990   -0.1378026 
   0.002250550     0.9800887   -0.0847445    -0.0065335    0.0039636    -0.0008071   -0.0002628     0.9716918   -0.1407892 
   0.002350575     0.9849401   -0.0862178    -0.0026864    0.0045734    -0.0009153   -0.0002080     0.9746678   -0.1412231 
   0.002450600     0.9957711   -0.1054497    -0.0053739   -0.0003631    -0.0001590    0.0012636     0.9792265   -0.1534448 
   0.002550625     0.9777184   -0.0960098    -0.0019087    0.0046387    -0.0006184    0.0000600     0.9728521   -0.1615687 
   0.002650650     1.0096240   -0.0640973    -0.0041858    0.0028805    -0.0008928    0.0001327     0.9722753   -0.1677838 
   0.002750675     1.0090190   -0.0717461    -0.0021210    0.0024546     0.0006058   -0.0006646     0.9645363   -0.1812989 
   0.002850700     1.0061490   -0.0565121    -0.0039132    0.0048160     0.0001666   -0.0000849     0.9570412   -0.1786086 
   0.002950725     0.9144078   -0.0605147    -0.0029150    0.0024437     0.0001323    0.0005017     0.9572198   -0.1828656 
   0.003050750     0.9962453   -0.0573393    -0.0026839    0.0038636     0.0002161   -0.0000727     0.9568908   -0.1896249 
   0.003150775     0.9900346   -0.1332756     0.0010149    0.0022666    -0.0005591   -0.0004404     0.9529027   -0.1992455 
   0.003250800     0.9800960   -0.0724657    -0.0043818    0.0052897    -0.0001957    0.0005414     0.9487702   -0.2017177 
   0.003350825     0.9685970   -0.0852093    -0.0011025    0.0037648    -0.0007937    0.0002510     0.9451053   -0.2137727 
   0.003450850     0.9528482   -0.1463659    -0.0015220    0.0006584    -0.0000340    0.0004243     0.9477926   -0.2109667 
   0.003550875     0.9712777   -0.1176090    -0.0021934    0.0019163    -0.0000805   -0.0001826     0.9357920   -0.2233347 
   0.003650900     0.9585893   -0.1185554     0.0009177    0.0018360    -0.0004788    0.0006505     0.9391140   -0.2219952 
   0.003750925     0.9858534   -0.1578555    -0.0012305    0.0015979     0.0002477    0.0007942     0.9287251   -0.2363983 
   0.003850950     0.9821278   -0.1383281    -0.0018709    0.0030446    -0.0006791    0.0002160     0.9331081   -0.2291169 
   0.003950975     0.9862372   -0.1184062    -0.0022549    0.0035722     0.0000277    0.0005432     0.9299463   -0.2373479 
   0.004051001     0.9610248   -0.1521166    -0.0024219    0.0011899     0.0000163   -0.0003095     0.9233938   -0.2375782 
   0.004151026     1.0151800   -0.1427621    -0.0014757   -0.0002901    -0.0000953    0.0002631     0.9178108   -0.2510250 
   0.004251051     0.9951745   -0.1605166    -0.0014953    0.0022025    -0.0001167    0.0003954     0.9213529   -0.2559358 
   0.004351076     0.9777268   -0.1335916    -0.0005351   -0.0012946    -0.0003530   -0.0004480     0.9126800   -0.2600782 
   0.004451101     0.9922211   -0.1758286    -0.0000955   -0.0002256    -0.0004661    0.0002173     0.9106200   -0.2608673 
   0.004551126     0.9863959   -0.1603627    -0.0006291    0.0030682    -0.0004103   -0.0001123     0.9069741   -0.2690354 
   0.004651151     0.9681744   -0.1780132     0.0006151   -0.0016892    -0.0006555    0.0001665     0.9050263   -0.2707856 
   0.004751176     0.9850112   -0.1843169    -0.0004385    0.0036328     0.0002202   -0.0002754     0.8971358   -0.2818098 
   0.004851201     0.9324410   -0.1643836    -0.0029127    0.0000798     0.0000950   -0.0006601     0.8950641   -0.2787999 
   0.004951226     0.9707536   -0.1578940    -0.0007245    0.0004421     0.0004055    0.0001301     0.8939401   -0.2838750 
   0.005051251     1.0255120   -0.1908921    -0.0013339    0.0018057     0.0002207    0.0003385     0.8905137   -0.2863977 
   0.005151276     0.9548445   -0.1481778    -0.0008082   -0.0007626     0.0002789   -0.0002480     0.8857452   -0.2939751 
   0.005251301     0.9548094   -0.1359098    -0.0015482   -0.0026009     0.0001083   -0.0001308     0.8812778   -0.2990217 
   0.005351326     0.9531069   -0.1575518    -0.0020183    0.0002862     0.0003799   -0.0001161     0.8788389   -0.3010229 
   0.005451351     0.9798633   -0.1811169    -0.0029757    0.0004447    -0.0003710   -0.0003912     0.8711579   -0.3043212 
   0.005551376     0.9969954   -0.2000972    -0.0003698    0.0018578    -0.0002154    0.0002294     0.8694407   -0.3038805 
   0.005651401     0.9841701   -0.2040463    -0.0002228   -0.0016760    -0.0003924   -0.0002740     0.8693344   -0.3198200 
   0.005751426     0.9613984   -0.1823196    -0.0017113   -0.0011413    -0.0000069    0.0003840     0.8667684   -0.3182369 
   0.005851451     0.9533273   -0.2107708    -0.0000271    0.0008696    -0.0000287   -0.0002077     0.8551822   -0.3228792 
   0.005951476     0.9470676   -0.1804014    -0.0010037    0.0016029    -0.0001768   -0.0000554     0.8533022   -0.3284360 
   0.006051501     0.9475893   -0.1807242     0.0000277    0.0017595     0.0000994    0.0003167     0.8476495   -0.3296723 
   0.006151526     0.9394941   -0.2191515     0.0008437    0.0012354    -0.0001142   -0.0001153     0.8456166   -0.3321384 
   0.006251551     0.9402059   -0.1769618     0.0001159   -0.0000572     0.0001708   -0.0003372     0.8437482   -0.3356640 
   0.006351576     0.9524787   -0.2068105    -0.0003087    0.0008718     0.0003010   -0.0002260     0.8342654   -0.3427605 
   0.006451601     0.9733953   -0.2047997    -0.0008259    0.0002113    -0.0000298   -0.0002374     0.8348723   -0.3460199 
   0.006551626     0.9484552   -0.2074466     0.0004973    0.0024396     0.0001598    0.0004028     0.8320613   -0.3451700 
   0.006651651     0.9489346   -0.2158570    -0.0012588    0.0002821    -0.0002741   -0.0003381     0.8231145   -0.3529907 
   0.006751676     0.9577039   -0.2383695    -0.0013166   -0.0010008     0.0004000   -0.0001095     0.8242711   -0.3538413 
   0.006851701     0.9835342   -0.2554159     0.0011959   -0.0003233    -0.0001757   -0.0004463     0.8197938   -0.3567488 
   0.006951726     0.9331394   -0.2325173     0.0002042   -0.0002817    -0.0003150    0.0003605     0.8127943   -0.3557211 
   0.007051751     0.9655042   -0.2035861    -0.0013315    0.0009259    -0.0001901    0.0003310     0.8056006   -0.3610963 
   0.007151776     0.9495524   -0.2270563    -0.0002600    0.0007468    -0.0007059    0.0000891     0.7999751   -0.3682728 
   0.007251801     0.9725452   -0.2125669     0.0005682    0.0003734    -0.0004160   -0.0004949     0.7949703   -0.3672871 
   0.007351826     0.9639009   -0.2516078    -0.0001963    0.0004186     0.0001614    0.0001856     0.7943299   -0.3717693 
   0.007451851     0.9360980   -0.2341193    -0.0006406    0.0011779    -0.0005088    0.0000851     0.7899566   -0.3694052 
   0.007551876     0.9420597   -0.2455051     0.0004660   -0.0000931    -0.0003644    0.0000250     0.7863006   -0.3776585 
   0.007651901     0.9488676   -0.2649734    -0.0005143   -0.0003999    -0.0000866   -0.0000971     0.7843640   -0.3776452 
   0.007751926     0.9427445   -0.2395392     0.0011833    0.0007345    -0.0001576   -0.0000706     0.7750909   -0.3787622 
   0.007851951     0.9413100   -0.2379003    -0.0030048    0.0014499     0.0001385   -0.0003516     0.7742636   -0.3818341 
   0.007951976     0.9497908   -0.2692233     0.0013117    0.0002893     0.0003200    0.0005781     0.7697618   -0.3840657 
   0.008052001     0.9647568   -0.2566784    -0.0004632   -0.0010854    -0.0002340    0.0002480     0.7626956   -0.3861196 
   0.008152026     0.9488733   -0.2882472    -0.0001186   -0.0008463     0.0001498    0.0001499     0.7635616   -0.3896800 
   0.008252051     0.9368756   -0.2615656     0.0007635   -0.0020817    -0.0001255    0.0003119     0.7561455   -0.3925475 
   0.008352076     0.9492965   -0.2764898     0.0009084    0.0008828    -0.0000683    0.0000338     0.7530450   -0.3938180 
   0.008452101     0.9566267   -0.2487515    -0.0001678   -0.0004029    -0.0000743    0.0003195     0.7503341   -0.3940230 
   0.008552126     0.9513498   -0.2752411     0.0001183   -0.0006494    -0.0000320    0.0002608     0.7456731   -0.3963746 
   0.008652151     0.9490208   -0.2625074    -0.0011529   -0.0001537    -0.0004116    0.0002195     0.7395458   -0.4025508 
   0.008752176     0.9523470   -0.2587297     0.0001967   -0.0007699     0.0001609    0.0005516     0.7359105   -0.4040890 
   0.008852201     0.9274868   -0.2712049     0.0008599    0.0008352    -0.0001552    0.0000084     0.7275812   -0.4000764 
   0.008952226     0.9488188   -0.2855976     0.0015518    0.0001508     0.0002836   -0.0001728     0.7298085   -0.4043560 
   0.009052251     0.9507318   -0.2807534     0.0002439    0.0008110     0.0002429    0.0003054     0.7229793   -0.4073404 
   0.009152276     0.9354830   -0.2794427    -0.0018813   -0.0003598     0.0000711    0.0001287     0.7189046   -0.4084406 
   0.009252301     0.9526846   -0.2920612    -0.0013988    0.0017082     0.0000553   -0.0000220     0.7137883   -0.4113601 
   0.009352326     0.9548358   -0.3013896     0.0004387   -0.0001407     0.0001375    0.0000889     0.7130023   -0.4096996 
   0.009452351     0.9420470   -0.2914524    -0.0008166   -0.0003062     0.0000663    0.0000619     0.7043259   -0.4099342 
   0.009552376     0.9368967   -0.2985636     0.0010581   -0.0009386     0.0003737    0.0002517     0.7017773   -0.4113369 
   0.009652401     0.9325772   -0.2944694     0.0008441    0.0002117    -0.0001496    0.0002457     0.6992913   -0.4157076 
   0.009752426     0.9284462   -0.3093743    -0.0005591    0.0003463     0.0002447    0.0000902     0.6932105   -0.4136092 
   0.009852451     0.9443660   -0.3096604    -0.0000618    0.0006239     0.0000470   -0.0000806     0.6881578   -0.4174775 
   0.009952476     0.9253520   -0.3136704     0.0003797   -0.0015950     0.0001073    0.0000240     0.6838718   -0.4155125 
   0.010052501     0.9272628   -0.3078987     0.0003503    0.0004724     0.0002092    0.0002828     0.6831406   -0.4164497 
   0.010152526     0.9271820   -0.3089131    -0.0002247    0.0003219     0.0000442    0.0007059     0.6782686   -0.4196512 
   0.010252551     0.9086044   -0.3268888    -0.0005397   -0.0006127    -0.0001901    0.0001974     0.6745324   -0.4216540 
   0.010352576     0.9397537   -0.3274902    -0.0006696   -0.0012428     0.0000918    0.0000025     0.6680565   -0.4227084 
   0.010452601     0.9444149   -0.3053470    -0.0008412   -0.0008877     0.0001076    0.0000402     0.6629186   -0.4272330 
   0.010552626     0.9155366   -0.3347989    -0.0008334   -0.0000140    -0.0000161    0.0003148     0.6636323   -0.4239352 
   0.010652651     0.9283047   -0.3333771    -0.0007045   -0.0000410     0.0000373    0.0000123     0.6564474   -0.4260416 
   0.010752676     0.9306582   -0.3554022    -0.0000936   -0.0005348     0.0000782   -0.0004766     0.6556751   -0.4258982 
   0.010852701     0.9211609   -0.3340620     0.0001718   -0.0002380     0.0001756    0.0002130     0.6522278   -0.4248182 
   0.010952726     0.9270261   -0.3446608    -0.0004325    0.0014967    -0.0000951    0.0000025     0.6443841   -0.4273548 
   0.011052751     0.9284471   -0.3429377    -0.0003978    0.0015044     0.0000645   -0.0001433     0.6420396   -0.4284568 
   0.011152776     0.9251749   -0.3572077     0.0011824   -0.0003429    -0.0000995   -0.0001360     0.6375639   -0.4285224 
   0.011252801     0.9124629   -0.3732046     0.0006740   -0.0003313    -0.0001824    0.0000680     0.6345939   -0.4285899 
   0.011352826     0.9178538   -0.3688007    -0.0000916    0.0009958    -0.0002044    0.0000780     0.6328343   -0.4280383 
   0.011452851     0.9046388   -0.3596468     0.0001798    0.0002886    -0.0002056    0.0001786     0.6254740   -0.4307711 
   0.011552876     0.9057769   -0.3669790    -0.0003361    0.0004731     0.0001704   -0.0000867     0.6225297   -0.4318780 
   0.011652901     0.9007041   -0.3746283    -0.0011754    0.0004598     0.0001450    0.0000823     0.6202804   -0.4315792 
   0.011752926     0.9033259   -0.3558777     0.0000381   -0.0006665     0.0002643    0.0001374     0.6165162   -0.4308129 
   0.011852951     0.9073035   -0.3738481    -0.0007668    0.0009321     0.0000977    0.0001102     0.6140226   -0.4327749 
   0.011952976     0.8962094   -0.3726891     0.0000677   -0.0003386     0.0003110    0.0002120     0.6088872   -0.4345059 
   0.012053002     0.9080691   -0.3805175     0.0003246    0.0006931    -0.0002580    0.0001840     0.6058872   -0.4333110 
   0.012153027     0.9013563   -0.3902738     0.0004733    0.0003023    -0.0001175    0.0003960     0.6031197   -0.4344563 
   0.012253052     0.8804414   -0.3803290     0.0004631    0.0012247     0.0002072    0.0007234     0.5995913   -0.4334286 
   0.012353077     0.9017069   -0.3756800    -0.0006021    0.0006462     0.0002757    0.0002084     0.5971535   -0.4339759 
   0.012453102     0.9093773   -0.3889727     0.0001913   -0.0010054     0.0001093    0.0006058     0.5905129   -0.4357024 
   0.012553127     0.8825759   -0.4069056     0.0001864   -0.0004180     0.0002500    0.0004646     0.5854267   -0.4352552 
   0.012653152     0.9157673   -0.3717058    -0.0009613    0.0013928     0.0001077    0.0001802     0.5842537   -0.4352039 
   0.012753177     0.8977445   -0.3806021    -0.0002048    0.0004269    -0.0000405    0.0004785     0.5822680   -0.4352552 
   0.012853202     0.8997366   -0.3863908    -0.0007213    0.0010076    -0.0000812    0.0000136     0.5756945   -0.4342922 
   0.012953227     0.8980519   -0.3834706     0.0004964    0.0002145    -0.0001150    0.0005622     0.5758175   -0.4357215 
   0.013053252     0.8809919   -0.4174461     0.0000887    0.0009394    -0.0000148    0.0004237     0.5719717   -0.4348888 
   0.013153277     0.8822860   -0.4023495     0.0002762    0.0004321     0.0002280    0.0001513     0.5669401   -0.4367554 
   0.013253302     0.8899649   -0.3983604    -0.0000249    0.0012695     0.0001427    0.0000060     0.5653191   -0.4338407 
   0.013353327     0.8944216   -0.4066079     0.0011496    0.0011117     0.0004266    0.0000220     0.5596920   -0.4361433 
   0.013453352     0.8906677   -0.3944222     0.0004532    0.0016304     0.0002799    0.0003612     0.5596938   -0.4358191 
   0.013553377     0.8675382   -0.4154150    -0.0008311    0.0015611     0.0001959    0.0001918     0.5529361   -0.4355248 
   0.013653402     0.8781539   -0.4177166     0.0003322    0.0001341     0.0002986   -0.0003261     0.5510273   -0.4334345 
   0.013753427     0.8751369   -0.4179435    -0.0005006   -0.0009340     0.0001045    0.0003670     0.5464920   -0.4354846 
   0.013853452     0.8796286   -0.4368705     0.0004616   -0.0002458     0.0001979    0.0000592     0.5471563   -0.4324592 
   0.013953477     0.8624604   -0.4192534    -0.0001462   -0.0007313    -0.0000029    0.0002478     0.5427557   -0.4340254 
   0.014053502     0.8847436   -0.4407745     0.0003658    0.0002440    -0.0001691    0.0002148     0.5388540   -0.4354450 
   0.014153527     0.8759446   -0.4357999     0.0004009    0.0008041     0.0001973    0.0002685     0.5382457   -0.4352565 
   0.014253552     0.8743691   -0.4333187     0.0004124   -0.0000795     0.0002807    0.0005122     0.5339832   -0.4347603 
   0.014353577     0.8565620   -0.4336400     0.0004065   -0.0002900     0.0002978    0.0000169     0.5284126   -0.4325235 
   0.014453602     0.8458639   -0.4463052     0.0008799    0.0003942     0.0001592    0.0001951     0.5266777   -0.4309058 
   0.014553627     0.8671957   -0.4335001     0.0004411    0.0001581     0.0001776   -0.0000621     0.5261351   -0.4336012 
   0.014653652     0.8716123   -0.4511664    -0.0005712    0.0008067     0.0002257    0.0002918     0.5203894   -0.4337907 
   0.014753677     0.8592607   -0.4463612    -0.0005797   -0.0005611     0.0000664    0.0002830     0.5161034   -0.4305407 
   0.014853702     0.8702469   -0.4430958     0.0010210    0.0008210    -0.0001675    0.0006020     0.5143941   -0.4307282 
   0.014953727     0.8534042   -0.4601741     0.0006452   -0.0003204     0.0002364    0.0001752     0.5119157   -0.4309210 
   0.015053752     0.8646851   -0.4624133    -0.0005622    0.0013658     0.0002853    0.0000374     0.5101553   -0.4307927 
   0.015153777     0.8683300   -0.4599237     0.0013160    0.0006298     0.0002774    0.0003959     0.5089000   -0.4313182 
   0.015253802     0.8474925   -0.4571730     0.0001065   -0.0002467     0.0002965    0.0001628     0.5032640   -0.4319441 
   0.015353827     0.8537797   -0.4630382    -0.0002561   -0.0000693     0.0002343    0.0002479     0.5003869   -0.4295378 
   0.015453852     0.8628513   -0.4676225    -0.0000617    0.0006272     0.0001941    0.0005635     0.4983487   -0.4294442 
   0.015553877     0.8487962   -0.4821612     0.0003885   -0.0000897     0.0002883    0.0004196     0.4963860   -0.4299809 
   0.015653902     0.8484275   -0.4703308     0.0020059    0.0002172    -0.0000524    0.0000015     0.4940449   -0.4291334 
