! 26-Feb-26 1:02:18 PM
! E:\VNA_MEASUREMENTS\SP8T\SP8T_P7_RF4.S2P
! CHANNEL.1
! TR.MEASUREMENT
! CORRECTED.DATA
# GHZ S RI R 50.0
! FREQ.GHZ         S11RE         S11IM         S21RE         S21IM         S12RE         S12IM         S22RE         S22IM         
!; PortSelection: Port_12
   0.000050000     0.2680900    0.1201472    -0.2894969    0.1241390     0.0049930   -0.0109731     0.9185566    0.0371630 
   0.000150025     0.0734979    0.1379385    -0.7935836   -0.4292789     0.0006018   -0.0005256     1.0017930   -0.0099116 
   0.000250050    -0.5296358   -0.4195494    -0.0037941   -0.0037489    -0.0002527    0.0004543     0.9901221   -0.0137461 
   0.000350075     0.9838874   -0.0679745    -0.0058804   -0.0099926     0.0004961    0.0000587     0.9924710   -0.0309695 
   0.000450100     0.9958341   -0.0351054    -0.0029656   -0.0124215     0.0007385   -0.0015032     0.9835542   -0.0136834 
   0.000550125     1.0475190   -0.0259002    -0.0095020   -0.0118786     0.0000643    0.0001463     0.9967309   -0.0342123 
   0.000650150     1.0345670   -0.0607348    -0.0109031   -0.0103262    -0.0006711   -0.0003990     0.9956819   -0.0390639 
   0.000750175     1.0086400   -0.0758268    -0.0113857   -0.0086352     0.0006113   -0.0011717     0.9934437   -0.0513195 
   0.000850200     0.9871113   -0.0801661    -0.0091662   -0.0058066    -0.0002846   -0.0010273     0.9965953   -0.0430530 
   0.000950225     1.0375220   -0.0508854    -0.0037028   -0.0099781    -0.0001138   -0.0000889     0.9845598   -0.0654985 
   0.001050250     0.9936923   -0.0817446    -0.0105845   -0.0057021    -0.0004234    0.0006181     0.9945289   -0.0608317 
   0.001150275     1.0174050   -0.0552133    -0.0097545   -0.0076218    -0.0007142    0.0008604     0.9947972   -0.0745653 
   0.001250300     1.0442190   -0.0346783    -0.0135499   -0.0032997    -0.0006012   -0.0008318     0.9901263   -0.0888715 
   0.001350325     1.0067400   -0.0853047    -0.0091292   -0.0055336     0.0002803   -0.0004923     0.9908665   -0.0874443 
   0.001450350     0.9843144   -0.0814180    -0.0081905   -0.0068086    -0.0003232   -0.0000687     0.9917187   -0.0878766 
   0.001550375     0.9591850   -0.0777110    -0.0096447   -0.0007366    -0.0001301   -0.0004017     0.9894031   -0.1037536 
   0.001650400     0.9939969   -0.0501835    -0.0100137   -0.0000893    -0.0005947    0.0006263     0.9854472   -0.1045348 
   0.001750425     1.0059930   -0.0966963    -0.0077046   -0.0001000    -0.0014193    0.0009326     0.9814561   -0.1051406 
   0.001850450     0.9592544   -0.0804673    -0.0068322   -0.0007992     0.0002611   -0.0002509     0.9836976   -0.1142438 
   0.001950475     1.0035870   -0.0404124    -0.0035668   -0.0015666    -0.0007069   -0.0003396     0.9817507   -0.1230716 
   0.002050500     0.9650412   -0.0469048    -0.0062708    0.0038328     0.0001957    0.0002464     0.9836074   -0.1310566 
   0.002150525     0.9799560   -0.0985574    -0.0052578    0.0044904    -0.0005418    0.0003623     0.9704677   -0.1361464 
   0.002250550     0.9901549   -0.0673517    -0.0048369    0.0044574    -0.0006502    0.0000203     0.9769781   -0.1426566 
   0.002350575     0.9426185   -0.1120644    -0.0057019    0.0030175     0.0003691    0.0000755     0.9708959   -0.1450581 
   0.002450600     0.9661937   -0.0797870    -0.0049960    0.0056303     0.0005339    0.0006678     0.9769204   -0.1571442 
   0.002550625     1.0207020   -0.0440340    -0.0049906    0.0045250     0.0000323    0.0000867     0.9712554   -0.1597691 
   0.002650650     1.0206500   -0.0817774    -0.0038404    0.0021714    -0.0004394    0.0003921     0.9718146   -0.1715957 
   0.002750675     0.9817594   -0.0695062    -0.0028665    0.0020962     0.0001487    0.0007715     0.9625248   -0.1803812 
   0.002850700     0.9945921   -0.0949139    -0.0016362    0.0027641    -0.0002399   -0.0003363     0.9602699   -0.1805789 
   0.002950725     0.9382114   -0.1005239    -0.0006672    0.0023418    -0.0001474    0.0006754     0.9668660   -0.1813000 
   0.003050750     0.9819768   -0.0838642    -0.0007793    0.0038460    -0.0000671    0.0003586     0.9568053   -0.1896933 
   0.003150775     0.9423796   -0.1410458    -0.0021236    0.0023641    -0.0007115    0.0003728     0.9541952   -0.1960728 
   0.003250800     0.9774571   -0.0837365    -0.0011059    0.0019094    -0.0000709    0.0008615     0.9482523   -0.2011018 
   0.003350825     0.9977894   -0.1065954    -0.0029487    0.0047932     0.0004679    0.0004712     0.9453686   -0.2066880 
   0.003450850     0.9744675   -0.1498117    -0.0010643    0.0047720    -0.0011082    0.0001767     0.9442928   -0.2138475 
   0.003550875     0.9416494   -0.1346256    -0.0008377    0.0039269     0.0001312    0.0008942     0.9452201   -0.2186773 
   0.003650900     0.9632202   -0.1000627     0.0008408    0.0037075     0.0003618   -0.0004702     0.9386765   -0.2247729 
   0.003750925     0.9617162   -0.1231424    -0.0031714    0.0005240     0.0004194   -0.0004647     0.9288881   -0.2324141 
   0.003850950     0.9795315   -0.1467282    -0.0015979    0.0007505    -0.0006522    0.0002766     0.9352604   -0.2340425 
   0.003950975     0.9757441   -0.1119044     0.0002886    0.0035286     0.0002853   -0.0003806     0.9253974   -0.2360427 
   0.004051001     0.9641013   -0.1694978    -0.0011833    0.0011203    -0.0002373   -0.0003901     0.9216148   -0.2438617 
   0.004151026     0.9905006   -0.1325249    -0.0000147   -0.0000160     0.0002769   -0.0008380     0.9211161   -0.2567011 
   0.004251051     0.9688773   -0.1285489     0.0010690    0.0012264    -0.0000571   -0.0000211     0.9167545   -0.2475851 
   0.004351076     0.9723788   -0.1301629    -0.0003092    0.0007191    -0.0001738   -0.0001010     0.9131461   -0.2555997 
   0.004451101     0.9500355   -0.1351256    -0.0000222    0.0014802    -0.0006832   -0.0005509     0.9069119   -0.2608742 
   0.004551126     0.9936547   -0.1436247     0.0002051    0.0028016     0.0000994    0.0002251     0.9076685   -0.2639769 
   0.004651151     0.9723088   -0.1579071     0.0014650    0.0007491     0.0001426   -0.0005835     0.9055889   -0.2693093 
   0.004751176     0.9528338   -0.1941763    -0.0005649    0.0007636    -0.0001905    0.0000705     0.9016294   -0.2822882 
   0.004851201     0.9283317   -0.1527692    -0.0007453    0.0024979     0.0000520    0.0002460     0.8942030   -0.2794929 
   0.004951226     0.9524628   -0.1545668    -0.0016447    0.0009532     0.0000385    0.0005442     0.8934692   -0.2790230 
   0.005051251     0.9815241   -0.2071067    -0.0019625    0.0006711    -0.0006142   -0.0001132     0.8888797   -0.2854040 
   0.005151276     0.9554384   -0.1422945    -0.0010376    0.0005881     0.0002271    0.0001133     0.8857382   -0.2944701 
   0.005251301     0.9644995   -0.1568280     0.0006021    0.0009811     0.0001185   -0.0000006     0.8839657   -0.2942299 
   0.005351326     0.9282040   -0.1673041     0.0007797    0.0017032    -0.0006065    0.0000836     0.8757350   -0.3013149 
   0.005451351     0.9544783   -0.1741484     0.0012509    0.0007254     0.0001706   -0.0000212     0.8778474   -0.3069271 
   0.005551376     0.9601457   -0.1900697     0.0019184    0.0006784    -0.0003218    0.0001840     0.8732588   -0.3048857 
   0.005651401     0.9509654   -0.1707855     0.0013543    0.0008669     0.0001382   -0.0001046     0.8671380   -0.3174126 
   0.005751426     0.9224780   -0.1814321    -0.0004012    0.0009845     0.0002783   -0.0001544     0.8571569   -0.3188293 
   0.005851451     0.9185767   -0.2011549     0.0003375    0.0011069    -0.0000898   -0.0001604     0.8549316   -0.3203312 
   0.005951476     0.9260957   -0.1590073    -0.0004430   -0.0008095     0.0000969   -0.0002022     0.8538887   -0.3206155 
   0.006051501     0.9430247   -0.1702106    -0.0001693   -0.0018597    -0.0003191    0.0003019     0.8513222   -0.3299349 
   0.006151526     0.9174942   -0.2232490     0.0016298   -0.0014454     0.0000432   -0.0004637     0.8472766   -0.3326517 
   0.006251551     0.9332973   -0.1665436     0.0004606    0.0013459    -0.0003079    0.0000248     0.8427047   -0.3354914 
   0.006351576     0.9289414   -0.1887509     0.0005292    0.0009420     0.0001171    0.0002072     0.8365253   -0.3376497 
   0.006451601     0.9383597   -0.2040508     0.0001843    0.0009811     0.0001033   -0.0001581     0.8346303   -0.3425605 
   0.006551626     0.9174447   -0.2098410     0.0005109    0.0028199    -0.0002670   -0.0002755     0.8312566   -0.3462578 
   0.006651651     0.9365433   -0.1971110     0.0007826    0.0011765     0.0000981   -0.0003745     0.8231038   -0.3541850 
   0.006751676     0.9265170   -0.2273277    -0.0011512   -0.0003777    -0.0003871   -0.0002574     0.8212118   -0.3511734 
   0.006851701     0.9306910   -0.2245521     0.0024506    0.0020656     0.0000892    0.0002903     0.8145608   -0.3566838 
   0.006951726     0.9196686   -0.2397587    -0.0006462   -0.0014315    -0.0000563    0.0000236     0.8088102   -0.3571548 
   0.007051751     0.9599240   -0.2212676     0.0024568    0.0001262     0.0002143    0.0000863     0.8061548   -0.3639000 
   0.007151776     0.9114853   -0.2446716    -0.0013253    0.0000283    -0.0001312   -0.0000089     0.8013313   -0.3652451 
   0.007251801     0.9445602   -0.2245671     0.0012974   -0.0014319    -0.0000439    0.0002618     0.7991427   -0.3668940 
   0.007351826     0.9213065   -0.2423371     0.0002354    0.0011050    -0.0000837   -0.0000898     0.7943326   -0.3731336 
   0.007451851     0.9149575   -0.2233936    -0.0012748   -0.0018910     0.0003442   -0.0001863     0.7913983   -0.3713957 
   0.007551876     0.9244068   -0.2498082    -0.0004909   -0.0002003     0.0001651    0.0004121     0.7873150   -0.3780971 
   0.007651901     0.9222010   -0.2428583    -0.0011889   -0.0003613    -0.0004346    0.0002305     0.7820238   -0.3772988 
   0.007751926     0.8997116   -0.2255684    -0.0004892   -0.0009836    -0.0005478   -0.0001464     0.7756693   -0.3817143 
   0.007851951     0.9132511   -0.2371128     0.0016766    0.0000992     0.0001704   -0.0000077     0.7770997   -0.3845157 
   0.007951976     0.9187135   -0.2659504     0.0009682   -0.0016384    -0.0000160    0.0000800     0.7690940   -0.3821272 
   0.008052001     0.9304118   -0.2535501     0.0009552    0.0008506     0.0002366   -0.0003527     0.7629414   -0.3858037 
   0.008152026     0.9036832   -0.2575901     0.0001934    0.0013510     0.0001011    0.0006243     0.7621588   -0.3892757 
   0.008252051     0.9042922   -0.2429598     0.0007670    0.0009295    -0.0002450    0.0002052     0.7548972   -0.3908790 
   0.008352076     0.8934872   -0.2537751     0.0011243    0.0000330     0.0000504    0.0003014     0.7526608   -0.3942347 
   0.008452101     0.9085732   -0.2349625     0.0005586   -0.0005346    -0.0001086   -0.0004918     0.7461786   -0.3941831 
   0.008552126     0.9128824   -0.2604050     0.0011618    0.0000095     0.0001885   -0.0001592     0.7417593   -0.3950828 
   0.008652151     0.9049974   -0.2567900    -0.0010035    0.0001269    -0.0001209   -0.0002712     0.7379450   -0.4004589 
   0.008752176     0.9276243   -0.2701617    -0.0003213   -0.0009021    -0.0001347    0.0000481     0.7350237   -0.4032781 
   0.008852201     0.8931958   -0.2522077     0.0007155    0.0008380     0.0000165   -0.0000171     0.7286578   -0.4009061 
   0.008952226     0.8952575   -0.2791122     0.0011078   -0.0016215    -0.0002874    0.0001848     0.7249942   -0.4022113 
   0.009052251     0.9042922   -0.2645334    -0.0006341   -0.0007928    -0.0000979    0.0002845     0.7215059   -0.4061529 
   0.009152276     0.9132401   -0.2666897    -0.0004503   -0.0004879    -0.0002310    0.0003765     0.7179098   -0.4067000 
   0.009252301     0.9009660   -0.2621656    -0.0002109    0.0000895     0.0001103    0.0001751     0.7143716   -0.4138676 
   0.009352326     0.8890706   -0.2810239    -0.0007950    0.0004027    -0.0002621    0.0002115     0.7110013   -0.4092528 
   0.009452351     0.8945057   -0.2729909    -0.0014473    0.0010506    -0.0001289    0.0003020     0.7042673   -0.4113269 
   0.009552376     0.9022957   -0.2909721    -0.0004369   -0.0003243    -0.0000056    0.0000965     0.6994303   -0.4098233 
   0.009652401     0.8884268   -0.2755072    -0.0005182    0.0004932     0.0000987   -0.0002394     0.6960296   -0.4148064 
   0.009752426     0.8901271   -0.2831091    -0.0001954    0.0001192    -0.0000698   -0.0000612     0.6923864   -0.4142074 
   0.009852451     0.8894773   -0.3021913     0.0004904    0.0009922     0.0001174   -0.0000755     0.6885945   -0.4176494 
   0.009952476     0.8958934   -0.2903808     0.0005213   -0.0001698    -0.0002321    0.0000586     0.6846566   -0.4156868 
   0.010052501     0.8759366   -0.2851443     0.0003540   -0.0001869    -0.0002008    0.0000356     0.6811702   -0.4151832 
   0.010152526     0.8861703   -0.2793709    -0.0002715    0.0008758     0.0000002   -0.0000947     0.6760865   -0.4167136 
   0.010252551     0.8615855   -0.2989356     0.0003327    0.0002772    -0.0001474    0.0000772     0.6763421   -0.4213341 
   0.010352576     0.8904223   -0.3079517     0.0005900   -0.0007318     0.0001074    0.0000405     0.6679377   -0.4208296 
   0.010452601     0.8807526   -0.3011269    -0.0008730    0.0001205    -0.0001666   -0.0002079     0.6637632   -0.4242604 
   0.010552626     0.8470769   -0.3178426    -0.0006550   -0.0000298     0.0002583    0.0000199     0.6634088   -0.4255365 
   0.010652651     0.8675456   -0.3114795     0.0010051   -0.0007504    -0.0003776   -0.0002407     0.6581411   -0.4272195 
   0.010752676     0.8775545   -0.3228439    -0.0010695   -0.0001060    -0.0002292   -0.0002348     0.6520213   -0.4256524 
   0.010852701     0.8757561   -0.2952515    -0.0005991    0.0005222     0.0001802   -0.0000940     0.6536585   -0.4265965 
   0.010952726     0.8729095   -0.3004579    -0.0004597    0.0006264     0.0000989    0.0000771     0.6459400   -0.4293897 
   0.011052751     0.8614775   -0.3268479     0.0011365   -0.0016855    -0.0000394    0.0001663     0.6428083   -0.4301337 
   0.011152776     0.8721695   -0.3216837    -0.0001805    0.0005510     0.0001621    0.0000792     0.6376271   -0.4301284 
   0.011252801     0.8557758   -0.3229915     0.0003356   -0.0007814     0.0000302    0.0001265     0.6338940   -0.4293817 
   0.011352826     0.8662013   -0.3452192    -0.0005538   -0.0007652    -0.0000626   -0.0005435     0.6323624   -0.4261810 
   0.011452851     0.8546057   -0.3255231    -0.0011280    0.0006061    -0.0001867   -0.0001778     0.6237330   -0.4314941 
   0.011552876     0.8486337   -0.3299782    -0.0001778   -0.0007339     0.0000075   -0.0002920     0.6226755   -0.4326763 
   0.011652901     0.8574642   -0.3411388    -0.0003395    0.0004527    -0.0000999    0.0001255     0.6209540   -0.4319565 
   0.011752926     0.8353752   -0.3261202     0.0003824    0.0002475    -0.0002099    0.0000212     0.6150974   -0.4326715 
   0.011852951     0.8542745   -0.3400807    -0.0011171    0.0006493    -0.0002553    0.0000114     0.6138394   -0.4331964 
   0.011952976     0.8424450   -0.3372559    -0.0001334   -0.0000554    -0.0001811    0.0000077     0.6084731   -0.4322573 
   0.012053002     0.8268781   -0.3589287    -0.0015944   -0.0001364    -0.0002520    0.0002044     0.6058675   -0.4346783 
   0.012153027     0.8346182   -0.3425730    -0.0004090    0.0008681    -0.0000670    0.0002724     0.6012479   -0.4349074 
   0.012253052     0.8254902   -0.3528656    -0.0001716    0.0011551    -0.0001756   -0.0003096     0.5984893   -0.4352273 
   0.012353077     0.8331117   -0.3437437     0.0013642    0.0000755    -0.0002493    0.0001792     0.5942498   -0.4331545 
   0.012453102     0.8445536   -0.3412683     0.0003396   -0.0000798     0.0000099   -0.0002306     0.5894077   -0.4349467 
   0.012553127     0.8179668   -0.3641027    -0.0000219    0.0004767     0.0003516   -0.0000642     0.5853567   -0.4342479 
   0.012653152     0.8411600   -0.3426234    -0.0001012    0.0005875    -0.0000770    0.0001116     0.5832606   -0.4333567 
   0.012753177     0.8207645   -0.3633896    -0.0012984   -0.0011662    -0.0000108    0.0001888     0.5808779   -0.4344740 
   0.012853202     0.8215483   -0.3443617    -0.0007607   -0.0003692    -0.0001965   -0.0000539     0.5751629   -0.4333404 
   0.012953227     0.8253393   -0.3605779     0.0004262   -0.0001788     0.0002863    0.0000087     0.5749609   -0.4350418 
   0.013053252     0.8176189   -0.3657306    -0.0001860    0.0004323     0.0001448   -0.0004390     0.5735464   -0.4342683 
   0.013153277     0.8285487   -0.3602393     0.0001149    0.0009258    -0.0001296   -0.0005081     0.5665153   -0.4362320 
   0.013253302     0.8185731   -0.3578782     0.0006177    0.0012926     0.0001161    0.0002736     0.5652722   -0.4337045 
   0.013353327     0.8088367   -0.3602295     0.0002137   -0.0010477    -0.0001537    0.0002525     0.5602769   -0.4353428 
   0.013453352     0.8256977   -0.3550556     0.0000493   -0.0005919     0.0001713   -0.0000600     0.5580696   -0.4355992 
   0.013553377     0.8088890   -0.3704696     0.0003020    0.0000609     0.0000760   -0.0001983     0.5564539   -0.4348557 
   0.013653402     0.8057859   -0.3658939    -0.0002461   -0.0010484     0.0002443   -0.0000543     0.5517941   -0.4362275 
   0.013753427     0.8150846   -0.3675893     0.0000346   -0.0010804     0.0001210   -0.0003887     0.5456107   -0.4322632 
   0.013853452     0.8149250   -0.3777709    -0.0003276    0.0001187     0.0004074   -0.0001566     0.5466581   -0.4345433 
   0.013953477     0.7923898   -0.3653807    -0.0007142   -0.0003128     0.0001145   -0.0000014     0.5430299   -0.4344143 
   0.014053502     0.8193066   -0.3832161     0.0010715    0.0007138    -0.0001284   -0.0000313     0.5388574   -0.4342724 
   0.014153527     0.8021976   -0.3779571    -0.0003705    0.0003184    -0.0001158   -0.0000669     0.5383851   -0.4350162 
   0.014253552     0.7938053   -0.3760071    -0.0002106   -0.0000831     0.0000131   -0.0000665     0.5343496   -0.4340479 
   0.014353577     0.7902140   -0.3751541     0.0000847    0.0007943    -0.0000246    0.0001941     0.5289176   -0.4320064 
   0.014453602     0.7786671   -0.3773091    -0.0002835    0.0007047    -0.0001385    0.0001828     0.5271795   -0.4324946 
   0.014553627     0.7849771   -0.3827299     0.0009437    0.0003632    -0.0001739    0.0001004     0.5244122   -0.4319543 
   0.014653652     0.7964239   -0.3846568    -0.0004520   -0.0003868     0.0001768   -0.0000687     0.5200073   -0.4304559 
   0.014753677     0.7858475   -0.3723276    -0.0008127    0.0004067    -0.0001411    0.0002117     0.5175540   -0.4306261 
   0.014853702     0.7866899   -0.3831754     0.0004108   -0.0004708     0.0000384    0.0000544     0.5143065   -0.4299396 
   0.014953727     0.7721180   -0.3950428    -0.0006175    0.0005950    -0.0000153   -0.0000001     0.5123327   -0.4304827 
   0.015053752     0.7815336   -0.3878656    -0.0004719   -0.0008111    -0.0001334    0.0000940     0.5071823   -0.4307317 
   0.015153777     0.7908270   -0.3972169    -0.0003337    0.0005250     0.0000849   -0.0000027     0.5063465   -0.4316863 
   0.015253802     0.7767633   -0.3874144     0.0008241    0.0001647     0.0001711    0.0000427     0.5024824   -0.4308307 
   0.015353827     0.7702330   -0.3907391     0.0003199    0.0008295     0.0000498   -0.0000308     0.5010747   -0.4301310 
   0.015453852     0.7810541   -0.3932123     0.0005895   -0.0005417    -0.0001964   -0.0001032     0.4992110   -0.4298217 
   0.015553877     0.7753485   -0.4037351    -0.0009588    0.0005987    -0.0002734    0.0000835     0.4959658   -0.4278620 
   0.015653902     0.7715001   -0.3958382    -0.0004241    0.0004991    -0.0000490    0.0000049     0.4940209   -0.4304929 
