! 26-Feb-26 12:59:12 PM
! E:\VNA_MEASUREMENTS\SP8T\SP8T_P7_RF1.S2P
! CHANNEL.1
! TR.MEASUREMENT
! CORRECTED.DATA
# GHZ S RI R 50.0
! FREQ.GHZ         S11RE         S11IM         S21RE         S21IM         S12RE         S12IM         S22RE         S22IM         
!; PortSelection: Port_12
   0.000050000     0.6404995    0.3085974    -0.5681093   -0.4833898    -0.0030520   -0.0024252     0.9838197   -0.0122008 
   0.000150025    -0.3290045    0.1325449    -1.3047230   -0.6047460    -0.0009547   -0.0004289     1.0134480   -0.0035532 
   0.000250050     0.0671281   -0.0976906     0.0052718    0.0003724     0.0000397   -0.0001331     0.9962459   -0.0234984 
   0.000350075     0.9704422   -0.1042607    -0.0048061   -0.0114232    -0.0002808   -0.0017538     0.9912811   -0.0326247 
   0.000450100     0.9835255   -0.0229822    -0.0002182   -0.0107513     0.0002217    0.0005302     0.9983107   -0.0147379 
   0.000550125     1.0201670   -0.0526828    -0.0027702   -0.0143015     0.0003589    0.0003858     0.9947432   -0.0326180 
   0.000650150     1.0364020   -0.0351592    -0.0034417   -0.0122596     0.0004181   -0.0002139     1.0091600   -0.0452075 
   0.000750175     0.9809881   -0.0569627    -0.0085438   -0.0108938     0.0003129   -0.0013947     0.9948273   -0.0496706 
   0.000850200     1.0174250   -0.0647163    -0.0061118   -0.0092956     0.0001706   -0.0004802     0.9966683   -0.0454088 
   0.000950225     1.0513680   -0.0724545    -0.0103904   -0.0070118    -0.0003687    0.0000691     0.9939381   -0.0685039 
   0.001050250     0.9858283   -0.0629206    -0.0106321   -0.0001734     0.0001212   -0.0008140     0.9954444   -0.0556916 
   0.001150275     0.9826528   -0.0486593    -0.0089398   -0.0079778    -0.0004461   -0.0001823     0.9869387   -0.0704988 
   0.001250300     0.9823847   -0.0585446    -0.0112312   -0.0052676    -0.0006292   -0.0009839     0.9942979   -0.0860574 
   0.001350325     1.0000350   -0.0270299    -0.0100263   -0.0038276     0.0002536    0.0003895     0.9814506   -0.0914552 
   0.001450350     0.9915238   -0.0766940    -0.0103587   -0.0043908     0.0006333    0.0011013     0.9849156   -0.0932358 
   0.001550375     1.0055900   -0.0512443    -0.0124765    0.0020047     0.0002719   -0.0003344     0.9948640   -0.0965170 
   0.001650400     0.9667320   -0.0571294    -0.0106990   -0.0029643     0.0005520   -0.0012423     0.9885707   -0.1051089 
   0.001750425     0.9558454   -0.0478932    -0.0079202    0.0007433    -0.0006255    0.0010800     0.9895888   -0.1105021 
   0.001850450     0.9928035   -0.0654254    -0.0110903   -0.0028848     0.0000130   -0.0001206     0.9847079   -0.1165471 
   0.001950475     1.0006520   -0.0223757    -0.0074867   -0.0023173    -0.0005679    0.0001410     0.9848638   -0.1239452 
   0.002050500     0.9869551   -0.0587698    -0.0095896    0.0037066    -0.0002250    0.0004395     0.9814574   -0.1385422 
   0.002150525     0.9843726   -0.0922397    -0.0081291   -0.0008041     0.0000468    0.0009871     0.9712331   -0.1373086 
   0.002250550     0.9577437   -0.0707975    -0.0072230    0.0075381     0.0008432   -0.0001317     0.9742562   -0.1394328 
   0.002350575     0.9750902   -0.1238554    -0.0046776    0.0020848    -0.0000069   -0.0011139     0.9731242   -0.1444307 
   0.002450600     1.0150490   -0.0689695    -0.0060164    0.0009174     0.0002241   -0.0002503     0.9770064   -0.1559595 
   0.002550625     1.0009310   -0.0791022    -0.0047033    0.0030223     0.0004460    0.0003795     0.9682434   -0.1644134 
   0.002650650     1.0120940   -0.0805002    -0.0037887    0.0029692    -0.0004930   -0.0002539     0.9686322   -0.1729786 
   0.002750675     1.0036430   -0.0675281    -0.0025687    0.0021468    -0.0002396   -0.0004339     0.9647319   -0.1855568 
   0.002850700     0.9910365   -0.1236815    -0.0009008    0.0058554     0.0005799   -0.0001968     0.9590650   -0.1806486 
   0.002950725     0.9440879   -0.1030787     0.0003028    0.0018390    -0.0001394    0.0002486     0.9592673   -0.1836854 
   0.003050750     0.9992896   -0.1307724    -0.0010167    0.0020536     0.0004014   -0.0000775     0.9553895   -0.1945001 
   0.003150775     0.9649430   -0.1237942    -0.0017974    0.0015364    -0.0001218    0.0007031     0.9486977   -0.1995013 
   0.003250800     0.9525222   -0.0768720    -0.0016864    0.0026031     0.0004263   -0.0000003     0.9527138   -0.1994457 
   0.003350825     1.0051700   -0.1013677    -0.0002425   -0.0003412     0.0007113   -0.0004338     0.9491249   -0.2092237 
   0.003450850     0.9675286   -0.1498823    -0.0042530    0.0021369     0.0003339   -0.0005692     0.9417731   -0.2127204 
   0.003550875     0.9480001   -0.1126792    -0.0019446    0.0023078     0.0002339    0.0005412     0.9402770   -0.2237387 
   0.003650900     0.9794136   -0.1262623     0.0009617    0.0014892    -0.0001038    0.0001372     0.9366632   -0.2251011 
   0.003750925     0.9597162   -0.1254979    -0.0021485    0.0008912    -0.0002051    0.0004028     0.9323440   -0.2322358 
   0.003850950     0.9635968   -0.1320878    -0.0020474    0.0028105     0.0000020    0.0001185     0.9364025   -0.2339947 
   0.003950975     0.9877982   -0.1124914    -0.0011820   -0.0006482     0.0003525   -0.0002416     0.9298615   -0.2377844 
   0.004051001     0.9496270   -0.1588006    -0.0027443    0.0017312    -0.0002511    0.0006509     0.9249209   -0.2387933 
   0.004151026     1.0025380   -0.1238705    -0.0009423    0.0018175     0.0004532   -0.0002443     0.9211838   -0.2499572 
   0.004251051     0.9496430   -0.1472647    -0.0002045    0.0023629    -0.0006502   -0.0003763     0.9186171   -0.2568202 
   0.004351076     0.9862661   -0.1101171    -0.0000865    0.0021168     0.0003909    0.0006412     0.9159738   -0.2584291 
   0.004451101     0.9760369   -0.1868541     0.0001886   -0.0011388    -0.0001940    0.0000419     0.9057806   -0.2610487 
   0.004551126     0.9808279   -0.1615622     0.0000035   -0.0008849    -0.0005297   -0.0007059     0.9116089   -0.2609854 
   0.004651151     0.9710900   -0.1701188    -0.0015568    0.0004819     0.0000775    0.0006448     0.9113349   -0.2731854 
   0.004751176     0.9679448   -0.1872550    -0.0018665    0.0008013    -0.0010996   -0.0001464     0.9035330   -0.2775285 
   0.004851201     0.9403046   -0.1665119    -0.0002037    0.0009095     0.0003935    0.0001790     0.8964926   -0.2825258 
   0.004951226     0.9464701   -0.1832737     0.0008534    0.0015428     0.0000717    0.0006025     0.8920781   -0.2791037 
   0.005051251     0.9791303   -0.1868596    -0.0011022   -0.0010964     0.0003523   -0.0006143     0.8910020   -0.2889562 
   0.005151276     0.9472902   -0.1414426    -0.0001146    0.0008862     0.0001464    0.0003195     0.8841686   -0.2924914 
   0.005251301     0.9499788   -0.1642462     0.0014294    0.0019533    -0.0004021    0.0002261     0.8803622   -0.2954870 
   0.005351326     0.9507778   -0.1385967     0.0010939    0.0001337    -0.0005646    0.0000169     0.8810438   -0.3055196 
   0.005451351     0.9797739   -0.1618347     0.0002143    0.0019480    -0.0003287   -0.0000788     0.8778278   -0.3080160 
   0.005551376     0.9720079   -0.1813353    -0.0013616    0.0004125    -0.0001790   -0.0000304     0.8694549   -0.3070805 
   0.005651401     0.9580708   -0.1931236    -0.0014247    0.0010573    -0.0002938   -0.0000666     0.8658193   -0.3166959 
   0.005751426     0.9267839   -0.1859276    -0.0008292    0.0015701     0.0000407   -0.0001517     0.8621578   -0.3167810 
   0.005851451     0.9331737   -0.1996918     0.0005985   -0.0004665    -0.0000530    0.0001504     0.8597932   -0.3207165 
   0.005951476     0.9443584   -0.1848777    -0.0007537    0.0016733    -0.0002276   -0.0002169     0.8546854   -0.3251317 
   0.006051501     0.9287444   -0.1886754    -0.0002167   -0.0005394    -0.0005410    0.0000846     0.8499534   -0.3271379 
   0.006151526     0.9337755   -0.2029579    -0.0002207    0.0024804     0.0003212   -0.0000393     0.8471714   -0.3336806 
   0.006251551     0.9572104   -0.1901009    -0.0005443    0.0013146    -0.0001222    0.0005697     0.8448065   -0.3386576 
   0.006351576     0.9364369   -0.2198138     0.0013795    0.0002008    -0.0001165    0.0003930     0.8383442   -0.3423756 
   0.006451601     0.9393868   -0.1967521    -0.0011180    0.0007423     0.0007894    0.0001191     0.8317156   -0.3414688 
   0.006551626     0.9326962   -0.2110555    -0.0005341    0.0009449     0.0001564   -0.0001543     0.8316248   -0.3419701 
   0.006651651     0.9418867   -0.2165197    -0.0019943    0.0000073     0.0006009    0.0002885     0.8269277   -0.3514759 
   0.006751676     0.9218031   -0.2275351     0.0016265    0.0010157    -0.0003093    0.0000002     0.8244857   -0.3476762 
   0.006851701     0.9258122   -0.2354558    -0.0013175   -0.0005490    -0.0005620   -0.0002785     0.8160468   -0.3560063 
   0.006951726     0.9215480   -0.2226914     0.0012003    0.0023693     0.0002858   -0.0006089     0.8131021   -0.3609318 
   0.007051751     0.9503199   -0.2448992    -0.0002368    0.0013542     0.0001606    0.0001109     0.8054591   -0.3569002 
   0.007151776     0.9078068   -0.2156380    -0.0013130   -0.0000791     0.0007074   -0.0003799     0.7994581   -0.3656684 
   0.007251801     0.9543024   -0.2180818     0.0000499   -0.0013612     0.0001935   -0.0000812     0.7969381   -0.3652348 
   0.007351826     0.9412913   -0.2384253    -0.0006859   -0.0012175    -0.0003923   -0.0000740     0.7961745   -0.3713107 
   0.007451851     0.9261857   -0.2273108     0.0005756   -0.0006065    -0.0001912    0.0005226     0.7912957   -0.3688454 
   0.007551876     0.9339266   -0.2420916     0.0002347    0.0014297     0.0006329   -0.0000487     0.7871574   -0.3742549 
   0.007651901     0.9543188   -0.2354557     0.0005856   -0.0011635    -0.0001273   -0.0000274     0.7811726   -0.3764324 
   0.007751926     0.9144426   -0.2337237    -0.0003673    0.0009250    -0.0001124    0.0001448     0.7793003   -0.3812979 
   0.007851951     0.9139521   -0.2413570     0.0001113   -0.0000660    -0.0001568    0.0002286     0.7719357   -0.3815949 
   0.007951976     0.9381102   -0.2635142    -0.0008904    0.0008929     0.0002362    0.0002895     0.7675772   -0.3823591 
   0.008052001     0.9296111   -0.2649827     0.0001386    0.0001200     0.0000085   -0.0000195     0.7644737   -0.3884518 
   0.008152026     0.9104555   -0.2537238    -0.0001410   -0.0007511     0.0006146   -0.0001750     0.7613350   -0.3927566 
   0.008252051     0.9152009   -0.2463291     0.0001157    0.0001539     0.0005944    0.0005650     0.7543457   -0.3873301 
   0.008352076     0.9214818   -0.2843447     0.0013816   -0.0007948    -0.0003139    0.0000576     0.7507182   -0.3957477 
   0.008452101     0.9250283   -0.2473614    -0.0019223    0.0007547    -0.0002115    0.0003190     0.7464990   -0.3946156 
   0.008552126     0.9237791   -0.2529786    -0.0007203   -0.0008428    -0.0003354   -0.0000294     0.7419723   -0.3984006 
   0.008652151     0.9221356   -0.2609289     0.0012391   -0.0003590    -0.0000776    0.0003808     0.7385893   -0.3995633 
   0.008752176     0.9231494   -0.2574316     0.0001071    0.0002336     0.0003168    0.0002268     0.7365626   -0.4023745 
   0.008852201     0.9020197   -0.2501082     0.0006709    0.0007544    -0.0001039    0.0002548     0.7270482   -0.4002791 
   0.008952226     0.9140828   -0.2617776    -0.0003523   -0.0005283     0.0000098   -0.0001118     0.7287651   -0.4015849 
   0.009052251     0.9047980   -0.2456811     0.0009730    0.0012017    -0.0001168    0.0001484     0.7252854   -0.4042222 
   0.009152276     0.8945025   -0.2782615    -0.0005343   -0.0016226     0.0001024   -0.0002453     0.7171767   -0.4094087 
   0.009252301     0.8988129   -0.2699741    -0.0001730   -0.0004636    -0.0000538   -0.0000407     0.7143317   -0.4090547 
   0.009352326     0.9205838   -0.2859214    -0.0006978    0.0002215     0.0002255    0.0000365     0.7115250   -0.4084154 
   0.009452351     0.9094630   -0.2769859    -0.0003141   -0.0002019     0.0000168   -0.0003231     0.7061809   -0.4100443 
   0.009552376     0.9022482   -0.2875494    -0.0005494    0.0006135     0.0000709    0.0000333     0.6996049   -0.4118871 
   0.009652401     0.8893179   -0.2792179    -0.0006892    0.0004471     0.0002976   -0.0002177     0.6960140   -0.4143130 
   0.009752426     0.8926344   -0.2920820     0.0013808    0.0012166     0.0001549    0.0000810     0.6933709   -0.4152808 
   0.009852451     0.8914639   -0.2955025    -0.0001252    0.0015026     0.0004165    0.0001237     0.6879484   -0.4169761 
   0.009952476     0.9029657   -0.3117230     0.0010464    0.0005308     0.0004271   -0.0002383     0.6827618   -0.4143664 
   0.010052501     0.8891635   -0.3036099     0.0007454   -0.0010171     0.0000716   -0.0000344     0.6825635   -0.4168001 
   0.010152526     0.8945504   -0.2929534    -0.0003888    0.0002480     0.0000553    0.0001536     0.6745950   -0.4184783 
   0.010252551     0.8879593   -0.3010911     0.0001751    0.0002625    -0.0002495   -0.0002273     0.6748931   -0.4253868 
   0.010352576     0.8987558   -0.3156225    -0.0013629   -0.0003074     0.0000844   -0.0000532     0.6675323   -0.4184473 
   0.010452601     0.8883102   -0.2892830     0.0002822   -0.0001080    -0.0001713    0.0001734     0.6641934   -0.4222152 
   0.010552626     0.8836467   -0.3094415    -0.0011512    0.0001953    -0.0001770    0.0001069     0.6615257   -0.4245627 
   0.010652651     0.8756554   -0.2964067     0.0000667   -0.0002012    -0.0000880   -0.0002207     0.6573809   -0.4224375 
   0.010752676     0.8919742   -0.3227349     0.0005170    0.0000474     0.0002325    0.0000426     0.6543751   -0.4267550 
   0.010852701     0.8859960   -0.2975426    -0.0000766    0.0006568    -0.0001055   -0.0002291     0.6538353   -0.4235679 
   0.010952726     0.8780179   -0.3125602    -0.0000859    0.0003366     0.0000746    0.0000160     0.6465067   -0.4271599 
   0.011052751     0.8625168   -0.3352434     0.0009588    0.0002314     0.0000157    0.0001640     0.6421177   -0.4300936 
   0.011152776     0.8634381   -0.3327748    -0.0005416    0.0005258     0.0000042   -0.0001974     0.6375037   -0.4289140 
   0.011252801     0.8687601   -0.3210722    -0.0007338   -0.0001855     0.0003660    0.0001290     0.6328127   -0.4297296 
   0.011352826     0.8665838   -0.3341210     0.0010132   -0.0004144     0.0001409   -0.0000245     0.6336371   -0.4274973 
   0.011452851     0.8670564   -0.3249476    -0.0004144   -0.0004160    -0.0000401    0.0002425     0.6254935   -0.4314221 
   0.011552876     0.8523915   -0.3373153    -0.0003868    0.0014036    -0.0001781    0.0002381     0.6223683   -0.4329988 
   0.011652901     0.8475430   -0.3464730     0.0009084    0.0003763     0.0001797   -0.0002373     0.6208172   -0.4325063 
   0.011752926     0.8467950   -0.3280772    -0.0005807    0.0002152     0.0000035    0.0002220     0.6174824   -0.4342842 
   0.011852951     0.8505743   -0.3510231     0.0003197    0.0012206     0.0000018   -0.0002056     0.6156222   -0.4320603 
   0.011952976     0.8382328   -0.3405207     0.0008430   -0.0003555     0.0000236   -0.0000300     0.6075649   -0.4326659 
   0.012053002     0.8459891   -0.3615885     0.0009355    0.0004221    -0.0002741   -0.0001345     0.6053719   -0.4330718 
   0.012153027     0.8481249   -0.3518055    -0.0001149    0.0004495    -0.0001400   -0.0000490     0.6027429   -0.4339252 
   0.012253052     0.8380114   -0.3591153    -0.0008545   -0.0006089    -0.0003565   -0.0000386     0.5977636   -0.4342607 
   0.012353077     0.8385816   -0.3501145    -0.0001352    0.0000150    -0.0001417    0.0001339     0.5947193   -0.4343528 
   0.012453102     0.8402050   -0.3464681     0.0007970    0.0008900    -0.0000583   -0.0000822     0.5915664   -0.4353246 
   0.012553127     0.8426083   -0.3629190    -0.0008553   -0.0005305    -0.0000171    0.0000588     0.5853432   -0.4321905 
   0.012653152     0.8449131   -0.3481087     0.0002542    0.0010273     0.0003916   -0.0001650     0.5864330   -0.4337909 
   0.012753177     0.8247877   -0.3487092    -0.0004595   -0.0001442    -0.0004251    0.0003028     0.5812221   -0.4345364 
   0.012853202     0.8384151   -0.3449066     0.0002815   -0.0001200     0.0000128   -0.0000557     0.5757501   -0.4340760 
   0.012953227     0.8329492   -0.3564072    -0.0005548   -0.0000964     0.0000014    0.0001822     0.5768786   -0.4354287 
   0.013053252     0.8195633   -0.3748624    -0.0001320   -0.0000092    -0.0001203    0.0000433     0.5723194   -0.4366110 
   0.013153277     0.8288179   -0.3542550    -0.0002334    0.0000812     0.0001951   -0.0004114     0.5667964   -0.4369390 
   0.013253302     0.8244158   -0.3505059    -0.0003288   -0.0003688     0.0002442    0.0000543     0.5636411   -0.4334095 
   0.013353327     0.8211961   -0.3552568     0.0005220    0.0002016    -0.0000902    0.0001658     0.5597071   -0.4346396 
   0.013453352     0.8302252   -0.3545142    -0.0001535    0.0007354     0.0001229    0.0000895     0.5580688   -0.4355225 
   0.013553377     0.8078088   -0.3625709    -0.0009636    0.0002979    -0.0001788   -0.0002130     0.5532381   -0.4346378 
   0.013653402     0.8148612   -0.3693973     0.0009667    0.0000859    -0.0002016    0.0000900     0.5503218   -0.4348607 
   0.013753427     0.8178203   -0.3721824    -0.0009384    0.0005493    -0.0001889    0.0001083     0.5464046   -0.4346260 
   0.013853452     0.8218077   -0.3813998    -0.0004434    0.0004123    -0.0000818   -0.0001380     0.5455931   -0.4356603 
   0.013953477     0.7975525   -0.3579068     0.0004954   -0.0001284     0.0002899   -0.0000591     0.5425047   -0.4330108 
   0.014053502     0.8287572   -0.3947051    -0.0011778   -0.0002762    -0.0000030    0.0000968     0.5372293   -0.4340400 
   0.014153527     0.8110630   -0.3834659    -0.0003938   -0.0002799    -0.0000257    0.0000255     0.5386521   -0.4329008 
   0.014253552     0.8044728   -0.3779245     0.0004924    0.0001668     0.0001527   -0.0002462     0.5340437   -0.4344512 
   0.014353577     0.7962639   -0.3776180    -0.0003452    0.0003974     0.0003272    0.0001296     0.5278271   -0.4321190 
   0.014453602     0.7924085   -0.3828021    -0.0006813   -0.0002499    -0.0001664    0.0001964     0.5274161   -0.4316671 
   0.014553627     0.8002891   -0.3887394    -0.0006958   -0.0008986     0.0001108   -0.0000566     0.5246159   -0.4338499 
   0.014653652     0.7980977   -0.3953800    -0.0008887    0.0005874    -0.0000553   -0.0000490     0.5189633   -0.4339789 
   0.014753677     0.7948422   -0.3948606    -0.0007061    0.0007678    -0.0000966   -0.0002063     0.5176212   -0.4313288 
   0.014853702     0.8037826   -0.3758824     0.0000909    0.0009197    -0.0000398    0.0002588     0.5148394   -0.4310128 
   0.014953727     0.7907395   -0.3935417     0.0007238    0.0005869     0.0000035   -0.0000479     0.5111359   -0.4320738 
   0.015053752     0.7808390   -0.3875438     0.0006012    0.0003021    -0.0002076   -0.0000448     0.5092579   -0.4317666 
   0.015153777     0.7902181   -0.4019891     0.0002169    0.0001932     0.0001339   -0.0001063     0.5089918   -0.4315829 
   0.015253802     0.7848027   -0.3989993     0.0003040    0.0006696    -0.0000683   -0.0002496     0.5031130   -0.4300142 
   0.015353827     0.7838138   -0.3963620    -0.0008055    0.0000407     0.0000547   -0.0000854     0.5012716   -0.4297086 
   0.015453852     0.7829232   -0.3982941    -0.0000699    0.0003185     0.0001072    0.0001249     0.4979955   -0.4284980 
   0.015553877     0.7767148   -0.4069349    -0.0005111   -0.0006041     0.0001979   -0.0001253     0.4959967   -0.4290459 
   0.015653902     0.7822197   -0.4066915    -0.0002800    0.0004103    -0.0001438    0.0000917     0.4928626   -0.4295626 
