! 26-Feb-26 12:06:46 PM
! E:\VNA_MEASUREMENTS\SP8T\SP8T_P4_RF8.S2P
! CHANNEL.1
! TR.MEASUREMENT
! CORRECTED.DATA
# GHZ S RI R 50.0
! FREQ.GHZ         S11RE         S11IM         S21RE         S21IM         S12RE         S12IM         S22RE         S22IM         
!; PortSelection: Port_12
   0.000050000     0.2011059    0.3940459    -0.1194820   -0.1997609    -0.0003716    0.0032175     1.0084130    0.0147275 
   0.000150025    -0.2375577   -0.0367767     1.2011480   -0.1052469     0.0005620   -0.0002334     1.0031090    0.0036996 
   0.000250050     0.3390666    0.1151411    -0.0128473    0.0067061     0.0013418    0.0001422     1.0022060   -0.0181810 
   0.000350075     0.9934037   -0.0216747     0.0015210   -0.0091954    -0.0004487   -0.0013264     0.9907967   -0.0307650 
   0.000450100     1.0183630   -0.0499725    -0.0047193   -0.0095162    -0.0001180   -0.0005005     0.9912882   -0.0177367 
   0.000550125     1.0144340   -0.0391403    -0.0016859   -0.0122927    -0.0006371   -0.0002744     0.9953452   -0.0370752 
   0.000650150     1.0098670   -0.0217972    -0.0057894   -0.0128662     0.0009916    0.0002509     0.9991114   -0.0524295 
   0.000750175     1.0289550   -0.0732862    -0.0061210   -0.0110740     0.0012552   -0.0010709     0.9868920   -0.0495681 
   0.000850200     1.0158230   -0.0516969    -0.0049011   -0.0072049    -0.0004665    0.0004709     0.9945050   -0.0457070 
   0.000950225     0.9944733   -0.0486666    -0.0077399   -0.0080744     0.0000672    0.0004503     0.9999681   -0.0650056 
   0.001050250     1.0457710   -0.0603472    -0.0090441   -0.0060091    -0.0022179    0.0003353     0.9921125   -0.0609987 
   0.001150275     1.0261530   -0.0144557    -0.0114536   -0.0041837    -0.0000015   -0.0000703     0.9870689   -0.0674820 
   0.001250300     0.9475744   -0.0482158    -0.0112469   -0.0068266     0.0008294    0.0000646     0.9939500   -0.0786871 
   0.001350325     1.0277800   -0.0857324    -0.0076059   -0.0036183    -0.0008935   -0.0014160     0.9890002   -0.0941248 
   0.001450350     0.9782476   -0.0519312    -0.0122309   -0.0038479     0.0001777   -0.0010690     0.9795138   -0.0852686 
   0.001550375     0.9791805   -0.0658737    -0.0120615    0.0035144     0.0003310    0.0002711     0.9924176   -0.0930594 
   0.001650400     0.9866135   -0.0561964    -0.0050998    0.0000257    -0.0001991    0.0002643     0.9827766   -0.1004529 
   0.001750425     0.9872758   -0.0571565    -0.0083939   -0.0006211    -0.0000857    0.0006536     0.9879340   -0.1046724 
   0.001850450     0.9389603   -0.0573860    -0.0076272    0.0016655    -0.0008266    0.0005391     0.9831245   -0.1142930 
   0.001950475     1.0424420   -0.0437102    -0.0083695    0.0022695     0.0000328    0.0001581     0.9824701   -0.1154409 
   0.002050500     0.9581134   -0.0608368    -0.0075292   -0.0000102     0.0001268   -0.0001044     0.9841986   -0.1339788 
   0.002150525     1.0685030   -0.0705633    -0.0063963    0.0024361     0.0006729   -0.0000087     0.9806892   -0.1389898 
   0.002250550     0.9470373   -0.0713760    -0.0073896    0.0007362    -0.0001791   -0.0008761     0.9796638   -0.1406395 
   0.002350575     0.9613052   -0.0876652    -0.0094037    0.0043038    -0.0004046   -0.0004737     0.9767160   -0.1438958 
   0.002450600     1.0063030   -0.1096729    -0.0074356    0.0033399    -0.0004596    0.0005305     0.9815571   -0.1484252 
   0.002550625     1.0323330   -0.1317320    -0.0080824    0.0036560    -0.0014795   -0.0003658     0.9740953   -0.1574955 
   0.002650650     0.9964250   -0.0926954    -0.0018823    0.0026803     0.0001030    0.0002007     0.9743376   -0.1655447 
   0.002750675     0.9688203   -0.0578736    -0.0025450    0.0023883     0.0000785    0.0002682     0.9623590   -0.1641965 
   0.002850700     1.0042540   -0.0646033    -0.0037454    0.0015223    -0.0005255   -0.0007043     0.9615700   -0.1772963 
   0.002950725     0.9765856   -0.0818930    -0.0033552    0.0058088     0.0001670    0.0001985     0.9555381   -0.1763435 
   0.003050750     1.0044130   -0.1048654    -0.0000161    0.0035046    -0.0009469    0.0004320     0.9604658   -0.1871879 
   0.003150775     0.9952025   -0.1462989    -0.0008410    0.0015059    -0.0000250   -0.0003423     0.9516813   -0.1954871 
   0.003250800     0.9549375   -0.0787844    -0.0014243    0.0027100     0.0004512    0.0002367     0.9549163   -0.1944301 
   0.003350825     0.9745688   -0.0855781    -0.0024767    0.0036391    -0.0000805    0.0004033     0.9462442   -0.1974916 
   0.003450850     0.9833715   -0.1311202     0.0013973    0.0043177     0.0002625    0.0004176     0.9486226   -0.2096378 
   0.003550875     0.9501728   -0.1446529    -0.0025822    0.0022082    -0.0000215   -0.0002501     0.9461318   -0.2096124 
   0.003650900     1.0015340   -0.1189573    -0.0010703   -0.0008370    -0.0002836   -0.0001475     0.9404854   -0.2159927 
   0.003750925     0.9818469   -0.1338155    -0.0024234    0.0005210    -0.0000995    0.0005446     0.9320098   -0.2223251 
   0.003850950     0.9706827   -0.1399146    -0.0005515    0.0016271     0.0006478    0.0005400     0.9364983   -0.2283577 
   0.003950975     0.9888951   -0.1152385    -0.0020196    0.0012959    -0.0003209   -0.0000481     0.9314739   -0.2265852 
   0.004051001     0.9483273   -0.1657762    -0.0002532    0.0017378     0.0004105    0.0001253     0.9258016   -0.2351375 
   0.004151026     1.0196770   -0.1424171    -0.0008917    0.0025508    -0.0004450    0.0002632     0.9254600   -0.2415915 
   0.004251051     0.9660317   -0.1248534     0.0010574    0.0020588     0.0003704   -0.0002077     0.9256316   -0.2500008 
   0.004351076     0.9764726   -0.1111719     0.0003316   -0.0000548     0.0000044   -0.0003468     0.9150294   -0.2527676 
   0.004451101     0.9754362   -0.1658951    -0.0002603   -0.0000045     0.0004736    0.0000399     0.9122444   -0.2539566 
   0.004551126     0.9813210   -0.1572331    -0.0008810    0.0018467    -0.0002265    0.0001100     0.9135984   -0.2553976 
   0.004651151     0.9698696   -0.1486705     0.0008480    0.0004650    -0.0001333    0.0000528     0.9147000   -0.2625468 
   0.004751176     1.0092770   -0.1742508    -0.0007380    0.0025464     0.0001126   -0.0000313     0.9074909   -0.2694624 
   0.004851201     0.9474217   -0.1514516    -0.0020149    0.0014553    -0.0004396    0.0007709     0.9020671   -0.2762761 
   0.004951226     0.9612218   -0.1428275     0.0010185    0.0009976     0.0005284    0.0000322     0.8975791   -0.2773809 
   0.005051251     0.9786996   -0.1906103    -0.0000104   -0.0012381    -0.0001922   -0.0001761     0.8958643   -0.2773896 
   0.005151276     0.9412827   -0.1583851    -0.0023227    0.0008753     0.0004040   -0.0003563     0.8895921   -0.2878262 
   0.005251301     0.9634656   -0.1675100     0.0005213    0.0017165     0.0001395   -0.0003235     0.8902427   -0.2860245 
   0.005351326     0.9528508   -0.1478127    -0.0012166    0.0019457    -0.0006679    0.0002607     0.8886386   -0.2914406 
   0.005451351     0.9648836   -0.1902546    -0.0011258    0.0013022    -0.0000836    0.0002964     0.8780519   -0.3010181 
   0.005551376     0.9852836   -0.1808932    -0.0011076   -0.0014961    -0.0000057    0.0001684     0.8782054   -0.2968352 
   0.005651401     1.0075980   -0.1756449    -0.0013758    0.0006628    -0.0000662   -0.0003563     0.8696214   -0.3099125 
   0.005751426     0.9358732   -0.1720975    -0.0002070    0.0009996    -0.0003376    0.0002799     0.8698577   -0.3088466 
   0.005851451     0.9672204   -0.2046551     0.0019718   -0.0003347    -0.0000610    0.0000528     0.8683946   -0.3162410 
   0.005951476     0.9354472   -0.1805829    -0.0026335   -0.0006993     0.0005747   -0.0000062     0.8661550   -0.3155289 
   0.006051501     0.9553179   -0.2061262     0.0016436    0.0021874     0.0000374    0.0003687     0.8612837   -0.3203163 
   0.006151526     0.9497045   -0.2212835    -0.0000903    0.0015102     0.0005427    0.0000606     0.8530863   -0.3281875 
   0.006251551     0.9604802   -0.1725626    -0.0006715    0.0014478     0.0003067    0.0002285     0.8479705   -0.3287838 
   0.006351576     0.9601191   -0.2013370    -0.0023298   -0.0001181     0.0001681    0.0000821     0.8444037   -0.3308977 
   0.006451601     0.9718090   -0.1919908    -0.0006622    0.0001018    -0.0001195   -0.0000403     0.8399761   -0.3353454 
   0.006551626     0.9592714   -0.2083312    -0.0003149    0.0018769     0.0003252   -0.0002639     0.8347312   -0.3361173 
   0.006651651     0.9553051   -0.1998511    -0.0004328    0.0000546     0.0002843   -0.0001267     0.8317409   -0.3408712 
   0.006751676     0.9382849   -0.2118029    -0.0006128    0.0004217     0.0000624   -0.0002753     0.8335295   -0.3429324 
   0.006851701     0.9686308   -0.2358743    -0.0013380    0.0016136    -0.0004613    0.0003845     0.8227624   -0.3506927 
   0.006951726     0.9099755   -0.2272769    -0.0008802    0.0003690    -0.0003357   -0.0004446     0.8214450   -0.3500377 
   0.007051751     0.9466786   -0.2116163    -0.0007278    0.0009098    -0.0001883    0.0007126     0.8144219   -0.3522642 
   0.007151776     0.9307458   -0.2303969     0.0004155   -0.0001640     0.0003220   -0.0001870     0.8123165   -0.3561147 
   0.007251801     0.9722364   -0.2187747    -0.0009695    0.0011535     0.0004172    0.0002143     0.8101301   -0.3612653 
   0.007351826     0.9587651   -0.2481508     0.0005824    0.0017214    -0.0000097    0.0003653     0.8018078   -0.3644947 
   0.007451851     0.9430641   -0.2414633    -0.0014120    0.0000170     0.0001294    0.0003735     0.8014325   -0.3644904 
   0.007551876     0.9489093   -0.2537077    -0.0010666    0.0014432     0.0000244   -0.0006510     0.7970357   -0.3664063 
   0.007651901     0.9734564   -0.2527312    -0.0022498    0.0009711     0.0001364    0.0002550     0.7923741   -0.3659192 
   0.007751926     0.9538730   -0.2451561    -0.0010528    0.0009924    -0.0005077    0.0001487     0.7876802   -0.3668453 
   0.007851951     0.9545012   -0.2557499     0.0001574    0.0014387     0.0003971    0.0003793     0.7847689   -0.3750861 
   0.007951976     0.9472064   -0.2631109    -0.0013046   -0.0002154     0.0002174    0.0000707     0.7789975   -0.3766135 
   0.008052001     0.9623270   -0.2783284     0.0010902    0.0000257    -0.0000584   -0.0001520     0.7723208   -0.3788127 
   0.008152026     0.9552136   -0.2646539     0.0013195    0.0007985     0.0002359   -0.0003610     0.7742653   -0.3829604 
   0.008252051     0.9396829   -0.2479820     0.0007232   -0.0001378     0.0001918   -0.0000631     0.7659748   -0.3817732 
   0.008352076     0.9599649   -0.2497838    -0.0002734    0.0005277     0.0002287   -0.0003254     0.7623848   -0.3858122 
   0.008452101     0.9581055   -0.2844308    -0.0010339    0.0008880     0.0000431    0.0001674     0.7628804   -0.3864725 
   0.008552126     0.9577177   -0.2796867     0.0002529   -0.0001400    -0.0000619   -0.0001786     0.7560488   -0.3904532 
   0.008652151     0.9452060   -0.2738539     0.0005015   -0.0000006    -0.0004302    0.0003468     0.7531459   -0.3941662 
   0.008752176     0.9563758   -0.2486100    -0.0005817   -0.0024670     0.0002421   -0.0001925     0.7499194   -0.3955862 
   0.008852201     0.9334432   -0.2809949     0.0002821    0.0006339    -0.0002734   -0.0002933     0.7450334   -0.3958485 
   0.008952226     0.9472153   -0.2892137    -0.0008261    0.0004882     0.0004251   -0.0001486     0.7408015   -0.3974553 
   0.009052251     0.9379078   -0.2691936    -0.0001608    0.0017269     0.0002947   -0.0005496     0.7389017   -0.4036741 
   0.009152276     0.9491447   -0.3013812     0.0007603   -0.0002715     0.0003512   -0.0002474     0.7299036   -0.4017427 
   0.009252301     0.9354160   -0.2987151    -0.0006059   -0.0006383    -0.0001632   -0.0003785     0.7274716   -0.4032978 
   0.009352326     0.9492486   -0.2942545    -0.0000472    0.0003450     0.0003787   -0.0001080     0.7240382   -0.4015624 
   0.009452351     0.9475707   -0.2966824     0.0001776    0.0001800    -0.0000365   -0.0003773     0.7198272   -0.4059690 
   0.009552376     0.9466525   -0.3013883     0.0000025    0.0006555     0.0000129   -0.0001618     0.7161182   -0.4052188 
   0.009652401     0.9233102   -0.2949611     0.0000738    0.0005154    -0.0003041   -0.0000119     0.7105521   -0.4075965 
   0.009752426     0.9356209   -0.3062662     0.0007694   -0.0001594    -0.0001171   -0.0001517     0.7068323   -0.4061993 
   0.009852451     0.9328719   -0.3312581    -0.0001046    0.0007037     0.0003421   -0.0000629     0.7035391   -0.4119270 
   0.009952476     0.9297557   -0.3208219    -0.0008137   -0.0008130     0.0000200    0.0000281     0.6964377   -0.4126229 
   0.010052501     0.9325634   -0.3091486    -0.0011805   -0.0010893    -0.0005412   -0.0000327     0.6966134   -0.4100040 
   0.010152526     0.9343970   -0.3120303    -0.0011976   -0.0010008    -0.0001984   -0.0002181     0.6908801   -0.4128989 
   0.010252551     0.9246264   -0.3180848    -0.0003080   -0.0001752     0.0000094    0.0003495     0.6878409   -0.4168946 
   0.010352576     0.9305197   -0.3396915     0.0012227   -0.0007939     0.0003397   -0.0002091     0.6812521   -0.4185885 
   0.010452601     0.9517593   -0.3246408     0.0003830    0.0010366    -0.0001618   -0.0003172     0.6793044   -0.4193233 
   0.010552626     0.9109033   -0.3336684     0.0006665   -0.0007049     0.0000223   -0.0000410     0.6755664   -0.4205797 
   0.010652651     0.9336901   -0.3282516    -0.0006644    0.0005559     0.0002158   -0.0000764     0.6718789   -0.4200536 
   0.010752676     0.9249256   -0.3443974     0.0000964   -0.0000557    -0.0001378    0.0001135     0.6681515   -0.4191082 
   0.010852701     0.9295324   -0.3317013     0.0002283   -0.0003932     0.0001799    0.0003440     0.6700169   -0.4205127 
   0.010952726     0.9261335   -0.3471240     0.0006236   -0.0001519     0.0001838   -0.0001043     0.6609777   -0.4216177 
   0.011052751     0.9144691   -0.3630958     0.0003362    0.0002177     0.0003897   -0.0001977     0.6559222   -0.4239545 
   0.011152776     0.9157638   -0.3431470     0.0008657    0.0007396    -0.0001726   -0.0004128     0.6529346   -0.4245313 
   0.011252801     0.9149987   -0.3642792     0.0014664   -0.0002312     0.0002902   -0.0000685     0.6504627   -0.4246564 
   0.011352826     0.9109892   -0.3630987     0.0011323    0.0001772     0.0000780    0.0001169     0.6449187   -0.4226123 
   0.011452851     0.9056173   -0.3561498     0.0001999    0.0007604     0.0001976   -0.0000007     0.6414149   -0.4239509 
   0.011552876     0.9024770   -0.3565569    -0.0009877   -0.0002295     0.0001236   -0.0000273     0.6390200   -0.4299454 
   0.011652901     0.9068685   -0.3876921     0.0006055   -0.0011219     0.0000561   -0.0001055     0.6358852   -0.4297382 
   0.011752926     0.8952447   -0.3571913     0.0002050   -0.0003370     0.0000826    0.0001081     0.6297565   -0.4260854 
   0.011852951     0.9176682   -0.3818576     0.0006057    0.0005045     0.0001298    0.0000438     0.6308246   -0.4293278 
   0.011952976     0.8936215   -0.3493155     0.0004978   -0.0001535    -0.0001362    0.0000115     0.6223677   -0.4287381 
   0.012053002     0.9096118   -0.3909176     0.0005828   -0.0000950    -0.0000870    0.0001286     0.6201736   -0.4301448 
   0.012153027     0.8917490   -0.3904725    -0.0017812   -0.0009035     0.0000372    0.0000268     0.6170681   -0.4303316 
   0.012253052     0.8783637   -0.3837697    -0.0002374   -0.0001566     0.0000447    0.0000066     0.6121278   -0.4308971 
   0.012353077     0.8989098   -0.3855540    -0.0004329   -0.0002865     0.0002688    0.0000938     0.6119671   -0.4323409 
   0.012453102     0.9079139   -0.3893959    -0.0009853   -0.0006468    -0.0001242   -0.0001476     0.6053831   -0.4317133 
   0.012553127     0.8732437   -0.4124463     0.0005372    0.0002600     0.0000294   -0.0000959     0.6024097   -0.4296820 
   0.012653152     0.9102434   -0.3922898     0.0000118   -0.0007000     0.0003454    0.0000630     0.5987455   -0.4321546 
   0.012753177     0.8988505   -0.3925867     0.0005404    0.0005076    -0.0004313   -0.0001123     0.5967190   -0.4303992 
   0.012853202     0.8836252   -0.3873736     0.0003627    0.0002657    -0.0002810   -0.0003836     0.5910665   -0.4323814 
   0.012953227     0.8978334   -0.3986672     0.0005132   -0.0001618     0.0002610    0.0001943     0.5921323   -0.4338349 
   0.013053252     0.8783624   -0.4086004    -0.0002508    0.0000902    -0.0001754   -0.0000222     0.5888831   -0.4321797 
   0.013153277     0.8809911   -0.4107317    -0.0008770   -0.0005843    -0.0000653   -0.0001832     0.5810953   -0.4355721 
   0.013253302     0.8916424   -0.3982279     0.0009121   -0.0008375    -0.0000176   -0.0000446     0.5805165   -0.4289483 
   0.013353327     0.8820244   -0.3978767    -0.0011589   -0.0001603     0.0000560    0.0002291     0.5765579   -0.4335329 
   0.013453352     0.8870831   -0.4010597    -0.0012245   -0.0004465    -0.0002442   -0.0000642     0.5737895   -0.4319688 
   0.013553377     0.8735482   -0.4068837    -0.0000519   -0.0005523    -0.0000827    0.0000291     0.5703148   -0.4324442 
   0.013653402     0.8825426   -0.4082538     0.0007652   -0.0001265    -0.0000273   -0.0000060     0.5660393   -0.4322691 
   0.013753427     0.8812378   -0.4225076    -0.0000036    0.0009169     0.0001772   -0.0001647     0.5631244   -0.4330723 
   0.013853452     0.8763364   -0.4405828     0.0007441   -0.0004033     0.0000011    0.0000249     0.5626637   -0.4304857 
   0.013953477     0.8703715   -0.4164064    -0.0003453    0.0000378    -0.0001506    0.0001219     0.5581545   -0.4349686 
   0.014053502     0.8836845   -0.4383174    -0.0000814   -0.0003156    -0.0000582    0.0000506     0.5524468   -0.4307099 
   0.014153527     0.8770527   -0.4266992     0.0006363   -0.0008464    -0.0001187   -0.0001419     0.5534123   -0.4315693 
   0.014253552     0.8840677   -0.4350884     0.0003354    0.0000857     0.0002812    0.0000810     0.5504643   -0.4316601 
   0.014353577     0.8638568   -0.4352351     0.0000962    0.0004641    -0.0000976   -0.0001017     0.5433879   -0.4315938 
   0.014453602     0.8515851   -0.4419115    -0.0004000   -0.0005153     0.0000187    0.0000072     0.5441833   -0.4316574 
   0.014553627     0.8679780   -0.4406174    -0.0002826   -0.0001262     0.0000926    0.0000423     0.5412397   -0.4298830 
   0.014653652     0.8696335   -0.4361896    -0.0006840   -0.0001193     0.0001740    0.0001594     0.5365138   -0.4325563 
   0.014753677     0.8572544   -0.4498264    -0.0005404    0.0001128     0.0001379    0.0001574     0.5329760   -0.4295582 
   0.014853702     0.8710772   -0.4365843    -0.0007001   -0.0005180    -0.0000798    0.0000996     0.5313382   -0.4288716 
   0.014953727     0.8531548   -0.4614688    -0.0001977   -0.0005176    -0.0001304   -0.0002093     0.5283165   -0.4277856 
   0.015053752     0.8606374   -0.4590847     0.0008285   -0.0003177     0.0000054    0.0000141     0.5248230   -0.4296910 
   0.015153777     0.8671224   -0.4618651     0.0005003   -0.0006325    -0.0000558    0.0000406     0.5233876   -0.4299533 
   0.015253802     0.8571547   -0.4625180     0.0000308    0.0008014     0.0000142    0.0000317     0.5181673   -0.4291166 
   0.015353827     0.8507881   -0.4744785     0.0003239    0.0003107     0.0002379    0.0000100     0.5169479   -0.4294886 
   0.015453852     0.8553456   -0.4725290     0.0000301    0.0000043     0.0000964   -0.0003109     0.5130408   -0.4271263 
   0.015553877     0.8485258   -0.4763697     0.0005876   -0.0001945     0.0001953    0.0000943     0.5105209   -0.4282283 
   0.015653902     0.8561476   -0.4762841     0.0001149   -0.0003138    -0.0000034    0.0001235     0.5086073   -0.4323874 
