! 26-Feb-26 11:27:44 AM
! E:\VNA_MEASUREMENTS\SP8T\SP8T_P1_RF8.S2P
! CHANNEL.1
! TR.MEASUREMENT
! CORRECTED.DATA
# GHZ S RI R 50.0
! FREQ.GHZ         S11RE         S11IM         S21RE         S21IM         S12RE         S12IM         S22RE         S22IM         
!; PortSelection: Port_12
   0.000050000     0.9189730   -0.3124138    -0.8085650   -0.5343878    -0.0058307   -0.0158301     1.0294360    0.0098286 
   0.000150025     0.2279497    0.1727320    -0.2643723    0.8245992    -0.0005941   -0.0006936     0.9974833   -0.0023916 
   0.000250050    -0.1974068   -0.2618652     0.0050908   -0.0025586    -0.0002168    0.0002552     0.9961445   -0.0129805 
   0.000350075     1.0349260   -0.0576540     0.0030997   -0.0114852     0.0013788   -0.0005206     0.9980845   -0.0389352 
   0.000450100     1.0087200   -0.0502835    -0.0059306   -0.0105961    -0.0005018   -0.0010782     0.9927188   -0.0190638 
   0.000550125     1.0291830   -0.0684155    -0.0065590   -0.0119756     0.0012747    0.0008476     0.9980267   -0.0400463 
   0.000650150     0.9970129   -0.0434458     0.0019372   -0.0102945    -0.0001753    0.0003799     1.0039620   -0.0511246 
   0.000750175     0.9905478   -0.0711086    -0.0072335   -0.0117526     0.0004651   -0.0006976     0.9927273   -0.0507407 
   0.000850200     0.9938649   -0.0622659    -0.0090738   -0.0100220     0.0008801   -0.0001126     0.9907705   -0.0499436 
   0.000950225     1.0413360   -0.0378267    -0.0093867   -0.0052248     0.0001360   -0.0000369     0.9927207   -0.0514525 
   0.001050250     0.9894351   -0.0421206    -0.0116257   -0.0072650    -0.0000466   -0.0002725     0.9945548   -0.0677495 
   0.001150275     0.9916770   -0.0861550    -0.0078626   -0.0000819     0.0012352    0.0005023     0.9891916   -0.0712763 
   0.001250300     0.9903674   -0.0572941    -0.0106648   -0.0012673     0.0007356    0.0000978     0.9968330   -0.0861513 
   0.001350325     1.0270960   -0.0308003    -0.0143375   -0.0025731    -0.0006544   -0.0004577     0.9914767   -0.0855814 
   0.001450350     1.0116250   -0.0527286    -0.0127706   -0.0020366    -0.0005029   -0.0007780     0.9869933   -0.0921690 
   0.001550375     1.0174820   -0.0844762    -0.0096816   -0.0019119    -0.0007157    0.0001060     0.9899423   -0.0906790 
   0.001650400     0.9641729   -0.0521884    -0.0073683   -0.0044961    -0.0001862    0.0000319     0.9855715   -0.0985130 
   0.001750425     1.0147300   -0.0627064    -0.0039786    0.0017349     0.0005722   -0.0004956     0.9852949   -0.1103805 
   0.001850450     0.9925789   -0.1026363    -0.0070373    0.0002441     0.0004454   -0.0004153     0.9814822   -0.1075008 
   0.001950475     1.0040710   -0.0250514    -0.0062769    0.0019138     0.0003108    0.0000877     0.9837580   -0.1226340 
   0.002050500     0.9668651   -0.0733306    -0.0094454   -0.0003431    -0.0002650    0.0001136     0.9805484   -0.1339329 
   0.002150525     1.0212000   -0.0981890    -0.0085362    0.0007476    -0.0006819   -0.0000152     0.9761541   -0.1373753 
   0.002250550     0.9930443   -0.0388557    -0.0043962    0.0041150    -0.0004140   -0.0003207     0.9777616   -0.1344555 
   0.002350575     0.9554996   -0.1153648    -0.0064161    0.0011077     0.0001044    0.0002349     0.9704783   -0.1514253 
   0.002450600     0.9847477   -0.1235655    -0.0047971    0.0015682     0.0009128   -0.0001168     0.9765383   -0.1590423 
   0.002550625     0.9907656   -0.1060424    -0.0059970    0.0033173     0.0001918   -0.0002227     0.9752049   -0.1552665 
   0.002650650     0.9795017   -0.0573527    -0.0055129    0.0034523     0.0008856   -0.0004237     0.9665505   -0.1705240 
   0.002750675     0.9459066   -0.0664129    -0.0039459    0.0003629    -0.0002555    0.0002338     0.9659810   -0.1756609 
   0.002850700     0.9926117   -0.0946331    -0.0035282    0.0043954     0.0001452    0.0003673     0.9651285   -0.1743178 
   0.002950725     0.9956515   -0.0867243    -0.0031607    0.0000061    -0.0001878   -0.0000121     0.9658921   -0.1765276 
   0.003050750     0.9941105   -0.1204921    -0.0016808    0.0037831     0.0001416    0.0008992     0.9614529   -0.1852318 
   0.003150775     1.0185480   -0.1440618    -0.0022897    0.0046584     0.0003153   -0.0002069     0.9562550   -0.1892735 
   0.003250800     0.9904544   -0.1165604    -0.0022227    0.0016345    -0.0003330    0.0001336     0.9493734   -0.1935222 
   0.003350825     0.9590179   -0.0680083    -0.0037667   -0.0002309     0.0005749   -0.0004253     0.9475810   -0.2060192 
   0.003450850     0.9387453   -0.1483585    -0.0000785   -0.0000428     0.0004637   -0.0001034     0.9480008   -0.2074655 
   0.003550875     0.9518366   -0.1312768    -0.0013518    0.0016411     0.0002898   -0.0002009     0.9493957   -0.2172786 
   0.003650900     0.9965162   -0.1240154     0.0005360    0.0016004     0.0002651    0.0002104     0.9422686   -0.2196217 
   0.003750925     0.9663818   -0.1286481    -0.0015525    0.0017478     0.0002561    0.0004039     0.9339151   -0.2254884 
   0.003850950     0.9848329   -0.1534272    -0.0014008    0.0018376    -0.0006558    0.0001318     0.9384400   -0.2303350 
   0.003950975     1.0067080   -0.1200528     0.0003708    0.0013268     0.0001087    0.0001599     0.9325050   -0.2284028 
   0.004051001     0.9587220   -0.1462865    -0.0019675    0.0042652     0.0002319   -0.0001740     0.9288905   -0.2352989 
   0.004151026     1.0249690   -0.1402435    -0.0004720   -0.0004455    -0.0000459   -0.0002676     0.9258318   -0.2409078 
   0.004251051     0.9891208   -0.1465258     0.0001126    0.0016196     0.0001848    0.0001477     0.9269374   -0.2463648 
   0.004351076     0.9698918   -0.1354459     0.0007323    0.0031125    -0.0005340    0.0004138     0.9156256   -0.2523471 
   0.004451101     0.9926642   -0.1601329    -0.0010058    0.0027912    -0.0001311    0.0002306     0.9111578   -0.2574294 
   0.004551126     0.9890890   -0.1427968    -0.0019173    0.0019132    -0.0001073    0.0003118     0.9106884   -0.2633578 
   0.004651151     0.9979580   -0.1434459     0.0146932   -0.0009181     0.0002027    0.0000439     0.9106279   -0.2675246 
   0.004751176     0.9982617   -0.1767294    -0.0002107    0.0010565    -0.0003969    0.0001455     0.9067168   -0.2716160 
   0.004851201     0.9310731   -0.1717436    -0.0008148   -0.0006289    -0.0001407    0.0004065     0.8969176   -0.2764440 
   0.004951226     0.9680080   -0.1706792    -0.0003064   -0.0002066    -0.0001663    0.0001574     0.9033252   -0.2742870 
   0.005051251     1.0004760   -0.1754533     0.0000602    0.0009818     0.0008989   -0.0005131     0.8975704   -0.2795891 
   0.005151276     0.9726938   -0.1630240     0.0009560    0.0015711    -0.0004123    0.0000861     0.8895851   -0.2856857 
   0.005251301     0.9734013   -0.1680730     0.0037847    0.0021744    -0.0000937   -0.0001709     0.8876873   -0.2920682 
   0.005351326     0.9706347   -0.1539044     0.0003511    0.0011787     0.0000077   -0.0003333     0.8886248   -0.2914423 
   0.005451351     0.9855977   -0.1604518     0.0000822   -0.0000207     0.0000893   -0.0005359     0.8833487   -0.3033813 
   0.005551376     0.9677882   -0.2113541    -0.0002150    0.0009350    -0.0006215   -0.0001717     0.8727266   -0.2959284 
   0.005651401     0.9777793   -0.1778480     0.0007370    0.0006964     0.0004395   -0.0000857     0.8768604   -0.3145108 
   0.005751426     0.9723797   -0.1936346    -0.0016637   -0.0010216     0.0002793    0.0002448     0.8699571   -0.3083608 
   0.005851451     0.9643010   -0.2171949     0.0010669   -0.0002017    -0.0002077    0.0001940     0.8644376   -0.3168227 
   0.005951476     0.9594167   -0.1766447     0.0005788    0.0000173    -0.0001996    0.0001092     0.8621578   -0.3152931 
   0.006051501     0.9465679   -0.2036135     0.0000171    0.0017188    -0.0003975    0.0000050     0.8616351   -0.3194645 
   0.006151526     0.9564062   -0.2100461    -0.0012520    0.0000076    -0.0003167    0.0002313     0.8488469   -0.3223281 
   0.006251551     0.9527631   -0.1643072    -0.0007850    0.0015535     0.0002212   -0.0002446     0.8513246   -0.3287644 
   0.006351576     0.9624498   -0.1917314    -0.0009289    0.0003454     0.0001621   -0.0000378     0.8450601   -0.3360033 
   0.006451601     0.9662734   -0.2057997    -0.0005476    0.0007895    -0.0003412   -0.0002401     0.8399757   -0.3358242 
   0.006551626     0.9643613   -0.2079796    -0.0008883    0.0016398    -0.0000193    0.0001259     0.8413498   -0.3379710 
   0.006651651     0.9575409   -0.2006040    -0.0009571    0.0012499     0.0000292    0.0000167     0.8317397   -0.3439706 
   0.006751676     0.9402629   -0.2442810    -0.0003782   -0.0013562     0.0004850    0.0003406     0.8323787   -0.3415981 
   0.006851701     0.9531834   -0.2463039    -0.0008732    0.0013038    -0.0002437   -0.0006229     0.8259931   -0.3487654 
   0.006951726     0.9421530   -0.2412823     0.0002281    0.0001429    -0.0001321   -0.0001173     0.8190643   -0.3535275 
   0.007051751     0.9504267   -0.2147571    -0.0007921   -0.0002441    -0.0000121   -0.0001392     0.8147666   -0.3510712 
   0.007151776     0.9422294   -0.2160314     0.0005554   -0.0013479    -0.0000140   -0.0001936     0.8100370   -0.3579124 
   0.007251801     0.9672289   -0.2231531     0.0007125   -0.0002316     0.0002330    0.0008055     0.8093032   -0.3620536 
   0.007351826     0.9520535   -0.2416670    -0.0009216   -0.0009615    -0.0002587   -0.0000636     0.8032377   -0.3666272 
   0.007451851     0.9433390   -0.2339716    -0.0004845    0.0005363    -0.0003567   -0.0000979     0.8023468   -0.3630164 
   0.007551876     0.9566269   -0.2613416    -0.0009974    0.0007698     0.0001455    0.0001816     0.7990251   -0.3662470 
   0.007651901     0.9521009   -0.2454623    -0.0000739   -0.0002160    -0.0001914    0.0004608     0.7896428   -0.3715125 
   0.007751926     0.9561942   -0.2490696    -0.0012398    0.0004742    -0.0000514   -0.0003615     0.7856182   -0.3738641 
   0.007851951     0.9398336   -0.2508441    -0.0002810   -0.0008527     0.0000014    0.0000471     0.7809113   -0.3728976 
   0.007951976     0.9409872   -0.2680451     0.0001969    0.0002659     0.0001812   -0.0003237     0.7797271   -0.3784144 
   0.008052001     0.9455722   -0.2616073    -0.0008392   -0.0018738    -0.0004133   -0.0001404     0.7715465   -0.3778018 
   0.008152026     0.9577323   -0.2604752     0.0003655   -0.0000009    -0.0000711    0.0000789     0.7711588   -0.3823409 
   0.008252051     0.9270721   -0.2502055     0.0013279    0.0002217     0.0002012    0.0003316     0.7629809   -0.3842046 
   0.008352076     0.9511088   -0.2810852     0.0002608   -0.0005187    -0.0002116   -0.0002658     0.7634458   -0.3876256 
   0.008452101     0.9562120   -0.2540285    -0.0007504    0.0004630     0.0002635   -0.0003165     0.7600186   -0.3877711 
   0.008552126     0.9529939   -0.2879471    -0.0002611    0.0008131    -0.0002764   -0.0003045     0.7534793   -0.3905522 
   0.008652151     0.9446076   -0.2618517     0.0009488   -0.0005697     0.0000331   -0.0004098     0.7492996   -0.3959477 
   0.008752176     0.9442930   -0.2706043     0.0008646   -0.0020016     0.0000342    0.0003504     0.7458228   -0.3988708 
   0.008852201     0.9329609   -0.2542690     0.0015631    0.0008980    -0.0002552    0.0003128     0.7397670   -0.3926583 
   0.008952226     0.9530317   -0.2891106    -0.0007170    0.0003910    -0.0005132   -0.0004585     0.7394648   -0.3959664 
   0.009052251     0.9467872   -0.2684696    -0.0000598    0.0001158    -0.0003507   -0.0002863     0.7344334   -0.4012210 
   0.009152276     0.9545403   -0.2926730     0.0007811    0.0003699     0.0002209   -0.0000502     0.7248375   -0.4042898 
   0.009252301     0.9572617   -0.2984577    -0.0011414   -0.0005042     0.0003678    0.0001476     0.7241189   -0.4048593 
   0.009352326     0.9527683   -0.2888578    -0.0010989    0.0000632     0.0001714   -0.0004654     0.7215093   -0.4044592 
   0.009452351     0.9342603   -0.2900125    -0.0003719   -0.0003765    -0.0000709   -0.0004533     0.7142104   -0.4044431 
   0.009552376     0.9509521   -0.3134950    -0.0014817    0.0002421     0.0002910   -0.0001397     0.7123979   -0.4059261 
   0.009652401     0.9344025   -0.2885478     0.0002539   -0.0001512    -0.0001052    0.0003369     0.7088021   -0.4066183 
   0.009752426     0.9174488   -0.3129528     0.0005632    0.0001668     0.0005708    0.0000949     0.7053966   -0.4075906 
   0.009852451     0.9324788   -0.3345629     0.0004059    0.0009584    -0.0001986    0.0002883     0.6995087   -0.4123952 
   0.009952476     0.9513616   -0.3185285     0.0002101   -0.0007038    -0.0001335    0.0002053     0.6952140   -0.4117784 
   0.010052501     0.9234243   -0.3167755    -0.0001120    0.0001165     0.0000851   -0.0000224     0.6935559   -0.4117278 
   0.010152526     0.9229298   -0.3120332     0.0001787   -0.0001133    -0.0002776   -0.0000668     0.6878651   -0.4123418 
   0.010252551     0.9268796   -0.3269639    -0.0003957   -0.0000769    -0.0004629   -0.0003168     0.6874463   -0.4199629 
   0.010352576     0.9433320   -0.3186637    -0.0010825    0.0004615    -0.0000540   -0.0003163     0.6803913   -0.4186281 
   0.010452601     0.9340385   -0.3176616    -0.0001651   -0.0001703    -0.0000430   -0.0003093     0.6735690   -0.4200820 
   0.010552626     0.9110762   -0.3341697    -0.0006718    0.0003436    -0.0000781   -0.0002012     0.6761478   -0.4211192 
   0.010652651     0.9396836   -0.3377536     0.0003458   -0.0004651     0.0000403    0.0002667     0.6689731   -0.4222230 
   0.010752676     0.9168119   -0.3536171    -0.0008994   -0.0000599     0.0003237   -0.0002327     0.6656526   -0.4238692 
   0.010852701     0.9278075   -0.3217544    -0.0004770    0.0005672    -0.0006062   -0.0002663     0.6631845   -0.4194429 
   0.010952726     0.9149237   -0.3449575     0.0004883    0.0000174    -0.0001645    0.0003006     0.6570964   -0.4250254 
   0.011052751     0.9144630   -0.3601151    -0.0014970   -0.0003737    -0.0002038   -0.0001849     0.6548228   -0.4272786 
   0.011152776     0.9262378   -0.3465140    -0.0021048   -0.0003927     0.0001619   -0.0001083     0.6517962   -0.4272380 
   0.011252801     0.9187497   -0.3656480    -0.0009494   -0.0010832    -0.0002381   -0.0002216     0.6475624   -0.4270677 
   0.011352826     0.9082121   -0.3645151    -0.0001256    0.0005465    -0.0002692   -0.0000717     0.6443702   -0.4242104 
   0.011452851     0.9112808   -0.3528437    -0.0002847    0.0003310    -0.0001219   -0.0000396     0.6368284   -0.4274275 
   0.011552876     0.9054139   -0.3606690    -0.0002910   -0.0000323    -0.0001298   -0.0001298     0.6350417   -0.4312296 
   0.011652901     0.9054963   -0.3827748    -0.0012695   -0.0003354    -0.0001607   -0.0002499     0.6313867   -0.4295969 
   0.011752926     0.8853461   -0.3519320    -0.0009819   -0.0001575     0.0000514   -0.0000882     0.6286492   -0.4298174 
   0.011852951     0.9169663   -0.3814056    -0.0009999   -0.0002083    -0.0002913   -0.0001126     0.6272856   -0.4300320 
   0.011952976     0.8999900   -0.3726922    -0.0000628   -0.0007263    -0.0000307    0.0001451     0.6209587   -0.4292794 
   0.012053002     0.8950202   -0.3857366     0.0007103    0.0011092     0.0001123   -0.0001238     0.6176054   -0.4305399 
   0.012153027     0.9090927   -0.3867990    -0.0008730    0.0001869    -0.0003086    0.0002572     0.6108882   -0.4310077 
   0.012253052     0.8991572   -0.3858489    -0.0000334    0.0000793     0.0000350   -0.0002038     0.6122743   -0.4295369 
   0.012353077     0.9095135   -0.3857943    -0.0006599   -0.0009355    -0.0002158   -0.0002371     0.6080089   -0.4301876 
   0.012453102     0.9036827   -0.3844705     0.0006135    0.0000433    -0.0003748    0.0002224     0.6053588   -0.4338926 
   0.012553127     0.8722280   -0.4039098    -0.0002608    0.0004112    -0.0005457    0.0002170     0.6002661   -0.4297591 
   0.012653152     0.9126185   -0.3847529     0.0007625    0.0002044    -0.0000274    0.0000416     0.5981401   -0.4323625 
   0.012753177     0.8858945   -0.4046155    -0.0004107   -0.0009600     0.0002236   -0.0001221     0.5941125   -0.4330033 
   0.012853202     0.8944336   -0.3827664     0.0002051   -0.0000942    -0.0000383    0.0002014     0.5886168   -0.4318967 
   0.012953227     0.8864104   -0.3848071    -0.0005653    0.0004210    -0.0000715   -0.0001170     0.5889831   -0.4347335 
   0.013053252     0.8738105   -0.4280718     0.0004687    0.0002318    -0.0001110    0.0003834     0.5851558   -0.4350563 
   0.013153277     0.8765304   -0.3955103    -0.0004199   -0.0001683     0.0000829    0.0000097     0.5804994   -0.4356918 
   0.013253302     0.8894580   -0.3994293    -0.0003777   -0.0002106    -0.0000524    0.0005580     0.5782347   -0.4303334 
   0.013353327     0.8925617   -0.4098478    -0.0014349    0.0002354    -0.0000272    0.0000655     0.5730400   -0.4358430 
   0.013453352     0.8881471   -0.3998591    -0.0002255   -0.0006509    -0.0001063   -0.0001869     0.5706909   -0.4332454 
   0.013553377     0.8649791   -0.4100562     0.0000967    0.0003153    -0.0003288    0.0000663     0.5671749   -0.4337733 
   0.013653402     0.8851405   -0.4106466    -0.0003713   -0.0001067    -0.0001856    0.0000219     0.5655591   -0.4320229 
   0.013753427     0.8783650   -0.4296620     0.0001141   -0.0005471    -0.0001991    0.0002364     0.5588154   -0.4326148 
   0.013853452     0.8810187   -0.4286216     0.0000574   -0.0000824    -0.0001332   -0.0001249     0.5599884   -0.4325205 
   0.013953477     0.8703960   -0.4201629    -0.0003309   -0.0002246    -0.0000759    0.0002278     0.5551728   -0.4348148 
   0.014053502     0.8770250   -0.4347678    -0.0001640    0.0003449    -0.0000408    0.0002662     0.5523797   -0.4323158 
   0.014153527     0.8798946   -0.4316389     0.0005543   -0.0007189    -0.0000302   -0.0001343     0.5513799   -0.4329730 
   0.014253552     0.8784671   -0.4247603    -0.0000449    0.0009808     0.0000958   -0.0000157     0.5479211   -0.4330349 
   0.014353577     0.8550810   -0.4373229    -0.0002931    0.0009367    -0.0000141    0.0001368     0.5414153   -0.4321433 
   0.014453602     0.8589534   -0.4329512     0.0000157   -0.0001926    -0.0000366   -0.0002635     0.5420405   -0.4316100 
   0.014553627     0.8610369   -0.4349378    -0.0002183    0.0006685    -0.0002917    0.0001385     0.5403666   -0.4322770 
   0.014653652     0.8633828   -0.4478674    -0.0003087    0.0008174     0.0000005    0.0001119     0.5325434   -0.4332766 
   0.014753677     0.8621308   -0.4484446    -0.0001349    0.0001487    -0.0000215    0.0001674     0.5301737   -0.4294522 
   0.014853702     0.8717197   -0.4527650    -0.0011771    0.0005809     0.0001018   -0.0001413     0.5295604   -0.4301154 
   0.014953727     0.8673412   -0.4725571     0.0003162    0.0005713    -0.0000242   -0.0000489     0.5243191   -0.4316926 
   0.015053752     0.8633283   -0.4604944    -0.0002595   -0.0000052     0.0000242    0.0000378     0.5220316   -0.4287122 
   0.015153777     0.8666357   -0.4586884    -0.0013640    0.0008734    -0.0000365   -0.0001140     0.5221886   -0.4313046 
   0.015253802     0.8471096   -0.4659929    -0.0002193   -0.0001694     0.0000842   -0.0002038     0.5175256   -0.4310656 
   0.015353827     0.8561819   -0.4664326     0.0008277    0.0004892    -0.0002609   -0.0001366     0.5135790   -0.4292880 
   0.015453852     0.8636929   -0.4654118     0.0007865   -0.0003413    -0.0004555    0.0000940     0.5109485   -0.4288164 
   0.015553877     0.8520272   -0.4731202    -0.0004884   -0.0005847    -0.0001123   -0.0002732     0.5084940   -0.4290406 
   0.015653902     0.8448328   -0.4770718    -0.0013779   -0.0003277    -0.0003049   -0.0001146     0.5057036   -0.4307965 
