! 26-Feb-26 11:54:15 AM
! E:\VNA_MEASUREMENTS\SP8T\SP8T_P4_RF5.S2P
! CHANNEL.1
! TR.MEASUREMENT
! CORRECTED.DATA
# GHZ S RI R 50.0
! FREQ.GHZ         S11RE         S11IM         S21RE         S21IM         S12RE         S12IM         S22RE         S22IM         
!; PortSelection: Port_12
   0.000050000     0.6635916   -0.2574682    -0.4169137   -0.1579522    -0.0154443    0.0045337     1.0068510    0.0821111 
   0.000150025    -0.2263083   -0.2096402     0.1007488   -0.4654211    -0.0001111   -0.0004650     1.0126030    0.0020260 
   0.000250050     0.4502743    0.2756020    -0.0020933   -0.0015106    -0.0020000    0.0013463     1.0051170   -0.0118292 
   0.000350075     0.9995755   -0.0475225    -0.0076051   -0.0112738    -0.0000188    0.0015368     0.9934261   -0.0228375 
   0.000450100     0.9849128   -0.0921830    -0.0005513   -0.0117941    -0.0006035    0.0011169     0.9817424   -0.0149219 
   0.000550125     0.9969298   -0.0358851    -0.0060211   -0.0047181     0.0007807   -0.0001841     1.0005850   -0.0336890 
   0.000650150     0.9854077   -0.0377766    -0.0069475   -0.0100580     0.0000879   -0.0000398     1.0062560   -0.0485825 
   0.000750175     1.0206850   -0.0625340    -0.0052447   -0.0082985    -0.0011864   -0.0003542     1.0039750   -0.0514525 
   0.000850200     0.9896216   -0.0775747    -0.0069785   -0.0049962    -0.0000922   -0.0000751     1.0022670   -0.0505582 
   0.000950225     1.0193800   -0.0367814    -0.0093124   -0.0063263    -0.0002549    0.0005551     0.9868684   -0.0588264 
   0.001050250     1.0295990   -0.0389612    -0.0101731   -0.0070679     0.0007514   -0.0006130     0.9838952   -0.0619237 
   0.001150275     1.0117320   -0.0420076    -0.0103365   -0.0044656     0.0012501    0.0002581     0.9843450   -0.0655877 
   0.001250300     0.9813029   -0.0297269    -0.0087652   -0.0068944    -0.0005561   -0.0005830     0.9989401   -0.0856378 
   0.001350325     1.0126200   -0.0801613    -0.0106776   -0.0007652    -0.0004314   -0.0008996     0.9878219   -0.0839684 
   0.001450350     0.9872474   -0.0859480    -0.0069077   -0.0020254    -0.0000133   -0.0001172     0.9802874   -0.0865989 
   0.001550375     0.9853526   -0.0615685    -0.0074388    0.0012579    -0.0006348   -0.0004992     0.9876051   -0.0894899 
   0.001650400     0.9957805   -0.0072195    -0.0088223   -0.0000943     0.0001705    0.0002490     0.9760492   -0.0972371 
   0.001750425     0.9696630   -0.0921893    -0.0111752   -0.0008616    -0.0000621    0.0004577     0.9866427   -0.1079429 
   0.001850450     0.9593646   -0.0849408    -0.0082699    0.0008187    -0.0011787    0.0001698     0.9819223   -0.1169100 
   0.001950475     1.0625450   -0.0599372    -0.0112996    0.0062585    -0.0008336   -0.0002110     0.9802868   -0.1183555 
   0.002050500     0.9756983   -0.0479271    -0.0081319    0.0019283     0.0008838    0.0005004     0.9876344   -0.1346467 
   0.002150525     1.0095110   -0.1221072    -0.0065949    0.0031987    -0.0000601   -0.0001823     0.9745467   -0.1313140 
   0.002250550     0.9920479   -0.0292986    -0.0072381    0.0044907    -0.0004727   -0.0003998     0.9768831   -0.1432268 
   0.002350575     0.9523808   -0.1064271    -0.0056570    0.0031026    -0.0002078    0.0005319     0.9751810   -0.1442312 
   0.002450600     1.0257520   -0.0415401    -0.0084602    0.0033030    -0.0003787    0.0002744     0.9807553   -0.1545610 
   0.002550625     0.9960997   -0.1374622    -0.0018140    0.0033923     0.0003268   -0.0000270     0.9674255   -0.1554515 
   0.002650650     0.9819409   -0.0801504    -0.0020947    0.0049031    -0.0005579    0.0007394     0.9709850   -0.1683359 
   0.002750675     0.9926204   -0.0634053    -0.0052961    0.0019785    -0.0000836    0.0002037     0.9645367   -0.1737778 
   0.002850700     0.9992040   -0.1054612    -0.0043552    0.0026927    -0.0001596   -0.0000932     0.9660100   -0.1757460 
   0.002950725     0.9338169   -0.0775378    -0.0065800    0.0035079    -0.0000988    0.0003327     0.9577352   -0.1807828 
   0.003050750     0.9471095   -0.0765697    -0.0035361    0.0015814     0.0004934    0.0007276     0.9601032   -0.1851694 
   0.003150775     0.9888998   -0.1172654    -0.0034056    0.0012579    -0.0004028   -0.0003960     0.9488796   -0.1944543 
   0.003250800     0.9516739   -0.0796081    -0.0023210    0.0011258     0.0002938   -0.0000496     0.9539279   -0.1931950 
   0.003350825     0.9576496   -0.0992193    -0.0031875    0.0051277    -0.0000890   -0.0002500     0.9493695   -0.2059817 
   0.003450850     0.9619905   -0.1559845    -0.0009666    0.0011675    -0.0004121   -0.0001596     0.9472989   -0.2038502 
   0.003550875     0.9552574   -0.1382076    -0.0034459    0.0013185    -0.0004412    0.0002596     0.9439816   -0.2180011 
   0.003650900     0.9689582   -0.0992198    -0.0012043    0.0018732    -0.0007492   -0.0003117     0.9405983   -0.2234040 
   0.003750925     0.9319313   -0.1494877    -0.0023599    0.0016530    -0.0007127   -0.0001425     0.9348438   -0.2263943 
   0.003850950     0.9733292   -0.1483782     0.0013953    0.0014789     0.0002126   -0.0001645     0.9362052   -0.2248888 
   0.003950975     0.9572600   -0.1228405    -0.0027911    0.0000872    -0.0002916    0.0003472     0.9319698   -0.2252984 
   0.004051001     0.9468741   -0.1377661    -0.0014801    0.0030568     0.0000749    0.0000745     0.9257814   -0.2302323 
   0.004151026     0.9860662   -0.1313182    -0.0031094    0.0010343     0.0004364   -0.0003903     0.9219103   -0.2408156 
   0.004251051     0.9507110   -0.1351867     0.0010246   -0.0005514     0.0004786    0.0007185     0.9232739   -0.2471621 
   0.004351076     0.9803991   -0.1391721     0.0031043    0.0003187     0.0006920    0.0000464     0.9213265   -0.2556691 
   0.004451101     0.9796445   -0.1662665    -0.0011469    0.0008495    -0.0001740    0.0000938     0.9159018   -0.2540575 
   0.004551126     0.9861007   -0.1568988    -0.0015114    0.0020056     0.0003161   -0.0004794     0.9186205   -0.2582466 
   0.004651151     0.9391500   -0.1524592     0.0042296    0.0032229     0.0001608   -0.0002595     0.9094880   -0.2652491 
   0.004751176     0.9798997   -0.1836112     0.0000702    0.0018281    -0.0001110   -0.0000048     0.9100955   -0.2756727 
   0.004851201     0.9421698   -0.1571233    -0.0009041    0.0024236     0.0001498   -0.0000114     0.8974539   -0.2699771 
   0.004951226     0.9729571   -0.1609306    -0.0005438    0.0004145    -0.0003242   -0.0000983     0.9033915   -0.2763903 
   0.005051251     0.9897713   -0.1675139     0.0014684    0.0013782    -0.0003910   -0.0003030     0.8976330   -0.2818663 
   0.005151276     0.9336051   -0.1550762    -0.0012276    0.0011811     0.0001816    0.0001501     0.8909957   -0.2845318 
   0.005251301     0.9491776   -0.1691274    -0.0003839    0.0044795     0.0000216   -0.0005320     0.8888762   -0.2841944 
   0.005351326     0.9183256   -0.1377518    -0.0015138    0.0015835    -0.0011246    0.0000988     0.8872044   -0.2934805 
   0.005451351     0.9598327   -0.1656130    -0.0016683    0.0001507     0.0001566   -0.0001462     0.8830900   -0.2988386 
   0.005551376     0.9650138   -0.1924168     0.0000680   -0.0003505     0.0002524   -0.0000821     0.8805594   -0.2986695 
   0.005651401     0.9460559   -0.1956379    -0.0014903    0.0004599     0.0000559    0.0002435     0.8743917   -0.3120483 
   0.005751426     0.9321610   -0.1838940    -0.0004384    0.0000995    -0.0006488   -0.0001050     0.8672565   -0.3094147 
   0.005851451     0.9598449   -0.2009767     0.0002020    0.0013818     0.0001181    0.0004250     0.8662786   -0.3101862 
   0.005951476     0.9562607   -0.1715423    -0.0000530   -0.0010909     0.0002398   -0.0000691     0.8620570   -0.3156731 
   0.006051501     0.9562858   -0.2137990    -0.0011338    0.0006371    -0.0005558    0.0004490     0.8588008   -0.3199155 
   0.006151526     0.9624538   -0.2055760     0.0020999    0.0003184     0.0005336   -0.0002646     0.8572111   -0.3238362 
   0.006251551     0.9642258   -0.1822559     0.0001359   -0.0005014     0.0006394   -0.0002795     0.8517928   -0.3330281 
   0.006351576     0.9362779   -0.2131929    -0.0001173   -0.0003932     0.0002943   -0.0000823     0.8459021   -0.3323262 
   0.006451601     0.9432619   -0.2030160    -0.0002986   -0.0007307     0.0001349    0.0004368     0.8415139   -0.3360100 
   0.006551626     0.9174808   -0.2091434     0.0012856    0.0012162     0.0001693    0.0003267     0.8394272   -0.3376378 
   0.006651651     0.9308502   -0.2011154     0.0004290    0.0003190    -0.0003479   -0.0000217     0.8340675   -0.3413553 
   0.006751676     0.9406299   -0.2291808     0.0019422    0.0006318     0.0004841    0.0001190     0.8328337   -0.3435318 
   0.006851701     0.9452160   -0.2285660    -0.0018967    0.0007994    -0.0001849    0.0003246     0.8219436   -0.3476627 
   0.006951726     0.9311603   -0.2311768    -0.0017695    0.0003609     0.0002564   -0.0003705     0.8205040   -0.3455729 
   0.007051751     0.9453661   -0.2165847     0.0000552    0.0013030     0.0002254   -0.0001316     0.8168611   -0.3528402 
   0.007151776     0.9012875   -0.2197228    -0.0013671    0.0001632     0.0000130    0.0003481     0.8116078   -0.3554894 
   0.007251801     0.9408426   -0.2115238     0.0001494   -0.0005766     0.0000484    0.0000416     0.8086405   -0.3590581 
   0.007351826     0.9249228   -0.2403335     0.0005103    0.0005128    -0.0000121    0.0001562     0.8040715   -0.3625319 
   0.007451851     0.9001401   -0.2349801    -0.0011819    0.0014482    -0.0000596    0.0001260     0.7999701   -0.3631188 
   0.007551876     0.9273701   -0.2448768    -0.0001184   -0.0009845    -0.0001678   -0.0005275     0.7992256   -0.3666712 
   0.007651901     0.9198594   -0.2594655    -0.0011866    0.0000982     0.0003697    0.0001834     0.7966195   -0.3715619 
   0.007751926     0.9223959   -0.2327039     0.0015777    0.0008474    -0.0000172   -0.0002692     0.7860751   -0.3755835 
   0.007851951     0.9179246   -0.2317152    -0.0002719    0.0008570    -0.0004335   -0.0002244     0.7861546   -0.3726582 
   0.007951976     0.9125841   -0.2766670    -0.0007643    0.0002441    -0.0002358    0.0001850     0.7787730   -0.3764132 
   0.008052001     0.9202712   -0.2433826    -0.0001864    0.0016821     0.0005305    0.0001737     0.7773646   -0.3802983 
   0.008152026     0.9318657   -0.2584011     0.0002006    0.0005098    -0.0001480   -0.0002710     0.7721661   -0.3822462 
   0.008252051     0.8981669   -0.2392683    -0.0016174    0.0004279    -0.0001699    0.0000577     0.7644182   -0.3839479 
   0.008352076     0.9183764   -0.2598076    -0.0004307    0.0007205     0.0000100    0.0001482     0.7665721   -0.3869656 
   0.008452101     0.9124181   -0.2598394    -0.0000540    0.0004264     0.0005179    0.0000894     0.7614292   -0.3853236 
   0.008552126     0.9162669   -0.2541747    -0.0009604    0.0010162    -0.0000588   -0.0004128     0.7591482   -0.3875197 
   0.008652151     0.9083753   -0.2382716    -0.0008320   -0.0012892    -0.0003387   -0.0001719     0.7498181   -0.3924084 
   0.008752176     0.9279820   -0.2596467    -0.0013578    0.0001674    -0.0001807   -0.0000872     0.7485588   -0.3952657 
   0.008852201     0.9123509   -0.2465600     0.0011414    0.0009483    -0.0001359    0.0002769     0.7417663   -0.3925544 
   0.008952226     0.9199673   -0.2661842    -0.0000883   -0.0007219     0.0002846    0.0002289     0.7416278   -0.3953741 
   0.009052251     0.9209937   -0.2631663     0.0000934    0.0005388    -0.0000406    0.0000817     0.7341879   -0.4009530 
   0.009152276     0.9162535   -0.2712249    -0.0001919    0.0012815     0.0000872   -0.0004960     0.7301287   -0.4018434 
   0.009252301     0.8935395   -0.2692803    -0.0007218   -0.0002098     0.0003077    0.0000205     0.7274425   -0.4069672 
   0.009352326     0.9120261   -0.2703429     0.0002404   -0.0010834    -0.0002455    0.0001871     0.7233642   -0.4031491 
   0.009452351     0.8932480   -0.2717799     0.0002008    0.0006951    -0.0001948    0.0001243     0.7183367   -0.4049776 
   0.009552376     0.9007744   -0.2949668     0.0009957   -0.0005761     0.0000485    0.0003889     0.7137845   -0.4087225 
   0.009652401     0.8997067   -0.2902757     0.0002719   -0.0007238    -0.0000683    0.0000450     0.7107623   -0.4085578 
   0.009752426     0.8924060   -0.2888269     0.0001208   -0.0001848     0.0002783   -0.0001548     0.7068099   -0.4083878 
   0.009852451     0.8976680   -0.3083372    -0.0008991    0.0001945     0.0001943   -0.0000932     0.7045038   -0.4101526 
   0.009952476     0.8971318   -0.3026080     0.0007912   -0.0007522     0.0000947    0.0001071     0.6977459   -0.4093603 
   0.010052501     0.8932121   -0.2860821    -0.0005548    0.0012002    -0.0003137   -0.0000180     0.6980424   -0.4117979 
   0.010152526     0.8793925   -0.2948299     0.0000334    0.0001636     0.0002189    0.0004069     0.6888613   -0.4102652 
   0.010252551     0.8898695   -0.3058529     0.0003457   -0.0007534     0.0000952   -0.0002574     0.6860861   -0.4173877 
   0.010352576     0.9014039   -0.3087404     0.0003504   -0.0011691     0.0001339    0.0002747     0.6829203   -0.4162438 
   0.010452601     0.8842955   -0.2887749     0.0006418   -0.0000876    -0.0000900    0.0000024     0.6815659   -0.4204268 
   0.010552626     0.8633859   -0.3089311     0.0005868    0.0001275    -0.0003135    0.0003600     0.6747606   -0.4200330 
   0.010652651     0.8822656   -0.3101838    -0.0011540   -0.0000306    -0.0003195    0.0003357     0.6730771   -0.4200835 
   0.010752676     0.8823829   -0.3260329    -0.0004868    0.0013101    -0.0001276   -0.0002139     0.6674899   -0.4215306 
   0.010852701     0.8837913   -0.3055739    -0.0004151    0.0010251     0.0000234   -0.0000889     0.6656520   -0.4210603 
   0.010952726     0.8714926   -0.3126197    -0.0020292   -0.0017362    -0.0001440   -0.0000612     0.6602337   -0.4227158 
   0.011052751     0.8749204   -0.3291802    -0.0005822   -0.0004634     0.0001686    0.0000372     0.6561547   -0.4246623 
   0.011152776     0.8685265   -0.3180562    -0.0000337   -0.0000103    -0.0000232    0.0001934     0.6520628   -0.4243785 
   0.011252801     0.8696348   -0.3239625    -0.0004717    0.0003356     0.0000326    0.0003562     0.6499431   -0.4238483 
   0.011352826     0.8654780   -0.3429593    -0.0004318    0.0005468    -0.0006338   -0.0001036     0.6467786   -0.4248298 
   0.011452851     0.8527855   -0.3245652    -0.0000813   -0.0005986    -0.0000066   -0.0000579     0.6407631   -0.4256850 
   0.011552876     0.8595276   -0.3384941    -0.0001077    0.0004402     0.0000622    0.0000733     0.6400211   -0.4306687 
   0.011652901     0.8566749   -0.3419243     0.0005419   -0.0006010    -0.0000297   -0.0002140     0.6349260   -0.4276943 
   0.011752926     0.8450793   -0.3374571    -0.0003532    0.0000588    -0.0000228    0.0001999     0.6285381   -0.4271110 
   0.011852951     0.8607116   -0.3464324     0.0009889    0.0008588     0.0001896    0.0004465     0.6297061   -0.4309265 
   0.011952976     0.8458113   -0.3423750    -0.0011221   -0.0000065    -0.0002321    0.0000013     0.6229627   -0.4280365 
   0.012053002     0.8381407   -0.3572248    -0.0007442   -0.0000895     0.0004563    0.0001485     0.6220602   -0.4273748 
   0.012153027     0.8574836   -0.3572001     0.0006669    0.0001364    -0.0002913    0.0003627     0.6154143   -0.4307736 
   0.012253052     0.8452712   -0.3500672     0.0001790   -0.0002821    -0.0002415    0.0001203     0.6153948   -0.4295870 
   0.012353077     0.8484628   -0.3485139    -0.0005698   -0.0001058    -0.0001156   -0.0001097     0.6108298   -0.4309636 
   0.012453102     0.8505796   -0.3491592     0.0004997    0.0001794     0.0001146   -0.0000869     0.6072505   -0.4319192 
   0.012553127     0.8339104   -0.3651828     0.0014095   -0.0000718     0.0001604    0.0001792     0.6024950   -0.4310547 
   0.012653152     0.8440070   -0.3485226    -0.0001659    0.0008038     0.0001773    0.0000705     0.6001074   -0.4328821 
   0.012753177     0.8334003   -0.3580627    -0.0001059   -0.0007976     0.0000109   -0.0001044     0.5961454   -0.4311511 
   0.012853202     0.8377542   -0.3490348    -0.0002989    0.0005375     0.0000612    0.0000048     0.5903329   -0.4304580 
   0.012953227     0.8340691   -0.3492677    -0.0000963    0.0002429     0.0001265    0.0001980     0.5892630   -0.4349805 
   0.013053252     0.8193687   -0.3717049     0.0004598    0.0000004    -0.0002200   -0.0001293     0.5886213   -0.4329377 
   0.013153277     0.8346850   -0.3629826     0.0001905    0.0005906     0.0000303   -0.0002350     0.5819799   -0.4355012 
   0.013253302     0.8191379   -0.3629996    -0.0005844   -0.0000822     0.0002557   -0.0000979     0.5800146   -0.4313521 
   0.013353327     0.8208883   -0.3653581     0.0009740    0.0003470     0.0000680   -0.0001170     0.5757020   -0.4326005 
   0.013453352     0.8230678   -0.3533468     0.0000183   -0.0005320     0.0000473    0.0003296     0.5732543   -0.4341368 
   0.013553377     0.8120868   -0.3606995    -0.0008949   -0.0017048    -0.0001228    0.0000833     0.5692888   -0.4355384 
   0.013653402     0.8205432   -0.3677449    -0.0010468    0.0000963    -0.0001141   -0.0002888     0.5665742   -0.4332229 
   0.013753427     0.8185049   -0.3674051    -0.0000944    0.0006576    -0.0002741    0.0000830     0.5633928   -0.4326333 
   0.013853452     0.8155023   -0.3789226     0.0009412   -0.0006616    -0.0001035   -0.0003412     0.5628293   -0.4327639 
   0.013953477     0.8016153   -0.3526050     0.0009291   -0.0001125    -0.0000704   -0.0000437     0.5563796   -0.4349889 
   0.014053502     0.8109241   -0.3868445     0.0002055   -0.0002501     0.0002897   -0.0000928     0.5554265   -0.4320243 
   0.014153527     0.8139631   -0.3706848     0.0000777   -0.0009655     0.0001179   -0.0001464     0.5521546   -0.4318075 
   0.014253552     0.8108718   -0.3759531     0.0000841    0.0001227    -0.0000275   -0.0001881     0.5505531   -0.4315349 
   0.014353577     0.7995307   -0.3776258     0.0001612   -0.0005293     0.0000593    0.0000547     0.5420543   -0.4306814 
   0.014453602     0.7934210   -0.3833316    -0.0001529   -0.0003064    -0.0002040    0.0004289     0.5426626   -0.4314848 
   0.014553627     0.7920620   -0.3826104     0.0009017   -0.0001778    -0.0001065    0.0001090     0.5398803   -0.4316692 
   0.014653652     0.7963755   -0.3892555     0.0001119   -0.0004536     0.0000749    0.0000462     0.5332657   -0.4325939 
   0.014753677     0.7907994   -0.3922088    -0.0000588    0.0000098    -0.0004384    0.0000449     0.5351173   -0.4300054 
   0.014853702     0.7961148   -0.3875360     0.0000326   -0.0004887     0.0000599   -0.0000290     0.5304633   -0.4294475 
   0.014953727     0.7827448   -0.4039037    -0.0005809    0.0002734     0.0001158   -0.0000121     0.5278222   -0.4312496 
   0.015053752     0.7854025   -0.3911297    -0.0009023    0.0004142     0.0000782   -0.0001168     0.5249638   -0.4287029 
   0.015153777     0.7881345   -0.3968852     0.0007797   -0.0009221    -0.0000257   -0.0001012     0.5233803   -0.4318059 
   0.015253802     0.7812326   -0.3975951    -0.0001581    0.0004150     0.0003496    0.0001241     0.5202843   -0.4308747 
   0.015353827     0.7787772   -0.3975615     0.0002065    0.0001395     0.0002082    0.0003710     0.5160823   -0.4298497 
   0.015453852     0.7946615   -0.4028925    -0.0001702   -0.0002756     0.0000115   -0.0000179     0.5143308   -0.4280217 
   0.015553877     0.7781905   -0.4071120    -0.0002704    0.0009896    -0.0000550    0.0002486     0.5121402   -0.4284756 
   0.015653902     0.7792491   -0.4064090    -0.0001753    0.0007805     0.0000678   -0.0000224     0.5084991   -0.4299414 
