! 26-Feb-26 12:09:29 PM
! E:\VNA_MEASUREMENTS\SP8T\SP8T_P5_RF5.S2P
! CHANNEL.1
! TR.MEASUREMENT
! CORRECTED.DATA
# GHZ S RI R 50.0
! FREQ.GHZ         S11RE         S11IM         S21RE         S21IM         S12RE         S12IM         S22RE         S22IM         
!; PortSelection: Port_12
   0.000050000     0.1723247    0.5030664    -0.0522255    0.1373806     0.0000354    0.0035588     1.0551940    0.0103358 
   0.000150025     0.0633598    0.1145372    -0.1039736   -0.7362820     0.0002032    0.0028867     1.0064130   -0.0072641 
   0.000250050    -0.4383212   -0.0785787     0.0032429    0.0057076     0.0003189    0.0022467     1.0016710   -0.0117034 
   0.000350075     0.9692964   -0.0664653    -0.0095243   -0.0022914    -0.0015745    0.0084089     0.9900420   -0.0186205 
   0.000450100     0.9724588    0.0058220    -0.0002616   -0.0002481    -0.0017157    0.0102240     0.9949746    0.0012891 
   0.000550125     0.9577023   -0.0478308    -0.0090696    0.0058077    -0.0014022    0.0129819     0.9970738   -0.0285468 
   0.000650150     0.9959958    0.0001037    -0.0011788    0.0067852    -0.0023663    0.0153911     1.0020160   -0.0328542 
   0.000750175     1.0183200   -0.0844407    -0.0050864    0.0072766    -0.0004780    0.0193994     0.9978185   -0.0351038 
   0.000850200     0.9865992   -0.1360633    -0.0147115    0.0116666    -0.0020101    0.0205456     0.9911510   -0.0256745 
   0.000950225     1.0157180   -0.0577006    -0.0146841    0.0148779    -0.0034589    0.0225456     1.0002540   -0.0415120 
   0.001050250     1.0096130   -0.0563091    -0.0101942    0.0234985    -0.0030181    0.0265931     0.9954380   -0.0344799 
   0.001150275     0.9867835   -0.0541609    -0.0173806    0.0243654    -0.0037227    0.0303628     0.9866490   -0.0450726 
   0.001250300     0.9692971   -0.0453047    -0.0154304    0.0342907    -0.0044776    0.0334423     0.9921550   -0.0501041 
   0.001350325     1.0093900   -0.0439744    -0.0130720    0.0324652    -0.0037587    0.0358988     0.9850091   -0.0574293 
   0.001450350     0.9958203   -0.0364671    -0.0127440    0.0351680    -0.0049354    0.0389490     0.9838863   -0.0538267 
   0.001550375     0.9821663   -0.0639557    -0.0140726    0.0397606    -0.0049793    0.0426756     0.9952673   -0.0583776 
   0.001650400     1.0200760   -0.0059779    -0.0170424    0.0465110    -0.0046012    0.0452006     0.9832396   -0.0602846 
   0.001750425     0.9691725   -0.0566392    -0.0139455    0.0501328    -0.0037734    0.0485069     0.9863515   -0.0674040 
   0.001850450     0.9518047   -0.0979465    -0.0105424    0.0503500    -0.0037098    0.0508153     0.9799660   -0.0650789 
   0.001950475     1.0084080   -0.0294748    -0.0110116    0.0557838    -0.0053470    0.0554607     0.9902851   -0.0682284 
   0.002050500     0.9534407   -0.0623094    -0.0071525    0.0630285    -0.0042723    0.0576111     0.9859047   -0.0835802 
   0.002150525     1.0292990   -0.0497554    -0.0137277    0.0674495    -0.0040191    0.0632729     0.9887836   -0.0807949 
   0.002250550     1.0043200   -0.0727734    -0.0112302    0.0685539    -0.0033626    0.0662715     0.9821060   -0.0835517 
   0.002350575     0.9394833   -0.1492667    -0.0053196    0.0671366    -0.0029328    0.0666300     0.9842577   -0.0818829 
   0.002450600     0.9894841   -0.0849941    -0.0076096    0.0736770    -0.0029734    0.0709931     0.9848762   -0.0882538 
   0.002550625     0.9747890   -0.0846371    -0.0077156    0.0794773    -0.0037930    0.0740465     0.9806299   -0.0836049 
   0.002650650     0.9787191   -0.0734534    -0.0031302    0.0806145    -0.0030058    0.0779604     0.9857456   -0.0981832 
   0.002750675     0.9800074   -0.0727174    -0.0051823    0.0852828    -0.0029075    0.0805083     0.9833053   -0.0990800 
   0.002850700     0.9987969   -0.0902284    -0.0035760    0.0838905    -0.0025766    0.0843883     0.9803138   -0.0990829 
   0.002950725     0.9135135   -0.1039713    -0.0040539    0.0833079    -0.0028824    0.0843770     0.9812092   -0.1006167 
   0.003050750     0.9914135   -0.1066954    -0.0019332    0.0942140    -0.0004285    0.0909106     0.9811035   -0.1070719 
   0.003150775     0.9531426   -0.1263761    -0.0023041    0.0930843     0.0012550    0.0923246     0.9716182   -0.1141810 
   0.003250800     0.9487340   -0.1022882     0.0009651    0.0950675    -0.0014234    0.0942461     0.9746830   -0.1048908 
   0.003350825     0.9656690   -0.1187256    -0.0000331    0.0991627     0.0012641    0.0984457     0.9714003   -0.1172819 
   0.003450850     0.9651065   -0.1429920     0.0010345    0.1064946     0.0023701    0.1028019     0.9795436   -0.1199615 
   0.003550875     0.9349675   -0.1308232     0.0038118    0.1069185     0.0031035    0.1042942     0.9750441   -0.1274663 
   0.003650900     1.0027020   -0.1093695     0.0004831    0.1140008     0.0032711    0.1093094     0.9710375   -0.1322783 
   0.003750925     0.9600393   -0.1532421     0.0039685    0.1136506     0.0047198    0.1104242     0.9654624   -0.1323170 
   0.003850950     0.9547847   -0.1651511     0.0072416    0.1134184     0.0052053    0.1135969     0.9761236   -0.1305354 
   0.003950975     0.9792951   -0.1085916     0.0024194    0.1201967     0.0038717    0.1185700     0.9692816   -0.1350293 
   0.004051001     0.9616252   -0.1873470     0.0097687    0.1233595     0.0081852    0.1201802     0.9660359   -0.1330532 
   0.004151026     0.9887444   -0.1075599     0.0031645    0.1251978     0.0052397    0.1251876     0.9628403   -0.1434067 
   0.004251051     0.9331222   -0.1209243     0.0007917    0.1246685     0.0065150    0.1253609     0.9653704   -0.1468879 
   0.004351076     0.9802595   -0.1358652     0.0085126    0.1348471     0.0092178    0.1302880     0.9626213   -0.1475412 
   0.004451101     0.9757120   -0.1640333     0.0101229    0.1369795     0.0098008    0.1335436     0.9615386   -0.1502469 
   0.004551126     0.9536653   -0.1450673     0.0078016    0.1361833     0.0094542    0.1365237     0.9678583   -0.1499528 
   0.004651151     0.9636717   -0.1553143     0.0099496    0.1439821     0.0114852    0.1400632     0.9682081   -0.1577328 
   0.004751176     0.9731539   -0.1887504     0.0138161    0.1445758     0.0144095    0.1434050     0.9644195   -0.1598624 
   0.004851201     0.9401566   -0.1485096     0.0125637    0.1449350     0.0115791    0.1438852     0.9579056   -0.1597861 
   0.004951226     0.9463064   -0.1551832     0.0124480    0.1481808     0.0131961    0.1478624     0.9580147   -0.1613560 
   0.005051251     0.9885367   -0.1580053     0.0145980    0.1549747     0.0135168    0.1532836     0.9564955   -0.1657538 
   0.005151276     0.9374304   -0.1540247     0.0121164    0.1546817     0.0144077    0.1531709     0.9541113   -0.1712809 
   0.005251301     0.9442764   -0.1515327     0.0123142    0.1569972     0.0143345    0.1567741     0.9534907   -0.1682920 
   0.005351326     0.9422147   -0.1616747     0.0194497    0.1603800     0.0164949    0.1584038     0.9552051   -0.1761802 
   0.005451351     0.9341133   -0.1960655     0.0221361    0.1589644     0.0206928    0.1620159     0.9542575   -0.1837688 
   0.005551376     0.9488707   -0.1758245     0.0207331    0.1643646     0.0184223    0.1656898     0.9485109   -0.1778725 
   0.005651401     0.9611566   -0.1670520     0.0190628    0.1714193     0.0209033    0.1710434     0.9546893   -0.1900736 
   0.005751426     0.9433710   -0.1888890     0.0235208    0.1709086     0.0222351    0.1713440     0.9472580   -0.1886558 
   0.005851451     0.9634982   -0.2058434     0.0259415    0.1771874     0.0251727    0.1752896     0.9449154   -0.1977725 
   0.005951476     0.9407535   -0.1931612     0.0243910    0.1755844     0.0241937    0.1775666     0.9476386   -0.1900314 
   0.006051501     0.9461591   -0.2089512     0.0315462    0.1811171     0.0273758    0.1798063     0.9436494   -0.2000940 
   0.006151526     0.9304754   -0.2193250     0.0304939    0.1794706     0.0303159    0.1813455     0.9458417   -0.2046392 
   0.006251551     0.9310771   -0.1747964     0.0232356    0.1782513     0.0266700    0.1865527     0.9432724   -0.2067105 
   0.006351576     0.9452391   -0.2009043     0.0274505    0.1893061     0.0295450    0.1887111     0.9387948   -0.2059370 
   0.006451601     0.9448346   -0.1930417     0.0274757    0.1917805     0.0313229    0.1930868     0.9386889   -0.2091520 
   0.006551626     0.9355791   -0.2182881     0.0333650    0.1955551     0.0327425    0.1956319     0.9407168   -0.2122345 
   0.006651651     0.9236470   -0.2183903     0.0344604    0.1915080     0.0345737    0.1953279     0.9353548   -0.2160555 
   0.006751676     0.9315258   -0.2163738     0.0334874    0.2025151     0.0353063    0.2002059     0.9377285   -0.2168346 
   0.006851701     0.9431273   -0.2289780     0.0380024    0.2051001     0.0386936    0.2036398     0.9348735   -0.2236803 
   0.006951726     0.9278556   -0.2196597     0.0376565    0.2066377     0.0375821    0.2057520     0.9326705   -0.2236911 
   0.007051751     0.9332504   -0.2239560     0.0420242    0.2066357     0.0397126    0.2087351     0.9310768   -0.2289750 
   0.007151776     0.9106566   -0.2350062     0.0409187    0.2087433     0.0409144    0.2090476     0.9261739   -0.2349068 
   0.007251801     0.9303333   -0.2136593     0.0385736    0.2129575     0.0409864    0.2131870     0.9252608   -0.2342403 
   0.007351826     0.9187160   -0.2417734     0.0446160    0.2162236     0.0465191    0.2150775     0.9265501   -0.2433921 
   0.007451851     0.9234784   -0.2298885     0.0420024    0.2176129     0.0449235    0.2185780     0.9241594   -0.2369934 
   0.007551876     0.9239380   -0.2347751     0.0455589    0.2247914     0.0459959    0.2215694     0.9202151   -0.2400377 
   0.007651901     0.9479339   -0.2471617     0.0476858    0.2306568     0.0497038    0.2259887     0.9195297   -0.2417908 
   0.007751926     0.9083633   -0.2194753     0.0435083    0.2247901     0.0474873    0.2256470     0.9156178   -0.2472299 
   0.007851951     0.9104761   -0.2532746     0.0556024    0.2282640     0.0512980    0.2282545     0.9190649   -0.2474468 
   0.007951976     0.9043121   -0.2711196     0.0519927    0.2297320     0.0541949    0.2297805     0.9142486   -0.2525839 
   0.008052001     0.9142932   -0.2624476     0.0567221    0.2371504     0.0556932    0.2344328     0.9138156   -0.2545934 
   0.008152026     0.9019626   -0.2527711     0.0531500    0.2327556     0.0558033    0.2363575     0.9155652   -0.2573350 
   0.008252051     0.8995501   -0.2481071     0.0543987    0.2401079     0.0561928    0.2375575     0.9080721   -0.2588150 
   0.008352076     0.9188532   -0.2715980     0.0618758    0.2456936     0.0616823    0.2417373     0.9086792   -0.2654767 
   0.008452101     0.9071709   -0.2615031     0.0604045    0.2457993     0.0602644    0.2446247     0.9066562   -0.2598637 
   0.008552126     0.9117396   -0.2527609     0.0608506    0.2477125     0.0635524    0.2478683     0.9061388   -0.2677433 
   0.008652151     0.9025273   -0.2673752     0.0696944    0.2472191     0.0640840    0.2483872     0.9025046   -0.2698276 
   0.008752176     0.9139749   -0.2588577     0.0645735    0.2537203     0.0673659    0.2540915     0.9074176   -0.2783096 
   0.008852201     0.9018369   -0.2569562     0.0649259    0.2533547     0.0667341    0.2544830     0.8990685   -0.2742153 
   0.008952226     0.9007018   -0.2809767     0.0703535    0.2523904     0.0690560    0.2561481     0.9000977   -0.2727788 
   0.009052251     0.9013039   -0.2664835     0.0708997    0.2575665     0.0704714    0.2607041     0.9003170   -0.2810397 
   0.009152276     0.8935302   -0.2613675     0.0682176    0.2614533     0.0711961    0.2606468     0.8893431   -0.2844481 
   0.009252301     0.9018453   -0.2676129     0.0722416    0.2662809     0.0754690    0.2651348     0.8954185   -0.2932303 
   0.009352326     0.8934568   -0.2813025     0.0754376    0.2655263     0.0751134    0.2661090     0.8910614   -0.2862412 
   0.009452351     0.8999277   -0.2840248     0.0807281    0.2705249     0.0778836    0.2691033     0.8872855   -0.2880383 
   0.009552376     0.8881114   -0.2890933     0.0777779    0.2716091     0.0790521    0.2691017     0.8852727   -0.2923505 
   0.009652401     0.9011205   -0.2913682     0.0794232    0.2763927     0.0826690    0.2740679     0.8836926   -0.2924609 
   0.009752426     0.8706670   -0.2870505     0.0824002    0.2690191     0.0821614    0.2733974     0.8850335   -0.2959822 
   0.009852451     0.8855221   -0.2961750     0.0830751    0.2762861     0.0855839    0.2783040     0.8830293   -0.2992516 
   0.009952476     0.8821689   -0.3174415     0.0921404    0.2787704     0.0897809    0.2761783     0.8775192   -0.3006713 
   0.010052501     0.8727022   -0.3005415     0.0879365    0.2780332     0.0867427    0.2811365     0.8790608   -0.2995757 
   0.010152526     0.8710651   -0.2833707     0.0872090    0.2806459     0.0868008    0.2845545     0.8755659   -0.3001777 
   0.010252551     0.8696826   -0.3038543     0.0935156    0.2877401     0.0929135    0.2868945     0.8789307   -0.3098772 
   0.010352576     0.8687984   -0.3186152     0.0939528    0.2846152     0.0951056    0.2871917     0.8729461   -0.3100767 
   0.010452601     0.8943042   -0.3007195     0.0925692    0.2972859     0.0977695    0.2939427     0.8701724   -0.3151402 
   0.010552626     0.8493416   -0.3184985     0.0997786    0.2896458     0.0980956    0.2904530     0.8720510   -0.3158068 
   0.010652651     0.8712558   -0.3198772     0.1043710    0.2950614     0.1026693    0.2946233     0.8700057   -0.3200496 
   0.010752676     0.8767943   -0.3187361     0.0999445    0.2992955     0.1029036    0.2974545     0.8633154   -0.3184637 
   0.010852701     0.8771786   -0.3052128     0.1051821    0.3015018     0.1035813    0.3034707     0.8659474   -0.3175260 
   0.010952726     0.8743483   -0.3051138     0.1021247    0.3066613     0.1043058    0.3050089     0.8612867   -0.3233286 
   0.011052751     0.8639970   -0.3523424     0.1156126    0.3043971     0.1120642    0.3014514     0.8632861   -0.3260040 
   0.011152776     0.8546278   -0.3239619     0.1088116    0.3018187     0.1104515    0.3049042     0.8572521   -0.3308834 
   0.011252801     0.8546166   -0.3317038     0.1098538    0.3017628     0.1116348    0.3059620     0.8536450   -0.3289828 
   0.011352826     0.8695468   -0.3462362     0.1164539    0.3144969     0.1177833    0.3099977     0.8552529   -0.3306576 
   0.011452851     0.8432994   -0.3395549     0.1179873    0.3077403     0.1171264    0.3092838     0.8520105   -0.3375087 
   0.011552876     0.8349206   -0.3395227     0.1199452    0.3070822     0.1184079    0.3112479     0.8523038   -0.3411025 
   0.011652901     0.8434273   -0.3471163     0.1203663    0.3098743     0.1206757    0.3138144     0.8483192   -0.3387289 
   0.011752926     0.8461183   -0.3371955     0.1196765    0.3180606     0.1215005    0.3161010     0.8437238   -0.3401078 
   0.011852951     0.8438438   -0.3515619     0.1236453    0.3187280     0.1254206    0.3196266     0.8476992   -0.3425310 
   0.011952976     0.8433629   -0.3355846     0.1246701    0.3216448     0.1254973    0.3204198     0.8399780   -0.3471189 
   0.012053002     0.8414102   -0.3607750     0.1306722    0.3236183     0.1296938    0.3207653     0.8402706   -0.3437378 
   0.012153027     0.8367403   -0.3526445     0.1298656    0.3203325     0.1312234    0.3234392     0.8381572   -0.3509668 
   0.012253052     0.8325077   -0.3572656     0.1335445    0.3266985     0.1328065    0.3241911     0.8357879   -0.3502539 
   0.012353077     0.8389546   -0.3550189     0.1353406    0.3278362     0.1341901    0.3285086     0.8364655   -0.3511392 
   0.012453102     0.8279458   -0.3525352     0.1398169    0.3258063     0.1360021    0.3282134     0.8303577   -0.3562160 
   0.012553127     0.8302868   -0.3661763     0.1367517    0.3296067     0.1383821    0.3305463     0.8265808   -0.3549812 
   0.012653152     0.8515888   -0.3525661     0.1423632    0.3407067     0.1423871    0.3360741     0.8253216   -0.3572039 
   0.012753177     0.8212291   -0.3546451     0.1411980    0.3319348     0.1420362    0.3375481     0.8291367   -0.3616571 
   0.012853202     0.8301487   -0.3461786     0.1429291    0.3400342     0.1436978    0.3394242     0.8201391   -0.3602461 
   0.012953227     0.8252293   -0.3512802     0.1438670    0.3388174     0.1448326    0.3420634     0.8234096   -0.3630545 
   0.013053252     0.8130184   -0.3655995     0.1462168    0.3360973     0.1480203    0.3420893     0.8218440   -0.3667898 
   0.013153277     0.8186586   -0.3694644     0.1543864    0.3391994     0.1510874    0.3410340     0.8172138   -0.3656078 
   0.013253302     0.8181434   -0.3610243     0.1528699    0.3427836     0.1527968    0.3463151     0.8158909   -0.3664987 
   0.013353327     0.8129444   -0.3689289     0.1554386    0.3446512     0.1550786    0.3462301     0.8131897   -0.3717831 
   0.013453352     0.8212395   -0.3617900     0.1554259    0.3479095     0.1567561    0.3491848     0.8083674   -0.3732733 
   0.013553377     0.7965465   -0.3680365     0.1587321    0.3457351     0.1553894    0.3469361     0.8052937   -0.3737888 
   0.013653402     0.8105051   -0.3709332     0.1572433    0.3506202     0.1615651    0.3506406     0.8057669   -0.3765019 
   0.013753427     0.8044001   -0.3739366     0.1600643    0.3495259     0.1631701    0.3509533     0.8007041   -0.3802968 
   0.013853452     0.8158069   -0.3899873     0.1682846    0.3567579     0.1679415    0.3531525     0.8031787   -0.3758449 
   0.013953477     0.7820082   -0.3639043     0.1610237    0.3508281     0.1623367    0.3556500     0.7997397   -0.3831177 
   0.014053502     0.7988850   -0.3939319     0.1744933    0.3530866     0.1712066    0.3539160     0.7981991   -0.3821843 
   0.014153527     0.7968279   -0.3835522     0.1716772    0.3549227     0.1712450    0.3596090     0.7983980   -0.3836943 
   0.014253552     0.8064034   -0.3738118     0.1743981    0.3681124     0.1753093    0.3642081     0.7953059   -0.3837729 
   0.014353577     0.7876800   -0.3915454     0.1780031    0.3603649     0.1754638    0.3562166     0.7882569   -0.3852889 
   0.014453602     0.7805939   -0.3875924     0.1797168    0.3579589     0.1754768    0.3611856     0.7877424   -0.3871169 
   0.014553627     0.7875978   -0.3898051     0.1811514    0.3629083     0.1800134    0.3641347     0.7882600   -0.3893827 
   0.014653652     0.7810288   -0.3942410     0.1809487    0.3632828     0.1812591    0.3629369     0.7816288   -0.3932137 
   0.014753677     0.7835680   -0.3934069     0.1863843    0.3690439     0.1820684    0.3679081     0.7828011   -0.3887829 
   0.014853702     0.7958123   -0.3917172     0.1899753    0.3665298     0.1879583    0.3701409     0.7791987   -0.3939525 
   0.014953727     0.7750097   -0.4089865     0.1936355    0.3663214     0.1886522    0.3659250     0.7787342   -0.3958975 
   0.015053752     0.7771316   -0.3986107     0.1863964    0.3654674     0.1918076    0.3693155     0.7736301   -0.4006889 
   0.015153777     0.7882346   -0.4113881     0.2002110    0.3766393     0.1986067    0.3707085     0.7748057   -0.3976859 
   0.015253802     0.7680281   -0.3995602     0.1970589    0.3708003     0.1938212    0.3746780     0.7741930   -0.4015858 
   0.015353827     0.7744582   -0.4029714     0.2041284    0.3757944     0.1988156    0.3747549     0.7708699   -0.4023066 
   0.015453852     0.7723913   -0.4124132     0.2045688    0.3762815     0.2008281    0.3736746     0.7673846   -0.4026032 
   0.015553877     0.7688082   -0.4103197     0.2070393    0.3761751     0.2034603    0.3769616     0.7664078   -0.4041747 
   0.015653902     0.7589423   -0.4015629     0.2019234    0.3735499     0.2033528    0.3804432     0.7650824   -0.4085497 
