! 26-Feb-26 11:23:40 AM
! E:\VNA_MEASUREMENTS\SP8T\SP8T_P1_RF4.S2P
! CHANNEL.1
! TR.MEASUREMENT
! CORRECTED.DATA
# GHZ S RI R 50.0
! FREQ.GHZ         S11RE         S11IM         S21RE         S21IM         S12RE         S12IM         S22RE         S22IM         
!; PortSelection: Port_12
   0.000050000    -1.4245520    0.2473594     0.4805353    0.0357526    -0.0033752   -0.0005728     0.9939217   -0.0233059 
   0.000150025     0.6030943    0.1895983    -0.5243254    0.3526154    -0.0016717    0.0003159     0.9981763   -0.0163778 
   0.000250050    -0.7253370   -0.1783620     0.0020326    0.0172965    -0.0004217   -0.0007360     0.9997454   -0.0131854 
   0.000350075     0.9868337   -0.0595680    -0.0016384   -0.0143863     0.0009155   -0.0005183     0.9932443   -0.0256754 
   0.000450100     0.9511202   -0.0695243    -0.0051615   -0.0151679     0.0009900    0.0005592     0.9901602   -0.0188659 
   0.000550125     1.0331180   -0.0487448    -0.0025702   -0.0118648     0.0003384   -0.0010484     0.9874074   -0.0353819 
   0.000650150     0.9404707   -0.0190306    -0.0091287   -0.0059300    -0.0005592   -0.0006342     1.0022820   -0.0488665 
   0.000750175     0.9675083   -0.0265731    -0.0112332   -0.0089944     0.0007373    0.0002652     0.9950661   -0.0524553 
   0.000850200     1.0069030   -0.0749097    -0.0055766   -0.0096122     0.0002233   -0.0010215     0.9907773   -0.0446729 
   0.000950225     1.0288680   -0.0217276    -0.0056536   -0.0041138     0.0001916   -0.0013695     0.9892575   -0.0670692 
   0.001050250     1.0053600   -0.0325643    -0.0118131   -0.0033279     0.0005235    0.0000665     0.9962431   -0.0601710 
   0.001150275     0.9879902   -0.0521897    -0.0121278   -0.0061575     0.0008016    0.0004212     0.9880958   -0.0708443 
   0.001250300     0.9646656   -0.0110527    -0.0128849   -0.0026439     0.0000777   -0.0000163     0.9890319   -0.0829981 
   0.001350325     1.0085790   -0.0623328    -0.0113282    0.0005451    -0.0007358   -0.0004283     0.9817702   -0.0909044 
   0.001450350     0.9970656   -0.0157650    -0.0061114   -0.0021042    -0.0002161    0.0000975     0.9905423   -0.0876843 
   0.001550375     0.9462093   -0.0710432    -0.0076502   -0.0010330    -0.0006357   -0.0002309     0.9929513   -0.0987965 
   0.001650400     0.9758672   -0.0279248    -0.0133360    0.0003911    -0.0007482    0.0000074     0.9809628   -0.0993394 
   0.001750425     0.9252933   -0.0247138    -0.0092682    0.0016680     0.0004956   -0.0006311     0.9841527   -0.1051769 
   0.001850450     0.9304157   -0.0434448    -0.0092759   -0.0010338     0.0006706   -0.0006203     0.9801636   -0.1067979 
   0.001950475     0.9808098   -0.0003939    -0.0093828   -0.0009106    -0.0001511    0.0001694     0.9852120   -0.1186238 
   0.002050500     0.9404739   -0.0041515    -0.0063559    0.0030719    -0.0007712    0.0005071     0.9799706   -0.1314766 
   0.002150525     0.9676917   -0.0632376    -0.0058223    0.0008519     0.0004531    0.0006084     0.9776987   -0.1336697 
   0.002250550     0.9392130   -0.0285884    -0.0061580    0.0021269     0.0001777   -0.0000250     0.9793992   -0.1326296 
   0.002350575     0.9760376   -0.0314318    -0.0070905    0.0019323    -0.0002462   -0.0001048     0.9729726   -0.1435066 
   0.002450600     0.9772362   -0.0304064    -0.0029744    0.0032419    -0.0001390   -0.0002721     0.9766312   -0.1575130 
   0.002550625     0.9419864   -0.0309886    -0.0067933    0.0043711     0.0004022    0.0006537     0.9740188   -0.1543701 
   0.002650650     0.9522352   -0.0016767    -0.0045792    0.0029734     0.0004130   -0.0012222     0.9712469   -0.1630778 
   0.002750675     0.9574487    0.0066827    -0.0032397    0.0007216    -0.0003673   -0.0006034     0.9629948   -0.1735827 
   0.002850700     0.9741963   -0.0371988    -0.0034822    0.0023898    -0.0000711   -0.0008978     0.9637591   -0.1759346 
   0.002950725     0.9386806   -0.0561384    -0.0041198    0.0021548    -0.0000016    0.0003084     0.9686578   -0.1744995 
   0.003050750     0.9596299   -0.0240917     0.0004968    0.0015336     0.0003203    0.0003398     0.9559839   -0.1908306 
   0.003150775     0.9599531   -0.0512106    -0.0032978    0.0007228    -0.0001029    0.0001705     0.9520165   -0.1909820 
   0.003250800     0.9156501   -0.0281774     0.0005485   -0.0003099     0.0001454    0.0005224     0.9518481   -0.1941349 
   0.003350825     0.9861147   -0.0252194    -0.0024916    0.0034100     0.0003531   -0.0008065     0.9424143   -0.2042801 
   0.003450850     0.9427525   -0.0631413    -0.0010050    0.0035062     0.0004009    0.0005158     0.9513267   -0.2051524 
   0.003550875     0.9045169   -0.0609620    -0.0038464    0.0028878    -0.0001740    0.0002234     0.9453579   -0.2115654 
   0.003650900     0.9382331   -0.0371251    -0.0013907    0.0011594    -0.0002896    0.0004213     0.9399237   -0.2195053 
   0.003750925     0.9516100   -0.0450991     0.0009070    0.0016731     0.0000606    0.0002214     0.9333262   -0.2285742 
   0.003850950     0.9506972   -0.0697533     0.0003045    0.0012136    -0.0000684    0.0000448     0.9360583   -0.2250274 
   0.003950975     0.9662068   -0.0064183    -0.0017059    0.0036869    -0.0004006   -0.0002995     0.9310332   -0.2316146 
   0.004051001     0.9441466   -0.0862146    -0.0003633    0.0026542     0.0003309    0.0002681     0.9304681   -0.2317697 
   0.004151026     0.9690226   -0.0359371    -0.0011306    0.0024234    -0.0002527    0.0000567     0.9251716   -0.2460003 
   0.004251051     0.9498351   -0.0413327    -0.0016803    0.0018367     0.0004969    0.0001461     0.9239844   -0.2474275 
   0.004351076     0.9391884   -0.0278534    -0.0025995    0.0040383     0.0001165   -0.0000085     0.9153422   -0.2526446 
   0.004451101     0.9533120   -0.0561041    -0.0000452    0.0017706    -0.0005004   -0.0003397     0.9137972   -0.2589748 
   0.004551126     0.9763542   -0.0678856    -0.0010178    0.0033881    -0.0003782    0.0000271     0.9123821   -0.2544784 
   0.004651151     0.9571920   -0.0113738    -0.0037809    0.0028295    -0.0003693    0.0001535     0.9077014   -0.2628900 
   0.004751176     0.9572919   -0.0687239     0.0013648    0.0032098    -0.0001420    0.0005081     0.9067773   -0.2731024 
   0.004851201     0.9326681   -0.0580668    -0.0005740    0.0010668     0.0001790   -0.0000013     0.8972451   -0.2752265 
   0.004951226     0.9308220   -0.0403126     0.0008501    0.0020490     0.0000121    0.0003100     0.9027986   -0.2789493 
   0.005051251     0.9677976   -0.0540033     0.0010371   -0.0009123    -0.0001802    0.0004299     0.8934595   -0.2766114 
   0.005151276     0.9247525   -0.0282115    -0.0015153    0.0004955    -0.0005430   -0.0000072     0.8900589   -0.2879672 
   0.005251301     0.9249505   -0.0342722     0.0010957    0.0023074     0.0002527   -0.0001381     0.8869969   -0.2903949 
   0.005351326     0.9349295   -0.0143450     0.0004760    0.0013075     0.0001624    0.0006792     0.8885371   -0.2959658 
   0.005451351     0.9539571   -0.0150238     0.0000933    0.0012789    -0.0000071    0.0005985     0.8810016   -0.3021474 
   0.005551376     0.9903647   -0.0598030    -0.0005475   -0.0009691    -0.0000349    0.0000332     0.8753883   -0.2973647 
   0.005651401     0.9387204   -0.0374976    -0.0009637   -0.0009017     0.0004144   -0.0000656     0.8738253   -0.3135806 
   0.005751426     0.9181566   -0.0307325    -0.0007351   -0.0001364     0.0001760    0.0004495     0.8673624   -0.3140957 
   0.005851451     0.9839289   -0.0597857    -0.0009045    0.0022673    -0.0003740    0.0004725     0.8673199   -0.3151691 
   0.005951476     0.9546486   -0.0238369    -0.0003281    0.0004948    -0.0000681    0.0003529     0.8643515   -0.3197884 
   0.006051501     0.9475253   -0.0429696    -0.0016814    0.0003221    -0.0000975   -0.0000511     0.8563645   -0.3231648 
   0.006151526     0.9378282   -0.0504597     0.0006763    0.0004367     0.0001768   -0.0001823     0.8531778   -0.3266510 
   0.006251551     0.9344003   -0.0165922    -0.0009553    0.0003913    -0.0002443    0.0004638     0.8527734   -0.3311284 
   0.006351576     0.9429477   -0.0351900     0.0006651    0.0006426     0.0001642    0.0000591     0.8463227   -0.3342132 
   0.006451601     0.9365447   -0.0391755    -0.0009441    0.0004516     0.0003379    0.0006388     0.8419332   -0.3361362 
   0.006551626     0.9207664   -0.0454284    -0.0006880    0.0001460    -0.0002157    0.0002418     0.8364822   -0.3362893 
   0.006651651     0.9356068   -0.0295622    -0.0001323   -0.0000116     0.0001552   -0.0004388     0.8348256   -0.3417466 
   0.006751676     0.9548764   -0.0595816    -0.0008205   -0.0007644     0.0002748    0.0003136     0.8319246   -0.3469168 
   0.006851701     0.9700117   -0.0459327    -0.0003299   -0.0010418    -0.0001130    0.0001311     0.8251000   -0.3510681 
   0.006951726     0.9350061   -0.0536104    -0.0014357   -0.0003155     0.0000171   -0.0000011     0.8220895   -0.3523127 
   0.007051751     0.9504642   -0.0349282    -0.0014439    0.0013677     0.0004108    0.0002220     0.8193458   -0.3544407 
   0.007151776     0.9438681   -0.0553705     0.0003113    0.0008476     0.0001792    0.0004284     0.8107455   -0.3579302 
   0.007251801     0.9529942   -0.0354582     0.0000831    0.0008406    -0.0003523    0.0001848     0.8067672   -0.3575668 
   0.007351826     0.9509692   -0.0513442     0.0015413    0.0004039    -0.0001059   -0.0002060     0.8022764   -0.3685632 
   0.007451851     0.9396435   -0.0246061    -0.0013998    0.0015675     0.0004448    0.0001136     0.7983131   -0.3677027 
   0.007551876     0.9372700   -0.0446516    -0.0011889   -0.0003984    -0.0000566    0.0005371     0.7963359   -0.3671793 
   0.007651901     0.9488394   -0.0403107     0.0003099    0.0003058     0.0003121    0.0002035     0.7922603   -0.3680210 
   0.007751926     0.9416413   -0.0344614    -0.0009139    0.0002079     0.0000426    0.0003119     0.7840907   -0.3737248 
   0.007851951     0.9567193   -0.0428132     0.0009352    0.0010678     0.0001010   -0.0003960     0.7827505   -0.3741308 
   0.007951976     0.9505472   -0.0717187     0.0003960   -0.0002736    -0.0001877    0.0002223     0.7794718   -0.3776878 
   0.008052001     0.9365473   -0.0432707     0.0006250   -0.0001571    -0.0004299    0.0002065     0.7744805   -0.3794033 
   0.008152026     0.9317945   -0.0512632     0.0004031   -0.0011746     0.0000822    0.0000992     0.7721505   -0.3850625 
   0.008252051     0.9187640   -0.0287930     0.0007055    0.0003500     0.0002691    0.0004746     0.7659702   -0.3833944 
   0.008352076     0.9392757   -0.0430338    -0.0002787   -0.0001993     0.0002025    0.0000594     0.7630004   -0.3876508 
   0.008452101     0.9402878   -0.0308182    -0.0026482    0.0016918     0.0001525    0.0002615     0.7596872   -0.3878224 
   0.008552126     0.9562633   -0.0439053    -0.0001009    0.0013448    -0.0004361    0.0004235     0.7523879   -0.3874687 
   0.008652151     0.9371586   -0.0296310    -0.0007412    0.0009061    -0.0001858    0.0000381     0.7480214   -0.3947719 
   0.008752176     0.9463230   -0.0225298    -0.0004120    0.0015899    -0.0001269    0.0002146     0.7460616   -0.3970085 
   0.008852201     0.9283790   -0.0334152    -0.0008774    0.0029797     0.0003843    0.0000846     0.7415353   -0.3946432 
   0.008952226     0.9636569   -0.0358378    -0.0006353    0.0006842     0.0001485    0.0000299     0.7389269   -0.3968873 
   0.009052251     0.9399097   -0.0379125    -0.0014715   -0.0010816     0.0000618    0.0003827     0.7332576   -0.4020146 
   0.009152276     0.9192248   -0.0438553     0.0000353    0.0008128    -0.0000761    0.0002805     0.7258552   -0.4020330 
   0.009252301     0.9338828   -0.0500267    -0.0007410   -0.0002079    -0.0000581    0.0001400     0.7234569   -0.4057013 
   0.009352326     0.9317638   -0.0492125    -0.0008484    0.0004234    -0.0001979    0.0004873     0.7207360   -0.4000157 
   0.009452351     0.9459063   -0.0438119    -0.0010394    0.0001460    -0.0000891    0.0000382     0.7152238   -0.4067856 
   0.009552376     0.9530982   -0.0504191     0.0008909   -0.0007449    -0.0001421   -0.0002227     0.7106432   -0.4042573 
   0.009652401     0.9379495   -0.0400148    -0.0000180    0.0003012    -0.0001639    0.0006232     0.7101761   -0.4090755 
   0.009752426     0.9436736   -0.0364717     0.0008737    0.0004323     0.0000719    0.0004291     0.7061058   -0.4091486 
   0.009852451     0.9431689   -0.0401140    -0.0017811    0.0002550    -0.0002286    0.0004113     0.6991350   -0.4132081 
   0.009952476     0.9380625   -0.0570228    -0.0009219    0.0002636    -0.0001071    0.0000346     0.6943632   -0.4095629 
   0.010052501     0.9305857   -0.0400239    -0.0005413    0.0000361    -0.0003769    0.0001638     0.6942596   -0.4107416 
   0.010152526     0.9480419   -0.0386908    -0.0000774    0.0000039     0.0000343    0.0002182     0.6882466   -0.4143111 
   0.010252551     0.9190728   -0.0333683    -0.0004458   -0.0006989    -0.0002679    0.0007563     0.6873618   -0.4184641 
   0.010352576     0.9438781   -0.0489397     0.0000666    0.0022477    -0.0001566    0.0000236     0.6794873   -0.4161990 
   0.010452601     0.9395939   -0.0336490    -0.0003930   -0.0002116    -0.0002653    0.0003626     0.6766766   -0.4204671 
   0.010552626     0.9375200   -0.0551420    -0.0010660    0.0003502    -0.0002360    0.0005244     0.6746341   -0.4214349 
   0.010652651     0.9533923   -0.0293849    -0.0022087    0.0000595    -0.0002584   -0.0000053     0.6696556   -0.4216563 
   0.010752676     0.9460705   -0.0543005    -0.0005923   -0.0001266     0.0000003    0.0004186     0.6659378   -0.4196030 
   0.010852701     0.9564767   -0.0323336    -0.0015016   -0.0001946    -0.0001528    0.0006434     0.6635506   -0.4189729 
   0.010952726     0.9360173   -0.0485832     0.0005591   -0.0008186    -0.0000734    0.0004020     0.6590320   -0.4232919 
   0.011052751     0.9358243   -0.0555871     0.0007392   -0.0004219    -0.0000345    0.0002925     0.6548961   -0.4247586 
   0.011152776     0.9517341   -0.0410193     0.0003002    0.0020287    -0.0002715    0.0000423     0.6504415   -0.4249791 
   0.011252801     0.9453368   -0.0478949    -0.0000174    0.0006473    -0.0003908    0.0005145     0.6457698   -0.4256003 
   0.011352826     0.9503974   -0.0546693     0.0001432    0.0011548    -0.0001964    0.0003382     0.6450874   -0.4267280 
   0.011452851     0.9307981   -0.0466495     0.0003699   -0.0002859    -0.0004768    0.0001871     0.6371945   -0.4276695 
   0.011552876     0.9385845   -0.0469001     0.0007629    0.0009904     0.0002098    0.0003011     0.6337548   -0.4272803 
   0.011652901     0.9393537   -0.0567653    -0.0009598    0.0020615    -0.0000156    0.0002295     0.6330304   -0.4295558 
   0.011752926     0.9358559   -0.0451524     0.0003501    0.0005377     0.0000652    0.0001950     0.6311671   -0.4288335 
   0.011852951     0.9488339   -0.0632069     0.0005641    0.0008582    -0.0001854    0.0003145     0.6272282   -0.4283147 
   0.011952976     0.9403425   -0.0531069    -0.0010532   -0.0002485    -0.0003792    0.0003233     0.6236316   -0.4289876 
   0.012053002     0.9448600   -0.0544231    -0.0003128    0.0002927    -0.0000969    0.0005691     0.6187283   -0.4298936 
   0.012153027     0.9456854   -0.0708277    -0.0004551    0.0011962     0.0001520    0.0001222     0.6139776   -0.4312115 
   0.012253052     0.9308337   -0.0519560     0.0003414   -0.0004153    -0.0003501    0.0004081     0.6111266   -0.4308668 
   0.012353077     0.9452363   -0.0432309     0.0003792    0.0010130    -0.0001246   -0.0001806     0.6091010   -0.4319184 
   0.012453102     0.9469188   -0.0459057     0.0003295   -0.0002492     0.0004419   -0.0000248     0.6031851   -0.4341306 
   0.012553127     0.9420112   -0.0730711     0.0005215    0.0000433     0.0003129    0.0005813     0.5998063   -0.4329216 
   0.012653152     0.9517804   -0.0599869     0.0002456    0.0001272     0.0000504    0.0003090     0.5960340   -0.4335247 
   0.012753177     0.9272411   -0.0626224     0.0009734    0.0006508     0.0001554    0.0005687     0.5952455   -0.4333780 
   0.012853202     0.9383865   -0.0404859     0.0015528   -0.0003711     0.0000058    0.0000202     0.5884362   -0.4329862 
   0.012953227     0.9383852   -0.0511449    -0.0007585   -0.0005819    -0.0000015    0.0003679     0.5882584   -0.4312796 
   0.013053252     0.9446259   -0.0625970    -0.0000123   -0.0002903     0.0004324    0.0005233     0.5859687   -0.4339994 
   0.013153277     0.9287191   -0.0482936    -0.0002391    0.0007721    -0.0001046    0.0004311     0.5808477   -0.4348918 
   0.013253302     0.9398212   -0.0575814     0.0001447    0.0005110     0.0000138    0.0001838     0.5773172   -0.4307833 
   0.013353327     0.9379726   -0.0550219     0.0000605   -0.0011584     0.0002477    0.0001892     0.5715199   -0.4342955 
   0.013453352     0.9413781   -0.0317798     0.0004012    0.0008505    -0.0002665    0.0002979     0.5722095   -0.4339302 
   0.013553377     0.9411206   -0.0689642     0.0003702    0.0002004     0.0000402    0.0005183     0.5681609   -0.4323015 
   0.013653402     0.9293498   -0.0520157    -0.0005286    0.0003550    -0.0001396    0.0008076     0.5645663   -0.4320819 
   0.013753427     0.9384980   -0.0501700    -0.0005079   -0.0002675     0.0001017    0.0007348     0.5609552   -0.4356542 
   0.013853452     0.9519731   -0.0680737     0.0007964   -0.0000507     0.0002970    0.0004397     0.5588048   -0.4328325 
   0.013953477     0.9214634   -0.0484284     0.0005448    0.0010679    -0.0001503    0.0003017     0.5568397   -0.4347356 
   0.014053502     0.9486802   -0.0588505    -0.0001098    0.0002468     0.0000959    0.0001358     0.5504359   -0.4309126 
   0.014153527     0.9363334   -0.0539709     0.0003907    0.0005108    -0.0000732    0.0004087     0.5501760   -0.4311295 
   0.014253552     0.9497895   -0.0473614     0.0014618   -0.0000737    -0.0002201    0.0006837     0.5477459   -0.4328423 
   0.014353577     0.9311374   -0.0640037     0.0001126    0.0003644    -0.0001902    0.0002222     0.5429927   -0.4311993 
   0.014453602     0.9450446   -0.0634787    -0.0006234   -0.0000526    -0.0000420    0.0006989     0.5400896   -0.4318888 
   0.014553627     0.9395668   -0.0593348    -0.0003113    0.0010494    -0.0000825    0.0003722     0.5405193   -0.4323857 
   0.014653652     0.9435974   -0.0635315     0.0003087    0.0008280    -0.0000937    0.0000379     0.5327406   -0.4309153 
   0.014753677     0.9202166   -0.0503283    -0.0005325    0.0015729     0.0000506    0.0003672     0.5314485   -0.4312234 
   0.014853702     0.9378917   -0.0509582     0.0000211   -0.0000358    -0.0001929    0.0002013     0.5296034   -0.4310849 
   0.014953727     0.9420691   -0.0789680     0.0001893   -0.0002067    -0.0001161    0.0004443     0.5255712   -0.4294749 
   0.015053752     0.9325778   -0.0561146     0.0003443    0.0002287     0.0003442    0.0007531     0.5226298   -0.4301857 
   0.015153777     0.9496829   -0.0648276    -0.0006270    0.0003917    -0.0001741    0.0003224     0.5220162   -0.4320173 
   0.015253802     0.9368529   -0.0668135    -0.0006160   -0.0001001    -0.0001110    0.0003608     0.5179390   -0.4297569 
   0.015353827     0.9321331   -0.0668393    -0.0008137    0.0010212     0.0000747    0.0004570     0.5136608   -0.4301827 
   0.015453852     0.9400570   -0.0500580    -0.0001201    0.0002861    -0.0002367    0.0003120     0.5116830   -0.4283900 
   0.015553877     0.9417400   -0.0659814    -0.0000935    0.0012279    -0.0000973    0.0002872     0.5101693   -0.4286910 
   0.015653902     0.9434153   -0.0567463    -0.0004915   -0.0002308     0.0001140    0.0005177     0.5046123   -0.4311008 
