! 26-Feb-26 1:11:10 PM
! E:\VNA_MEASUREMENTS\SP8T\SP8T_P8_RF3.S2P
! CHANNEL.1
! TR.MEASUREMENT
! CORRECTED.DATA
# GHZ S RI R 50.0
! FREQ.GHZ         S11RE         S11IM         S21RE         S21IM         S12RE         S12IM         S22RE         S22IM         
!; PortSelection: Port_12
   0.000050000     0.1965841    0.2610755    -0.0933358   -0.0879315    -0.0001257   -0.0023354     1.0630850   -0.0305780 
   0.000150025    -0.1467955    0.3497484    -0.6057438    0.0422031     0.0009223   -0.0008924     1.0076450   -0.0183994 
   0.000250050     0.1893189    0.0815283    -0.0099712   -0.0014444    -0.0005619    0.0000670     1.0127630   -0.0186000 
   0.000350075     0.9888701   -0.0325032    -0.0030100   -0.0121013    -0.0001424   -0.0012244     0.9940500   -0.0289064 
   0.000450100     0.9653310   -0.0037140    -0.0067358   -0.0069483    -0.0009210    0.0002787     0.9902847   -0.0166710 
   0.000550125     1.0243960   -0.0049848    -0.0054505   -0.0104996     0.0000947   -0.0007200     0.9934685   -0.0340827 
   0.000650150     1.0028080   -0.0220956    -0.0067467   -0.0102803    -0.0012223   -0.0002353     1.0052800   -0.0462816 
   0.000750175     1.0008880   -0.0409259    -0.0115399   -0.0127079     0.0003016   -0.0001197     0.9947976   -0.0517844 
   0.000850200     1.0106970   -0.0583998    -0.0101573   -0.0125076    -0.0003521    0.0005276     0.9937007   -0.0434986 
   0.000950225     1.0040100   -0.0082698    -0.0073410   -0.0064025     0.0011192    0.0000484     0.9895817   -0.0584314 
   0.001050250     1.0164010   -0.0085160    -0.0046205   -0.0037770    -0.0001137    0.0006481     0.9945722   -0.0639217 
   0.001150275     1.0344210   -0.0543100    -0.0138674   -0.0052641    -0.0010292    0.0009168     0.9920660   -0.0678007 
   0.001250300     0.9646939   -0.0256323    -0.0123423   -0.0016648    -0.0005717    0.0015186     0.9972623   -0.0877418 
   0.001350325     1.0130260   -0.0583727    -0.0100888   -0.0025887     0.0001233   -0.0001105     0.9857099   -0.0808816 
   0.001450350     0.9717778   -0.0468907    -0.0092847   -0.0040505     0.0003378   -0.0008857     0.9883714   -0.0862877 
   0.001550375     0.9627625   -0.0540278    -0.0071470   -0.0007210    -0.0000224    0.0010737     0.9956000   -0.0966447 
   0.001650400     0.9858404   -0.0012141    -0.0033267    0.0009202    -0.0005942   -0.0002549     0.9791139   -0.0974202 
   0.001750425     0.9961833   -0.0416689    -0.0053999   -0.0011488     0.0000985    0.0000370     0.9941049   -0.1070977 
   0.001850450     0.9481437   -0.0252115    -0.0062407    0.0000813     0.0003915   -0.0001401     0.9806508   -0.1100610 
   0.001950475     1.0317680    0.0219721    -0.0077095   -0.0022014     0.0000359    0.0000682     0.9850850   -0.1236934 
   0.002050500     0.9419320   -0.0363338    -0.0060548    0.0050437     0.0004277    0.0000532     0.9733617   -0.1287419 
   0.002150525     0.9779671    0.0158525    -0.0084495    0.0007171    -0.0004953   -0.0007978     0.9773608   -0.1376590 
   0.002250550     0.9323658   -0.0282747    -0.0082797    0.0003195     0.0001076    0.0006304     0.9744167   -0.1417967 
   0.002350575     0.9425769   -0.0188113    -0.0057572    0.0029236     0.0005515   -0.0007389     0.9762881   -0.1430997 
   0.002450600     0.9731139   -0.0390000    -0.0016074    0.0053657     0.0002389    0.0002674     0.9759306   -0.1479316 
   0.002550625     0.9870924    0.0043031    -0.0058859    0.0045858     0.0002133   -0.0005266     0.9677276   -0.1596833 
   0.002650650     0.9794143   -0.0322659    -0.0038127    0.0040412    -0.0001912   -0.0006184     0.9630861   -0.1659561 
   0.002750675     0.9952546    0.0043949    -0.0072116    0.0015097     0.0000818   -0.0000056     0.9615094   -0.1737113 
   0.002850700     0.9592314   -0.0342050    -0.0032607    0.0003867    -0.0001378    0.0001226     0.9590997   -0.1765991 
   0.002950725     0.9264849   -0.0187630    -0.0025076    0.0036226     0.0003896    0.0002796     0.9623503   -0.1812158 
   0.003050750     0.9524151   -0.0237170    -0.0005912    0.0040038     0.0002360    0.0000406     0.9592092   -0.1863085 
   0.003150775     0.9717660   -0.0389011     0.0004717   -0.0014943    -0.0000343   -0.0007100     0.9525011   -0.1941108 
   0.003250800     0.9409528    0.0071399    -0.0008511    0.0044570    -0.0002141    0.0000254     0.9561008   -0.1978751 
   0.003350825     0.9856439   -0.0271943     0.0003816    0.0044691    -0.0005873    0.0003625     0.9421839   -0.2043556 
   0.003450850     0.9520147   -0.0609733    -0.0019654    0.0018629    -0.0003356    0.0005575     0.9442656   -0.2131511 
   0.003550875     0.9403790   -0.0074107     0.0023313    0.0061358    -0.0002446    0.0005186     0.9459943   -0.2132269 
   0.003650900     0.9892741   -0.0287591     0.0002580    0.0035617     0.0003851   -0.0000018     0.9430062   -0.2212072 
   0.003750925     0.9653813   -0.0568420    -0.0009344    0.0027016     0.0000063   -0.0005319     0.9320059   -0.2272383 
   0.003850950     0.9665171   -0.0499113     0.0011467    0.0005901     0.0009391   -0.0003399     0.9360058   -0.2248127 
   0.003950975     0.9749356   -0.0101298    -0.0024871    0.0012461     0.0001465    0.0002741     0.9298158   -0.2304145 
   0.004051001     0.9464165   -0.0399628    -0.0018772    0.0005164     0.0001888   -0.0002745     0.9213822   -0.2351900 
   0.004151026     1.0189370   -0.0209719     0.0003393    0.0029425     0.0003687   -0.0002398     0.9257936   -0.2485818 
   0.004251051     0.9623756   -0.0243345    -0.0015656    0.0017513     0.0000863   -0.0000203     0.9260333   -0.2522806 
   0.004351076     0.9657438    0.0125837    -0.0003964    0.0020845     0.0002265   -0.0000475     0.9181594   -0.2572348 
   0.004451101     0.9746466   -0.0339962    -0.0007518    0.0035137    -0.0006627   -0.0004821     0.9157987   -0.2557555 
   0.004551126     0.9790955   -0.0329256    -0.0013051    0.0009761    -0.0000359   -0.0003510     0.9137737   -0.2603443 
   0.004651151     0.9729871   -0.0571379    -0.0015701   -0.0031132     0.0000829   -0.0000503     0.9103811   -0.2652030 
   0.004751176     0.9709907   -0.0382626    -0.0007211    0.0025485    -0.0000542   -0.0000772     0.9043080   -0.2694111 
   0.004851201     0.9287698   -0.0352412    -0.0020363    0.0011668     0.0001566    0.0002720     0.9005985   -0.2750076 
   0.004951226     0.9790478   -0.0218164    -0.0004124    0.0006765    -0.0004149    0.0002929     0.8934188   -0.2764823 
   0.005051251     0.9860865   -0.0371638    -0.0017325    0.0006120    -0.0006824    0.0003113     0.8967690   -0.2807638 
   0.005151276     0.9535951   -0.0148404     0.0006458    0.0003725    -0.0001354    0.0005361     0.8892382   -0.2848053 
   0.005251301     0.9531203   -0.0273823     0.0010642    0.0019611     0.0000036    0.0004323     0.8836403   -0.2907981 
   0.005351326     0.9541280   -0.0184940    -0.0016093    0.0009525    -0.0003521   -0.0002410     0.8838169   -0.2984578 
   0.005451351     0.9760062   -0.0467862    -0.0001664    0.0014826    -0.0001666    0.0000491     0.8787298   -0.3049044 
   0.005551376     0.9857159   -0.0268139     0.0004380   -0.0002763    -0.0001302   -0.0001957     0.8744104   -0.3039580 
   0.005651401     0.9720528   -0.0210208     0.0006491   -0.0012987    -0.0002008    0.0004066     0.8742062   -0.3111103 
   0.005751426     0.9619076   -0.0376042     0.0001296    0.0000197    -0.0004835   -0.0000288     0.8656900   -0.3056496 
   0.005851451     0.9571864   -0.0671432     0.0009422    0.0010893    -0.0000284    0.0003084     0.8614649   -0.3158508 
   0.005951476     0.9593023   -0.0333847    -0.0000565   -0.0006437    -0.0003305    0.0005463     0.8625107   -0.3176383 
   0.006051501     0.9646707   -0.0639901    -0.0016078    0.0000215    -0.0007688   -0.0003072     0.8568646   -0.3260482 
   0.006151526     0.9569970   -0.0573348    -0.0005152    0.0005956    -0.0003360   -0.0005403     0.8514975   -0.3264002 
   0.006251551     0.9570972   -0.0173533    -0.0009972    0.0001159    -0.0004140   -0.0003296     0.8484805   -0.3338477 
   0.006351576     0.9649696   -0.0352145     0.0001868    0.0009074    -0.0003165    0.0002530     0.8449960   -0.3320647 
   0.006451601     0.9347290   -0.0299023    -0.0007199   -0.0007619     0.0001683    0.0000641     0.8327931   -0.3405657 
   0.006551626     0.9525486   -0.0423842    -0.0009295    0.0014438    -0.0000388   -0.0000977     0.8340794   -0.3403754 
   0.006651651     0.9410284   -0.0384627     0.0014110    0.0016963    -0.0008223    0.0001919     0.8276293   -0.3464038 
   0.006751676     0.9639220   -0.0446168    -0.0003765    0.0002770     0.0002558   -0.0005459     0.8266644   -0.3448570 
   0.006851701     0.9772871   -0.0403433     0.0008370   -0.0005009    -0.0004968   -0.0000485     0.8232151   -0.3478880 
   0.006951726     0.9399058   -0.0507789    -0.0001166    0.0007647     0.0001651    0.0000935     0.8191184   -0.3526468 
   0.007051751     0.9860070   -0.0336300    -0.0001716    0.0002124     0.0000332    0.0000821     0.8149084   -0.3578176 
   0.007151776     0.9463249   -0.0476892     0.0013127    0.0001746    -0.0004538   -0.0001252     0.8046908   -0.3658834 
   0.007251801     0.9666059   -0.0073160     0.0001293    0.0000179     0.0001013   -0.0000781     0.8034478   -0.3615025 
   0.007351826     0.9546921   -0.0649280    -0.0004793    0.0001274    -0.0001248    0.0004515     0.7991054   -0.3644142 
   0.007451851     0.9437161   -0.0402522     0.0004131    0.0002238     0.0001494    0.0004274     0.7973756   -0.3644049 
   0.007551876     0.9733546   -0.0527941    -0.0006223    0.0014698    -0.0000770   -0.0000636     0.7940179   -0.3728872 
   0.007651901     0.9796720   -0.0548723     0.0007756   -0.0012185     0.0000069    0.0002623     0.7876768   -0.3689569 
   0.007751926     0.9609436   -0.0367786     0.0012415   -0.0011282    -0.0001461   -0.0004005     0.7848551   -0.3751943 
   0.007851951     0.9745362   -0.0380072     0.0005985   -0.0002986    -0.0002067   -0.0000301     0.7831085   -0.3768021 
   0.007951976     0.9566635   -0.0558166     0.0015435    0.0014546    -0.0000354    0.0002460     0.7757545   -0.3793412 
   0.008052001     0.9507719   -0.0326560    -0.0018819   -0.0009717    -0.0005201    0.0002954     0.7700697   -0.3801723 
   0.008152026     0.9503853   -0.0529747    -0.0006560   -0.0006232     0.0001058    0.0001949     0.7689657   -0.3855026 
   0.008252051     0.9378259   -0.0403580     0.0002676   -0.0016987     0.0003047   -0.0006776     0.7623867   -0.3884782 
   0.008352076     0.9599262   -0.0333922    -0.0002317    0.0001418    -0.0001794    0.0003144     0.7623006   -0.3874820 
   0.008452101     0.9605045   -0.0325078    -0.0009860    0.0006155    -0.0001818    0.0000200     0.7523180   -0.3862242 
   0.008552126     0.9572853   -0.0539247    -0.0003439    0.0012847    -0.0004771    0.0004717     0.7545910   -0.3914176 
   0.008652151     0.9472553   -0.0297667     0.0010800   -0.0004656    -0.0001604    0.0003406     0.7456085   -0.3933161 
   0.008752176     0.9781559   -0.0282279    -0.0012037    0.0008931     0.0002363   -0.0002213     0.7449063   -0.4016986 
   0.008852201     0.9441035   -0.0243452     0.0010854    0.0005781    -0.0002748   -0.0003362     0.7393619   -0.3943056 
   0.008952226     0.9529947   -0.0371083     0.0003586    0.0010611     0.0001009    0.0001681     0.7347990   -0.3982478 
   0.009052251     0.9620460   -0.0346218     0.0008594    0.0003071     0.0002636   -0.0001033     0.7286806   -0.4008549 
   0.009152276     0.9518064   -0.0430408    -0.0003718    0.0010582    -0.0003083   -0.0000083     0.7241562   -0.4034540 
   0.009252301     0.9557377   -0.0327836     0.0006514   -0.0007339     0.0004804   -0.0000179     0.7254041   -0.4060647 
   0.009352326     0.9664410   -0.0378708     0.0008111   -0.0001934     0.0000535   -0.0004109     0.7180437   -0.4011387 
   0.009452351     0.9605674   -0.0343007    -0.0007546   -0.0000498     0.0000113   -0.0000134     0.7139192   -0.4083157 
   0.009552376     0.9797304   -0.0357316    -0.0009825    0.0006026    -0.0001099    0.0001812     0.7087827   -0.4071390 
   0.009652401     0.9524091   -0.0368869    -0.0004024    0.0001689     0.0001251   -0.0002699     0.7041141   -0.4086810 
   0.009752426     0.9544824   -0.0444939    -0.0018926    0.0019710     0.0000030   -0.0001649     0.7027090   -0.4104673 
   0.009852451     0.9499475   -0.0499093     0.0002759   -0.0005054    -0.0001348    0.0002974     0.6961612   -0.4125930 
   0.009952476     0.9734243   -0.0397927    -0.0000384   -0.0006016     0.0003248   -0.0000741     0.6909603   -0.4122292 
   0.010052501     0.9588812   -0.0438374     0.0000540   -0.0007902    -0.0001666    0.0000719     0.6918214   -0.4134056 
   0.010152526     0.9604352   -0.0339872    -0.0001505    0.0003130    -0.0000003   -0.0004088     0.6856088   -0.4141615 
   0.010252551     0.9562265   -0.0403275     0.0004006    0.0006270    -0.0000397    0.0001701     0.6824700   -0.4179657 
   0.010352576     0.9757053   -0.0342555    -0.0013522    0.0009533    -0.0000434   -0.0002809     0.6755044   -0.4187146 
   0.010452601     0.9488723   -0.0336581     0.0003565   -0.0001122    -0.0001204    0.0005088     0.6752648   -0.4218841 
   0.010552626     0.9362900   -0.0662649    -0.0006434   -0.0008179    -0.0000348    0.0001684     0.6707268   -0.4232830 
   0.010652651     0.9611748   -0.0433704     0.0013144    0.0008281     0.0002856   -0.0002180     0.6666447   -0.4214810 
   0.010752676     0.9679414   -0.0599335    -0.0001739    0.0012999     0.0001138    0.0000792     0.6622722   -0.4222326 
   0.010852701     0.9634783   -0.0265115    -0.0002675    0.0002539    -0.0000076    0.0001594     0.6625987   -0.4230402 
   0.010952726     0.9493893   -0.0403268    -0.0013136    0.0003260     0.0004339   -0.0003809     0.6544314   -0.4236881 
   0.011052751     0.9608938   -0.0621907     0.0001227   -0.0003036    -0.0000302   -0.0002311     0.6515681   -0.4257827 
   0.011152776     0.9675289   -0.0370865    -0.0001598   -0.0002539    -0.0000197    0.0001291     0.6458568   -0.4268019 
   0.011252801     0.9663900   -0.0425143     0.0000146    0.0011880    -0.0003890   -0.0002113     0.6408014   -0.4249738 
   0.011352826     0.9603962   -0.0706695    -0.0013024    0.0004295     0.0000675    0.0000813     0.6411025   -0.4242689 
   0.011452851     0.9523712   -0.0266678    -0.0007553    0.0005043     0.0004017   -0.0004539     0.6377679   -0.4282387 
   0.011552876     0.9647779   -0.0552525     0.0001574    0.0010196    -0.0000454   -0.0000249     0.6326601   -0.4317292 
   0.011652901     0.9611806   -0.0647867     0.0008496   -0.0003098     0.0002742   -0.0002103     0.6284437   -0.4282297 
   0.011752926     0.9502468   -0.0553625     0.0001349   -0.0006086    -0.0001165   -0.0000057     0.6259778   -0.4279099 
   0.011852951     0.9692698   -0.0597559     0.0005822    0.0006063    -0.0002682   -0.0002607     0.6234455   -0.4285640 
   0.011952976     0.9572355   -0.0400968     0.0005918    0.0003675     0.0003602   -0.0002463     0.6170604   -0.4304075 
   0.012053002     0.9568754   -0.0652079    -0.0006720   -0.0004327     0.0000929    0.0000734     0.6130399   -0.4292365 
   0.012153027     0.9614744   -0.0653954    -0.0003333   -0.0002701     0.0000057   -0.0001097     0.6106226   -0.4295147 
   0.012253052     0.9521990   -0.0555287    -0.0002713   -0.0000303    -0.0000086    0.0001768     0.6081906   -0.4321510 
   0.012353077     0.9609758   -0.0462382     0.0007621    0.0009703    -0.0001787    0.0004135     0.6065158   -0.4311097 
   0.012453102     0.9535695   -0.0380067    -0.0004445    0.0004661    -0.0000701   -0.0001360     0.5988426   -0.4343150 
   0.012553127     0.9729158   -0.0765445    -0.0009894   -0.0002429     0.0001697   -0.0000732     0.5963384   -0.4309814 
   0.012653152     0.9593631   -0.0341603     0.0015955    0.0002510    -0.0001753    0.0000772     0.5926857   -0.4348150 
   0.012753177     0.9412037   -0.0671172     0.0003471    0.0010952     0.0002316   -0.0001982     0.5921330   -0.4297439 
   0.012853202     0.9415926   -0.0530841    -0.0000704    0.0002764    -0.0001949   -0.0000046     0.5841869   -0.4326085 
   0.012953227     0.9534323   -0.0485939     0.0000073    0.0001876    -0.0000697    0.0002270     0.5845962   -0.4335497 
   0.013053252     0.9625211   -0.0679011     0.0002251    0.0005416     0.0003816   -0.0000321     0.5829951   -0.4312894 
   0.013153277     0.9608751   -0.0493202    -0.0003632    0.0002282    -0.0003232    0.0000663     0.5757118   -0.4327210 
   0.013253302     0.9587051   -0.0531806     0.0004902   -0.0006205    -0.0000803    0.0001682     0.5747386   -0.4294120 
   0.013353327     0.9554971   -0.0668761    -0.0004731   -0.0002338    -0.0003401    0.0003144     0.5705884   -0.4342654 
   0.013453352     0.9505236   -0.0568374    -0.0005837   -0.0000643    -0.0001800   -0.0001182     0.5660321   -0.4332896 
   0.013553377     0.9466020   -0.0624966    -0.0004173    0.0012283    -0.0000952    0.0000131     0.5630116   -0.4336341 
   0.013653402     0.9512578   -0.0614002    -0.0001347   -0.0017597    -0.0001592   -0.0000921     0.5620308   -0.4336768 
   0.013753427     0.9701894   -0.0577539     0.0006062    0.0005716    -0.0000870   -0.0001452     0.5572990   -0.4323047 
   0.013853452     0.9804769   -0.0618876    -0.0004683    0.0000611     0.0000020   -0.0000838     0.5570817   -0.4323040 
   0.013953477     0.9375035   -0.0666909     0.0012866   -0.0016781    -0.0000350    0.0000623     0.5519664   -0.4335655 
   0.014053502     0.9600936   -0.0651298     0.0008693    0.0000878    -0.0002884   -0.0003565     0.5476224   -0.4318289 
   0.014153527     0.9644573   -0.0572155    -0.0008877    0.0002174     0.0000304   -0.0001233     0.5476006   -0.4340569 
   0.014253552     0.9546582   -0.0553723    -0.0003048   -0.0003703     0.0002233   -0.0002129     0.5446026   -0.4309604 
   0.014353577     0.9452354   -0.0551575    -0.0000492    0.0005805     0.0001966   -0.0001758     0.5390183   -0.4330815 
   0.014453602     0.9512984   -0.0690823    -0.0008289    0.0010416    -0.0000273    0.0001320     0.5367810   -0.4306424 
   0.014553627     0.9488753   -0.0577031     0.0001281    0.0004532    -0.0001184   -0.0003458     0.5359411   -0.4304428 
   0.014653652     0.9667292   -0.0679424     0.0001834   -0.0002342     0.0000585   -0.0000619     0.5319543   -0.4312580 
   0.014753677     0.9619196   -0.0480280    -0.0002408   -0.0002329    -0.0001277    0.0000483     0.5293570   -0.4281561 
   0.014853702     0.9566662   -0.0520765    -0.0006684   -0.0005516    -0.0001488    0.0001167     0.5248905   -0.4309997 
   0.014953727     0.9583552   -0.0817043     0.0009747    0.0006121    -0.0002240    0.0002219     0.5215679   -0.4281653 
   0.015053752     0.9580371   -0.0530406    -0.0004390    0.0004015    -0.0001356   -0.0000876     0.5187488   -0.4304784 
   0.015153777     0.9696072   -0.0627434     0.0004135    0.0003850    -0.0002013   -0.0001716     0.5156214   -0.4293440 
   0.015253802     0.9560540   -0.0633609    -0.0001334    0.0007479     0.0001321    0.0000264     0.5138882   -0.4279334 
   0.015353827     0.9490987   -0.0643175     0.0002793    0.0007156    -0.0001532   -0.0001675     0.5120188   -0.4287936 
   0.015453852     0.9582654   -0.0615745    -0.0014872   -0.0004008    -0.0003728   -0.0001408     0.5090267   -0.4274123 
   0.015553877     0.9543664   -0.0589520     0.0009541   -0.0002560    -0.0000953    0.0000299     0.5056950   -0.4276472 
   0.015653902     0.9687114   -0.0623738     0.0008438   -0.0004714    -0.0000989    0.0001415     0.5021074   -0.4287599 
