! 26-Feb-26 11:46:19 AM
! E:\VNA_MEASUREMENTS\SP8T\SP8T_P3_RF7.S2P
! CHANNEL.1
! TR.MEASUREMENT
! CORRECTED.DATA
# GHZ S RI R 50.0
! FREQ.GHZ         S11RE         S11IM         S21RE         S21IM         S12RE         S12IM         S22RE         S22IM         
!; PortSelection: Port_12
   0.000050000     0.1131328   -0.0395028    -0.0758751    0.0329862    -0.0040390    0.0020866     0.9691246    0.0298343 
   0.000150025    -0.2979814    0.1947426    -0.7731740   -0.3118891     0.0000939   -0.0005486     0.9835414   -0.0162554 
   0.000250050     1.3617590   -0.4699751     0.0044883   -0.0084632    -0.0021373    0.0009566     1.0016660   -0.0169957 
   0.000350075     0.9937906   -0.0606868    -0.0012133   -0.0100331    -0.0009128    0.0000319     0.9943508   -0.0358688 
   0.000450100     0.9887717   -0.0953189    -0.0032011   -0.0166720    -0.0011675   -0.0008642     0.9960704   -0.0216199 
   0.000550125     1.0012450   -0.0175085    -0.0031156   -0.0109319    -0.0000966    0.0009144     0.9878848   -0.0379319 
   0.000650150     0.9893786    0.0004881    -0.0061339   -0.0116128     0.0009244   -0.0000638     0.9959388   -0.0464864 
   0.000750175     1.0072180   -0.0862904    -0.0081385   -0.0152755    -0.0006073    0.0004028     0.9993274   -0.0505090 
   0.000850200     1.0053230   -0.1235474    -0.0044661   -0.0100677     0.0009992    0.0001407     0.9983900   -0.0442446 
   0.000950225     1.0269120   -0.0369886    -0.0049244   -0.0028265     0.0004385   -0.0014984     0.9966211   -0.0622903 
   0.001050250     0.9714195   -0.0661852    -0.0091810   -0.0097750     0.0001389   -0.0003622     0.9942752   -0.0603664 
   0.001150275     1.0375110   -0.0735028    -0.0111632   -0.0041808    -0.0005642    0.0003563     0.9872928   -0.0700048 
   0.001250300     0.9836496   -0.0191172    -0.0096998   -0.0026632     0.0007720    0.0001200     0.9933397   -0.0883157 
   0.001350325     0.9956436   -0.0809225    -0.0122106   -0.0030062     0.0000736   -0.0002719     0.9842701   -0.0933774 
   0.001450350     1.0112010   -0.0735797    -0.0104641   -0.0034140    -0.0007140    0.0009800     0.9840148   -0.0899712 
   0.001550375     0.9687887   -0.0465196    -0.0103800   -0.0003961     0.0003961    0.0001073     0.9894139   -0.0932052 
   0.001650400     1.0080360   -0.0467755    -0.0067069   -0.0009237    -0.0002666   -0.0000978     0.9837745   -0.0989265 
   0.001750425     0.9792434   -0.0564505    -0.0107226    0.0020162     0.0000059   -0.0003912     0.9873192   -0.1037655 
   0.001850450     0.9578876   -0.0703571    -0.0081175    0.0016626     0.0004484    0.0000999     0.9823840   -0.1125103 
   0.001950475     1.0151220   -0.0403821    -0.0094306    0.0002113    -0.0000081    0.0000561     0.9865913   -0.1187241 
   0.002050500     0.9729042   -0.0541749    -0.0068995    0.0025210    -0.0010555   -0.0002868     0.9818793   -0.1365577 
   0.002150525     1.0147790   -0.1088779    -0.0022705    0.0041349     0.0004473   -0.0000391     0.9742838   -0.1381909 
   0.002250550     0.9713197   -0.0430906    -0.0045053    0.0038033     0.0012016   -0.0005472     0.9800661   -0.1428068 
   0.002350575     0.9755457   -0.0966881    -0.0055637    0.0007259    -0.0005312    0.0008039     0.9752515   -0.1396374 
   0.002450600     0.9724446   -0.0692322    -0.0046025    0.0024267    -0.0001078   -0.0002541     0.9748579   -0.1524996 
   0.002550625     0.9930715   -0.0964287    -0.0032468    0.0029860     0.0007890   -0.0009213     0.9774507   -0.1603023 
   0.002650650     0.9814734   -0.0640635    -0.0029683    0.0038677     0.0006417    0.0005303     0.9648167   -0.1692584 
   0.002750675     0.9888881   -0.0690526    -0.0055680    0.0007286     0.0006706    0.0000558     0.9667604   -0.1720081 
   0.002850700     0.9981526   -0.0929648    -0.0077793    0.0036085     0.0004776    0.0001497     0.9634594   -0.1736432 
   0.002950725     0.9595965   -0.0845148    -0.0013034    0.0043103     0.0000561    0.0002267     0.9657271   -0.1770509 
   0.003050750     0.9638034   -0.0879368    -0.0026360    0.0071094    -0.0003719   -0.0002932     0.9608235   -0.1839930 
   0.003150775     0.9559596   -0.1416249    -0.0045078    0.0024398    -0.0002154    0.0000848     0.9522765   -0.1918808 
   0.003250800     0.9581509   -0.0986092    -0.0028892    0.0058196     0.0002577    0.0008371     0.9533854   -0.1860061 
   0.003350825     0.9994277   -0.1105104     0.0002240    0.0024913     0.0000845    0.0002151     0.9461195   -0.2055066 
   0.003450850     0.9526954   -0.1587131    -0.0021266    0.0039618     0.0002603   -0.0003316     0.9469525   -0.2085236 
   0.003550875     0.9481966   -0.1263042    -0.0007298    0.0029005     0.0001653   -0.0001356     0.9454626   -0.2128647 
   0.003650900     0.9714840   -0.1007477    -0.0059301    0.0010658     0.0002203   -0.0002556     0.9399145   -0.2193422 
   0.003750925     0.9536221   -0.1368866    -0.0012164    0.0024186     0.0004953   -0.0004161     0.9316505   -0.2275046 
   0.003850950     0.9688867   -0.1304045     0.0026830    0.0011049     0.0002193   -0.0002460     0.9386101   -0.2248295 
   0.003950975     1.0182150   -0.1243456    -0.0012892    0.0010372     0.0003502   -0.0002430     0.9309128   -0.2282957 
   0.004051001     0.9652495   -0.1658840    -0.0005322    0.0023338     0.0000473    0.0000900     0.9274397   -0.2340944 
   0.004151026     0.9926251   -0.1552887     0.0001454    0.0001258    -0.0000631    0.0001345     0.9246493   -0.2404274 
   0.004251051     0.9859126   -0.1329477    -0.0020485    0.0039863    -0.0002486   -0.0002643     0.9255700   -0.2469457 
   0.004351076     0.9938118   -0.1170086     0.0007717    0.0020006     0.0001520   -0.0000986     0.9147497   -0.2508606 
   0.004451101     0.9988426   -0.1356973    -0.0027228    0.0020523    -0.0006468   -0.0004147     0.9134290   -0.2538806 
   0.004551126     0.9578071   -0.1399594    -0.0000641    0.0012599    -0.0002578    0.0003203     0.9200908   -0.2554395 
   0.004651151     0.9626061   -0.1747451    -0.0082111    0.0074147     0.0004021   -0.0008324     0.9114535   -0.2642659 
   0.004751176     0.9544001   -0.1646392     0.0004067    0.0012543    -0.0002890    0.0001318     0.9065257   -0.2714873 
   0.004851201     0.9318182   -0.1493440    -0.0015488    0.0000133    -0.0004284   -0.0008361     0.8993529   -0.2739964 
   0.004951226     0.9501973   -0.1622641    -0.0004843   -0.0000998    -0.0003135    0.0000119     0.9003503   -0.2781586 
   0.005051251     0.9841992   -0.1645456     0.0029902    0.0029625     0.0004382   -0.0001925     0.8973298   -0.2805661 
   0.005151276     0.9350405   -0.1615261     0.0007836   -0.0001424    -0.0000707    0.0000399     0.8901291   -0.2877351 
   0.005251301     0.9319770   -0.1480875     0.0006362    0.0015036    -0.0000685    0.0003686     0.8878466   -0.2904258 
   0.005351326     0.9589351   -0.1524730    -0.0016378    0.0030060    -0.0002066    0.0002363     0.8878307   -0.2961163 
   0.005451351     0.9504350   -0.1508437    -0.0013835   -0.0015590    -0.0001709    0.0002272     0.8804163   -0.3002993 
   0.005551376     0.9814399   -0.1819458     0.0000757   -0.0009331    -0.0003624    0.0001642     0.8810863   -0.3003206 
   0.005651401     0.9589766   -0.1659328     0.0008200    0.0002919    -0.0001121    0.0005365     0.8747793   -0.3157748 
   0.005751426     0.9424120   -0.1764517     0.0012904   -0.0004222    -0.0001180   -0.0004138     0.8702047   -0.3110962 
   0.005851451     0.9574510   -0.2114078     0.0009267    0.0012298    -0.0000422    0.0000982     0.8643396   -0.3107136 
   0.005951476     0.9623203   -0.1658772    -0.0006705    0.0004274    -0.0001442   -0.0000136     0.8618757   -0.3181777 
   0.006051501     0.9443586   -0.2038443     0.0015253    0.0002011     0.0001003   -0.0002057     0.8616155   -0.3233819 
   0.006151526     0.9406042   -0.2175327     0.0000386    0.0016127     0.0001571   -0.0002847     0.8550021   -0.3247412 
   0.006251551     0.9395658   -0.1878424    -0.0008722    0.0009259     0.0001794    0.0003793     0.8503106   -0.3302122 
   0.006351576     0.9296501   -0.2089238    -0.0003518    0.0008176     0.0004087   -0.0001386     0.8452032   -0.3311869 
   0.006451601     0.9439840   -0.2207739    -0.0004089    0.0006841     0.0002340    0.0003730     0.8412383   -0.3380605 
   0.006551626     0.9435943   -0.2158222     0.0005364    0.0005764    -0.0000064    0.0002199     0.8372754   -0.3359528 
   0.006651651     0.9351958   -0.2043531    -0.0004545   -0.0010376     0.0000961    0.0001236     0.8310238   -0.3404313 
   0.006751676     0.9452181   -0.2374323    -0.0010015   -0.0001874     0.0001220   -0.0003732     0.8289155   -0.3469178 
   0.006851701     0.9508331   -0.2366859     0.0003991    0.0014584     0.0001295   -0.0003704     0.8266391   -0.3514624 
   0.006951726     0.9160559   -0.2283017    -0.0006055    0.0001890    -0.0004549    0.0001187     0.8194478   -0.3498251 
   0.007051751     0.9331774   -0.2264796    -0.0001172   -0.0008037     0.0006526    0.0007884     0.8159520   -0.3534295 
   0.007151776     0.9106826   -0.2279014     0.0008925    0.0019142     0.0000551    0.0002321     0.8081747   -0.3567790 
   0.007251801     0.9457454   -0.2399181    -0.0000731    0.0001701    -0.0002407    0.0000427     0.8033673   -0.3629784 
   0.007351826     0.9178007   -0.2318392    -0.0018987    0.0004282     0.0000836   -0.0002524     0.8033499   -0.3677513 
   0.007451851     0.9145799   -0.2379834    -0.0000951    0.0005857     0.0000039   -0.0004492     0.7991517   -0.3632134 
   0.007551876     0.9372535   -0.2257841    -0.0006820    0.0015113     0.0002845    0.0002183     0.8003876   -0.3674251 
   0.007651901     0.9358342   -0.2628026     0.0018371    0.0002144    -0.0001338    0.0005345     0.7932216   -0.3694888 
   0.007751926     0.9295787   -0.2348830    -0.0006062    0.0022235    -0.0001932   -0.0001594     0.7858860   -0.3726643 
   0.007851951     0.9393704   -0.2378006     0.0001098    0.0011524    -0.0003470    0.0001182     0.7812564   -0.3734542 
   0.007951976     0.9406542   -0.2577771    -0.0002053    0.0000733    -0.0000453    0.0000114     0.7819731   -0.3776544 
   0.008052001     0.9241878   -0.2477374     0.0007624   -0.0010291    -0.0000101    0.0004374     0.7719995   -0.3813308 
   0.008152026     0.9129795   -0.2751637    -0.0019533   -0.0005856    -0.0000144    0.0003097     0.7730994   -0.3828900 
   0.008252051     0.8841241   -0.2385348    -0.0003314    0.0010885    -0.0002090   -0.0001920     0.7648039   -0.3872979 
   0.008352076     0.9210520   -0.2640527     0.0007489   -0.0008893     0.0000674   -0.0003038     0.7620181   -0.3909106 
   0.008452101     0.9343206   -0.2453023    -0.0013806   -0.0018289    -0.0002444    0.0003556     0.7601576   -0.3852689 
   0.008552126     0.9316575   -0.2658215    -0.0003205   -0.0008984    -0.0000722    0.0001018     0.7550520   -0.3915389 
   0.008652151     0.9108151   -0.2622461     0.0001046   -0.0008101    -0.0004555    0.0002432     0.7503564   -0.3948952 
   0.008752176     0.9275237   -0.2481273    -0.0001455    0.0008154    -0.0005189    0.0001664     0.7452649   -0.3983265 
   0.008852201     0.8872300   -0.2483294    -0.0008855    0.0001339    -0.0006010   -0.0002464     0.7436010   -0.3956397 
   0.008952226     0.9160521   -0.2712055    -0.0007614    0.0006444    -0.0001488    0.0005486     0.7386367   -0.3964284 
   0.009052251     0.9128547   -0.2829553     0.0015299   -0.0000406     0.0002010   -0.0008737     0.7352807   -0.4027168 
   0.009152276     0.8980690   -0.2681271    -0.0001755   -0.0008257    -0.0001743    0.0003596     0.7280352   -0.4058653 
   0.009252301     0.9105023   -0.2741989     0.0001312   -0.0014351    -0.0000949   -0.0000691     0.7259722   -0.4071119 
   0.009352326     0.9136270   -0.2724340     0.0017364   -0.0000802     0.0000353    0.0000421     0.7235043   -0.4068624 
   0.009452351     0.8935665   -0.2763887     0.0000148    0.0001461    -0.0001152   -0.0000199     0.7150413   -0.4056660 
   0.009552376     0.8890695   -0.3000334     0.0000175    0.0001850     0.0002119    0.0001305     0.7135012   -0.4067715 
   0.009652401     0.8877503   -0.2934048    -0.0005984    0.0007156     0.0001711   -0.0001076     0.7101503   -0.4101416 
   0.009752426     0.8828693   -0.2923998    -0.0007495    0.0008239    -0.0005798    0.0002653     0.7064415   -0.4106838 
   0.009852451     0.8892585   -0.3034570     0.0003396   -0.0002016     0.0001181    0.0001729     0.7003784   -0.4134095 
   0.009952476     0.8851836   -0.3023709    -0.0001462   -0.0000450    -0.0001255   -0.0003269     0.6983558   -0.4113192 
   0.010052501     0.8642073   -0.3037592    -0.0010468    0.0011019     0.0000832    0.0002243     0.6980663   -0.4134331 
   0.010152526     0.8819277   -0.2898420    -0.0003263   -0.0003031    -0.0001731   -0.0000057     0.6870468   -0.4125583 
   0.010252551     0.8762515   -0.2974330     0.0002911   -0.0004089     0.0000760    0.0000526     0.6852773   -0.4178146 
   0.010352576     0.8899959   -0.3092763    -0.0004616   -0.0006180     0.0002702    0.0002419     0.6815299   -0.4183665 
   0.010452601     0.8841297   -0.3133222     0.0005075   -0.0003108     0.0001624   -0.0004643     0.6757701   -0.4222535 
   0.010552626     0.8643087   -0.3097134    -0.0001381   -0.0010328    -0.0001630   -0.0002708     0.6718338   -0.4208604 
   0.010652651     0.8745863   -0.3057857     0.0006315    0.0003239     0.0004938   -0.0003204     0.6701341   -0.4217947 
   0.010752676     0.8677174   -0.3276464    -0.0003646   -0.0004961    -0.0007409   -0.0004203     0.6664376   -0.4226629 
   0.010852701     0.8662793   -0.2979724    -0.0004721    0.0008270     0.0002228    0.0002158     0.6639693   -0.4224769 
   0.010952726     0.8648537   -0.3181284    -0.0000987   -0.0005669    -0.0003458    0.0000362     0.6590990   -0.4225999 
   0.011052751     0.8608842   -0.3281240     0.0007219   -0.0004582     0.0003019    0.0001411     0.6551761   -0.4268877 
   0.011152776     0.8644232   -0.3252278    -0.0003790    0.0009539    -0.0000078   -0.0000890     0.6503059   -0.4261589 
   0.011252801     0.8603879   -0.3187693     0.0008115    0.0005315     0.0001379    0.0004794     0.6475079   -0.4277802 
   0.011352826     0.8635880   -0.3457060     0.0007455   -0.0008972    -0.0002816   -0.0000430     0.6475056   -0.4244944 
   0.011452851     0.8595171   -0.3320699     0.0000765    0.0005725     0.0000325   -0.0000374     0.6393461   -0.4284387 
   0.011552876     0.8377219   -0.3380085    -0.0000618   -0.0006023    -0.0002304   -0.0000230     0.6366215   -0.4299963 
   0.011652901     0.8582697   -0.3394700    -0.0006734   -0.0002694    -0.0000515    0.0004782     0.6341957   -0.4291803 
   0.011752926     0.8476327   -0.3286781     0.0009042   -0.0005112    -0.0001627    0.0000927     0.6291936   -0.4290021 
   0.011852951     0.8511468   -0.3487188    -0.0004415    0.0010450     0.0002740   -0.0002643     0.6253878   -0.4324063 
   0.011952976     0.8402076   -0.3318555    -0.0002696   -0.0007175     0.0000655   -0.0001034     0.6224196   -0.4294300 
   0.012053002     0.8325903   -0.3567218     0.0003155    0.0001904    -0.0001858   -0.0004005     0.6185663   -0.4320439 
   0.012153027     0.8569944   -0.3600484    -0.0003827    0.0008433     0.0001502    0.0001748     0.6151603   -0.4331738 
   0.012253052     0.8369260   -0.3475532    -0.0004354    0.0004605     0.0000922   -0.0001846     0.6137576   -0.4324007 
   0.012353077     0.8442007   -0.3591233    -0.0007829    0.0003374    -0.0000708   -0.0001927     0.6103811   -0.4315311 
   0.012453102     0.8499374   -0.3519798     0.0004146   -0.0001132     0.0004555    0.0000117     0.6049026   -0.4355005 
   0.012553127     0.8371847   -0.3646787    -0.0006535    0.0002894    -0.0002673   -0.0000781     0.6000100   -0.4337080 
   0.012653152     0.8408897   -0.3531569     0.0001077   -0.0006006     0.0001343    0.0000055     0.5964135   -0.4337097 
   0.012753177     0.8146747   -0.3535008    -0.0003607    0.0009410     0.0001904    0.0001701     0.5944266   -0.4319773 
   0.012853202     0.8369173   -0.3494779     0.0000845   -0.0002962    -0.0000286   -0.0000664     0.5904387   -0.4346013 
   0.012953227     0.8278660   -0.3591776    -0.0004301   -0.0004185     0.0000506   -0.0002164     0.5900829   -0.4348623 
   0.013053252     0.8091723   -0.3684222    -0.0000135   -0.0004924    -0.0001884    0.0000836     0.5854818   -0.4343913 
   0.013153277     0.8209673   -0.3674755    -0.0008504    0.0003000    -0.0002661   -0.0000140     0.5820045   -0.4367833 
   0.013253302     0.8151453   -0.3520467    -0.0000074    0.0004143     0.0000985    0.0001834     0.5784148   -0.4331903 
   0.013353327     0.8109801   -0.3761004     0.0002442    0.0004184    -0.0002519    0.0000922     0.5736597   -0.4337806 
   0.013453352     0.8192440   -0.3677558    -0.0006009    0.0000276    -0.0001980   -0.0000733     0.5725275   -0.4357759 
   0.013553377     0.7962855   -0.3706942     0.0006223   -0.0001698    -0.0000778    0.0002272     0.5669605   -0.4353201 
   0.013653402     0.8101990   -0.3832461     0.0002450    0.0001894     0.0001230   -0.0005532     0.5653441   -0.4359223 
   0.013753427     0.8140796   -0.3807761     0.0006030    0.0002098    -0.0001679   -0.0001462     0.5600398   -0.4344235 
   0.013853452     0.8125735   -0.3875365    -0.0005592    0.0000886    -0.0001111    0.0000273     0.5631360   -0.4345862 
   0.013953477     0.8011960   -0.3625709     0.0002464    0.0003891    -0.0001718    0.0000071     0.5557239   -0.4341892 
   0.014053502     0.8012244   -0.3875811    -0.0004373    0.0006731    -0.0000953   -0.0000376     0.5527977   -0.4348670 
   0.014153527     0.8162878   -0.3897947     0.0010773   -0.0005550    -0.0002263    0.0000139     0.5517340   -0.4349324 
   0.014253552     0.7943875   -0.3882276    -0.0007086   -0.0003585     0.0002246   -0.0003779     0.5482381   -0.4349495 
   0.014353577     0.7918265   -0.3873363    -0.0001895    0.0007826     0.0000336    0.0000157     0.5406547   -0.4324354 
   0.014453602     0.7825901   -0.3887655     0.0002616    0.0005896    -0.0002586    0.0001097     0.5416565   -0.4324533 
   0.014553627     0.7796627   -0.3848170     0.0005537   -0.0006102    -0.0001409   -0.0000132     0.5393091   -0.4339082 
   0.014653652     0.7896346   -0.3923256     0.0002120    0.0005981     0.0000371    0.0001805     0.5330859   -0.4346656 
   0.014753677     0.7903714   -0.3791413    -0.0002694    0.0001350    -0.0000477    0.0000272     0.5314799   -0.4331555 
   0.014853702     0.8016641   -0.3864964    -0.0004387   -0.0007517     0.0000071   -0.0001556     0.5286564   -0.4333549 
   0.014953727     0.7715251   -0.4052992     0.0000322   -0.0001555     0.0000108   -0.0004464     0.5271071   -0.4313502 
   0.015053752     0.7776758   -0.3991758    -0.0004696   -0.0000194     0.0000989    0.0001189     0.5222524   -0.4323862 
   0.015153777     0.7906152   -0.3943632    -0.0002752    0.0006372    -0.0000196   -0.0000158     0.5213898   -0.4333824 
   0.015253802     0.7767830   -0.3991566    -0.0007519    0.0011457     0.0002162   -0.0001590     0.5176616   -0.4321066 
   0.015353827     0.7775335   -0.3985326     0.0005459   -0.0006127    -0.0001341   -0.0001511     0.5141491   -0.4309196 
   0.015453852     0.7742755   -0.4018123     0.0001947    0.0004535     0.0000313   -0.0000103     0.5127647   -0.4312171 
   0.015553877     0.7800859   -0.4079407    -0.0007351   -0.0008863     0.0001374   -0.0003536     0.5107586   -0.4305833 
   0.015653902     0.7620270   -0.4026517    -0.0006181    0.0001676    -0.0000938   -0.0000814     0.5063574   -0.4328943 
