! 26-Feb-26 11:42:13 AM
! E:\VNA_MEASUREMENTS\SP8T\SP8T_P3_RF3.S2P
! CHANNEL.1
! TR.MEASUREMENT
! CORRECTED.DATA
# GHZ S RI R 50.0
! FREQ.GHZ         S11RE         S11IM         S21RE         S21IM         S12RE         S12IM         S22RE         S22IM         
!; PortSelection: Port_12
   0.000050000     2.3795320    0.3227252     0.0171536    0.9742074    -0.0207684    0.0074139     1.0086100   -0.0142146 
   0.000150025     0.1396867    0.1392297     0.4823146    0.7923406    -0.0008050    0.0024607     1.0043600   -0.0046112 
   0.000250050    -0.4661820    0.2216132    -0.0037653    0.0016586     0.0000838    0.0023579     1.0014590   -0.0085832 
   0.000350075     0.9571139   -0.0457415    -0.0069105   -0.0075878    -0.0014982    0.0091709     1.0009060   -0.0304995 
   0.000450100     1.0718440   -0.0249157    -0.0053134   -0.0006739    -0.0013556    0.0109078     0.9919565   -0.0019545 
   0.000550125     1.0562870   -0.0467457    -0.0012988    0.0037132    -0.0014435    0.0153177     0.9860590   -0.0214633 
   0.000650150     1.0295150   -0.0365697    -0.0061960    0.0053341    -0.0018901    0.0169968     1.0033630   -0.0363358 
   0.000750175     0.9794253   -0.0638544    -0.0079858    0.0110131    -0.0020030    0.0192027     0.9870806   -0.0268520 
   0.000850200     0.9791230   -0.0611286    -0.0137553    0.0166283    -0.0017113    0.0225639     0.9893997   -0.0253184 
   0.000950225     0.9632384   -0.0529270    -0.0137569    0.0162927    -0.0025717    0.0236705     0.9856768   -0.0396143 
   0.001050250     0.9957341   -0.0325412    -0.0116243    0.0259770    -0.0033511    0.0284603     0.9945047   -0.0332358 
   0.001150275     0.9956795   -0.0393847    -0.0168837    0.0266636    -0.0034743    0.0316930     0.9900663   -0.0394355 
   0.001250300     0.9858807   -0.0380263    -0.0151604    0.0336130    -0.0027423    0.0337192     0.9981470   -0.0532413 
   0.001350325     1.0001700   -0.0534151    -0.0110908    0.0361741    -0.0038775    0.0372940     0.9935429   -0.0432193 
   0.001450350     1.0232060   -0.0761630    -0.0106332    0.0395458    -0.0018404    0.0401302     0.9908925   -0.0508599 
   0.001550375     0.9801425   -0.0424827    -0.0100736    0.0452674    -0.0023893    0.0433570     0.9904734   -0.0571824 
   0.001650400     1.0442020   -0.0277691    -0.0140330    0.0477799    -0.0030681    0.0474988     0.9859582   -0.0516391 
   0.001750425     1.0165360   -0.0873001    -0.0076807    0.0525652    -0.0023846    0.0501160     0.9980398   -0.0628980 
   0.001850450     0.9703727   -0.0734849    -0.0133299    0.0523909    -0.0026096    0.0517829     0.9817746   -0.0683710 
   0.001950475     1.0369010   -0.0131037    -0.0090229    0.0604409    -0.0032553    0.0580207     0.9954612   -0.0698145 
   0.002050500     0.9667144   -0.0417443    -0.0112355    0.0641185    -0.0019825    0.0601039     0.9939942   -0.0811997 
   0.002150525     1.0153070   -0.1209078    -0.0054281    0.0662680    -0.0000099    0.0622161     0.9871862   -0.0781405 
   0.002250550     0.9860927   -0.0391342    -0.0077572    0.0695142    -0.0021309    0.0658062     0.9819255   -0.0796300 
   0.002350575     0.9669591   -0.1388964    -0.0064368    0.0715852     0.0009933    0.0673575     0.9846672   -0.0838363 
   0.002450600     0.9919527   -0.0862898    -0.0076769    0.0747312    -0.0011954    0.0722251     0.9910933   -0.0833555 
   0.002550625     0.9831102   -0.1062885    -0.0022547    0.0811520    -0.0007719    0.0749009     0.9881707   -0.0886370 
   0.002650650     0.9930249   -0.0710445    -0.0044281    0.0811985     0.0001219    0.0780811     0.9911972   -0.1016270 
   0.002750675     0.9736783   -0.0669846    -0.0020884    0.0809522    -0.0003906    0.0809663     0.9802067   -0.1014293 
   0.002850700     0.9698864   -0.1124919     0.0017219    0.0840450     0.0017160    0.0841451     0.9835687   -0.1015772 
   0.002950725     0.9556962   -0.1162813    -0.0011025    0.0831995     0.0014004    0.0865489     0.9844204   -0.0968137 
   0.003050750     1.0093960   -0.1076113     0.0030467    0.0945424     0.0024875    0.0903997     0.9849895   -0.1055160 
   0.003150775     0.9666037   -0.1253490     0.0013499    0.0926500     0.0033128    0.0936260     0.9815986   -0.1134218 
   0.003250800     0.9663611   -0.1312051     0.0041338    0.0977741     0.0042719    0.0958936     0.9838960   -0.1118140 
   0.003350825     0.9535854   -0.0966648     0.0003426    0.1003709     0.0023581    0.0979816     0.9709603   -0.1134302 
   0.003450850     0.9671588   -0.1838484     0.0092689    0.1060390     0.0068211    0.1021330     0.9790593   -0.1194522 
   0.003550875     0.9537214   -0.1318149     0.0079376    0.1059959     0.0054181    0.1049854     0.9771907   -0.1216061 
   0.003650900     1.0313820   -0.1226230     0.0035158    0.1132503     0.0063195    0.1112920     0.9768927   -0.1242960 
   0.003750925     0.9260940   -0.1080725     0.0021059    0.1085001     0.0052201    0.1087635     0.9684744   -0.1323887 
   0.003850950     0.9639464   -0.1432358     0.0097141    0.1155712     0.0073050    0.1142402     0.9763173   -0.1295471 
   0.003950975     0.9682159   -0.1460597     0.0119781    0.1123122     0.0088648    0.1166988     0.9685799   -0.1330373 
   0.004051001     0.9464259   -0.1855968     0.0154601    0.1190135     0.0107276    0.1183356     0.9693366   -0.1289269 
   0.004151026     0.9980143   -0.1310020     0.0073175    0.1258187     0.0088784    0.1248855     0.9674792   -0.1400500 
   0.004251051     0.9937198   -0.1361638     0.0083983    0.1298825     0.0096717    0.1281885     0.9667657   -0.1425285 
   0.004351076     0.9688505   -0.1063577     0.0094508    0.1308473     0.0109456    0.1287208     0.9689554   -0.1487460 
   0.004451101     0.9868537   -0.1478877     0.0132869    0.1345170     0.0118970    0.1319724     0.9587998   -0.1435237 
   0.004551126     0.9891415   -0.1469148     0.0119169    0.1384593     0.0125401    0.1356304     0.9658169   -0.1474575 
   0.004651151     0.9502606   -0.1393218     0.0061839    0.1384474     0.0130440    0.1383093     0.9676563   -0.1536097 
   0.004751176     0.9688626   -0.1833633     0.0168641    0.1447217     0.0166683    0.1412215     0.9641319   -0.1555304 
   0.004851201     0.9504967   -0.1608632     0.0151664    0.1449626     0.0159138    0.1429171     0.9629778   -0.1606680 
   0.004951226     0.9683874   -0.1253592     0.0131454    0.1510851     0.0138682    0.1481881     0.9626028   -0.1578519 
   0.005051251     0.9688098   -0.1695409     0.0181675    0.1503555     0.0175489    0.1503489     0.9607244   -0.1647859 
   0.005151276     0.9642485   -0.1272349     0.0126829    0.1550699     0.0167625    0.1540730     0.9624708   -0.1702773 
   0.005251301     0.9467663   -0.1548339     0.0175042    0.1573572     0.0175126    0.1547073     0.9587268   -0.1680078 
   0.005351326     0.9442987   -0.1535430     0.0183273    0.1597135     0.0198849    0.1578114     0.9599881   -0.1778087 
   0.005451351     0.9631924   -0.1764527     0.0223715    0.1618064     0.0228734    0.1623096     0.9614507   -0.1845233 
   0.005551376     0.9732871   -0.1880357     0.0242896    0.1676994     0.0225619    0.1659591     0.9553856   -0.1745232 
   0.005651401     0.9644115   -0.1865505     0.0253600    0.1690108     0.0242058    0.1677494     0.9573005   -0.1853719 
   0.005751426     0.9490311   -0.1529041     0.0247422    0.1701211     0.0233390    0.1704206     0.9542719   -0.1871259 
   0.005851451     0.9763689   -0.1978755     0.0290665    0.1768318     0.0276586    0.1746549     0.9505112   -0.1895874 
   0.005951476     0.9392530   -0.1686208     0.0247889    0.1755263     0.0259739    0.1756247     0.9534053   -0.1911367 
   0.006051501     0.9461651   -0.1883995     0.0299461    0.1780792     0.0282083    0.1791013     0.9541209   -0.1973838 
   0.006151526     0.9358475   -0.2106814     0.0326833    0.1787571     0.0316495    0.1798365     0.9469273   -0.1966224 
   0.006251551     0.9493956   -0.1759504     0.0267584    0.1808742     0.0306932    0.1845118     0.9465531   -0.2046916 
   0.006351576     0.9336379   -0.2100909     0.0309524    0.1861202     0.0329268    0.1847717     0.9454478   -0.2048640 
   0.006451601     0.9424595   -0.2030455     0.0314233    0.1910203     0.0351190    0.1913937     0.9491187   -0.2098871 
   0.006551626     0.9349530   -0.2151639     0.0354862    0.1914583     0.0353343    0.1918876     0.9457901   -0.2090205 
   0.006651651     0.9404484   -0.2086017     0.0366251    0.1910548     0.0365225    0.1948930     0.9415305   -0.2141622 
   0.006751676     0.9562817   -0.2162234     0.0362704    0.2025775     0.0386800    0.2000271     0.9445887   -0.2121872 
   0.006851701     0.9290270   -0.2405085     0.0450647    0.1986172     0.0411304    0.1995405     0.9418199   -0.2197150 
   0.006951726     0.9222472   -0.2291418     0.0406408    0.2038874     0.0413188    0.2021741     0.9392182   -0.2239543 
   0.007051751     0.9553138   -0.2167732     0.0442168    0.2097120     0.0416437    0.2085811     0.9386831   -0.2221980 
   0.007151776     0.9303008   -0.2233270     0.0418654    0.2104569     0.0423252    0.2082647     0.9324111   -0.2282002 
   0.007251801     0.9707642   -0.2137202     0.0451546    0.2186656     0.0456135    0.2146820     0.9313782   -0.2295144 
   0.007351826     0.9329725   -0.2416182     0.0468284    0.2156404     0.0476434    0.2134708     0.9347259   -0.2340502 
   0.007451851     0.9197001   -0.2426600     0.0498766    0.2122838     0.0483385    0.2135100     0.9271947   -0.2365012 
   0.007551876     0.9249951   -0.2153469     0.0448036    0.2214606     0.0481963    0.2215213     0.9328021   -0.2413634 
   0.007651901     0.9356197   -0.2614021     0.0543179    0.2258263     0.0526721    0.2202214     0.9269292   -0.2396347 
   0.007751926     0.9194811   -0.2437357     0.0514808    0.2249416     0.0523805    0.2241372     0.9266174   -0.2464809 
   0.007851951     0.9165493   -0.2541799     0.0581056    0.2247633     0.0542253    0.2259429     0.9252004   -0.2458556 
   0.007951976     0.9377012   -0.2740613     0.0569284    0.2347330     0.0582053    0.2292312     0.9211743   -0.2489542 
   0.008052001     0.9264134   -0.2600884     0.0598220    0.2329177     0.0578574    0.2323617     0.9222325   -0.2504222 
   0.008152026     0.9172458   -0.2551975     0.0564581    0.2345131     0.0590262    0.2342981     0.9223526   -0.2550793 
   0.008252051     0.8891662   -0.2645811     0.0600926    0.2310907     0.0595115    0.2327156     0.9173754   -0.2587242 
   0.008352076     0.9280156   -0.2540800     0.0577090    0.2418578     0.0618285    0.2404588     0.9157011   -0.2610520 
   0.008452101     0.9151979   -0.2610961     0.0660522    0.2437860     0.0642541    0.2422543     0.9149336   -0.2623489 
   0.008552126     0.9199777   -0.2667801     0.0683663    0.2444314     0.0673661    0.2447221     0.9154982   -0.2669302 
   0.008652151     0.9031687   -0.2445113     0.0651434    0.2431079     0.0641087    0.2462314     0.9088608   -0.2704632 
   0.008752176     0.9150314   -0.2485038     0.0657697    0.2514018     0.0669584    0.2495684     0.9102408   -0.2729824 
   0.008852201     0.8975599   -0.2592457     0.0677479    0.2487324     0.0679984    0.2503617     0.9084955   -0.2731904 
   0.008952226     0.9227625   -0.2799461     0.0760426    0.2548891     0.0723338    0.2556936     0.9090207   -0.2726187 
   0.009052251     0.9146516   -0.2639287     0.0737923    0.2584533     0.0726646    0.2578802     0.9063404   -0.2780776 
   0.009152276     0.9122680   -0.2676382     0.0741662    0.2592407     0.0754424    0.2590373     0.8989795   -0.2858326 
   0.009252301     0.9045630   -0.2786474     0.0795081    0.2616375     0.0774857    0.2604426     0.9017041   -0.2866848 
   0.009352326     0.9014779   -0.2900119     0.0800841    0.2634400     0.0781856    0.2647518     0.9058149   -0.2836398 
   0.009452351     0.9021683   -0.2890550     0.0848932    0.2655450     0.0800232    0.2657707     0.8977786   -0.2889459 
   0.009552376     0.8942296   -0.2999069     0.0836555    0.2671765     0.0817542    0.2654263     0.8946918   -0.2882131 
   0.009652401     0.8791865   -0.2845282     0.0806554    0.2653500     0.0819330    0.2690378     0.8943567   -0.2948911 
   0.009752426     0.8930175   -0.2873853     0.0860169    0.2712458     0.0852483    0.2725133     0.8938856   -0.2960926 
   0.009852451     0.8773140   -0.3000351     0.0870246    0.2699526     0.0866181    0.2732712     0.8915458   -0.2971417 
   0.009952476     0.8871067   -0.3050072     0.0900106    0.2770260     0.0884480    0.2746694     0.8856636   -0.2949927 
   0.010052501     0.8846269   -0.2987096     0.0908513    0.2784150     0.0886397    0.2790901     0.8875923   -0.2965031 
   0.010152526     0.8712926   -0.2922385     0.0915930    0.2735900     0.0898331    0.2804973     0.8850954   -0.3029364 
   0.010252551     0.8812387   -0.3073716     0.0968030    0.2842858     0.0946085    0.2827788     0.8831766   -0.3069900 
   0.010352576     0.8860075   -0.3102213     0.0941650    0.2848264     0.0967709    0.2863197     0.8812960   -0.3085962 
   0.010452601     0.8844311   -0.2984098     0.0947484    0.2889314     0.0979846    0.2893727     0.8795480   -0.3149135 
   0.010552626     0.8605154   -0.3194563     0.0993945    0.2879212     0.1005203    0.2870729     0.8792074   -0.3175420 
   0.010652651     0.8781087   -0.3215113     0.1073350    0.2913238     0.1031895    0.2906933     0.8764946   -0.3169588 
   0.010752676     0.8679370   -0.3149501     0.1019804    0.2910233     0.1027902    0.2922687     0.8715653   -0.3204390 
   0.010852701     0.8637519   -0.3020702     0.1050647    0.2905765     0.1026396    0.2979761     0.8765753   -0.3183903 
   0.010952726     0.8674090   -0.3197943     0.1068429    0.2987127     0.1064454    0.2974838     0.8701560   -0.3239356 
   0.011052751     0.8726705   -0.3318535     0.1114060    0.3005264     0.1118707    0.3000641     0.8703904   -0.3279214 
   0.011152776     0.8713607   -0.3250768     0.1101467    0.3019268     0.1119230    0.3030505     0.8660234   -0.3280823 
   0.011252801     0.8689706   -0.3293949     0.1123329    0.3004611     0.1141684    0.3047573     0.8648370   -0.3295263 
   0.011352826     0.8666878   -0.3406834     0.1149159    0.3075836     0.1159250    0.3050033     0.8615388   -0.3285763 
   0.011452851     0.8637414   -0.3348794     0.1186747    0.3083635     0.1185948    0.3074118     0.8585219   -0.3364355 
   0.011552876     0.8508797   -0.3223645     0.1144380    0.3074258     0.1171698    0.3105457     0.8598329   -0.3389454 
   0.011652901     0.8497587   -0.3577985     0.1257156    0.3074976     0.1219055    0.3088928     0.8581933   -0.3365729 
   0.011752926     0.8551385   -0.3300021     0.1176294    0.3143396     0.1217615    0.3151981     0.8566185   -0.3397835 
   0.011852951     0.8638353   -0.3408920     0.1227166    0.3196020     0.1254164    0.3183987     0.8537962   -0.3380521 
   0.011952976     0.8418787   -0.3271348     0.1242149    0.3151341     0.1236641    0.3178955     0.8510858   -0.3458087 
   0.012053002     0.8365660   -0.3502156     0.1285018    0.3153270     0.1287380    0.3171563     0.8498034   -0.3470972 
   0.012153027     0.8417720   -0.3425691     0.1267751    0.3167302     0.1297615    0.3210880     0.8463235   -0.3480098 
   0.012253052     0.8373832   -0.3428807     0.1314859    0.3226887     0.1311982    0.3227177     0.8448206   -0.3515733 
   0.012353077     0.8445545   -0.3495883     0.1367429    0.3253659     0.1336314    0.3244652     0.8441901   -0.3510522 
   0.012453102     0.8502014   -0.3467834     0.1393228    0.3290377     0.1375351    0.3275956     0.8401398   -0.3560351 
   0.012553127     0.8288521   -0.3757770     0.1415799    0.3226621     0.1392275    0.3234123     0.8362500   -0.3560435 
   0.012653152     0.8430886   -0.3537383     0.1439434    0.3317050     0.1407690    0.3307129     0.8366188   -0.3594302 
   0.012753177     0.8263049   -0.3513527     0.1411696    0.3275369     0.1408429    0.3328780     0.8366078   -0.3609488 
   0.012853202     0.8272098   -0.3517376     0.1454450    0.3318613     0.1441528    0.3322787     0.8287932   -0.3645493 
   0.012953227     0.8347158   -0.3618834     0.1496266    0.3358408     0.1472863    0.3375649     0.8359045   -0.3624850 
   0.013053252     0.8237889   -0.3654486     0.1475416    0.3337564     0.1479896    0.3382855     0.8305436   -0.3640517 
   0.013153277     0.8296712   -0.3564132     0.1502549    0.3370687     0.1518047    0.3403902     0.8274729   -0.3705201 
   0.013253302     0.8272803   -0.3548912     0.1526506    0.3396842     0.1527443    0.3442342     0.8261138   -0.3679483 
   0.013353327     0.8290018   -0.3568925     0.1532896    0.3433903     0.1552175    0.3450330     0.8203982   -0.3721632 
   0.013453352     0.8285800   -0.3589913     0.1543502    0.3438816     0.1555514    0.3468161     0.8192570   -0.3717313 
   0.013553377     0.8050369   -0.3683338     0.1598663    0.3431746     0.1556516    0.3443033     0.8174909   -0.3740927 
   0.013653402     0.8192127   -0.3667492     0.1568687    0.3467724     0.1616118    0.3465661     0.8134433   -0.3790187 
   0.013753427     0.8170774   -0.3763457     0.1630635    0.3474088     0.1625874    0.3491756     0.8140900   -0.3778631 
   0.013853452     0.8283092   -0.3836204     0.1661368    0.3561980     0.1684312    0.3524388     0.8160068   -0.3780286 
   0.013953477     0.8057023   -0.3727009     0.1670881    0.3530521     0.1662744    0.3521256     0.8094139   -0.3832389 
   0.014053502     0.8182260   -0.3930617     0.1732535    0.3547580     0.1734030    0.3522807     0.8083385   -0.3841845 
   0.014153527     0.8063756   -0.3730636     0.1686223    0.3533763     0.1693478    0.3585303     0.8065740   -0.3835695 
   0.014253552     0.8087214   -0.3770413     0.1762965    0.3618544     0.1745979    0.3592247     0.8057622   -0.3849895 
   0.014353577     0.8024773   -0.3756783     0.1714634    0.3600573     0.1746494    0.3572480     0.7987987   -0.3880319 
   0.014453602     0.7970838   -0.3864497     0.1803687    0.3579560     0.1768562    0.3596335     0.7993470   -0.3889765 
   0.014553627     0.7960740   -0.3846877     0.1794235    0.3586040     0.1786714    0.3615150     0.7975183   -0.3919433 
   0.014653652     0.7966262   -0.3929664     0.1798825    0.3617032     0.1821850    0.3608072     0.7909506   -0.3953386 
   0.014753677     0.7917855   -0.3892741     0.1854407    0.3651458     0.1818155    0.3638199     0.7899443   -0.3929336 
   0.014853702     0.8094213   -0.3859462     0.1881951    0.3638389     0.1886716    0.3688135     0.7891312   -0.3973548 
   0.014953727     0.7838463   -0.4059734     0.1932793    0.3630124     0.1871360    0.3635066     0.7893031   -0.3960615 
   0.015053752     0.7862501   -0.3934435     0.1848517    0.3625131     0.1897909    0.3674176     0.7834083   -0.4004362 
   0.015153777     0.7943226   -0.3926179     0.1914361    0.3727262     0.1942880    0.3719901     0.7852440   -0.3995159 
   0.015253802     0.7756478   -0.3899867     0.1931350    0.3684168     0.1920043    0.3725658     0.7820256   -0.4037339 
   0.015353827     0.7773135   -0.4010928     0.2022716    0.3690049     0.1951427    0.3722481     0.7821960   -0.4021382 
   0.015453852     0.7769452   -0.3964072     0.1972957    0.3725628     0.1961167    0.3743581     0.7767977   -0.4031532 
   0.015553877     0.7817138   -0.4104820     0.2082989    0.3734626     0.2032754    0.3749188     0.7777369   -0.4058702 
   0.015653902     0.7771949   -0.4004362     0.2016656    0.3755630     0.2055897    0.3774359     0.7725312   -0.4126406 
