! 26-Feb-26 1:13:17 PM
! E:\VNA_MEASUREMENTS\SP8T\SP8T_P8_RF5.S2P
! CHANNEL.1
! TR.MEASUREMENT
! CORRECTED.DATA
# GHZ S RI R 50.0
! FREQ.GHZ         S11RE         S11IM         S21RE         S21IM         S12RE         S12IM         S22RE         S22IM         
!; PortSelection: Port_12
   0.000050000     0.4883249   -0.0302026    -0.3119066    0.1636173    -0.0122336    0.0034380     1.0279950    0.0039412 
   0.000150025    -0.0114316    0.1604238     0.3154603    0.4046458    -0.0008656   -0.0006864     0.9940647    0.0000277 
   0.000250050    -0.0570538   -0.0558223    -0.0031295   -0.0034291    -0.0001583   -0.0004921     1.0099230   -0.0149897 
   0.000350075     0.9846227   -0.0796932     0.0020224   -0.0146932    -0.0023348    0.0006486     0.9870785   -0.0297500 
   0.000450100     1.0288480   -0.0626420    -0.0070179   -0.0127212    -0.0001342    0.0006771     0.9866159   -0.0157455 
   0.000550125     1.0341090   -0.0209405    -0.0029274   -0.0063106    -0.0002965   -0.0001897     0.9934764   -0.0358128 
   0.000650150     1.0320270   -0.0099956    -0.0049700   -0.0133042    -0.0003234   -0.0003924     1.0029620   -0.0507137 
   0.000750175     1.0464860   -0.0348759    -0.0048395   -0.0091035    -0.0000427    0.0001294     1.0020420   -0.0500798 
   0.000850200     0.9568565   -0.1037230    -0.0164195   -0.0084502    -0.0001163    0.0006553     0.9927856   -0.0474593 
   0.000950225     1.0034690   -0.0146023    -0.0141916   -0.0039077    -0.0004212    0.0006446     0.9950624   -0.0660276 
   0.001050250     0.9602631   -0.0500022    -0.0105792   -0.0025860    -0.0001921   -0.0004178     0.9922473   -0.0639147 
   0.001150275     1.0593000   -0.0596540    -0.0056443   -0.0081591     0.0000026   -0.0008908     0.9817227   -0.0720071 
   0.001250300     0.9527439   -0.0223467    -0.0088873   -0.0064288     0.0018139   -0.0005040     0.9992722   -0.0870578 
   0.001350325     1.0068150   -0.0650683    -0.0103029   -0.0025609    -0.0003290    0.0000828     0.9851100   -0.0885163 
   0.001450350     0.9952568   -0.0626352    -0.0099237   -0.0031111    -0.0000718    0.0009050     0.9832348   -0.0827099 
   0.001550375     0.9788509   -0.0275643    -0.0084604    0.0006968     0.0005565    0.0008554     0.9916117   -0.0932518 
   0.001650400     0.9855641   -0.0423288    -0.0087187    0.0005218     0.0002853   -0.0006696     0.9750124   -0.0940355 
   0.001750425     1.0184380   -0.0552938    -0.0091061    0.0021342    -0.0002198   -0.0001426     0.9854363   -0.1069146 
   0.001850450     0.9647958   -0.0718907    -0.0060309    0.0024482    -0.0004357    0.0003165     0.9862360   -0.1105698 
   0.001950475     1.0186610   -0.0297522    -0.0100968    0.0028058    -0.0001525    0.0006163     0.9882087   -0.1154021 
   0.002050500     0.9896785   -0.0917068    -0.0073289   -0.0003615    -0.0005967    0.0002356     0.9824867   -0.1397374 
   0.002150525     1.0167910   -0.0718203    -0.0073083    0.0003672     0.0002102   -0.0002443     0.9751295   -0.1329830 
   0.002250550     0.9835339   -0.0518477    -0.0088447    0.0066060     0.0002992    0.0000670     0.9699888   -0.1405353 
   0.002350575     0.9418458   -0.1119182    -0.0068387    0.0038794    -0.0003847    0.0002214     0.9708915   -0.1412285 
   0.002450600     0.9847195   -0.0918439    -0.0055305    0.0027720    -0.0009271    0.0009189     0.9723413   -0.1514880 
   0.002550625     0.9585754   -0.0965673    -0.0017882    0.0023825    -0.0000344   -0.0002124     0.9707856   -0.1606933 
   0.002650650     0.9973584   -0.0615921    -0.0049514    0.0004256    -0.0001691    0.0000117     0.9737976   -0.1680780 
   0.002750675     0.9855658   -0.0431998    -0.0033934    0.0045579     0.0004393   -0.0002843     0.9660373   -0.1752757 
   0.002850700     1.0187040   -0.0676617    -0.0053798    0.0038570     0.0001654   -0.0004441     0.9586031   -0.1728273 
   0.002950725     0.9294591   -0.0658407    -0.0041203    0.0041480     0.0001959    0.0003066     0.9589527   -0.1787862 
   0.003050750     0.9916570   -0.0780498    -0.0039767    0.0016396    -0.0005141    0.0003372     0.9620702   -0.1889646 
   0.003150775     0.9640360   -0.1245223    -0.0014056    0.0058514    -0.0006647   -0.0005790     0.9431037   -0.1932418 
   0.003250800     0.9651489   -0.0941393    -0.0023852    0.0016697     0.0004843    0.0001887     0.9527702   -0.1939382 
   0.003350825     0.9836293   -0.1191393    -0.0021933    0.0015208     0.0001062   -0.0003530     0.9461997   -0.2010319 
   0.003450850     0.9502090   -0.1407291    -0.0011304    0.0021371    -0.0009646   -0.0004091     0.9453940   -0.2075075 
   0.003550875     0.9716102   -0.1357623    -0.0020745   -0.0001271    -0.0002924    0.0004595     0.9446871   -0.2160786 
   0.003650900     1.0175120   -0.1241333    -0.0020978    0.0049314    -0.0004363    0.0000646     0.9432650   -0.2240447 
   0.003750925     0.9552318   -0.1441835    -0.0010880    0.0031516     0.0005257   -0.0001342     0.9301785   -0.2294539 
   0.003850950     0.9561541   -0.1341914    -0.0024971    0.0019302    -0.0000580    0.0002493     0.9324181   -0.2281562 
   0.003950975     0.9861525   -0.1153279    -0.0023778    0.0018655     0.0002656    0.0002177     0.9315333   -0.2335789 
   0.004051001     0.9523489   -0.1661970     0.0011149   -0.0014335     0.0001927   -0.0009243     0.9247457   -0.2348529 
   0.004151026     0.9652649   -0.1380936    -0.0024593    0.0020428     0.0006252    0.0005769     0.9261538   -0.2402200 
   0.004251051     0.9555415   -0.1522084     0.0000175    0.0017346    -0.0001893   -0.0000750     0.9274720   -0.2507148 
   0.004351076     0.9598886   -0.1166814    -0.0031593    0.0024416     0.0002617    0.0001234     0.9145569   -0.2551913 
   0.004451101     0.9817194   -0.1399925    -0.0002553    0.0033491     0.0000535    0.0003685     0.9106996   -0.2590179 
   0.004551126     0.9678053   -0.1631109    -0.0000916    0.0011952     0.0004066   -0.0001822     0.9180254   -0.2576705 
   0.004651151     0.9661339   -0.1729662    -0.0024147   -0.0000028     0.0003853    0.0001179     0.9073286   -0.2660086 
   0.004751176     0.9354520   -0.2072505    -0.0010222    0.0024146     0.0007313    0.0002878     0.9029385   -0.2722068 
   0.004851201     0.9386335   -0.1511550     0.0022809    0.0010918     0.0003506   -0.0003946     0.9014945   -0.2743593 
   0.004951226     0.9707848   -0.1405634     0.0000021    0.0010733     0.0003522    0.0002783     0.8987647   -0.2786288 
   0.005051251     0.9862755   -0.1670052    -0.0001497    0.0002353     0.0002525    0.0002354     0.8960497   -0.2813486 
   0.005151276     0.9319845   -0.1523905    -0.0025832    0.0011992     0.0007037    0.0000240     0.8904918   -0.2886412 
   0.005251301     0.9442949   -0.1603479     0.0004457   -0.0014085     0.0002505    0.0002764     0.8851461   -0.2885477 
   0.005351326     0.9375456   -0.1628784     0.0006842   -0.0009871     0.0003668   -0.0000414     0.8855834   -0.2963077 
   0.005451351     0.9833465   -0.1804506     0.0004548    0.0009578    -0.0002372   -0.0004288     0.8796756   -0.3031323 
   0.005551376     0.9402307   -0.2052253     0.0012065    0.0010741    -0.0003839    0.0001060     0.8728394   -0.3031783 
   0.005651401     0.9380698   -0.1733384     0.0011163   -0.0038851    -0.0000082   -0.0000076     0.8701606   -0.3175055 
   0.005751426     0.9388676   -0.1949403    -0.0019174    0.0031280    -0.0005739   -0.0000469     0.8668634   -0.3121821 
   0.005851451     0.9582470   -0.2176735    -0.0011317   -0.0000604    -0.0003771    0.0003093     0.8594225   -0.3168868 
   0.005951476     0.9387050   -0.1945454    -0.0005940   -0.0005366     0.0001608    0.0003463     0.8637064   -0.3162202 
   0.006051501     0.9507626   -0.1912804     0.0010460    0.0008532    -0.0001858    0.0006571     0.8580864   -0.3265616 
   0.006151526     0.9231505   -0.1993604     0.0000221    0.0010528     0.0004079    0.0005319     0.8502210   -0.3243191 
   0.006251551     0.9329897   -0.1818125     0.0004014   -0.0004017    -0.0000358    0.0002546     0.8466946   -0.3321137 
   0.006351576     0.9451103   -0.1995848    -0.0005946   -0.0005719     0.0000719    0.0000877     0.8421211   -0.3375664 
   0.006451601     0.9426566   -0.2179349     0.0002146   -0.0014426    -0.0001162   -0.0001968     0.8383271   -0.3414372 
   0.006551626     0.9177992   -0.2117549    -0.0017146    0.0018947    -0.0000168   -0.0004263     0.8333154   -0.3405789 
   0.006651651     0.9320205   -0.2115889     0.0006822    0.0021990    -0.0003696    0.0000733     0.8291261   -0.3474762 
   0.006751676     0.9578247   -0.2211024     0.0012698    0.0006463     0.0002940    0.0001322     0.8303428   -0.3499290 
   0.006851701     0.9296004   -0.2262681     0.0005921    0.0007398    -0.0000452   -0.0000436     0.8222198   -0.3539564 
   0.006951726     0.9080832   -0.2181709     0.0002722    0.0029041    -0.0002398   -0.0004130     0.8168101   -0.3540814 
   0.007051751     0.9255874   -0.2272007     0.0003252    0.0008899     0.0005940    0.0007258     0.8137096   -0.3564203 
   0.007151776     0.9074929   -0.2367395    -0.0005107    0.0015338    -0.0001724    0.0001329     0.8062009   -0.3575691 
   0.007251801     0.9318987   -0.2111445    -0.0017396    0.0010985    -0.0001493   -0.0004694     0.8020252   -0.3630340 
   0.007351826     0.9122922   -0.2423741    -0.0003702   -0.0000799     0.0001918    0.0000934     0.7994862   -0.3661211 
   0.007451851     0.9102820   -0.2358307    -0.0010889    0.0002410    -0.0004774   -0.0002930     0.7943638   -0.3628232 
   0.007551876     0.9321173   -0.2452434     0.0009456   -0.0003708     0.0005190    0.0001417     0.7926282   -0.3698563 
   0.007651901     0.9315673   -0.2744083    -0.0006025   -0.0001643    -0.0000976   -0.0001066     0.7892978   -0.3671317 
   0.007751926     0.9177034   -0.2463434     0.0008456    0.0010535    -0.0000653    0.0000451     0.7828926   -0.3774306 
   0.007851951     0.9236317   -0.2456771     0.0000591   -0.0001856    -0.0002023    0.0004727     0.7793558   -0.3783224 
   0.007951976     0.9107325   -0.2628409    -0.0015340   -0.0004770     0.0000048    0.0000104     0.7735208   -0.3809283 
   0.008052001     0.9266145   -0.2467058    -0.0007548    0.0015397    -0.0001721    0.0000766     0.7717726   -0.3820240 
   0.008152026     0.8944324   -0.2712312     0.0006056   -0.0001711    -0.0003466    0.0000179     0.7710348   -0.3860565 
   0.008252051     0.8928186   -0.2428309    -0.0008720    0.0006800     0.0002153    0.0001648     0.7616979   -0.3850518 
   0.008352076     0.9198036   -0.2640191     0.0000035    0.0000888    -0.0002143   -0.0000674     0.7568148   -0.3900637 
   0.008452101     0.9062902   -0.2503376    -0.0003295   -0.0000641     0.0000364    0.0001045     0.7552943   -0.3912504 
   0.008552126     0.9052023   -0.2748211    -0.0004531   -0.0003159    -0.0001244    0.0001312     0.7522432   -0.3916154 
   0.008652151     0.9201293   -0.2515105     0.0003868    0.0002147     0.0001951    0.0001136     0.7461342   -0.3933252 
   0.008752176     0.9046828   -0.2619362    -0.0005128    0.0005716    -0.0001751    0.0001064     0.7434722   -0.3976426 
   0.008852201     0.8854570   -0.2450977    -0.0018417   -0.0000238     0.0001283    0.0000583     0.7370849   -0.3967615 
   0.008952226     0.9076003   -0.2759629    -0.0031848    0.0005723     0.0000804    0.0001199     0.7355043   -0.3985458 
   0.009052251     0.9185183   -0.2791402    -0.0000906    0.0013218    -0.0000784   -0.0001093     0.7315236   -0.4024880 
   0.009152276     0.9024879   -0.2692611    -0.0010952    0.0012754    -0.0002393    0.0003541     0.7246386   -0.4043081 
   0.009252301     0.8998706   -0.2860892    -0.0001126    0.0015447     0.0000711    0.0000127     0.7215069   -0.4094926 
   0.009352326     0.9128781   -0.2971539    -0.0000964    0.0012538     0.0000282    0.0000936     0.7185879   -0.4026593 
   0.009452351     0.9008499   -0.2895712     0.0002771   -0.0008585    -0.0000243   -0.0000317     0.7120068   -0.4045097 
   0.009552376     0.8910928   -0.2989289     0.0005401    0.0005804    -0.0001469    0.0002220     0.7095237   -0.4079968 
   0.009652401     0.8893644   -0.2917099     0.0012698    0.0008716     0.0002326    0.0001076     0.7056267   -0.4108964 
   0.009752426     0.8864578   -0.2861454    -0.0003393    0.0015861    -0.0000227    0.0004570     0.7020244   -0.4102694 
   0.009852451     0.8870575   -0.3000807    -0.0003259    0.0006556     0.0001168   -0.0000448     0.6973840   -0.4126642 
   0.009952476     0.8844414   -0.3026585     0.0007745   -0.0001580     0.0002815    0.0003856     0.6939381   -0.4152214 
   0.010052501     0.8725228   -0.3011119     0.0001160   -0.0005684    -0.0000673    0.0002377     0.6891810   -0.4102729 
   0.010152526     0.8826108   -0.2783955     0.0000236   -0.0001059    -0.0000641    0.0000705     0.6833943   -0.4138475 
   0.010252551     0.8737715   -0.2849388    -0.0006387    0.0001000    -0.0000600    0.0005139     0.6820870   -0.4175940 
   0.010352576     0.8929684   -0.3189185     0.0003141    0.0006371    -0.0001901    0.0000476     0.6782561   -0.4185809 
   0.010452601     0.8845652   -0.3012181     0.0002105    0.0001026     0.0000865    0.0004971     0.6719314   -0.4213877 
   0.010552626     0.8694020   -0.3112043     0.0006512    0.0013396    -0.0000167    0.0001916     0.6697180   -0.4218838 
   0.010652651     0.8652782   -0.3223592     0.0009545    0.0003969    -0.0003151    0.0000792     0.6670886   -0.4235266 
   0.010752676     0.8684132   -0.3266681    -0.0008021   -0.0011792    -0.0001836    0.0004501     0.6614189   -0.4216492 
   0.010852701     0.8601683   -0.2945232    -0.0004341    0.0004618     0.0001320    0.0000920     0.6602452   -0.4216135 
   0.010952726     0.8601538   -0.3190722    -0.0002152    0.0012697    -0.0002350    0.0000301     0.6537678   -0.4258609 
   0.011052751     0.8607942   -0.3319093     0.0000545   -0.0004284    -0.0002021    0.0001852     0.6523113   -0.4252921 
   0.011152776     0.8639803   -0.3204640     0.0008721    0.0003514     0.0000091   -0.0000162     0.6482701   -0.4266821 
   0.011252801     0.8595064   -0.3282722     0.0004711   -0.0006955     0.0000057    0.0003643     0.6451121   -0.4289164 
   0.011352826     0.8509726   -0.3510072     0.0007345    0.0006906     0.0004511    0.0002701     0.6430022   -0.4251931 
   0.011452851     0.8516654   -0.3260000    -0.0011550    0.0004919    -0.0000669    0.0003372     0.6337562   -0.4285771 
   0.011552876     0.8468010   -0.3462434    -0.0005242    0.0002849    -0.0004125   -0.0000941     0.6341112   -0.4304257 
   0.011652901     0.8516887   -0.3454075     0.0004133    0.0018288    -0.0001940   -0.0000981     0.6272916   -0.4298674 
   0.011752926     0.8342173   -0.3364442     0.0007903    0.0001136    -0.0002645    0.0002008     0.6281547   -0.4299140 
   0.011852951     0.8396197   -0.3572232    -0.0007319   -0.0005102    -0.0000914    0.0001375     0.6225371   -0.4301508 
   0.011952976     0.8358055   -0.3411298     0.0010473    0.0003893    -0.0000250    0.0004587     0.6200268   -0.4317441 
   0.012053002     0.8323022   -0.3465638     0.0001920    0.0000897    -0.0001233    0.0002408     0.6127297   -0.4288653 
   0.012153027     0.8387842   -0.3534110    -0.0006341    0.0007786    -0.0002224    0.0002403     0.6095319   -0.4310038 
   0.012253052     0.8248404   -0.3578561    -0.0013423    0.0001284    -0.0000871    0.0003694     0.6072207   -0.4283418 
   0.012353077     0.8405910   -0.3409555     0.0007598   -0.0006759    -0.0001168    0.0002687     0.6054677   -0.4311551 
   0.012453102     0.8358251   -0.3550642    -0.0003982   -0.0001961    -0.0000245    0.0001781     0.5994834   -0.4341451 
   0.012553127     0.8184305   -0.3655809    -0.0008926   -0.0003556     0.0001545    0.0003170     0.5966175   -0.4306206 
   0.012653152     0.8389672   -0.3462841    -0.0008005    0.0005432    -0.0000533    0.0001247     0.5941910   -0.4319257 
   0.012753177     0.8196606   -0.3501933    -0.0005201   -0.0001963     0.0001633    0.0001195     0.5903287   -0.4330423 
   0.012853202     0.8189031   -0.3410725    -0.0002261   -0.0004112    -0.0002588    0.0001853     0.5843459   -0.4334577 
   0.012953227     0.8171098   -0.3509257    -0.0010832    0.0003794    -0.0002942    0.0002036     0.5850214   -0.4325569 
   0.013053252     0.8104817   -0.3654320    -0.0004682    0.0002178    -0.0001652    0.0000035     0.5815524   -0.4319915 
   0.013153277     0.8164559   -0.3614282     0.0001564    0.0000637     0.0001770   -0.0001128     0.5766106   -0.4340480 
   0.013253302     0.8135056   -0.3607046    -0.0008030   -0.0002010     0.0001836    0.0002236     0.5753459   -0.4319094 
   0.013353327     0.8181800   -0.3620800    -0.0006814    0.0002177    -0.0000513    0.0002525     0.5699800   -0.4356958 
   0.013453352     0.8039898   -0.3566631    -0.0014153   -0.0006261    -0.0001961    0.0001114     0.5663299   -0.4331680 
   0.013553377     0.7934141   -0.3544380     0.0003956    0.0007632    -0.0001643    0.0005066     0.5634230   -0.4315001 
   0.013653402     0.8058777   -0.3778778    -0.0000049    0.0000898    -0.0000298    0.0004639     0.5608500   -0.4331340 
   0.013753427     0.8070018   -0.3758989    -0.0002143   -0.0002041    -0.0000580    0.0000547     0.5579537   -0.4306326 
   0.013853452     0.8027875   -0.3759597    -0.0004481   -0.0009762     0.0000572    0.0000671     0.5564079   -0.4309787 
   0.013953477     0.7956350   -0.3665992    -0.0005881   -0.0000600    -0.0000754   -0.0000981     0.5535935   -0.4336370 
   0.014053502     0.8044981   -0.3791704    -0.0004149    0.0009292    -0.0004010    0.0000576     0.5489471   -0.4316227 
   0.014153527     0.7961226   -0.3822199     0.0000308   -0.0005337    -0.0003154    0.0000347     0.5468500   -0.4309220 
   0.014253552     0.8029113   -0.3741022     0.0000605   -0.0000041    -0.0001221    0.0001403     0.5433784   -0.4331834 
   0.014353577     0.7926456   -0.3847039    -0.0002977    0.0000898     0.0000650    0.0000537     0.5381781   -0.4315645 
   0.014453602     0.7752750   -0.3815163     0.0001590    0.0007182    -0.0002731   -0.0000358     0.5374753   -0.4298389 
   0.014553627     0.7843586   -0.3850521     0.0006075    0.0003853     0.0000476    0.0004117     0.5342026   -0.4312435 
   0.014653652     0.7907763   -0.3958657     0.0001671   -0.0000153     0.0000938    0.0000748     0.5288440   -0.4320229 
   0.014753677     0.7841748   -0.3735446     0.0000075   -0.0003662    -0.0000712    0.0003083     0.5277238   -0.4280752 
   0.014853702     0.7926658   -0.3880563     0.0002962    0.0000527    -0.0004859    0.0001183     0.5254576   -0.4293053 
   0.014953727     0.7803193   -0.4041472    -0.0004343    0.0001084    -0.0000262    0.0002711     0.5230622   -0.4292542 
   0.015053752     0.7804506   -0.3915252    -0.0003050    0.0004636     0.0003671    0.0001639     0.5183691   -0.4299183 
   0.015153777     0.7791646   -0.4063709     0.0004403    0.0003925     0.0003634    0.0003504     0.5198088   -0.4288915 
   0.015253802     0.7730665   -0.3997846     0.0007620   -0.0001501    -0.0001267   -0.0000834     0.5134808   -0.4307998 
   0.015353827     0.7659433   -0.4055060    -0.0003177    0.0001287     0.0001244    0.0000505     0.5118559   -0.4282427 
   0.015453852     0.7742999   -0.3970869     0.0013257    0.0007883    -0.0004060    0.0001977     0.5059604   -0.4281028 
   0.015553877     0.7778220   -0.4112962     0.0000761    0.0003445    -0.0001081    0.0001448     0.5061470   -0.4279797 
   0.015653902     0.7641909   -0.3984073     0.0000877   -0.0000568    -0.0001024    0.0003088     0.5034435   -0.4298692 
