! 26-Feb-26 12:33:33 PM
! E:\VNA_MEASUREMENTS\SP8T\SP8T_P6_RF8.S2P
! CHANNEL.1
! TR.MEASUREMENT
! CORRECTED.DATA
# GHZ S RI R 50.0
! FREQ.GHZ         S11RE         S11IM         S21RE         S21IM         S12RE         S12IM         S22RE         S22IM         
!; PortSelection: Port_12
   0.000050000     0.4501978    0.1872778    -0.1089130    0.0883211    -0.0074868   -0.0031364     0.9909718    0.0148239 
   0.000150025    -0.0095204    0.1939996    -0.4469903    0.3967041    -0.0002465   -0.0010500     0.9957529   -0.0084269 
   0.000250050     0.1152131   -0.0036715    -0.0090659   -0.0057306     0.0010117    0.0004386     0.9972469   -0.0107108 
   0.000350075     0.9924481   -0.0320995    -0.0087309   -0.0062645     0.0000038   -0.0012663     0.9964142   -0.0270038 
   0.000450100     0.9727466   -0.0418969    -0.0051922   -0.0077068     0.0001947    0.0000167     0.9960161   -0.0143539 
   0.000550125     0.9454662   -0.0629914    -0.0052846   -0.0077242     0.0007070    0.0002943     0.9923648   -0.0315461 
   0.000650150     0.9765679   -0.0368903    -0.0045799   -0.0092509     0.0005942    0.0006710     1.0018270   -0.0441228 
   0.000750175     0.9814478   -0.0887987    -0.0080702   -0.0102370     0.0011050   -0.0006192     1.0007100   -0.0462881 
   0.000850200     0.9490741   -0.0567587    -0.0089632   -0.0082054     0.0005919   -0.0003884     0.9950396   -0.0487108 
   0.000950225     1.0573350   -0.0315753    -0.0118561   -0.0086527     0.0002443   -0.0002340     0.9911362   -0.0552326 
   0.001050250     1.0370580   -0.0387739    -0.0109393   -0.0057095     0.0010673    0.0006367     1.0015700   -0.0558918 
   0.001150275     1.0003230   -0.0733044    -0.0078018   -0.0061971     0.0005518    0.0000358     0.9907400   -0.0700572 
   0.001250300     1.0294590   -0.0487429    -0.0081848   -0.0032492    -0.0011179    0.0003177     0.9924251   -0.0869431 
   0.001350325     1.0061080   -0.0892411    -0.0082263   -0.0008830    -0.0000846    0.0000843     0.9894488   -0.0857448 
   0.001450350     0.9941400   -0.0495992    -0.0093703   -0.0011601    -0.0005528   -0.0001021     0.9867817   -0.0943976 
   0.001550375     0.9598575   -0.0723664    -0.0098750   -0.0015876    -0.0002009   -0.0000733     0.9936206   -0.0992046 
   0.001650400     0.9584138   -0.0310639    -0.0089187   -0.0004316     0.0002386   -0.0003949     0.9821122   -0.0934014 
   0.001750425     0.9985148   -0.0742723    -0.0119701    0.0009704    -0.0004485    0.0004124     0.9811094   -0.1091744 
   0.001850450     0.9859482   -0.0597574    -0.0091895    0.0021223    -0.0008790    0.0010634     0.9833706   -0.1225180 
   0.001950475     1.0344070   -0.0124545    -0.0092551    0.0005299    -0.0005839    0.0007004     0.9890049   -0.1162988 
   0.002050500     0.9620449   -0.0523023    -0.0063800    0.0002677     0.0003893    0.0010283     0.9808146   -0.1384991 
   0.002150525     0.9966763   -0.0622984    -0.0038479    0.0016796     0.0008184   -0.0004771     0.9720803   -0.1376195 
   0.002250550     0.9744187   -0.0244470    -0.0072870   -0.0002625    -0.0002581    0.0001225     0.9733637   -0.1371942 
   0.002350575     0.9660708   -0.1331141    -0.0041621    0.0013970    -0.0003011   -0.0008687     0.9747379   -0.1478567 
   0.002450600     0.9687659   -0.1078638    -0.0046793    0.0009037    -0.0000553    0.0005271     0.9763920   -0.1547499 
   0.002550625     0.9928547   -0.1187339    -0.0072752    0.0015101     0.0006278   -0.0001764     0.9721020   -0.1616346 
   0.002650650     0.9439716   -0.0723987    -0.0053646    0.0029999     0.0004556   -0.0001130     0.9683520   -0.1703434 
   0.002750675     1.0128710   -0.0538039    -0.0034299    0.0047358     0.0003776    0.0004029     0.9603279   -0.1708837 
   0.002850700     1.0224810   -0.1046930    -0.0023316    0.0027029    -0.0000718    0.0000011     0.9656867   -0.1767835 
   0.002950725     0.9600717   -0.1159240    -0.0035735    0.0030300     0.0003901   -0.0000065     0.9608298   -0.1764747 
   0.003050750     0.9763837   -0.0932154    -0.0065498    0.0046336    -0.0004133    0.0002151     0.9617887   -0.1880851 
   0.003150775     0.9775882   -0.1307849    -0.0015150    0.0028020     0.0005907   -0.0001689     0.9494697   -0.1988260 
   0.003250800     0.9629086   -0.1120578    -0.0023462    0.0023208    -0.0002744   -0.0001155     0.9545799   -0.1978757 
   0.003350825     1.0134960   -0.0941316    -0.0012362    0.0008232     0.0008503   -0.0004395     0.9466718   -0.2056857 
   0.003450850     0.9345204   -0.1138354    -0.0012320    0.0005098    -0.0010777   -0.0000839     0.9457975   -0.2103076 
   0.003550875     0.9501871   -0.0976951    -0.0056907    0.0026125     0.0003128   -0.0007092     0.9459958   -0.2163042 
   0.003650900     0.9982653   -0.1007686     0.0006985    0.0038182     0.0000623    0.0009304     0.9417036   -0.2215781 
   0.003750925     0.9600828   -0.1434100    -0.0005631    0.0021357     0.0001787   -0.0001895     0.9362339   -0.2284083 
   0.003850950     0.9718474   -0.1735016    -0.0014937    0.0002690     0.0002128   -0.0002002     0.9326051   -0.2319898 
   0.003950975     1.0063600   -0.1114500    -0.0014832    0.0030795     0.0002034   -0.0001570     0.9325652   -0.2352780 
   0.004051001     0.9653021   -0.1577924    -0.0017617   -0.0008476     0.0005922    0.0002524     0.9227203   -0.2360747 
   0.004151026     0.9863908   -0.1452612    -0.0008446    0.0001081    -0.0000944   -0.0003422     0.9220595   -0.2459197 
   0.004251051     0.9723872   -0.1365087     0.0010292    0.0017963     0.0005198    0.0003351     0.9220388   -0.2547929 
   0.004351076     0.9933586   -0.1401195     0.0007703    0.0005103     0.0000043   -0.0006809     0.9117101   -0.2537979 
   0.004451101     0.9800313   -0.1754176    -0.0018229    0.0012859     0.0000088    0.0001246     0.9122949   -0.2583424 
   0.004551126     0.9894835   -0.1572441    -0.0013033    0.0045324    -0.0000874   -0.0000216     0.9144750   -0.2598574 
   0.004651151     0.9713202   -0.1610252    -0.0003756    0.0005325    -0.0001574   -0.0004112     0.9087830   -0.2695760 
   0.004751176     0.9630488   -0.1743754    -0.0000351    0.0015563     0.0002018    0.0001133     0.9100511   -0.2745188 
   0.004851201     0.9788011   -0.1594294    -0.0003329    0.0034436     0.0003856    0.0003479     0.8988990   -0.2764143 
   0.004951226     0.9836568   -0.1364561    -0.0017317    0.0019623     0.0002520    0.0000558     0.8996654   -0.2830487 
   0.005051251     0.9898858   -0.1944315    -0.0001432    0.0026921     0.0003462    0.0001231     0.8932317   -0.2844133 
   0.005151276     0.9524185   -0.1507738    -0.0012442    0.0008015     0.0003689    0.0002280     0.8841130   -0.2878729 
   0.005251301     0.9539981   -0.1558401    -0.0022871    0.0006307    -0.0000951   -0.0005446     0.8833268   -0.2925226 
   0.005351326     0.9592128   -0.1618324     0.0005673    0.0016849     0.0002732    0.0002474     0.8834845   -0.2995746 
   0.005451351     0.9766387   -0.1496105    -0.0016805    0.0031490    -0.0004138   -0.0005010     0.8774039   -0.3031092 
   0.005551376     0.9810200   -0.1777519    -0.0027667    0.0009911    -0.0004416    0.0003266     0.8756950   -0.3015824 
   0.005651401     0.9505433   -0.1639696    -0.0001196   -0.0011687     0.0003783    0.0001232     0.8712358   -0.3130556 
   0.005751426     0.9621984   -0.1650516     0.0008127    0.0020213    -0.0003579   -0.0001855     0.8660306   -0.3174321 
   0.005851451     0.9609965   -0.2012691    -0.0008685   -0.0015160    -0.0003922   -0.0002782     0.8603454   -0.3201257 
   0.005951476     0.9782614   -0.1831325     0.0011362    0.0007454     0.0000390    0.0002109     0.8606094   -0.3204052 
   0.006051501     0.9755099   -0.2085501     0.0000878    0.0006695    -0.0001455    0.0000774     0.8537694   -0.3218198 
   0.006151526     0.9405022   -0.2120223    -0.0008729   -0.0001385     0.0002618    0.0003422     0.8490049   -0.3334313 
   0.006251551     0.9521509   -0.1805544    -0.0002754    0.0003137    -0.0001396   -0.0003460     0.8441277   -0.3324587 
   0.006351576     0.9670609   -0.2044064    -0.0023776    0.0008956    -0.0000026    0.0001160     0.8419499   -0.3358335 
   0.006451601     0.9476779   -0.2007945     0.0008251   -0.0000495    -0.0002948   -0.0001133     0.8331933   -0.3431503 
   0.006551626     0.9593800   -0.2133208    -0.0008945    0.0003097    -0.0000250   -0.0003261     0.8322126   -0.3415322 
   0.006651651     0.9301286   -0.2179685     0.0001097    0.0015251     0.0000433   -0.0001661     0.8258150   -0.3484319 
   0.006751676     0.9436422   -0.2447976     0.0009743    0.0007289     0.0003229   -0.0004055     0.8261685   -0.3514469 
   0.006851701     0.9648876   -0.2329683     0.0003167    0.0012587    -0.0003588   -0.0001271     0.8212495   -0.3541418 
   0.006951726     0.9467363   -0.2426204    -0.0005712    0.0002277     0.0000185    0.0007086     0.8171015   -0.3488073 
   0.007051751     0.9676951   -0.2122220     0.0009867   -0.0010991     0.0000922   -0.0005714     0.8090208   -0.3574915 
   0.007151776     0.9329171   -0.2454291    -0.0003108    0.0009123    -0.0003528    0.0001045     0.8038023   -0.3581262 
   0.007251801     0.9647394   -0.2099428     0.0009189    0.0003284     0.0001913    0.0004222     0.8027720   -0.3680412 
   0.007351826     0.9524292   -0.2388877     0.0006353    0.0016165    -0.0001511   -0.0000339     0.7973622   -0.3700017 
   0.007451851     0.9526604   -0.2186531     0.0007552    0.0000335    -0.0000910   -0.0004147     0.7916137   -0.3696633 
   0.007551876     0.9573795   -0.2353422     0.0010270    0.0013310     0.0002026   -0.0004106     0.7917274   -0.3716778 
   0.007651901     0.9655915   -0.2559350     0.0000026    0.0019908     0.0002094    0.0003007     0.7890537   -0.3728554 
   0.007751926     0.9388321   -0.2494158     0.0004486    0.0013650    -0.0001379   -0.0004886     0.7815267   -0.3756266 
   0.007851951     0.9393017   -0.2368846     0.0009938    0.0006082    -0.0002656    0.0003031     0.7786217   -0.3772158 
   0.007951976     0.9578176   -0.2833452     0.0005097   -0.0001853     0.0001013   -0.0001138     0.7714879   -0.3825504 
   0.008052001     0.9503129   -0.2668588    -0.0000703   -0.0001041    -0.0000107   -0.0002366     0.7673424   -0.3859065 
   0.008152026     0.9473951   -0.2632292    -0.0004105    0.0008867    -0.0001688   -0.0000220     0.7672508   -0.3847554 
   0.008252051     0.9345680   -0.2543480    -0.0022163    0.0010742     0.0002505    0.0003703     0.7595817   -0.3899488 
   0.008352076     0.9327743   -0.2723384    -0.0005062   -0.0009655    -0.0000270    0.0001093     0.7575947   -0.3885939 
   0.008452101     0.9414391   -0.2590275    -0.0003503    0.0013904     0.0000239    0.0005594     0.7564060   -0.3934695 
   0.008552126     0.9540552   -0.2725403     0.0006429    0.0006733    -0.0000951    0.0001986     0.7502433   -0.3934335 
   0.008652151     0.9517114   -0.2678401     0.0007049    0.0011601    -0.0001023    0.0000264     0.7440162   -0.3949856 
   0.008752176     0.9547549   -0.2654853     0.0004074    0.0002081     0.0001583   -0.0003028     0.7388126   -0.4008528 
   0.008852201     0.9346008   -0.2554383     0.0014365   -0.0006680    -0.0005952    0.0003140     0.7347751   -0.4001281 
   0.008952226     0.9476244   -0.2675395    -0.0000783   -0.0010955    -0.0002128   -0.0000271     0.7330831   -0.4005528 
   0.009052251     0.9428712   -0.2814954     0.0003945   -0.0005100     0.0002909   -0.0002206     0.7279897   -0.4072034 
   0.009152276     0.9504672   -0.2676571     0.0015997    0.0008510     0.0000513    0.0004667     0.7254028   -0.4049612 
   0.009252301     0.9530314   -0.2945578     0.0002574    0.0005604     0.0000801   -0.0001000     0.7178074   -0.4077595 
   0.009352326     0.9413834   -0.2972179    -0.0001857    0.0006274     0.0001205   -0.0004059     0.7161278   -0.4066845 
   0.009452351     0.9334049   -0.3047100    -0.0006487   -0.0003026     0.0002347    0.0002984     0.7094915   -0.4101969 
   0.009552376     0.9337755   -0.3092310     0.0009526   -0.0001199     0.0000362    0.0002295     0.7074532   -0.4092199 
   0.009652401     0.9239187   -0.2973011     0.0001968    0.0001322     0.0000644    0.0005179     0.7028022   -0.4102783 
   0.009752426     0.9361725   -0.3079104    -0.0008740    0.0006145     0.0001079    0.0001163     0.6992493   -0.4121779 
   0.009852451     0.9396289   -0.3319134    -0.0005717    0.0000787    -0.0000013   -0.0000779     0.6959268   -0.4132275 
   0.009952476     0.9272182   -0.3211534     0.0001626    0.0002036     0.0002634    0.0004073     0.6911220   -0.4134645 
   0.010052501     0.9179699   -0.3265193     0.0001097   -0.0007681     0.0000355    0.0001173     0.6909453   -0.4128987 
   0.010152526     0.9352747   -0.3084147     0.0007590   -0.0005043     0.0001379   -0.0000771     0.6807800   -0.4151616 
   0.010252551     0.9169046   -0.3240691    -0.0002555    0.0004341     0.0000306    0.0002258     0.6794733   -0.4211029 
   0.010352576     0.9299769   -0.3375148    -0.0004214    0.0010438    -0.0002419    0.0000586     0.6749839   -0.4202205 
   0.010452601     0.9350590   -0.3341804    -0.0009526   -0.0005185    -0.0001317    0.0002900     0.6698607   -0.4251160 
   0.010552626     0.9112022   -0.3200066     0.0006002   -0.0003061     0.0004660    0.0004312     0.6684778   -0.4228645 
   0.010652651     0.9367278   -0.3319116    -0.0000555   -0.0001262    -0.0000585   -0.0000624     0.6645513   -0.4253747 
   0.010752676     0.9229880   -0.3414527    -0.0007577    0.0000036     0.0004737    0.0005213     0.6601633   -0.4244944 
   0.010852701     0.9165549   -0.3350180    -0.0002660    0.0005167    -0.0000726   -0.0000183     0.6596578   -0.4233797 
   0.010952726     0.9100094   -0.3549857    -0.0001554    0.0015079     0.0000952    0.0001852     0.6499187   -0.4245406 
   0.011052751     0.9207006   -0.3441794     0.0011666   -0.0005150     0.0002429    0.0001596     0.6499279   -0.4280539 
   0.011152776     0.9093564   -0.3348101    -0.0003759    0.0006511    -0.0001363    0.0001774     0.6442765   -0.4289234 
   0.011252801     0.9132777   -0.3457715     0.0005971   -0.0008265     0.0002829    0.0000908     0.6388204   -0.4301600 
   0.011352826     0.9243848   -0.3823341     0.0007587    0.0000938    -0.0002119    0.0004431     0.6368275   -0.4264765 
   0.011452851     0.9114777   -0.3602982     0.0005189    0.0004204    -0.0000505   -0.0001192     0.6342871   -0.4306453 
   0.011552876     0.9084841   -0.3633712    -0.0001401   -0.0003176     0.0000313    0.0001964     0.6307203   -0.4306162 
   0.011652901     0.9065403   -0.3797754     0.0015475    0.0015844    -0.0003939    0.0002751     0.6275505   -0.4316432 
   0.011752926     0.8905787   -0.3678907     0.0000435   -0.0008620     0.0001148   -0.0000413     0.6245865   -0.4304730 
   0.011852951     0.9135160   -0.3992401     0.0001332    0.0005377    -0.0001576    0.0005780     0.6203784   -0.4318505 
   0.011952976     0.9009213   -0.3592581     0.0005845   -0.0004132    -0.0001999   -0.0002630     0.6150696   -0.4329641 
   0.012053002     0.8960224   -0.3861828     0.0004940    0.0007472     0.0001712    0.0002354     0.6108438   -0.4326825 
   0.012153027     0.8972870   -0.3968680     0.0002308    0.0009632     0.0000949    0.0002072     0.6104630   -0.4340183 
   0.012253052     0.8904614   -0.3910281     0.0001802    0.0003895    -0.0001588    0.0001558     0.6065020   -0.4338234 
   0.012353077     0.9006560   -0.3885769    -0.0003731    0.0005427     0.0001157    0.0000982     0.6032140   -0.4339511 
   0.012453102     0.9014795   -0.3792605    -0.0009582    0.0003358     0.0001972   -0.0001260     0.5971177   -0.4375355 
   0.012553127     0.8888036   -0.4203521     0.0008125    0.0003293    -0.0000547   -0.0001250     0.5931195   -0.4319626 
   0.012653152     0.8990135   -0.3817216    -0.0003319   -0.0000731     0.0000135    0.0000192     0.5906123   -0.4341114 
   0.012753177     0.8840480   -0.3960396     0.0010052   -0.0000392     0.0003119    0.0003362     0.5895543   -0.4333485 
   0.012853202     0.9011447   -0.3723313     0.0006675    0.0009651    -0.0001036    0.0001993     0.5819767   -0.4339752 
   0.012953227     0.8925985   -0.4009499    -0.0002714    0.0005994     0.0003515    0.0004466     0.5832900   -0.4346026 
   0.013053252     0.8875375   -0.4071105     0.0001149   -0.0001864    -0.0000382   -0.0000404     0.5780978   -0.4329869 
   0.013153277     0.8957903   -0.4055258    -0.0002555    0.0001590     0.0001275    0.0004253     0.5760744   -0.4369468 
   0.013253302     0.8963274   -0.4015366    -0.0001126   -0.0006502    -0.0000166    0.0002878     0.5705652   -0.4327572 
   0.013353327     0.8792880   -0.4068771     0.0006006    0.0002143    -0.0001615   -0.0000131     0.5681473   -0.4354524 
   0.013453352     0.8974187   -0.3956636    -0.0002538    0.0000985     0.0000920    0.0000336     0.5650920   -0.4355197 
   0.013553377     0.8714398   -0.4113794     0.0003217    0.0003096     0.0000259    0.0003543     0.5590570   -0.4351275 
   0.013653402     0.8821755   -0.4219314    -0.0010673    0.0000284    -0.0003537    0.0001085     0.5577214   -0.4336419 
   0.013753427     0.8799543   -0.4153651     0.0004353   -0.0012400     0.0000160    0.0002831     0.5532385   -0.4354255 
   0.013853452     0.8837500   -0.4408264    -0.0003588    0.0002324     0.0000477   -0.0000253     0.5551189   -0.4318391 
   0.013953477     0.8732464   -0.4082953     0.0002571   -0.0006722     0.0000274    0.0001764     0.5503525   -0.4363442 
   0.014053502     0.8812266   -0.4424898     0.0001874    0.0010558     0.0000592    0.0000990     0.5459104   -0.4359553 
   0.014153527     0.8775141   -0.4354638     0.0005575   -0.0005396     0.0001770    0.0003334     0.5437370   -0.4344883 
   0.014253552     0.8862080   -0.4307105     0.0007459   -0.0006689     0.0000925   -0.0000106     0.5421068   -0.4345574 
   0.014353577     0.8597155   -0.4240212    -0.0006872    0.0012905     0.0000674    0.0006106     0.5350978   -0.4328734 
   0.014453602     0.8650787   -0.4340466     0.0002622    0.0003817     0.0000945    0.0000509     0.5352585   -0.4339405 
   0.014553627     0.8566376   -0.4326612     0.0004478    0.0007199     0.0002125    0.0004142     0.5303701   -0.4343565 
   0.014653652     0.8703412   -0.4573359    -0.0006399    0.0009464     0.0001472    0.0000927     0.5281082   -0.4335202 
   0.014753677     0.8589422   -0.4439184     0.0001094   -0.0012115     0.0002249    0.0003551     0.5246218   -0.4329119 
   0.014853702     0.8720764   -0.4433580    -0.0004865   -0.0001604     0.0003370    0.0003824     0.5219703   -0.4306099 
   0.014953727     0.8527996   -0.4689078     0.0004648   -0.0005354    -0.0000958   -0.0001983     0.5175844   -0.4310517 
   0.015053752     0.8605888   -0.4567474     0.0010530    0.0001769    -0.0001782    0.0003121     0.5175652   -0.4312464 
   0.015153777     0.8689998   -0.4660912    -0.0001497    0.0011847     0.0001810    0.0001653     0.5154125   -0.4331569 
   0.015253802     0.8617453   -0.4603130    -0.0004968   -0.0008734     0.0001995    0.0000916     0.5117404   -0.4311734 
   0.015353827     0.8411137   -0.4718290     0.0001166    0.0004395     0.0002893   -0.0000813     0.5091587   -0.4308624 
   0.015453852     0.8660021   -0.4588769    -0.0000569    0.0002287     0.0003369    0.0001212     0.5045952   -0.4306402 
   0.015553877     0.8534619   -0.4752570     0.0005074   -0.0010458     0.0000184    0.0003444     0.5024688   -0.4310239 
   0.015653902     0.8507603   -0.4700001    -0.0007167   -0.0004042     0.0003102    0.0000537     0.4990978   -0.4318863 
