! 26-Feb-26 11:40:02 AM
! E:\VNA_MEASUREMENTS\SP8T\SP8T_P3_RF1.S2P
! CHANNEL.1
! TR.MEASUREMENT
! CORRECTED.DATA
# GHZ S RI R 50.0
! FREQ.GHZ         S11RE         S11IM         S21RE         S21IM         S12RE         S12IM         S22RE         S22IM         
!; PortSelection: Port_12
   0.000050000     0.0358227    0.2014629    -0.3151633    0.0295137     0.0064460   -0.0039061     0.9634050    0.0409604 
   0.000150025    -0.2609605    0.1606659    -0.3653483    0.3016614    -0.0003831    0.0001610     0.9956092   -0.0023183 
   0.000250050     0.0155520    0.0326362    -0.0067308   -0.0042729    -0.0003517    0.0004595     1.0008840   -0.0199803 
   0.000350075     0.9749411   -0.0550278    -0.0015413   -0.0075501     0.0007762    0.0004290     0.9971081   -0.0300852 
   0.000450100     0.9877908   -0.0532246    -0.0022204   -0.0102755     0.0009678   -0.0008786     0.9911752   -0.0135158 
   0.000550125     1.0069990   -0.0444430    -0.0025077   -0.0157284    -0.0005703   -0.0005106     0.9869217   -0.0361371 
   0.000650150     0.9661674   -0.0634446    -0.0052230   -0.0048914    -0.0004245    0.0012196     1.0020330   -0.0517782 
   0.000750175     0.9847001   -0.0002820    -0.0057733   -0.0100952    -0.0007487    0.0001823     0.9891537   -0.0522323 
   0.000850200     0.9677117   -0.1021808    -0.0087056   -0.0094448     0.0008910    0.0000270     0.9939013   -0.0502787 
   0.000950225     1.0328930   -0.0565142    -0.0095521   -0.0086407    -0.0002382   -0.0002163     0.9875381   -0.0601021 
   0.001050250     0.9973735   -0.0301923    -0.0054556   -0.0054676     0.0000998    0.0000569     0.9942480   -0.0677730 
   0.001150275     0.9865876   -0.0415941    -0.0063014   -0.0041281    -0.0005884   -0.0002061     0.9839784   -0.0676758 
   0.001250300     0.9849764   -0.0142798    -0.0106927   -0.0009159     0.0005061   -0.0002413     0.9883491   -0.0852662 
   0.001350325     0.9673198   -0.0643798    -0.0117876   -0.0029357     0.0010287   -0.0000281     0.9900545   -0.0902415 
   0.001450350     1.0059530   -0.0621856    -0.0053144   -0.0028882    -0.0013271    0.0008628     0.9876751   -0.0834114 
   0.001550375     1.0037230   -0.0365746    -0.0103560   -0.0003949     0.0000733    0.0009161     0.9931185   -0.0910957 
   0.001650400     1.0338940   -0.0278244    -0.0073284   -0.0026476    -0.0005121    0.0017575     0.9869508   -0.0961485 
   0.001750425     1.0113240   -0.0960948    -0.0079432    0.0013135     0.0000151   -0.0001339     0.9899088   -0.1054861 
   0.001850450     0.9579499   -0.0819102    -0.0042907    0.0001042    -0.0006928    0.0000250     0.9835877   -0.1100513 
   0.001950475     1.0359190   -0.0022822    -0.0083004    0.0039808     0.0003595    0.0013379     0.9795819   -0.1186226 
   0.002050500     0.9925623   -0.0404746    -0.0058830    0.0029278    -0.0009700    0.0004240     0.9826575   -0.1318063 
   0.002150525     1.0241340   -0.0611431    -0.0068528    0.0052201    -0.0000100    0.0000228     0.9740488   -0.1360931 
   0.002250550     0.9810809   -0.0465391    -0.0083867    0.0052629    -0.0003893   -0.0004920     0.9736506   -0.1433408 
   0.002350575     0.9472605   -0.0953279    -0.0069812    0.0018342    -0.0002009   -0.0008751     0.9771680   -0.1353756 
   0.002450600     1.0231910   -0.0675067    -0.0081182    0.0032309     0.0005306    0.0004590     0.9745228   -0.1507775 
   0.002550625     0.9807365   -0.1032038    -0.0042192    0.0016403     0.0001304   -0.0000024     0.9724921   -0.1562803 
   0.002650650     1.0225070   -0.0935836    -0.0019614    0.0058790    -0.0000945    0.0003328     0.9747823   -0.1661433 
   0.002750675     0.9937969   -0.0710425    -0.0015629    0.0056614     0.0005384    0.0007453     0.9669912   -0.1708053 
   0.002850700     0.9943425   -0.1206583    -0.0022406   -0.0006393    -0.0006422    0.0003324     0.9635659   -0.1753060 
   0.002950725     0.9601312   -0.0506788    -0.0036920    0.0030957    -0.0004011   -0.0001548     0.9610656   -0.1770552 
   0.003050750     1.0217270   -0.0924597    -0.0013904    0.0033471     0.0001592    0.0004143     0.9563578   -0.1835003 
   0.003150775     0.9535730   -0.1376750    -0.0043091    0.0034985    -0.0007594    0.0000749     0.9504693   -0.1969705 
   0.003250800     0.9527528   -0.1146177    -0.0043321    0.0017641    -0.0001161    0.0000074     0.9547997   -0.1934438 
   0.003350825     0.9796622   -0.1047789    -0.0033689    0.0042936     0.0002069   -0.0002719     0.9458312   -0.2005001 
   0.003450850     0.9527618   -0.1561646    -0.0003728    0.0030230    -0.0005286    0.0000889     0.9468071   -0.2117285 
   0.003550875     0.9445093   -0.0897646    -0.0010670    0.0055393     0.0002168    0.0001109     0.9456004   -0.2230004 
   0.003650900     0.9913011   -0.1049761    -0.0018125    0.0027786     0.0004667    0.0001612     0.9417293   -0.2187910 
   0.003750925     0.9291756   -0.1260659    -0.0023161    0.0017787    -0.0001542    0.0001937     0.9336066   -0.2254775 
   0.003850950     0.9879314   -0.1577303    -0.0020150    0.0026136    -0.0003084   -0.0001096     0.9391758   -0.2280893 
   0.003950975     1.0036230   -0.1340775    -0.0000977    0.0041095     0.0000122    0.0005249     0.9294993   -0.2304984 
   0.004051001     0.9765175   -0.1413472     0.0015596    0.0017479    -0.0004504   -0.0002654     0.9284010   -0.2324849 
   0.004151026     0.9945923   -0.1348477     0.0006900    0.0014885    -0.0003900    0.0003913     0.9233605   -0.2410239 
   0.004251051     0.9788880   -0.1130049    -0.0017318   -0.0005921     0.0000284   -0.0000761     0.9211639   -0.2453493 
   0.004351076     0.9974886   -0.0965628    -0.0001006    0.0034370     0.0003058   -0.0002533     0.9175028   -0.2497033 
   0.004451101     0.9729027   -0.1668902     0.0009727   -0.0007233     0.0013098   -0.0000991     0.9199377   -0.2571735 
   0.004551126     0.9849591   -0.1767236    -0.0007614    0.0001644    -0.0001993    0.0004570     0.9148138   -0.2588360 
   0.004651151     0.9757426   -0.1355940     0.0149653    0.0012610    -0.0007816   -0.0002412     0.9158132   -0.2701637 
   0.004751176     0.9613536   -0.1891989    -0.0008175    0.0006909    -0.0001371    0.0005188     0.9058222   -0.2669426 
   0.004851201     0.9471207   -0.1564464     0.0006000   -0.0006637     0.0002566    0.0000251     0.9004315   -0.2726036 
   0.004951226     0.9396131   -0.1333515     0.0002504    0.0004422    -0.0000250    0.0006272     0.9011500   -0.2721340 
   0.005051251     0.9950329   -0.1984011     0.0005633    0.0018740    -0.0000970    0.0000776     0.8978704   -0.2808284 
   0.005151276     0.9473116   -0.1517997     0.0010437    0.0005837    -0.0003926   -0.0001479     0.8887596   -0.2878368 
   0.005251301     0.9311185   -0.1557932    -0.0012497    0.0005942     0.0000004   -0.0000306     0.8876290   -0.2933769 
   0.005351326     0.9601248   -0.1540287     0.0017847    0.0029427     0.0006843   -0.0000314     0.8839766   -0.2970368 
   0.005451351     0.9628156   -0.1613822    -0.0006539    0.0005474    -0.0000903    0.0003671     0.8840494   -0.3047655 
   0.005551376     0.9719558   -0.1925117    -0.0004923    0.0004942    -0.0003189    0.0001090     0.8753054   -0.2959379 
   0.005651401     0.9650713   -0.1754161    -0.0021544   -0.0009057    -0.0000251    0.0000910     0.8759061   -0.3098596 
   0.005751426     0.9271377   -0.1917976    -0.0007784    0.0003689     0.0000624    0.0002145     0.8682434   -0.3093271 
   0.005851451     0.9336181   -0.2038668    -0.0011500    0.0010740    -0.0001306    0.0004115     0.8626765   -0.3146605 
   0.005951476     0.9357712   -0.1876442    -0.0006376   -0.0002801     0.0004528   -0.0004884     0.8625566   -0.3173692 
   0.006051501     0.9599410   -0.1872660     0.0008325    0.0028095    -0.0002091    0.0000976     0.8612299   -0.3263515 
   0.006151526     0.9413272   -0.2290036     0.0002279    0.0006575    -0.0004714    0.0002491     0.8498755   -0.3232710 
   0.006251551     0.9480723   -0.1839986     0.0003412    0.0009044    -0.0003348    0.0006765     0.8498574   -0.3316972 
   0.006351576     0.9458323   -0.2177819    -0.0006061   -0.0001522     0.0004659    0.0002876     0.8444075   -0.3321663 
   0.006451601     0.9381364   -0.2069104    -0.0006283    0.0021098    -0.0002396    0.0000848     0.8386712   -0.3373153 
   0.006551626     0.9291388   -0.2165533     0.0008978    0.0011509     0.0004296   -0.0000778     0.8386163   -0.3395389 
   0.006651651     0.9164234   -0.2030756     0.0010780   -0.0007498    -0.0002696    0.0003261     0.8314304   -0.3455608 
   0.006751676     0.9328582   -0.2319768     0.0004473    0.0004505    -0.0000025    0.0001509     0.8324789   -0.3454639 
   0.006851701     0.9479680   -0.2211571    -0.0009565    0.0001041    -0.0002273    0.0001894     0.8251555   -0.3500756 
   0.006951726     0.9167223   -0.2414581    -0.0000316    0.0006525     0.0001357   -0.0004726     0.8194543   -0.3513167 
   0.007051751     0.9332477   -0.2109447    -0.0010144    0.0012475     0.0000369    0.0002715     0.8144251   -0.3521807 
   0.007151776     0.9080893   -0.2226208    -0.0012396    0.0003302    -0.0002703    0.0002670     0.8077641   -0.3593752 
   0.007251801     0.9463390   -0.2203310    -0.0012958    0.0003581     0.0002344    0.0007479     0.8053797   -0.3612815 
   0.007351826     0.9218730   -0.2438911    -0.0002203    0.0011799     0.0002031    0.0003114     0.8052274   -0.3656144 
   0.007451851     0.9300975   -0.2420880     0.0002627    0.0000031    -0.0000869    0.0000074     0.7969717   -0.3646989 
   0.007551876     0.9393559   -0.2293175     0.0002261    0.0001741    -0.0002791    0.0004212     0.7962490   -0.3700922 
   0.007651901     0.9239051   -0.2610573    -0.0009604    0.0017617    -0.0005007    0.0001513     0.7939807   -0.3723065 
   0.007751926     0.9222543   -0.2276209    -0.0020534    0.0001355     0.0002330   -0.0000018     0.7852014   -0.3704455 
   0.007851951     0.9280776   -0.2423934    -0.0012836    0.0007956    -0.0002591    0.0004610     0.7809138   -0.3756077 
   0.007951976     0.9287153   -0.2468126    -0.0020231    0.0007916    -0.0001411    0.0003017     0.7779220   -0.3744186 
   0.008052001     0.9254702   -0.2399400     0.0009991    0.0004061     0.0000861    0.0000195     0.7715766   -0.3802702 
   0.008152026     0.9062833   -0.2671941     0.0000100    0.0003479    -0.0002212    0.0003853     0.7725070   -0.3825051 
   0.008252051     0.8918850   -0.2356069     0.0001144    0.0007601    -0.0001359    0.0000639     0.7657256   -0.3867690 
   0.008352076     0.9181923   -0.2661190     0.0000492    0.0004179     0.0001963   -0.0001811     0.7654860   -0.3902533 
   0.008452101     0.9188582   -0.2580630    -0.0014834    0.0004607    -0.0000644   -0.0001132     0.7593401   -0.3888653 
   0.008552126     0.9156044   -0.2730391     0.0023110    0.0000658     0.0000486   -0.0001741     0.7557265   -0.3903294 
   0.008652151     0.9284024   -0.2456601     0.0013886   -0.0015595     0.0000607    0.0003321     0.7493167   -0.3966556 
   0.008752176     0.9151835   -0.2622760     0.0002848    0.0009155     0.0000459   -0.0001315     0.7502077   -0.3972009 
   0.008852201     0.9043530   -0.2577693     0.0002150    0.0000892    -0.0000031   -0.0000705     0.7422112   -0.3948483 
   0.008952226     0.9301604   -0.2684461    -0.0004389    0.0008900     0.0002243    0.0001200     0.7414954   -0.3979352 
   0.009052251     0.9148516   -0.2714756     0.0007379    0.0013733    -0.0001980    0.0004581     0.7355362   -0.4009916 
   0.009152276     0.9095735   -0.2685259     0.0011118    0.0004340     0.0004345    0.0002319     0.7277115   -0.4039905 
   0.009252301     0.8934255   -0.2860911     0.0007226    0.0007763    -0.0000728    0.0001048     0.7294000   -0.4071679 
   0.009352326     0.9074862   -0.2858175     0.0004755   -0.0011587    -0.0000014    0.0002846     0.7234508   -0.4034160 
   0.009452351     0.9001720   -0.2819206     0.0005352    0.0000161    -0.0002775    0.0001597     0.7184437   -0.4074274 
   0.009552376     0.8984756   -0.2790198     0.0006056   -0.0008797     0.0002578    0.0003219     0.7112377   -0.4094665 
   0.009652401     0.8918632   -0.2750938     0.0006697    0.0001646     0.0001934    0.0002273     0.7080466   -0.4077941 
   0.009752426     0.8832762   -0.2997646    -0.0012832    0.0006261     0.0001217    0.0004093     0.7042106   -0.4098350 
   0.009852451     0.8833483   -0.2988607     0.0003938   -0.0000648     0.0001073    0.0002372     0.7018170   -0.4139133 
   0.009952476     0.8876576   -0.2932360    -0.0007193    0.0002909     0.0001513    0.0002047     0.6978454   -0.4128343 
   0.010052501     0.8722955   -0.2876563    -0.0000718    0.0003686    -0.0001640    0.0001420     0.6963560   -0.4113138 
   0.010152526     0.8789798   -0.3013971     0.0009603    0.0013671    -0.0001601    0.0002672     0.6871146   -0.4117627 
   0.010252551     0.8806868   -0.3063344    -0.0000566    0.0004636    -0.0002432    0.0002007     0.6827527   -0.4190667 
   0.010352576     0.9018579   -0.3165588     0.0014112   -0.0002199    -0.0001980   -0.0004052     0.6793616   -0.4163069 
   0.010452601     0.8942797   -0.3016579    -0.0006737    0.0004005     0.0000677   -0.0000106     0.6767722   -0.4222678 
   0.010552626     0.8636618   -0.3148480    -0.0006957   -0.0001576    -0.0000240    0.0001976     0.6753181   -0.4213671 
   0.010652651     0.8847839   -0.3101910     0.0005082    0.0007272    -0.0002707    0.0003082     0.6693408   -0.4234979 
   0.010752676     0.8767176   -0.3221591     0.0009262    0.0001281     0.0002419    0.0002061     0.6678417   -0.4218379 
   0.010852701     0.8789703   -0.3013160     0.0006031    0.0001321     0.0001905    0.0001830     0.6639464   -0.4222758 
   0.010952726     0.8665558   -0.3169148     0.0006940   -0.0000054     0.0001251    0.0003338     0.6590307   -0.4256525 
   0.011052751     0.8844746   -0.3354912     0.0002377    0.0010210    -0.0002138   -0.0000057     0.6535294   -0.4261093 
   0.011152776     0.8678611   -0.3205678     0.0005468   -0.0004386    -0.0002184   -0.0000402     0.6519031   -0.4262253 
   0.011252801     0.8664439   -0.3224675     0.0006693    0.0019861     0.0001103    0.0000535     0.6471420   -0.4272779 
   0.011352826     0.8598778   -0.3410403    -0.0004331   -0.0009018     0.0001155    0.0002499     0.6430364   -0.4235646 
   0.011452851     0.8562399   -0.3176577    -0.0005980    0.0001485    -0.0000175    0.0002419     0.6381919   -0.4286189 
   0.011552876     0.8583470   -0.3384722     0.0004501    0.0003616    -0.0000273    0.0003304     0.6365201   -0.4325025 
   0.011652901     0.8583776   -0.3470317    -0.0001601   -0.0001217    -0.0000255    0.0002660     0.6310436   -0.4287423 
   0.011752926     0.8466437   -0.3293760     0.0005203   -0.0003923    -0.0001880    0.0001076     0.6277963   -0.4291109 
   0.011852951     0.8575128   -0.3439719    -0.0002605    0.0014824     0.0003029    0.0003350     0.6284202   -0.4317012 
   0.011952976     0.8614127   -0.3366077     0.0002204   -0.0000308    -0.0002250    0.0001510     0.6210961   -0.4324298 
   0.012053002     0.8445620   -0.3489169    -0.0011939    0.0006315     0.0000311    0.0001168     0.6183070   -0.4313098 
   0.012153027     0.8486184   -0.3427884    -0.0010142   -0.0014375     0.0001722    0.0000300     0.6136621   -0.4326057 
   0.012253052     0.8340566   -0.3451573     0.0004430    0.0004995    -0.0000215    0.0002432     0.6127515   -0.4328044 
   0.012353077     0.8547814   -0.3407380    -0.0000487   -0.0011631    -0.0000637    0.0000668     0.6115862   -0.4333253 
   0.012453102     0.8493415   -0.3604211     0.0003822    0.0013545    -0.0000874    0.0001215     0.6037459   -0.4346521 
   0.012553127     0.8261421   -0.3640653    -0.0011443    0.0008605     0.0000283    0.0000439     0.5979536   -0.4335126 
   0.012653152     0.8494558   -0.3479045     0.0006196    0.0004196    -0.0000198    0.0000377     0.5990331   -0.4343544 
   0.012753177     0.8271177   -0.3552999     0.0002026   -0.0000899    -0.0000820   -0.0002214     0.5955052   -0.4348557 
   0.012853202     0.8405120   -0.3493010    -0.0007292    0.0003875    -0.0000013    0.0002873     0.5894160   -0.4333456 
   0.012953227     0.8262479   -0.3491633    -0.0011033   -0.0005480     0.0002641    0.0001148     0.5896598   -0.4346991 
   0.013053252     0.8266121   -0.3740656     0.0004432    0.0002928    -0.0000938    0.0000002     0.5859160   -0.4359038 
   0.013153277     0.8349788   -0.3658535    -0.0004679    0.0004383     0.0000735    0.0005123     0.5798649   -0.4357731 
   0.013253302     0.8256589   -0.3529202    -0.0002625    0.0015235     0.0000133    0.0000908     0.5771351   -0.4333667 
   0.013353327     0.8143202   -0.3617327    -0.0001860   -0.0009296     0.0000432    0.0002258     0.5748504   -0.4348698 
   0.013453352     0.8271677   -0.3499679     0.0006008   -0.0008570     0.0000866   -0.0001362     0.5716332   -0.4364913 
   0.013553377     0.8084891   -0.3593051    -0.0001917   -0.0000033     0.0001737    0.0002354     0.5672755   -0.4343217 
   0.013653402     0.8199363   -0.3623905     0.0009345    0.0006424    -0.0001140    0.0000535     0.5653807   -0.4360194 
   0.013753427     0.8148315   -0.3722653    -0.0002611   -0.0004008     0.0001480    0.0002755     0.5594329   -0.4358020 
   0.013853452     0.8245586   -0.3893397     0.0005582    0.0000415    -0.0000367   -0.0000416     0.5607048   -0.4349729 
   0.013953477     0.7958629   -0.3674029    -0.0004030    0.0000986    -0.0002573   -0.0000607     0.5576735   -0.4366598 
   0.014053502     0.8202900   -0.3827476    -0.0006577   -0.0001065     0.0000190    0.0000340     0.5514290   -0.4328953 
   0.014153527     0.8049806   -0.3838869    -0.0003284    0.0008942     0.0001014   -0.0000794     0.5525249   -0.4345313 
   0.014253552     0.8055828   -0.3888523     0.0013034    0.0003588     0.0003871    0.0002842     0.5497192   -0.4345281 
   0.014353577     0.7975693   -0.3781337     0.0004949    0.0006237     0.0000385    0.0003331     0.5424657   -0.4323399 
   0.014453602     0.7896827   -0.3752073    -0.0006579   -0.0005845    -0.0001608   -0.0000923     0.5414143   -0.4323169 
   0.014553627     0.7990451   -0.3786817     0.0013229    0.0003157     0.0000129    0.0000420     0.5386145   -0.4337358 
   0.014653652     0.7984521   -0.3860191    -0.0007624   -0.0004180     0.0001114   -0.0000233     0.5350536   -0.4335695 
   0.014753677     0.7889215   -0.3935024     0.0007639   -0.0002321    -0.0003720    0.0001909     0.5325546   -0.4318596 
   0.014853702     0.8043665   -0.3823867    -0.0004394   -0.0003381    -0.0001614    0.0001968     0.5278251   -0.4328718 
   0.014953727     0.7854915   -0.4083923     0.0009929    0.0009184    -0.0000688    0.0003270     0.5254334   -0.4319289 
   0.015053752     0.7822539   -0.3930698     0.0003483   -0.0003550    -0.0000796    0.0000576     0.5208003   -0.4320404 
   0.015153777     0.7864228   -0.3914301     0.0005436    0.0002525     0.0001123    0.0000908     0.5231114   -0.4328616 
   0.015253802     0.7797460   -0.3968925     0.0001395   -0.0003076    -0.0001938    0.0002531     0.5169440   -0.4313348 
   0.015353827     0.7734072   -0.3960040     0.0003108    0.0003497     0.0000233    0.0000879     0.5148429   -0.4293486 
   0.015453852     0.7912236   -0.3968331     0.0000277    0.0000210    -0.0001320    0.0003175     0.5126719   -0.4294602 
   0.015553877     0.7773926   -0.4083368     0.0003285    0.0002869     0.0000722    0.0001928     0.5106120   -0.4302091 
   0.015653902     0.7763512   -0.4142977     0.0004655    0.0002827     0.0001451    0.0002551     0.5072197   -0.4310381 
