! 26-Feb-26 1:15:28 PM
! E:\VNA_MEASUREMENTS\SP8T\SP8T_P8_RF7.S2P
! CHANNEL.1
! TR.MEASUREMENT
! CORRECTED.DATA
# GHZ S RI R 50.0
! FREQ.GHZ         S11RE         S11IM         S21RE         S21IM         S12RE         S12IM         S22RE         S22IM         
!; PortSelection: Port_12
   0.000050000     0.2114508   -0.1070697    -0.1251462   -0.0982466     0.0064481   -0.0057608     0.9607290    0.0330786 
   0.000150025    -0.1659854    0.6549492     0.6514928   -0.0894090     0.0004651   -0.0004082     1.0024260   -0.0015428 
   0.000250050    -0.3220419   -0.1937366     0.0012924    0.0010842    -0.0009959   -0.0002541     0.9974071   -0.0096329 
   0.000350075     0.9709612   -0.0361209     0.0014448   -0.0144877    -0.0001113   -0.0000714     0.9843833   -0.0265954 
   0.000450100     0.9792800    0.0135160    -0.0004854   -0.0117891    -0.0011566   -0.0002848     0.9933109   -0.0170910 
   0.000550125     1.0302150   -0.0256985    -0.0044010   -0.0104019     0.0000082   -0.0011518     0.9883479   -0.0340827 
   0.000650150     0.9848385    0.0033474    -0.0094943   -0.0110207     0.0003539   -0.0009102     1.0032860   -0.0554248 
   0.000750175     1.0142770   -0.0607049    -0.0092580   -0.0083208     0.0001275    0.0000238     0.9959075   -0.0434337 
   0.000850200     0.9972807   -0.1189432    -0.0119136   -0.0084476    -0.0004187    0.0011926     0.9888047   -0.0522655 
   0.000950225     1.0331020   -0.0574080    -0.0100325   -0.0034900     0.0011139   -0.0001867     0.9916205   -0.0707120 
   0.001050250     1.0012960   -0.0401982    -0.0055474   -0.0074029     0.0001386   -0.0000498     0.9972969   -0.0680366 
   0.001150275     1.0038990   -0.0647977    -0.0083128   -0.0051197     0.0001387   -0.0007461     0.9829553   -0.0568885 
   0.001250300     0.9841034   -0.0406317    -0.0085651   -0.0036697     0.0008260    0.0003390     0.9972993   -0.0817209 
   0.001350325     1.0209360   -0.0732308    -0.0091628   -0.0022846     0.0010950    0.0002768     0.9806996   -0.0862813 
   0.001450350     1.0025660   -0.0843174    -0.0101826   -0.0022169     0.0003586    0.0006600     0.9857495   -0.0891392 
   0.001550375     0.9633585   -0.0709142    -0.0062951   -0.0002678     0.0003172   -0.0005264     0.9925948   -0.0913366 
   0.001650400     1.0145050   -0.0269222    -0.0094128   -0.0015989     0.0009112    0.0009937     0.9756235   -0.0978690 
   0.001750425     0.9650652   -0.0291221    -0.0083684    0.0028024    -0.0005347    0.0003238     0.9901549   -0.1052119 
   0.001850450     0.9861159   -0.1146218    -0.0030296    0.0011087    -0.0001783   -0.0003003     0.9851753   -0.1168818 
   0.001950475     1.0041660   -0.0066867    -0.0068431    0.0040109    -0.0008303    0.0005343     0.9775438   -0.1162600 
   0.002050500     0.9868036   -0.0417696    -0.0067349    0.0060171    -0.0002118    0.0001107     0.9774285   -0.1359666 
   0.002150525     0.9975037   -0.0991378    -0.0080302    0.0043128     0.0004681   -0.0004192     0.9706526   -0.1346395 
   0.002250550     0.9781588   -0.0603329    -0.0099695    0.0013131     0.0000720    0.0006850     0.9789368   -0.1421115 
   0.002350575     0.9487615   -0.0986258    -0.0042178    0.0015486     0.0000344    0.0009736     0.9715298   -0.1437695 
   0.002450600     1.0045470   -0.1043763    -0.0093942    0.0013326    -0.0000716   -0.0014785     0.9724286   -0.1543124 
   0.002550625     0.9784920   -0.1029598    -0.0048186    0.0075140    -0.0002933   -0.0000431     0.9698989   -0.1583881 
   0.002650650     0.9960544   -0.0471922    -0.0039761    0.0032708     0.0000148   -0.0000191     0.9697160   -0.1630368 
   0.002750675     1.0002750   -0.0939207    -0.0042846    0.0052831     0.0003291    0.0002695     0.9608437   -0.1711868 
   0.002850700     1.0026260   -0.1229390    -0.0042493    0.0028513     0.0006116    0.0005271     0.9568875   -0.1709344 
   0.002950725     0.9667285   -0.0763976    -0.0041515    0.0008328     0.0000838   -0.0002368     0.9625352   -0.1822812 
   0.003050750     0.9890612   -0.0807675    -0.0049023    0.0027901     0.0002144   -0.0001087     0.9602662   -0.1897957 
   0.003150775     0.9861852   -0.1236493    -0.0048118    0.0012755     0.0002634    0.0008742     0.9510163   -0.1905370 
   0.003250800     0.9729807   -0.1244458     0.0002075    0.0033111    -0.0002000   -0.0005914     0.9528766   -0.1951285 
   0.003350825     1.0066470   -0.1108876    -0.0015153    0.0012639     0.0004145    0.0003135     0.9531185   -0.2048338 
   0.003450850     0.9199368   -0.1247145    -0.0032631    0.0021354    -0.0000391    0.0008097     0.9446317   -0.2067052 
   0.003550875     0.9229177   -0.1357875    -0.0012135   -0.0000507    -0.0002183    0.0000569     0.9449210   -0.2122315 
   0.003650900     0.9934801   -0.0978251    -0.0026016    0.0039034    -0.0001484    0.0001115     0.9390080   -0.2211419 
   0.003750925     0.9478729   -0.1440968    -0.0032016    0.0008593    -0.0001065    0.0002062     0.9297140   -0.2272759 
   0.003850950     0.9640868   -0.1431330    -0.0012714    0.0033980     0.0007254   -0.0007139     0.9357651   -0.2318698 
   0.003950975     1.0122640   -0.1200050    -0.0000222    0.0036739     0.0000965   -0.0005134     0.9313269   -0.2358013 
   0.004051001     0.9649106   -0.1717222     0.0024495    0.0010206     0.0000095    0.0002472     0.9276822   -0.2334648 
   0.004151026     0.9930248   -0.1402134    -0.0016706    0.0025285    -0.0005908    0.0005560     0.9241109   -0.2444524 
   0.004251051     0.9765528   -0.1286156     0.0005467    0.0036208    -0.0002579   -0.0001728     0.9258482   -0.2493719 
   0.004351076     0.9752249   -0.1136824    -0.0014540    0.0030779     0.0001259    0.0009720     0.9180503   -0.2512538 
   0.004451101     0.9770106   -0.1800153     0.0017981    0.0020049    -0.0001686   -0.0007550     0.9131545   -0.2589893 
   0.004551126     0.9812553   -0.1743322     0.0000789    0.0019647    -0.0000250    0.0002631     0.9143311   -0.2616028 
   0.004651151     0.9723118   -0.1492809     0.0015162    0.0014603    -0.0005122    0.0005557     0.9081715   -0.2647082 
   0.004751176     0.9697440   -0.1677922     0.0011925    0.0013953     0.0002885   -0.0000021     0.9061056   -0.2753072 
   0.004851201     0.9343777   -0.1630664     0.0009340    0.0006762    -0.0000864    0.0001464     0.9025527   -0.2751947 
   0.004951226     0.9796413   -0.1446740     0.0005154   -0.0001333     0.0001438   -0.0000922     0.8972663   -0.2793512 
   0.005051251     1.0104290   -0.1879198     0.0004342    0.0013804    -0.0006359    0.0003487     0.8942527   -0.2819059 
   0.005151276     0.9602802   -0.1632523    -0.0009051    0.0003191     0.0002059    0.0006131     0.8891363   -0.2905236 
   0.005251301     0.9461210   -0.1708565    -0.0008527    0.0009552     0.0005176   -0.0001866     0.8838700   -0.2890170 
   0.005351326     0.9532732   -0.1683933     0.0013580    0.0031101     0.0003030    0.0001691     0.8827566   -0.2955578 
   0.005451351     0.9765884   -0.1814567    -0.0004530    0.0009290     0.0004822    0.0001555     0.8790314   -0.3014603 
   0.005551376     0.9838911   -0.1992309    -0.0011313    0.0004326    -0.0001618    0.0001017     0.8736299   -0.3017603 
   0.005651401     0.9612424   -0.1730920    -0.0002474   -0.0021778    -0.0002423    0.0001110     0.8695647   -0.3152297 
   0.005751426     0.9442136   -0.1849134    -0.0007516    0.0005072    -0.0002012    0.0002405     0.8678173   -0.3121518 
   0.005851451     0.9639680   -0.2153543    -0.0003685    0.0002153     0.0004108   -0.0002851     0.8635041   -0.3191546 
   0.005951476     0.9559528   -0.1943877    -0.0008450    0.0002118     0.0001123    0.0001529     0.8595735   -0.3198081 
   0.006051501     0.9827297   -0.2127484     0.0015026   -0.0003020     0.0002324    0.0002222     0.8550006   -0.3246662 
   0.006151526     0.9572678   -0.2098189     0.0002543    0.0004668    -0.0000530    0.0005089     0.8487291   -0.3297152 
   0.006251551     0.9527743   -0.1934537     0.0011269    0.0008148    -0.0001926    0.0001266     0.8470340   -0.3325644 
   0.006351576     0.9715899   -0.2155821    -0.0001733    0.0011000     0.0004383    0.0000218     0.8399267   -0.3341153 
   0.006451601     0.9601807   -0.2079006     0.0000896    0.0002883     0.0000496    0.0000848     0.8398306   -0.3396208 
   0.006551626     0.9462425   -0.2255652    -0.0001090    0.0005715     0.0000328    0.0006447     0.8365402   -0.3409231 
   0.006651651     0.9443375   -0.2157264    -0.0003992   -0.0011636     0.0001489    0.0004173     0.8241983   -0.3431210 
   0.006751676     0.9628935   -0.2225860    -0.0021408   -0.0007156    -0.0003495    0.0002188     0.8279981   -0.3471809 
   0.006851701     0.9712998   -0.2495322     0.0009447   -0.0007176    -0.0001470    0.0002055     0.8250908   -0.3546347 
   0.006951726     0.9294240   -0.2243730     0.0000953    0.0007719     0.0003176    0.0005177     0.8180168   -0.3486361 
   0.007051751     0.9691597   -0.2283303     0.0001981    0.0009188    -0.0000215    0.0000815     0.8106065   -0.3564960 
   0.007151776     0.9153584   -0.2167973    -0.0004065    0.0025643     0.0000810   -0.0005257     0.8035186   -0.3590042 
   0.007251801     0.9759382   -0.2189836     0.0006376   -0.0000190     0.0001135    0.0001731     0.8015307   -0.3620370 
   0.007351826     0.9613625   -0.2597399     0.0009074   -0.0006575     0.0002596    0.0001050     0.8014759   -0.3671896 
   0.007451851     0.9418292   -0.2313347    -0.0014844   -0.0013357     0.0002331    0.0001145     0.7963305   -0.3662073 
   0.007551876     0.9480214   -0.2387715    -0.0005713    0.0006328     0.0002914   -0.0001739     0.7905773   -0.3717060 
   0.007651901     0.9421633   -0.2645506     0.0000852    0.0012702    -0.0001274    0.0003152     0.7908386   -0.3697241 
   0.007751926     0.9356294   -0.2579527    -0.0002604    0.0001165     0.0004325    0.0002098     0.7820788   -0.3735284 
   0.007851951     0.9349015   -0.2435849    -0.0011003   -0.0002657     0.0000309    0.0001979     0.7798035   -0.3791670 
   0.007951976     0.9595115   -0.2652108    -0.0005181   -0.0001743    -0.0000068    0.0000681     0.7741303   -0.3797662 
   0.008052001     0.9400145   -0.2512944     0.0000647    0.0002733     0.0001760    0.0001727     0.7718327   -0.3791635 
   0.008152026     0.9506366   -0.2703821    -0.0012304    0.0008688     0.0001126    0.0000535     0.7698060   -0.3847348 
   0.008252051     0.9351016   -0.2638744     0.0006414    0.0009625     0.0000414    0.0004424     0.7643185   -0.3867779 
   0.008352076     0.9566637   -0.2897946     0.0004327   -0.0008018    -0.0001802    0.0000467     0.7608008   -0.3882786 
   0.008452101     0.9590257   -0.2874104    -0.0006255    0.0015775    -0.0000698    0.0000215     0.7537530   -0.3900891 
   0.008552126     0.9322048   -0.2859303    -0.0004220    0.0001173     0.0000342    0.0004365     0.7494150   -0.3918401 
   0.008652151     0.9506096   -0.2737469     0.0014104    0.0006874    -0.0000444    0.0003700     0.7469069   -0.3944579 
   0.008752176     0.9548082   -0.2681125     0.0016403    0.0001862    -0.0002301    0.0002667     0.7434208   -0.3998718 
   0.008852201     0.9294065   -0.2721406     0.0006322    0.0002617     0.0000080    0.0004363     0.7380795   -0.3972088 
   0.008952226     0.9479381   -0.2921154    -0.0006865    0.0005363     0.0002663    0.0004305     0.7386268   -0.3957724 
   0.009052251     0.9538454   -0.2769783     0.0010456    0.0006475    -0.0004774   -0.0001029     0.7302736   -0.4009159 
   0.009152276     0.9523286   -0.2832885    -0.0006133    0.0003945     0.0001936    0.0006163     0.7229968   -0.4053008 
   0.009252301     0.9348994   -0.3015597     0.0003555    0.0002659     0.0000448   -0.0001432     0.7227733   -0.4058099 
   0.009352326     0.9468006   -0.3121821     0.0015819    0.0001820     0.0000704    0.0001487     0.7209796   -0.4061254 
   0.009452351     0.9387183   -0.3101033    -0.0011888   -0.0009798     0.0000126    0.0001150     0.7117637   -0.4069634 
   0.009552376     0.9362296   -0.3205733     0.0000095    0.0005241     0.0002342    0.0005824     0.7108608   -0.4049527 
   0.009652401     0.9270347   -0.3110080     0.0006351   -0.0006727     0.0001785    0.0002377     0.7050002   -0.4110987 
   0.009752426     0.9276860   -0.3127042     0.0003743    0.0000764    -0.0001196   -0.0002690     0.7035000   -0.4106133 
   0.009852451     0.9365028   -0.3251686     0.0003507   -0.0012545     0.0001319    0.0003813     0.6966211   -0.4130553 
   0.009952476     0.9307163   -0.3248625    -0.0004746    0.0000398    -0.0000446   -0.0001375     0.6934717   -0.4110560 
   0.010052501     0.9298424   -0.3118512     0.0006272    0.0000821    -0.0000304   -0.0001396     0.6918366   -0.4092486 
   0.010152526     0.9213766   -0.3168136     0.0000353    0.0008462    -0.0002130    0.0003255     0.6867940   -0.4129455 
   0.010252551     0.9110613   -0.3170306    -0.0001840   -0.0005540     0.0001802    0.0001574     0.6829140   -0.4176945 
   0.010352576     0.9378631   -0.3299160     0.0010510   -0.0001406    -0.0002170    0.0001736     0.6783059   -0.4165197 
   0.010452601     0.9358891   -0.3251469    -0.0013366   -0.0003506     0.0003670    0.0005387     0.6734011   -0.4201555 
   0.010552626     0.9065672   -0.3403887    -0.0003359    0.0000369    -0.0000547    0.0003403     0.6711376   -0.4200156 
   0.010652651     0.9296730   -0.3391517    -0.0001784   -0.0000465     0.0003774    0.0001917     0.6662742   -0.4228368 
   0.010752676     0.9296269   -0.3539827    -0.0012332   -0.0005209     0.0000788    0.0001833     0.6642398   -0.4210280 
   0.010852701     0.9146816   -0.3359312     0.0015797    0.0003515    -0.0001214    0.0002133     0.6621074   -0.4239675 
   0.010952726     0.9242527   -0.3522289     0.0000469   -0.0000655     0.0001276    0.0003883     0.6557817   -0.4254078 
   0.011052751     0.9226605   -0.3656214     0.0010089    0.0002048     0.0003572   -0.0004201     0.6506007   -0.4251948 
   0.011152776     0.9172585   -0.3584934     0.0000629    0.0010448     0.0000813    0.0003850     0.6460735   -0.4264849 
   0.011252801     0.9026263   -0.3543689     0.0000141   -0.0005960     0.0000023    0.0002215     0.6409363   -0.4241943 
   0.011352826     0.9131129   -0.3831508    -0.0002457   -0.0006517    -0.0003308   -0.0000634     0.6396966   -0.4252082 
   0.011452851     0.9102597   -0.3671061     0.0001292    0.0004282    -0.0002175    0.0000081     0.6331105   -0.4290456 
   0.011552876     0.8913959   -0.3731413    -0.0004737   -0.0013281     0.0002067   -0.0000816     0.6354858   -0.4314949 
   0.011652901     0.8970934   -0.3787551     0.0002267    0.0007372    -0.0000254   -0.0001834     0.6292990   -0.4270112 
   0.011752926     0.8883018   -0.3642301    -0.0003522    0.0008865    -0.0004414    0.0002986     0.6243708   -0.4303112 
   0.011852951     0.9035322   -0.3757641     0.0005072    0.0005213     0.0000510    0.0001613     0.6236028   -0.4311669 
   0.011952976     0.9053602   -0.3690660    -0.0002098   -0.0006666     0.0000310    0.0004590     0.6154806   -0.4288200 
   0.012053002     0.8873020   -0.4106728    -0.0008181    0.0012874    -0.0001658    0.0002584     0.6140960   -0.4269840 
   0.012153027     0.9035116   -0.3782367     0.0008515    0.0003829    -0.0001677   -0.0000566     0.6095606   -0.4307725 
   0.012253052     0.8918360   -0.3893382    -0.0004891    0.0005478    -0.0000850    0.0002773     0.6084468   -0.4305556 
   0.012353077     0.8895054   -0.3894001    -0.0000601    0.0006751     0.0000259    0.0000949     0.6059376   -0.4311135 
   0.012453102     0.9013441   -0.3946210     0.0001556    0.0008672     0.0000075    0.0002996     0.6003571   -0.4333189 
   0.012553127     0.8923489   -0.4149934     0.0008757    0.0002628     0.0000441    0.0002247     0.5954769   -0.4315081 
   0.012653152     0.9040888   -0.3905869    -0.0003968   -0.0000907    -0.0001062   -0.0000712     0.5926844   -0.4323816 
   0.012753177     0.8913941   -0.4033458     0.0003009    0.0007456    -0.0002288    0.0003574     0.5911731   -0.4315902 
   0.012853202     0.8897689   -0.3951606    -0.0002476   -0.0000480    -0.0000835   -0.0000209     0.5847243   -0.4322125 
   0.012953227     0.8942838   -0.3913031    -0.0005918    0.0015294     0.0003391    0.0000005     0.5852489   -0.4320450 
   0.013053252     0.8858618   -0.4190901    -0.0000339   -0.0003819    -0.0001526    0.0001051     0.5829782   -0.4313082 
   0.013153277     0.8928112   -0.4119919    -0.0006952    0.0005988    -0.0000568    0.0002567     0.5752215   -0.4326871 
   0.013253302     0.8816456   -0.3990428    -0.0006010    0.0005774     0.0001426   -0.0000671     0.5743854   -0.4314761 
   0.013353327     0.8714663   -0.4143106    -0.0002512    0.0006827     0.0003560   -0.0000411     0.5711828   -0.4334478 
   0.013453352     0.8888187   -0.3969795     0.0009726   -0.0006937    -0.0000223    0.0002765     0.5668621   -0.4331537 
   0.013553377     0.8515885   -0.4138585    -0.0010712   -0.0005367    -0.0002774    0.0003383     0.5631050   -0.4338517 
   0.013653402     0.8817150   -0.4223871     0.0000728   -0.0005776     0.0002775    0.0003234     0.5611836   -0.4334120 
   0.013753427     0.8799239   -0.4188261     0.0011434    0.0001704     0.0004590   -0.0000362     0.5566946   -0.4327130 
   0.013853452     0.8719480   -0.4481956    -0.0010110    0.0016458    -0.0001433    0.0002458     0.5565568   -0.4323752 
   0.013953477     0.8649231   -0.4146602    -0.0001520    0.0008958     0.0003094    0.0000434     0.5529056   -0.4358204 
   0.014053502     0.8775494   -0.4422335     0.0001681    0.0002383     0.0005078    0.0000248     0.5492055   -0.4331244 
   0.014153527     0.8691673   -0.4424349     0.0007920    0.0001575     0.0000001    0.0001840     0.5474645   -0.4312755 
   0.014253552     0.8830362   -0.4382029    -0.0006567    0.0001419     0.0002468    0.0003046     0.5449401   -0.4324833 
   0.014353577     0.8593327   -0.4388241    -0.0010506    0.0003473     0.0001841    0.0003490     0.5396299   -0.4304039 
   0.014453602     0.8560385   -0.4518859     0.0003716   -0.0004271    -0.0002787    0.0005339     0.5388472   -0.4287286 
   0.014553627     0.8588420   -0.4395729     0.0000463    0.0008185    -0.0002222    0.0001581     0.5354358   -0.4308191 
   0.014653652     0.8665053   -0.4537313     0.0000537    0.0015019    -0.0003360    0.0002242     0.5315539   -0.4300698 
   0.014753677     0.8584686   -0.4508174     0.0002495    0.0000457     0.0003841   -0.0000611     0.5262433   -0.4285891 
   0.014853702     0.8685282   -0.4501787     0.0001292    0.0004401     0.0002444    0.0003154     0.5266573   -0.4293519 
   0.014953727     0.8449759   -0.4632054    -0.0003469   -0.0002298     0.0001259    0.0001228     0.5228969   -0.4304950 
   0.015053752     0.8605369   -0.4658289    -0.0001409    0.0003776     0.0004581    0.0002578     0.5183504   -0.4293491 
   0.015153777     0.8570796   -0.4644781    -0.0003989    0.0006840     0.0002344    0.0001496     0.5186679   -0.4293429 
   0.015253802     0.8568096   -0.4571917     0.0003387    0.0000163     0.0002199    0.0005577     0.5143524   -0.4308820 
   0.015353827     0.8540298   -0.4821813     0.0006984    0.0006899     0.0003356    0.0001364     0.5105419   -0.4280475 
   0.015453852     0.8557458   -0.4708109     0.0007678    0.0000955     0.0000471    0.0005620     0.5096852   -0.4275258 
   0.015553877     0.8379376   -0.4780174     0.0005222    0.0010763     0.0001443    0.0005739     0.5053511   -0.4256289 
   0.015653902     0.8378717   -0.4757243    -0.0000906    0.0007161     0.0000003    0.0001922     0.5045144   -0.4284440 
