! 26-Feb-26 12:29:13 PM
! E:\VNA_MEASUREMENTS\SP8T\SP8T_P6_RF5.S2P
! CHANNEL.1
! TR.MEASUREMENT
! CORRECTED.DATA
# GHZ S RI R 50.0
! FREQ.GHZ         S11RE         S11IM         S21RE         S21IM         S12RE         S12IM         S22RE         S22IM         
!; PortSelection: Port_12
   0.000050000    -0.0250691    0.0738658    -0.2792892   -0.0299316    -0.0135881   -0.0072799     0.9784736    0.0205062 
   0.000150025    -0.2823399    0.2295800    -0.0607137   -2.4928570     0.0000843    0.0008615     1.0007550   -0.0000019 
   0.000250050     0.1237559   -0.0415421     0.0016429   -0.0041634     0.0008991    0.0002360     1.0083110   -0.0041766 
   0.000350075     0.9312146   -0.0818398    -0.0076032   -0.0127696    -0.0004836   -0.0008859     0.9951934   -0.0352392 
   0.000450100     0.9796634   -0.0189493    -0.0067175   -0.0107279     0.0002389   -0.0005619     0.9879297   -0.0268689 
   0.000550125     0.9926678   -0.0269595    -0.0014389   -0.0128792    -0.0003376    0.0000931     0.9961594   -0.0328169 
   0.000650150     0.9805281   -0.0035643    -0.0058282   -0.0087058    -0.0002280   -0.0007407     0.9970266   -0.0500289 
   0.000750175     0.9837275   -0.0609192    -0.0041588   -0.0110835     0.0004319   -0.0002707     0.9911799   -0.0528198 
   0.000850200     1.0167840   -0.1173412    -0.0095998   -0.0100228     0.0010056    0.0003821     0.9972597   -0.0437645 
   0.000950225     1.0561970   -0.0306958    -0.0072542   -0.0069849    -0.0007073   -0.0004976     0.9974157   -0.0663810 
   0.001050250     0.9782541   -0.0772800    -0.0110417   -0.0102174    -0.0009786    0.0014278     0.9918016   -0.0599792 
   0.001150275     1.0004660   -0.0722522    -0.0071813   -0.0051619     0.0000705   -0.0004270     0.9821880   -0.0748552 
   0.001250300     0.9625036   -0.0233946    -0.0100181   -0.0040490    -0.0003084    0.0000384     0.9958704   -0.0810490 
   0.001350325     1.0098330   -0.0640626    -0.0113509   -0.0018273     0.0005342    0.0000893     0.9905642   -0.0974737 
   0.001450350     0.9821651   -0.0747031    -0.0112088   -0.0051025    -0.0008869   -0.0000297     0.9804252   -0.0917174 
   0.001550375     0.9526942   -0.0871326    -0.0096115   -0.0009580    -0.0000275   -0.0000529     0.9939278   -0.0904041 
   0.001650400     1.0081800   -0.0394200    -0.0055063   -0.0008328    -0.0002358   -0.0003973     0.9839016   -0.0945986 
   0.001750425     0.9715149   -0.0610136    -0.0113038   -0.0019099     0.0004331    0.0007204     0.9899116   -0.1077367 
   0.001850450     0.9660800   -0.0588081    -0.0062556    0.0013957     0.0011627   -0.0006480     0.9842135   -0.1107309 
   0.001950475     0.9972776   -0.0409442    -0.0094431    0.0041177    -0.0004665    0.0003707     0.9852735   -0.1234466 
   0.002050500     0.9507533   -0.0659277    -0.0078614    0.0030890     0.0007608    0.0000183     0.9815513   -0.1380872 
   0.002150525     0.9908924   -0.0985711    -0.0066334    0.0059560     0.0000199   -0.0011120     0.9760122   -0.1399947 
   0.002250550     0.9748211   -0.0602130    -0.0046757    0.0018891     0.0000071    0.0000040     0.9768069   -0.1408836 
   0.002350575     0.9826053   -0.1275193    -0.0080091    0.0015570    -0.0001408    0.0000954     0.9778066   -0.1475115 
   0.002450600     1.0181710   -0.0603867    -0.0064287    0.0061324    -0.0008355   -0.0003328     0.9748650   -0.1591946 
   0.002550625     0.9983625   -0.0821684     0.0003601    0.0008866    -0.0003875    0.0002841     0.9701523   -0.1538952 
   0.002650650     0.9744388   -0.0553307    -0.0062587    0.0045345     0.0002770    0.0002184     0.9696745   -0.1686544 
   0.002750675     0.9977807   -0.0768304    -0.0024736    0.0026437    -0.0001245    0.0008658     0.9602048   -0.1781403 
   0.002850700     1.0279230   -0.0470916    -0.0041584    0.0044497    -0.0007462   -0.0004210     0.9620067   -0.1759327 
   0.002950725     0.9454250   -0.1094458    -0.0017087    0.0035553     0.0003676   -0.0011988     0.9657778   -0.1823555 
   0.003050750     0.9862885   -0.1056664    -0.0013596    0.0064885     0.0001221    0.0000173     0.9616021   -0.1861268 
   0.003150775     0.9816730   -0.1318989    -0.0018831    0.0040551     0.0002729   -0.0007181     0.9507330   -0.1942333 
   0.003250800     0.9818029   -0.1172670    -0.0036594    0.0033731    -0.0003853    0.0000484     0.9522992   -0.1998819 
   0.003350825     0.9698940   -0.1050085    -0.0006408    0.0057459    -0.0002713   -0.0002050     0.9468839   -0.2038652 
   0.003450850     0.9629003   -0.1253332    -0.0006936    0.0018758    -0.0000208    0.0001858     0.9467572   -0.2145338 
   0.003550875     0.9287229   -0.1431224     0.0001573    0.0035871     0.0000533   -0.0002987     0.9392939   -0.2169580 
   0.003650900     0.9510384   -0.1164428    -0.0008029   -0.0009326    -0.0001134   -0.0000540     0.9392956   -0.2240559 
   0.003750925     0.9684122   -0.1378768    -0.0023889    0.0013009     0.0001277   -0.0002744     0.9328022   -0.2277717 
   0.003850950     0.9598492   -0.1447218     0.0000674    0.0006245    -0.0000837   -0.0006239     0.9324812   -0.2272423 
   0.003950975     0.9786322   -0.1315314    -0.0022034    0.0012993    -0.0004827    0.0003814     0.9303136   -0.2361927 
   0.004051001     0.9444507   -0.1535108    -0.0005847    0.0031378     0.0003749    0.0001826     0.9264982   -0.2385892 
   0.004151026     0.9865481   -0.1316610    -0.0007706    0.0018455    -0.0003533    0.0006698     0.9195604   -0.2476127 
   0.004251051     0.9729712   -0.1283435     0.0012265    0.0003475     0.0006341   -0.0008798     0.9216679   -0.2517716 
   0.004351076     0.9586670   -0.1371900    -0.0003522    0.0023755     0.0000180    0.0000915     0.9107122   -0.2566356 
   0.004451101     0.9836075   -0.1903162    -0.0039823   -0.0002902    -0.0012176    0.0001657     0.9100715   -0.2554719 
   0.004551126     0.9778172   -0.1629090    -0.0024856    0.0011675    -0.0002373   -0.0005484     0.9085628   -0.2614110 
   0.004651151     0.9389135   -0.1660093    -0.0040003   -0.0004319     0.0005676    0.0005104     0.9118617   -0.2657329 
   0.004751176     0.9681816   -0.1815663    -0.0020764    0.0007311     0.0005319    0.0002911     0.9059346   -0.2711009 
   0.004851201     0.9373398   -0.1637792    -0.0016441    0.0004765     0.0000948   -0.0001269     0.8965660   -0.2789232 
   0.004951226     0.9512404   -0.1483659    -0.0006304    0.0039817     0.0002777    0.0003414     0.8963530   -0.2767887 
   0.005051251     0.9989208   -0.1731541     0.0031636    0.0023700     0.0000359   -0.0003650     0.8937157   -0.2826993 
   0.005151276     0.9607622   -0.1680146     0.0009588   -0.0007339     0.0000651   -0.0006555     0.8913688   -0.2906875 
   0.005251301     0.9248377   -0.1709155     0.0003036   -0.0002815     0.0000582    0.0000420     0.8839163   -0.2915887 
   0.005351326     0.9616440   -0.1473405    -0.0003514   -0.0000880     0.0001402   -0.0003493     0.8838951   -0.2986529 
   0.005451351     0.9494560   -0.1791240    -0.0006150    0.0010199    -0.0001534    0.0002019     0.8787496   -0.3069525 
   0.005551376     0.9644840   -0.1907468     0.0012308    0.0009483     0.0000040   -0.0002088     0.8750917   -0.3016883 
   0.005651401     0.9493211   -0.1603392     0.0004645    0.0014970    -0.0000568   -0.0001882     0.8701425   -0.3155290 
   0.005751426     0.9347193   -0.1837426    -0.0019819    0.0004011    -0.0002912   -0.0007001     0.8628502   -0.3144724 
   0.005851451     0.9887376   -0.1955237    -0.0010661    0.0002631     0.0005604    0.0002975     0.8600207   -0.3228541 
   0.005951476     0.9439322   -0.1882993     0.0020474   -0.0006812    -0.0002478    0.0002377     0.8606606   -0.3190582 
   0.006051501     0.9525529   -0.1764990     0.0001625    0.0011199     0.0001069    0.0004391     0.8574368   -0.3241879 
   0.006151526     0.9311222   -0.2053998     0.0017834    0.0009731    -0.0000044   -0.0002033     0.8539997   -0.3292934 
   0.006251551     0.9601979   -0.1678272    -0.0006613    0.0007769    -0.0001604   -0.0001878     0.8459247   -0.3344566 
   0.006351576     0.9376903   -0.1947625    -0.0003847    0.0016922    -0.0004085    0.0000379     0.8397796   -0.3351993 
   0.006451601     0.9447873   -0.2028135    -0.0004135    0.0025038     0.0003382    0.0000074     0.8337592   -0.3393001 
   0.006551626     0.9251509   -0.2098230    -0.0013088    0.0008588    -0.0003926    0.0000293     0.8346586   -0.3403184 
   0.006651651     0.9414443   -0.2115312    -0.0009097   -0.0008434     0.0000030   -0.0003539     0.8268217   -0.3472812 
   0.006751676     0.9352555   -0.2399412    -0.0013129   -0.0000995    -0.0002368    0.0001856     0.8326185   -0.3479863 
   0.006851701     0.9419993   -0.2490223    -0.0011849   -0.0014906     0.0004391    0.0002157     0.8220354   -0.3540193 
   0.006951726     0.9294453   -0.2341907    -0.0005649    0.0002222    -0.0003149    0.0002603     0.8139398   -0.3500209 
   0.007051751     0.9236401   -0.2300854    -0.0007092    0.0001617    -0.0000840    0.0000335     0.8145921   -0.3598763 
   0.007151776     0.9343290   -0.2233199     0.0004947    0.0018723     0.0001315    0.0002291     0.8024518   -0.3614960 
   0.007251801     0.9377818   -0.2258559    -0.0010147    0.0010233     0.0002835    0.0001322     0.8038094   -0.3651756 
   0.007351826     0.9315937   -0.2407071    -0.0010071   -0.0003308    -0.0003456   -0.0005031     0.7969396   -0.3694010 
   0.007451851     0.9159695   -0.2259175     0.0003544   -0.0005515     0.0002815   -0.0000733     0.7904801   -0.3647393 
   0.007551876     0.9234945   -0.2472818     0.0003964    0.0003287     0.0004461    0.0003222     0.7938025   -0.3700255 
   0.007651901     0.9258763   -0.2491467    -0.0008429    0.0004799     0.0000702   -0.0002360     0.7884372   -0.3710696 
   0.007751926     0.9269591   -0.2502458    -0.0007729   -0.0015526    -0.0002105   -0.0001154     0.7879415   -0.3775071 
   0.007851951     0.9111195   -0.2376936    -0.0001263    0.0003038     0.0001549   -0.0003085     0.7793408   -0.3789544 
   0.007951976     0.9289188   -0.2570044    -0.0003537   -0.0004451     0.0002234   -0.0001797     0.7727606   -0.3787001 
   0.008052001     0.9219981   -0.2492425    -0.0004096    0.0009249     0.0001622   -0.0002397     0.7698478   -0.3816566 
   0.008152026     0.9367112   -0.2732431     0.0010124    0.0013347     0.0000768   -0.0002968     0.7663736   -0.3879345 
   0.008252051     0.9110623   -0.2235726     0.0017917    0.0015046    -0.0000564   -0.0002580     0.7571896   -0.3896448 
   0.008352076     0.9220867   -0.2676948    -0.0007840    0.0005186    -0.0000869    0.0003186     0.7605203   -0.3899959 
   0.008452101     0.9295059   -0.2657030     0.0005107    0.0006918     0.0004088   -0.0003628     0.7566544   -0.3920168 
   0.008552126     0.9164723   -0.2585259     0.0023782   -0.0000277     0.0000371    0.0002856     0.7502176   -0.3943509 
   0.008652151     0.9147487   -0.2614601    -0.0011577    0.0003337    -0.0003372    0.0001217     0.7436715   -0.3973888 
   0.008752176     0.9213743   -0.2628766    -0.0003345   -0.0000574     0.0000790    0.0000099     0.7419612   -0.3987752 
   0.008852201     0.9241607   -0.2451054     0.0006835   -0.0001095    -0.0002913   -0.0001522     0.7374707   -0.3991609 
   0.008952226     0.9183696   -0.2678666     0.0001654    0.0012965     0.0001718   -0.0004739     0.7338684   -0.4006398 
   0.009052251     0.9125457   -0.2738045     0.0005342   -0.0010500     0.0000196   -0.0006815     0.7295222   -0.4048177 
   0.009152276     0.9093535   -0.2565554    -0.0005468    0.0004016     0.0000616   -0.0001093     0.7236896   -0.4077252 
   0.009252301     0.8963905   -0.2904510    -0.0005203    0.0009557     0.0000930    0.0002472     0.7215584   -0.4110469 
   0.009352326     0.9115196   -0.2810351     0.0000332   -0.0007925     0.0001597   -0.0000993     0.7193836   -0.4068112 
   0.009452351     0.9033878   -0.2768459     0.0005132   -0.0002894    -0.0000290   -0.0000369     0.7110953   -0.4079243 
   0.009552376     0.9234570   -0.3034163     0.0000847   -0.0003147    -0.0000594   -0.0002145     0.7076153   -0.4101301 
   0.009652401     0.8940551   -0.2806492    -0.0002364    0.0010964     0.0000427   -0.0000232     0.7029883   -0.4112678 
   0.009752426     0.8944736   -0.2856132    -0.0006759   -0.0006983    -0.0002054   -0.0002592     0.7002587   -0.4092955 
   0.009852451     0.8869687   -0.3042563     0.0003854   -0.0006174    -0.0002712    0.0002392     0.6940690   -0.4154014 
   0.009952476     0.9001228   -0.3100618     0.0006403    0.0009731     0.0001218   -0.0000220     0.6889276   -0.4119947 
   0.010052501     0.8976632   -0.2927658     0.0005607    0.0008629     0.0000429   -0.0001215     0.6887701   -0.4133400 
   0.010152526     0.8912832   -0.2915048     0.0011209   -0.0004176    -0.0000660   -0.0000734     0.6809116   -0.4166624 
   0.010252551     0.8700745   -0.3053815    -0.0008270   -0.0003596     0.0000438    0.0000066     0.6807170   -0.4190799 
   0.010352576     0.8964171   -0.3245701    -0.0006903    0.0001480    -0.0001381   -0.0000106     0.6752247   -0.4203975 
   0.010452601     0.8925461   -0.2884240     0.0007027    0.0003186     0.0002478    0.0000885     0.6709613   -0.4217335 
   0.010552626     0.8525532   -0.3129308     0.0009292   -0.0004166    -0.0000238   -0.0002324     0.6661053   -0.4242602 
   0.010652651     0.8824008   -0.3189505     0.0003024    0.0004585     0.0002412   -0.0000767     0.6624095   -0.4245239 
   0.010752676     0.8803285   -0.3256673     0.0008649   -0.0015621    -0.0005591   -0.0001621     0.6616000   -0.4233551 
   0.010852701     0.8756285   -0.2992053     0.0012303    0.0005410     0.0000925    0.0000357     0.6619456   -0.4255569 
   0.010952726     0.8758630   -0.3123672     0.0007107   -0.0005357    -0.0000653   -0.0000371     0.6529598   -0.4262475 
   0.011052751     0.8768637   -0.3175387    -0.0002951   -0.0001083     0.0002383   -0.0002021     0.6495054   -0.4278176 
   0.011152776     0.8797349   -0.3247209    -0.0005424   -0.0010896    -0.0000209   -0.0003363     0.6433591   -0.4274262 
   0.011252801     0.8601853   -0.3291177    -0.0008883    0.0005023    -0.0001593   -0.0003001     0.6397187   -0.4282002 
   0.011352826     0.8644617   -0.3511089    -0.0000968   -0.0001486    -0.0001853    0.0000233     0.6389307   -0.4279591 
   0.011452851     0.8601739   -0.3135754     0.0000586    0.0000644    -0.0001220    0.0000371     0.6320961   -0.4280227 
   0.011552876     0.8621047   -0.3399247    -0.0005879   -0.0004603    -0.0001430   -0.0000793     0.6311903   -0.4334667 
   0.011652901     0.8498625   -0.3493061     0.0007637    0.0000811     0.0001478   -0.0000244     0.6274172   -0.4305436 
   0.011752926     0.8509877   -0.3350186    -0.0002948    0.0005193    -0.0001053    0.0002461     0.6236621   -0.4315563 
   0.011852951     0.8472176   -0.3585237     0.0006600    0.0001540    -0.0001490   -0.0002413     0.6231796   -0.4325342 
   0.011952976     0.8388025   -0.3321824    -0.0000642    0.0003171    -0.0000711    0.0002435     0.6130901   -0.4315730 
   0.012053002     0.8452580   -0.3505170     0.0002913   -0.0001676     0.0003248   -0.0001738     0.6125905   -0.4322160 
   0.012153027     0.8383439   -0.3476696     0.0003094    0.0001505     0.0000931    0.0001445     0.6091387   -0.4334912 
   0.012253052     0.8335614   -0.3531768     0.0005796   -0.0003215    -0.0001145   -0.0004075     0.6066880   -0.4325090 
   0.012353077     0.8511480   -0.3464836     0.0007448   -0.0000712    -0.0002375    0.0002246     0.6037859   -0.4313169 
   0.012453102     0.8404575   -0.3466645    -0.0000997    0.0002649    -0.0003210    0.0001670     0.5965621   -0.4360314 
   0.012553127     0.8408434   -0.3677515     0.0001676    0.0002357    -0.0001459    0.0001568     0.5915446   -0.4340912 
   0.012653152     0.8535551   -0.3520280    -0.0000499   -0.0008213     0.0000119    0.0000528     0.5941845   -0.4347008 
   0.012753177     0.8315247   -0.3542655     0.0004678    0.0007034    -0.0000951   -0.0001263     0.5889520   -0.4323524 
   0.012853202     0.8357424   -0.3426808    -0.0003135    0.0007800    -0.0000156   -0.0002858     0.5811813   -0.4338704 
   0.012953227     0.8395961   -0.3565983     0.0007849    0.0008383     0.0001757    0.0003565     0.5825911   -0.4353768 
   0.013053252     0.8133693   -0.3600518     0.0002739   -0.0008761     0.0002978   -0.0001563     0.5796278   -0.4368362 
   0.013153277     0.8276368   -0.3555571    -0.0003844   -0.0012299    -0.0000130   -0.0002784     0.5748717   -0.4362807 
   0.013253302     0.8221318   -0.3534725     0.0008444   -0.0003803    -0.0000474    0.0001298     0.5727566   -0.4318169 
   0.013353327     0.8117040   -0.3545292     0.0004000    0.0006717    -0.0001103   -0.0000725     0.5691023   -0.4344644 
   0.013453352     0.8300223   -0.3541884    -0.0001375    0.0008953    -0.0002801    0.0000527     0.5661070   -0.4346730 
   0.013553377     0.8117704   -0.3718720     0.0007584   -0.0001564     0.0002681   -0.0001335     0.5603882   -0.4340835 
   0.013653402     0.8186554   -0.3638096     0.0006910    0.0000194    -0.0000939   -0.0000926     0.5579689   -0.4353138 
   0.013753427     0.8192906   -0.3683382    -0.0001855   -0.0006908    -0.0000267   -0.0000191     0.5535215   -0.4361439 
   0.013853452     0.8125036   -0.3863355     0.0006925   -0.0003446    -0.0002417   -0.0000324     0.5561985   -0.4350059 
   0.013953477     0.7970585   -0.3694350     0.0002571   -0.0004460     0.0001670   -0.0001670     0.5499940   -0.4346655 
   0.014053502     0.8142164   -0.3881564    -0.0001532   -0.0003032     0.0001309    0.0000401     0.5453002   -0.4349998 
   0.014153527     0.7995380   -0.3783664     0.0006629   -0.0002282     0.0000845    0.0001416     0.5454769   -0.4343372 
   0.014253552     0.8118935   -0.3734095    -0.0000011   -0.0001733     0.0001685   -0.0003209     0.5427053   -0.4345264 
   0.014353577     0.7969063   -0.3838127    -0.0005802   -0.0004374     0.0001358   -0.0001765     0.5348598   -0.4340168 
   0.014453602     0.7830985   -0.3789741    -0.0007925   -0.0000697    -0.0000711   -0.0001730     0.5352787   -0.4326485 
   0.014553627     0.7931532   -0.3815000     0.0008223    0.0003913     0.0001812   -0.0001017     0.5318034   -0.4343376 
   0.014653652     0.8053270   -0.3909830    -0.0001298    0.0002759     0.0001902    0.0000800     0.5274845   -0.4335457 
   0.014753677     0.7954183   -0.3824572     0.0005584    0.0001512    -0.0002024   -0.0000305     0.5254035   -0.4314592 
   0.014853702     0.7931752   -0.3885534     0.0001063    0.0002205     0.0001874    0.0000395     0.5235643   -0.4315827 
   0.014953727     0.7906189   -0.4065505     0.0007341    0.0006287     0.0000592    0.0000060     0.5192665   -0.4310451 
   0.015053752     0.7860159   -0.3886967    -0.0000706   -0.0004461     0.0000273   -0.0002335     0.5160117   -0.4310285 
   0.015153777     0.7847239   -0.3920756    -0.0002911    0.0001830     0.0002307   -0.0000380     0.5142885   -0.4323399 
   0.015253802     0.7818425   -0.3953384     0.0001968   -0.0001703    -0.0000659    0.0002340     0.5100843   -0.4297847 
   0.015353827     0.7801124   -0.4008793     0.0003690    0.0003130    -0.0001125    0.0000101     0.5074147   -0.4308895 
   0.015453852     0.7841353   -0.3939309    -0.0003114   -0.0001546    -0.0000622    0.0001726     0.5068834   -0.4302765 
   0.015553877     0.7856335   -0.4057220    -0.0010664    0.0001433    -0.0000446   -0.0002841     0.5027432   -0.4297438 
   0.015653902     0.7779559   -0.4052149     0.0002577    0.0006093    -0.0000291   -0.0000693     0.5005944   -0.4304678 
