! 26-Feb-26 1:03:08 PM
! E:\VNA_MEASUREMENTS\SP8T\SP8T_P7_RF5.S2P
! CHANNEL.1
! TR.MEASUREMENT
! CORRECTED.DATA
# GHZ S RI R 50.0
! FREQ.GHZ         S11RE         S11IM         S21RE         S21IM         S12RE         S12IM         S22RE         S22IM         
!; PortSelection: Port_12
   0.000050000     0.5154265    0.4096983    -0.4849518   -0.2240600    -0.0026639   -0.0000714     1.0270770   -0.0250862 
   0.000150025     0.1379211    0.1942085    -1.2967320    0.0197669     0.0001438    0.0007813     0.9997754   -0.0026611 
   0.000250050    -0.1347795    0.0728015    -0.0034029    0.0023061    -0.0005196    0.0000383     1.0172600   -0.0136870 
   0.000350075     1.0134160   -0.1016256    -0.0033242   -0.0093661     0.0007109   -0.0005102     0.9983717   -0.0287744 
   0.000450100     1.0049740   -0.0997215    -0.0068586   -0.0108344     0.0005658    0.0000607     0.9934475   -0.0218419 
   0.000550125     0.9294184   -0.0550113    -0.0053289   -0.0099959    -0.0007542   -0.0006231     0.9948675   -0.0416033 
   0.000650150     0.9260817   -0.0009092    -0.0073252   -0.0069548    -0.0001003   -0.0015794     0.9969003   -0.0506133 
   0.000750175     0.9764627   -0.0928710    -0.0089555   -0.0115524    -0.0009413    0.0005752     0.9903991   -0.0536099 
   0.000850200     0.9913088   -0.0683944    -0.0095964   -0.0087283    -0.0003035    0.0006959     0.9987317   -0.0501944 
   0.000950225     1.0038750   -0.0479936    -0.0095192   -0.0023199    -0.0008003    0.0000231     0.9963799   -0.0646292 
   0.001050250     0.9545462   -0.0649689    -0.0080955   -0.0030105    -0.0004506    0.0012643     0.9960275   -0.0626861 
   0.001150275     0.9959832   -0.0798733    -0.0111692   -0.0018209    -0.0000394   -0.0005227     0.9836724   -0.0680836 
   0.001250300     0.9764233   -0.0512833    -0.0108584   -0.0071712    -0.0003704   -0.0001480     0.9893324   -0.0865322 
   0.001350325     1.0241720   -0.1001209    -0.0125897   -0.0012542    -0.0003963   -0.0005494     0.9824426   -0.0957996 
   0.001450350     1.0269340   -0.0637441    -0.0092029    0.0015465     0.0001623    0.0006059     0.9920808   -0.0978709 
   0.001550375     0.9651448   -0.0699427    -0.0078107   -0.0028313    -0.0000913   -0.0000867     0.9934130   -0.0947341 
   0.001650400     1.0237410   -0.0285429    -0.0051084   -0.0011721     0.0005393    0.0006242     0.9832097   -0.1041420 
   0.001750425     1.0045390   -0.1047246    -0.0085198    0.0028101    -0.0005685    0.0010178     0.9823384   -0.1135216 
   0.001850450     0.9480987   -0.1050806    -0.0087067   -0.0003857    -0.0013079    0.0000211     0.9784116   -0.1195312 
   0.001950475     1.0073430   -0.0152329    -0.0124997    0.0026337     0.0010236    0.0004841     0.9813470   -0.1245866 
   0.002050500     0.9859055   -0.0605879    -0.0049811    0.0029482     0.0009517    0.0004364     0.9788781   -0.1341763 
   0.002150525     1.0195360   -0.0897719    -0.0052831    0.0044448     0.0005994    0.0006950     0.9716965   -0.1388089 
   0.002250550     0.9794393   -0.0881302    -0.0066844    0.0033848     0.0002101   -0.0001813     0.9682742   -0.1472943 
   0.002350575     0.9379864   -0.1191228    -0.0070106    0.0055814    -0.0008375    0.0003640     0.9695811   -0.1469007 
   0.002450600     0.9894356   -0.1167217    -0.0054363    0.0040184     0.0000991    0.0001375     0.9699213   -0.1562739 
   0.002550625     0.9718249   -0.0853911    -0.0066231    0.0028154    -0.0005298    0.0004103     0.9700400   -0.1559555 
   0.002650650     0.9950596   -0.0933022    -0.0047116    0.0026469    -0.0000488    0.0002341     0.9617051   -0.1784593 
   0.002750675     0.9879824   -0.0373321     0.0004760    0.0036046    -0.0006129   -0.0004203     0.9576811   -0.1757433 
   0.002850700     1.0188500   -0.0799448    -0.0022529    0.0001614     0.0003951    0.0006345     0.9644240   -0.1763912 
   0.002950725     0.9614690   -0.0704574    -0.0037515    0.0044816     0.0002839   -0.0005772     0.9629359   -0.1804572 
   0.003050750     1.0048420   -0.1262523    -0.0044692    0.0023600    -0.0003058    0.0002478     0.9515221   -0.1906763 
   0.003150775     1.0080860   -0.1145406    -0.0039213    0.0008996     0.0001586   -0.0003334     0.9452212   -0.1944422 
   0.003250800     0.9487060   -0.0730671    -0.0030058    0.0027011    -0.0003770   -0.0011014     0.9482982   -0.1975991 
   0.003350825     0.9422767   -0.0931887    -0.0012901    0.0004385     0.0007317    0.0001033     0.9465046   -0.2125686 
   0.003450850     0.9485566   -0.1421108    -0.0007755    0.0033035     0.0003085   -0.0003713     0.9468002   -0.2127859 
   0.003550875     0.9541149   -0.1332528    -0.0007346    0.0015750    -0.0006618   -0.0000974     0.9419196   -0.2179551 
   0.003650900     0.9542009   -0.1108145    -0.0005655    0.0040582     0.0002487   -0.0006270     0.9360394   -0.2288039 
   0.003750925     0.9756659   -0.1630232     0.0010142    0.0039136     0.0002090    0.0002549     0.9328919   -0.2352917 
   0.003850950     0.9752722   -0.1409762    -0.0003887    0.0009321    -0.0003894   -0.0000256     0.9337574   -0.2343142 
   0.003950975     0.9911113   -0.1087092     0.0008958    0.0013908     0.0000264    0.0000952     0.9278378   -0.2381758 
   0.004051001     0.9441665   -0.1746693     0.0002622    0.0009099    -0.0001227   -0.0000060     0.9251065   -0.2398623 
   0.004151026     1.0028000   -0.1199224    -0.0019042    0.0023666     0.0001424    0.0003814     0.9217718   -0.2495830 
   0.004251051     0.9600177   -0.1432354     0.0012588    0.0019540     0.0001688    0.0004454     0.9175032   -0.2563435 
   0.004351076     0.9625394   -0.1164045    -0.0037537    0.0012484    -0.0004910   -0.0002526     0.9103063   -0.2521008 
   0.004451101     0.9620749   -0.1651535     0.0027729    0.0023766    -0.0002175    0.0002270     0.9097407   -0.2636534 
   0.004551126     0.9905729   -0.1297389    -0.0010152    0.0022655     0.0001285   -0.0001212     0.9126933   -0.2628782 
   0.004651151     0.9705833   -0.1783315     0.0011688    0.0044628    -0.0001489   -0.0001423     0.9102488   -0.2737977 
   0.004751176     0.9415843   -0.2096583    -0.0020889   -0.0007961    -0.0002231   -0.0000882     0.8989618   -0.2803310 
   0.004851201     0.9422825   -0.1656003    -0.0018739    0.0001571     0.0003118    0.0001068     0.8965468   -0.2818945 
   0.004951226     0.9451026   -0.1479899    -0.0002285    0.0014091    -0.0002751    0.0003558     0.8942848   -0.2820269 
   0.005051251     0.9946118   -0.1703141     0.0011373    0.0009644     0.0004994    0.0003937     0.8895547   -0.2842923 
   0.005151276     0.9445074   -0.1767735     0.0004564   -0.0013450     0.0001445    0.0005843     0.8836640   -0.2909354 
   0.005251301     0.9453907   -0.1980816    -0.0026818    0.0005507    -0.0002286   -0.0007371     0.8810887   -0.2984883 
   0.005351326     0.9534472   -0.1630586    -0.0009795    0.0002349     0.0003338    0.0001845     0.8789497   -0.3000373 
   0.005451351     0.9806245   -0.1604607     0.0008107   -0.0000078    -0.0000111   -0.0001612     0.8741080   -0.3071535 
   0.005551376     0.9698942   -0.1896192    -0.0016248    0.0007438     0.0001033    0.0006488     0.8698004   -0.3075623 
   0.005651401     0.9421307   -0.1719365     0.0030348   -0.0004333     0.0000300    0.0002397     0.8675028   -0.3165213 
   0.005751426     0.9207181   -0.1773926    -0.0014756    0.0003231     0.0003351   -0.0005567     0.8575923   -0.3168844 
   0.005851451     0.9377463   -0.2202131     0.0002156    0.0014711    -0.0003557   -0.0001499     0.8558624   -0.3197827 
   0.005951476     0.9391962   -0.1952900    -0.0009869    0.0008309    -0.0007584   -0.0001743     0.8534077   -0.3211583 
   0.006051501     0.9595667   -0.1942422    -0.0013492    0.0014104    -0.0001227    0.0001964     0.8512932   -0.3321845 
   0.006151526     0.9195843   -0.2138197     0.0008111    0.0011995    -0.0003374   -0.0001135     0.8474799   -0.3314524 
   0.006251551     0.9458261   -0.1913207    -0.0002601    0.0011792     0.0001906   -0.0000694     0.8447778   -0.3400959 
   0.006351576     0.9410504   -0.2190235     0.0004987    0.0005498    -0.0001758    0.0003948     0.8384954   -0.3400732 
   0.006451601     0.9477608   -0.2030903     0.0003596    0.0000854     0.0000081    0.0001694     0.8313601   -0.3438282 
   0.006551626     0.9312654   -0.2168571     0.0001390   -0.0006368    -0.0004118    0.0000685     0.8289881   -0.3436869 
   0.006651651     0.9325285   -0.2073254    -0.0001370   -0.0001478     0.0000225    0.0001797     0.8221170   -0.3498620 
   0.006751676     0.9255251   -0.2213985     0.0009301    0.0013908    -0.0001989   -0.0001862     0.8232334   -0.3517389 
   0.006851701     0.9449303   -0.2297039    -0.0002188    0.0028811    -0.0002072    0.0000422     0.8184019   -0.3548267 
   0.006951726     0.9190621   -0.2107066     0.0004834   -0.0013888     0.0002747    0.0002676     0.8103755   -0.3587040 
   0.007051751     0.9231112   -0.2268319    -0.0016687   -0.0000838    -0.0000076   -0.0001867     0.8086897   -0.3624448 
   0.007151776     0.9061555   -0.2251549     0.0001375    0.0009002    -0.0003863    0.0000939     0.8011355   -0.3661728 
   0.007251801     0.9384125   -0.2043356     0.0005626   -0.0012366     0.0006669    0.0002015     0.7959015   -0.3655762 
   0.007351826     0.9231431   -0.2500247    -0.0001091    0.0012186    -0.0000417    0.0005567     0.7920061   -0.3715751 
   0.007451851     0.8983253   -0.2228378    -0.0009449    0.0008875     0.0000603    0.0000768     0.7902029   -0.3680783 
   0.007551876     0.9245279   -0.2257172    -0.0007593    0.0011120     0.0000691    0.0004329     0.7874431   -0.3724108 
   0.007651901     0.9491680   -0.2601132    -0.0003695    0.0005665     0.0000803   -0.0000269     0.7846437   -0.3777563 
   0.007751926     0.9191762   -0.2302517    -0.0010956    0.0017458    -0.0001803    0.0003265     0.7773673   -0.3794033 
   0.007851951     0.9204822   -0.2457313     0.0009888    0.0005784    -0.0001247   -0.0000300     0.7728134   -0.3803920 
   0.007951976     0.9182013   -0.2701645    -0.0003952   -0.0012092     0.0002493    0.0000217     0.7686958   -0.3835541 
   0.008052001     0.9363077   -0.2461348     0.0002714    0.0013122     0.0003806   -0.0000128     0.7660311   -0.3858263 
   0.008152026     0.9031694   -0.2628694     0.0003757   -0.0004988    -0.0002680   -0.0003058     0.7645576   -0.3914661 
   0.008252051     0.8819174   -0.2419473    -0.0015875   -0.0001808    -0.0001817    0.0002306     0.7533497   -0.3938503 
   0.008352076     0.9073985   -0.2551235    -0.0011752   -0.0011062    -0.0001966   -0.0000078     0.7545384   -0.3945463 
   0.008452101     0.9231540   -0.2471243    -0.0015484   -0.0005675    -0.0003432    0.0004744     0.7472849   -0.3944248 
   0.008552126     0.9027043   -0.2791732    -0.0007454    0.0008156    -0.0000917    0.0002103     0.7445957   -0.3957575 
   0.008652151     0.9133699   -0.2537703     0.0004876    0.0005924    -0.0001192    0.0001647     0.7378358   -0.3992785 
   0.008752176     0.9120120   -0.2584775    -0.0004289    0.0001176     0.0000663   -0.0000350     0.7326680   -0.4032330 
   0.008852201     0.8924634   -0.2493521    -0.0000656    0.0003812    -0.0000783   -0.0000306     0.7287660   -0.4015925 
   0.008952226     0.9057884   -0.2762143    -0.0003395    0.0003284     0.0004694    0.0002922     0.7284085   -0.4018937 
   0.009052251     0.9125693   -0.2693186     0.0003338   -0.0004324    -0.0001240   -0.0003843     0.7205879   -0.4063375 
   0.009152276     0.9042463   -0.2745042     0.0002049   -0.0000054     0.0003120    0.0002866     0.7181627   -0.4087709 
   0.009252301     0.8891130   -0.2777911     0.0002500   -0.0006041    -0.0004489    0.0002692     0.7135258   -0.4091688 
   0.009352326     0.9146597   -0.2911110    -0.0004289    0.0006914    -0.0001472    0.0002593     0.7096624   -0.4075480 
   0.009452351     0.8992409   -0.2851397    -0.0002587   -0.0005509    -0.0000749   -0.0000512     0.7049605   -0.4127393 
   0.009552376     0.9022618   -0.2931425     0.0005085    0.0006126    -0.0001868    0.0000270     0.7020928   -0.4127292 
   0.009652401     0.8917745   -0.2955636     0.0005269    0.0012813     0.0001800    0.0000152     0.6974236   -0.4142967 
   0.009752426     0.8829340   -0.2898264     0.0016962    0.0000230     0.0001988    0.0005691     0.6943938   -0.4148910 
   0.009852451     0.8838798   -0.2988452    -0.0011439   -0.0004745    -0.0001676    0.0002506     0.6892425   -0.4165081 
   0.009952476     0.8937111   -0.2927230     0.0007490   -0.0008999    -0.0001052    0.0003664     0.6841179   -0.4165027 
   0.010052501     0.8818518   -0.3025748     0.0006906   -0.0011151    -0.0002388    0.0002367     0.6816232   -0.4138588 
   0.010152526     0.8752077   -0.2885444    -0.0000624   -0.0000895    -0.0001350    0.0001712     0.6751248   -0.4179116 
   0.010252551     0.8626145   -0.3065815     0.0002296    0.0005152    -0.0001192    0.0000311     0.6755968   -0.4240172 
   0.010352576     0.8875853   -0.3222175     0.0002736   -0.0001113     0.0002560    0.0002147     0.6656240   -0.4220218 
   0.010452601     0.8993710   -0.2915699     0.0004244    0.0001326     0.0001212    0.0002713     0.6640593   -0.4253117 
   0.010552626     0.8546545   -0.3176641     0.0003181   -0.0006084    -0.0001500   -0.0000466     0.6594661   -0.4249765 
   0.010652651     0.8646185   -0.3076082    -0.0012028    0.0002996    -0.0001875    0.0003382     0.6583077   -0.4252414 
   0.010752676     0.8815070   -0.3141003    -0.0007066   -0.0006124    -0.0001150   -0.0001719     0.6549079   -0.4253579 
   0.010852701     0.8806041   -0.2946858    -0.0005900   -0.0001515     0.0000826    0.0001907     0.6542413   -0.4237361 
   0.010952726     0.8673347   -0.3119839     0.0003992   -0.0001452     0.0001078    0.0001582     0.6450794   -0.4282446 
   0.011052751     0.8740679   -0.3299896    -0.0006477    0.0004072    -0.0003054    0.0004040     0.6427053   -0.4281825 
   0.011152776     0.8663514   -0.3310981    -0.0005009    0.0017415     0.0003945    0.0004060     0.6379397   -0.4291537 
   0.011252801     0.8689077   -0.3205146    -0.0008055    0.0001919     0.0000999    0.0003827     0.6346536   -0.4304235 
   0.011352826     0.8627113   -0.3474547     0.0004462    0.0000217     0.0000616    0.0002966     0.6323552   -0.4279100 
   0.011452851     0.8456836   -0.3423370    -0.0019258    0.0010576    -0.0000251    0.0000997     0.6258442   -0.4323057 
   0.011552876     0.8483011   -0.3326602    -0.0012095    0.0003786     0.0000261   -0.0000090     0.6245678   -0.4329540 
   0.011652901     0.8523607   -0.3354848    -0.0002922   -0.0000221    -0.0000380    0.0000317     0.6188693   -0.4316386 
   0.011752926     0.8286734   -0.3457006     0.0005600   -0.0000125     0.0001666    0.0003487     0.6147766   -0.4319735 
   0.011852951     0.8397896   -0.3431376     0.0003919    0.0000042    -0.0000348    0.0003582     0.6146831   -0.4326002 
   0.011952976     0.8359744   -0.3413524     0.0003553    0.0001672     0.0000263   -0.0000988     0.6081927   -0.4343680 
   0.012053002     0.8185422   -0.3527944     0.0006739   -0.0001521     0.0003672    0.0000257     0.6057336   -0.4294939 
   0.012153027     0.8389081   -0.3627177     0.0000221    0.0009190    -0.0000647    0.0000696     0.6006908   -0.4351783 
   0.012253052     0.8177522   -0.3607219    -0.0008218    0.0006485    -0.0000946    0.0001262     0.6010924   -0.4338609 
   0.012353077     0.8383237   -0.3529334     0.0008746    0.0003143     0.0002320    0.0003273     0.5956256   -0.4348199 
   0.012453102     0.8381689   -0.3491147    -0.0006441    0.0003751     0.0000306   -0.0000375     0.5908074   -0.4383481 
   0.012553127     0.8206081   -0.3678158    -0.0006670   -0.0001152    -0.0002095    0.0002939     0.5878658   -0.4364300 
   0.012653152     0.8339914   -0.3449655    -0.0001476   -0.0001931    -0.0002464    0.0002518     0.5840269   -0.4356164 
   0.012753177     0.8295373   -0.3572148    -0.0005610   -0.0000772     0.0004590    0.0001180     0.5805207   -0.4345236 
   0.012853202     0.8279678   -0.3295223    -0.0004911    0.0006115    -0.0001972   -0.0001212     0.5746804   -0.4344637 
   0.012953227     0.8209849   -0.3681533     0.0004391    0.0010379    -0.0000185    0.0002449     0.5766141   -0.4360981 
   0.013053252     0.8212613   -0.3780408     0.0002268    0.0000473     0.0001972    0.0001359     0.5728936   -0.4347877 
   0.013153277     0.8227072   -0.3594465     0.0000359    0.0002901    -0.0001565    0.0000143     0.5664477   -0.4368885 
   0.013253302     0.8144590   -0.3684435     0.0005457   -0.0002668    -0.0001185   -0.0000562     0.5648943   -0.4326279 
   0.013353327     0.8094043   -0.3634069    -0.0001724    0.0014772    -0.0000432    0.0004054     0.5598947   -0.4345118 
   0.013453352     0.8291130   -0.3576981    -0.0002625   -0.0005437     0.0001754   -0.0001785     0.5588689   -0.4362206 
   0.013553377     0.8064194   -0.3618485     0.0009007    0.0013671     0.0002420    0.0001802     0.5536552   -0.4334471 
   0.013653402     0.8060902   -0.3725747     0.0000999    0.0001545     0.0001146    0.0002151     0.5517350   -0.4345044 
   0.013753427     0.8070049   -0.3652539     0.0007184    0.0002401     0.0000546    0.0001726     0.5465207   -0.4342660 
   0.013853452     0.7970921   -0.3785612     0.0000521    0.0004624     0.0000484    0.0002961     0.5449730   -0.4327208 
   0.013953477     0.7940539   -0.3713737    -0.0001741    0.0003805    -0.0002369    0.0001835     0.5443500   -0.4351740 
   0.014053502     0.7987085   -0.3831178     0.0000776    0.0005377    -0.0001601    0.0006101     0.5396369   -0.4334941 
   0.014153527     0.7963315   -0.3876683     0.0007501    0.0001578    -0.0000324    0.0002725     0.5367513   -0.4332516 
   0.014253552     0.8029583   -0.3866586    -0.0004003    0.0004716    -0.0001700    0.0001776     0.5357562   -0.4333218 
   0.014353577     0.7817977   -0.3868729     0.0005656   -0.0002626    -0.0001141    0.0000199     0.5283193   -0.4326542 
   0.014453602     0.7857724   -0.3869475    -0.0002295    0.0003417     0.0000200    0.0001980     0.5275967   -0.4323458 
   0.014553627     0.7806935   -0.3819405     0.0000726   -0.0000970     0.0000151    0.0000721     0.5248851   -0.4330274 
   0.014653652     0.7857152   -0.3827437     0.0002466   -0.0002256    -0.0000137    0.0001572     0.5206960   -0.4311421 
   0.014753677     0.7750513   -0.3904975    -0.0002389   -0.0004376     0.0001639    0.0001990     0.5167674   -0.4300466 
   0.014853702     0.7806506   -0.3856980     0.0003042    0.0002980     0.0003244    0.0000061     0.5164258   -0.4317854 
   0.014953727     0.7663944   -0.4054509    -0.0008664    0.0002942    -0.0001345    0.0002959     0.5119494   -0.4292041 
   0.015053752     0.7770181   -0.3938650     0.0001213   -0.0000078     0.0002834    0.0002167     0.5090315   -0.4305032 
   0.015153777     0.7864967   -0.3901756    -0.0001728   -0.0007809     0.0002620    0.0001795     0.5085869   -0.4296499 
   0.015253802     0.7737563   -0.3990543     0.0006225    0.0005060    -0.0001228    0.0000571     0.5043532   -0.4301717 
   0.015353827     0.7644305   -0.4001772    -0.0002910    0.0001563     0.0001559    0.0002548     0.5006260   -0.4299589 
   0.015453852     0.7696040   -0.4043027    -0.0005750    0.0006332     0.0002519    0.0003197     0.4988888   -0.4305942 
   0.015553877     0.7708440   -0.4038720    -0.0005657    0.0005704    -0.0001795   -0.0001020     0.4965141   -0.4286843 
   0.015653902     0.7642502   -0.4070548     0.0001315    0.0009877     0.0000042   -0.0000314     0.4937147   -0.4294557 
