! 26-Feb-26 1:10:15 PM
! E:\VNA_MEASUREMENTS\SP8T\SP8T_P8_RF2.S2P
! CHANNEL.1
! TR.MEASUREMENT
! CORRECTED.DATA
# GHZ S RI R 50.0
! FREQ.GHZ         S11RE         S11IM         S21RE         S21IM         S12RE         S12IM         S22RE         S22IM         
!; PortSelection: Port_12
   0.000050000    -0.3151974   -0.1525039    -0.0603053   -0.0239559     0.0076905   -0.0068836     1.0153610   -0.0203867 
   0.000150025    -0.0170411    0.0883873    -0.3201069   -0.4163618    -0.0002118   -0.0002844     1.0129090   -0.0067994 
   0.000250050    -1.9960200   -1.9065300     0.0673587   -0.0153595    -0.0016414    0.0016246     1.0091880   -0.0198758 
   0.000350075     0.9916456   -0.0482871    -0.0025472   -0.0126009    -0.0004017   -0.0020539     0.9945852   -0.0370461 
   0.000450100     1.0076980   -0.0466088    -0.0027321   -0.0125741     0.0001257   -0.0004872     0.9923043   -0.0171096 
   0.000550125     1.0371350   -0.0184184    -0.0065002   -0.0062124    -0.0015192    0.0010627     0.9909494   -0.0323206 
   0.000650150     1.0102850   -0.0244774    -0.0076788   -0.0126799    -0.0000597   -0.0004877     1.0078540   -0.0471253 
   0.000750175     1.0121420   -0.0283471    -0.0082439   -0.0115835     0.0011002    0.0006930     0.9972398   -0.0433952 
   0.000850200     1.0211820   -0.0899691    -0.0094254   -0.0061572     0.0005001   -0.0006591     0.9991263   -0.0440546 
   0.000950225     1.0072570   -0.0585762    -0.0085118   -0.0059999     0.0000568    0.0000160     0.9881763   -0.0652493 
   0.001050250     0.9801952   -0.0495872    -0.0091927   -0.0116163    -0.0003840    0.0005360     0.9950580   -0.0654134 
   0.001150275     1.0322190   -0.0334343    -0.0124755   -0.0035032    -0.0011070    0.0015660     0.9870122   -0.0699080 
   0.001250300     1.0092740   -0.0166085    -0.0062100   -0.0050372     0.0002767   -0.0008601     0.9927179   -0.0844700 
   0.001350325     0.9751729   -0.0680708    -0.0079352   -0.0021041     0.0009674   -0.0003799     0.9870358   -0.0868743 
   0.001450350     0.9880807   -0.0691156    -0.0104841    0.0029877     0.0012597    0.0003613     0.9892372   -0.0850261 
   0.001550375     0.9574695   -0.0953876    -0.0074884   -0.0036708    -0.0001284    0.0006040     0.9882204   -0.0959511 
   0.001650400     0.9888374   -0.0440435    -0.0089229   -0.0027954    -0.0001884   -0.0009531     0.9803007   -0.0987465 
   0.001750425     0.9764669   -0.0720231    -0.0083231    0.0001462    -0.0005159    0.0002620     0.9895254   -0.1093085 
   0.001850450     0.9701555   -0.0419077    -0.0071015   -0.0014728    -0.0000376   -0.0007801     0.9811082   -0.1174536 
   0.001950475     1.0066160    0.0066509    -0.0079283    0.0030755     0.0001596    0.0003184     0.9843797   -0.1207625 
   0.002050500     0.9414535   -0.0723452    -0.0069383    0.0026868    -0.0000015   -0.0000953     0.9807956   -0.1315124 
   0.002150525     0.9888778   -0.0353779    -0.0065125    0.0018691     0.0000382    0.0003541     0.9808837   -0.1347272 
   0.002250550     0.9543044   -0.0915357    -0.0057657    0.0009220    -0.0003852    0.0000295     0.9766119   -0.1366787 
   0.002350575     0.9792404   -0.1329524    -0.0055425    0.0014964     0.0003349    0.0005783     0.9771357   -0.1477177 
   0.002450600     0.9937871   -0.0901756    -0.0045939    0.0055292    -0.0006581   -0.0000644     0.9725124   -0.1548214 
   0.002550625     0.9730191   -0.1080638    -0.0068051    0.0041016     0.0005223    0.0000412     0.9764876   -0.1593647 
   0.002650650     1.0104620   -0.0398364    -0.0047892    0.0023982     0.0000895    0.0004817     0.9692380   -0.1682660 
   0.002750675     0.9544799   -0.0618292    -0.0039389    0.0019974    -0.0002546    0.0004334     0.9604459   -0.1734688 
   0.002850700     1.0103710   -0.1000354    -0.0056018    0.0032663    -0.0000761    0.0000226     0.9601701   -0.1822153 
   0.002950725     0.9285370   -0.0880207    -0.0037026    0.0007117     0.0001531   -0.0002068     0.9618849   -0.1792732 
   0.003050750     0.9675560   -0.0945992    -0.0006926    0.0017572    -0.0002907   -0.0004969     0.9571571   -0.1867341 
   0.003150775     0.9976388   -0.1311095    -0.0021378    0.0041541     0.0003107    0.0000564     0.9502060   -0.1901667 
   0.003250800     0.9867052   -0.1046994    -0.0014658    0.0037446     0.0001295   -0.0002275     0.9595525   -0.1962894 
   0.003350825     0.9952174   -0.0982528    -0.0024314    0.0016546     0.0001801    0.0009412     0.9484292   -0.2058456 
   0.003450850     0.9755047   -0.1645677    -0.0026804    0.0028135    -0.0010611    0.0002151     0.9472509   -0.2048586 
   0.003550875     0.9626631   -0.1029622    -0.0013096    0.0013844    -0.0003502    0.0003713     0.9459212   -0.2153341 
   0.003650900     0.9742143   -0.0945756    -0.0029192    0.0032377    -0.0008498   -0.0001069     0.9429834   -0.2202781 
   0.003750925     0.9661289   -0.1318502    -0.0012429    0.0054112    -0.0000363   -0.0005041     0.9323531   -0.2249872 
   0.003850950     0.9705241   -0.1491816    -0.0003137    0.0014669     0.0006676    0.0001760     0.9393542   -0.2307116 
   0.003950975     0.9797398   -0.1221882    -0.0007478    0.0022719    -0.0002725   -0.0000145     0.9307516   -0.2328576 
   0.004051001     0.9685035   -0.1500134     0.0017933    0.0019462    -0.0001192    0.0006127     0.9286835   -0.2366654 
   0.004151026     0.9864091   -0.1320042    -0.0021264    0.0027033     0.0005166   -0.0002411     0.9266201   -0.2484951 
   0.004251051     0.9861367   -0.1244877    -0.0003508    0.0015834    -0.0004512   -0.0004121     0.9196235   -0.2518217 
   0.004351076     0.9556772   -0.1298297     0.0019616   -0.0011156     0.0000317    0.0002995     0.9153085   -0.2541099 
   0.004451101     0.9788281   -0.1621872     0.0000012   -0.0006546     0.0005131   -0.0003715     0.9110944   -0.2556754 
   0.004551126     0.9890099   -0.1508132    -0.0000053    0.0000461    -0.0002783   -0.0003652     0.9141923   -0.2599029 
   0.004651151     0.9509298   -0.1537849     0.0032588   -0.0000811    -0.0000378   -0.0000761     0.9098903   -0.2672351 
   0.004751176     0.9491621   -0.1642037     0.0003711    0.0003769    -0.0004413   -0.0000026     0.9060364   -0.2747379 
   0.004851201     0.9211380   -0.1537099    -0.0004279    0.0016273    -0.0001454    0.0004711     0.8998282   -0.2777487 
   0.004951226     0.9415013   -0.1604101     0.0019947   -0.0005863    -0.0003660    0.0004039     0.9031625   -0.2769537 
   0.005051251     0.9884315   -0.1971469     0.0000962    0.0028554    -0.0004919   -0.0004123     0.8961963   -0.2867812 
   0.005151276     0.9263800   -0.1711184    -0.0010248   -0.0000745     0.0003526   -0.0004975     0.8884243   -0.2885143 
   0.005251301     0.9532151   -0.1610674     0.0009777    0.0009718     0.0001966    0.0000315     0.8851028   -0.2940222 
   0.005351326     0.9245655   -0.1448339     0.0011147    0.0010369     0.0002798   -0.0005920     0.8836615   -0.2969616 
   0.005451351     0.9612900   -0.1793078    -0.0006723    0.0017595    -0.0004867   -0.0001853     0.8754845   -0.3046885 
   0.005551376     0.9756734   -0.1821515    -0.0002800   -0.0002709     0.0008824    0.0003512     0.8735828   -0.3000852 
   0.005651401     0.9393634   -0.1529825     0.0001783   -0.0005807    -0.0002352   -0.0002204     0.8670973   -0.3103944 
   0.005751426     0.9514781   -0.1906941    -0.0007091    0.0014060     0.0001372   -0.0003370     0.8630412   -0.3135600 
   0.005851451     0.9349660   -0.1975582     0.0002134    0.0007373    -0.0000528    0.0001188     0.8607770   -0.3133384 
   0.005951476     0.9507434   -0.1791552    -0.0005321    0.0008511    -0.0005074    0.0000911     0.8580835   -0.3214052 
   0.006051501     0.9542710   -0.1872911     0.0011122    0.0020692    -0.0006299    0.0000712     0.8586503   -0.3234766 
   0.006151526     0.9301041   -0.2186964    -0.0008145   -0.0008374     0.0004065   -0.0004371     0.8515209   -0.3284087 
   0.006251551     0.9553037   -0.1827891     0.0005246   -0.0004633     0.0003015    0.0002560     0.8462009   -0.3330347 
   0.006351576     0.9353745   -0.1983344    -0.0009425    0.0009128    -0.0001897   -0.0000960     0.8398724   -0.3353421 
   0.006451601     0.9545115   -0.1941518     0.0010407   -0.0003056     0.0003171    0.0000375     0.8379679   -0.3375172 
   0.006551626     0.9304197   -0.2243529    -0.0000450   -0.0007029    -0.0001152    0.0001375     0.8360037   -0.3393276 
   0.006651651     0.9238728   -0.2187481     0.0007571   -0.0002249    -0.0001719   -0.0002082     0.8284640   -0.3453576 
   0.006751676     0.9515195   -0.2324124     0.0013280   -0.0001938    -0.0000311   -0.0002207     0.8279535   -0.3460538 
   0.006851701     0.9468586   -0.2587491    -0.0003593    0.0012929    -0.0001656   -0.0002138     0.8215022   -0.3526391 
   0.006951726     0.9235671   -0.2130311    -0.0001609    0.0024321    -0.0002995    0.0002701     0.8169430   -0.3502151 
   0.007051751     0.9429350   -0.2312605     0.0010569    0.0018046     0.0006761   -0.0002652     0.8160987   -0.3571450 
   0.007151776     0.9308325   -0.2265243    -0.0006859   -0.0002841     0.0003002   -0.0002881     0.8052527   -0.3623417 
   0.007251801     0.9584368   -0.2230742    -0.0010710    0.0009550    -0.0001029    0.0001981     0.8006052   -0.3631091 
   0.007351826     0.9399168   -0.2371724     0.0007653    0.0005528    -0.0000014   -0.0004237     0.8001457   -0.3670723 
   0.007451851     0.9176245   -0.2384025     0.0004516   -0.0006400    -0.0001947    0.0000503     0.7945369   -0.3658803 
   0.007551876     0.9225705   -0.2334945     0.0007334    0.0014565     0.0005226   -0.0003518     0.7966917   -0.3695072 
   0.007651901     0.9154455   -0.2725573    -0.0003905   -0.0001912    -0.0001301   -0.0007454     0.7900540   -0.3722197 
   0.007751926     0.9359092   -0.2236800     0.0001975   -0.0000448    -0.0000220    0.0003147     0.7805952   -0.3727212 
   0.007851951     0.9329087   -0.2435063    -0.0002079    0.0004964     0.0000810   -0.0003958     0.7811236   -0.3763196 
   0.007951976     0.9070550   -0.2664746     0.0001288   -0.0009719     0.0002490   -0.0003848     0.7748764   -0.3788541 
   0.008052001     0.9287690   -0.2500355     0.0003009   -0.0025444     0.0000042    0.0001769     0.7751682   -0.3797762 
   0.008152026     0.9280765   -0.2554219     0.0022067   -0.0013367    -0.0006206    0.0001381     0.7701671   -0.3863002 
   0.008252051     0.8935313   -0.2441129     0.0013619   -0.0008287     0.0002244    0.0000138     0.7609491   -0.3875513 
   0.008352076     0.9160559   -0.2602864     0.0006735    0.0007882    -0.0001961   -0.0001132     0.7622294   -0.3882867 
   0.008452101     0.9280670   -0.2419311    -0.0009242   -0.0000556     0.0000837    0.0001307     0.7551972   -0.3905360 
   0.008552126     0.9175191   -0.2729032    -0.0010990   -0.0009817    -0.0002299    0.0000488     0.7551459   -0.3925755 
   0.008652151     0.9040058   -0.2610407    -0.0000483   -0.0006650    -0.0002460   -0.0002442     0.7442406   -0.3945784 
   0.008752176     0.9258412   -0.2626514     0.0008499   -0.0008709     0.0000008    0.0004145     0.7433203   -0.3980102 
   0.008852201     0.8966710   -0.2606305     0.0009074    0.0000588     0.0000709   -0.0001663     0.7385866   -0.3965187 
   0.008952226     0.9135616   -0.2625728     0.0004152   -0.0000681     0.0001919    0.0002223     0.7339146   -0.3995641 
   0.009052251     0.9306227   -0.2791138    -0.0007723   -0.0003812    -0.0002250    0.0000298     0.7309629   -0.4024238 
   0.009152276     0.9117259   -0.2806628     0.0010747    0.0011285    -0.0004954   -0.0001126     0.7242185   -0.4073658 
   0.009252301     0.8990122   -0.2772548     0.0001249    0.0009257     0.0000284    0.0001252     0.7233948   -0.4071741 
   0.009352326     0.9091786   -0.2858111    -0.0006102   -0.0002843     0.0000316   -0.0002795     0.7178081   -0.4057227 
   0.009452351     0.8990672   -0.2831791    -0.0021544   -0.0003847    -0.0000332   -0.0000485     0.7126446   -0.4063351 
   0.009552376     0.9017767   -0.3008059    -0.0005591   -0.0001968    -0.0001542   -0.0004950     0.7076173   -0.4075187 
   0.009652401     0.8885661   -0.2743608     0.0007360    0.0008775    -0.0002551    0.0000178     0.7063580   -0.4094233 
   0.009752426     0.9101859   -0.2901160     0.0016221    0.0006109    -0.0001918   -0.0001942     0.7023272   -0.4115876 
   0.009852451     0.8854676   -0.2955703    -0.0007659    0.0007753    -0.0001516   -0.0000702     0.6962469   -0.4124980 
   0.009952476     0.8894667   -0.3068940     0.0001671    0.0000946    -0.0001005    0.0004640     0.6927592   -0.4111113 
   0.010052501     0.8757459   -0.2934494     0.0000235    0.0005467    -0.0001109   -0.0001731     0.6902717   -0.4136345 
   0.010152526     0.8733184   -0.2912523    -0.0000115   -0.0012305     0.0000815   -0.0000217     0.6852637   -0.4128162 
   0.010252551     0.8871787   -0.3044983     0.0001452    0.0000940    -0.0002256   -0.0001880     0.6842555   -0.4191513 
   0.010352576     0.8922755   -0.2982146     0.0007546    0.0000578    -0.0004352    0.0001244     0.6754674   -0.4182903 
   0.010452601     0.8944743   -0.2931173     0.0001696    0.0000958    -0.0003978    0.0000251     0.6736578   -0.4185095 
   0.010552626     0.8727727   -0.3202896    -0.0003250   -0.0003242    -0.0003264    0.0000451     0.6700250   -0.4222671 
   0.010652651     0.8912709   -0.3108678    -0.0006335   -0.0004920    -0.0001333    0.0001205     0.6675598   -0.4235618 
   0.010752676     0.8796676   -0.3182313    -0.0004753    0.0003413    -0.0002031    0.0003933     0.6635967   -0.4211544 
   0.010852701     0.8810977   -0.3051575     0.0000568   -0.0001831    -0.0000506    0.0004617     0.6625441   -0.4178693 
   0.010952726     0.8718850   -0.3133702     0.0005036   -0.0006257     0.0003513   -0.0000377     0.6516843   -0.4263148 
   0.011052751     0.8784860   -0.3344590     0.0008205    0.0010995    -0.0002896    0.0002415     0.6505074   -0.4275863 
   0.011152776     0.8719094   -0.3020211     0.0006796   -0.0000946    -0.0002888    0.0000067     0.6470481   -0.4272447 
   0.011252801     0.8688915   -0.3299635     0.0001181    0.0017973    -0.0000161    0.0001038     0.6423827   -0.4270534 
   0.011352826     0.8566657   -0.3413095    -0.0007017    0.0006422    -0.0001402    0.0001229     0.6414579   -0.4262417 
   0.011452851     0.8484062   -0.3216853     0.0006017   -0.0000043    -0.0002479    0.0000248     0.6332690   -0.4272678 
   0.011552876     0.8429371   -0.3346356    -0.0006264    0.0002491    -0.0003859    0.0000152     0.6325743   -0.4297398 
   0.011652901     0.8552061   -0.3456090     0.0003774   -0.0006324    -0.0000554    0.0001437     0.6265980   -0.4260214 
   0.011752926     0.8403503   -0.3306198     0.0006229   -0.0002650    -0.0001022   -0.0001092     0.6265630   -0.4272692 
   0.011852951     0.8541317   -0.3526703    -0.0005644    0.0000940     0.0001043    0.0001911     0.6235769   -0.4296412 
   0.011952976     0.8398340   -0.3418862    -0.0001746    0.0013864     0.0001668    0.0000569     0.6162008   -0.4306708 
   0.012053002     0.8414077   -0.3522471     0.0005142   -0.0001510     0.0001717   -0.0002037     0.6134830   -0.4292957 
   0.012153027     0.8498907   -0.3529712     0.0003934   -0.0015527     0.0000707   -0.0000130     0.6095718   -0.4307445 
   0.012253052     0.8342781   -0.3549458    -0.0011431   -0.0002156    -0.0005537   -0.0003747     0.6079869   -0.4306869 
   0.012353077     0.8492023   -0.3316623     0.0007560    0.0005304     0.0001000    0.0002165     0.6047338   -0.4319958 
   0.012453102     0.8405806   -0.3426915     0.0000820    0.0000478    -0.0001571   -0.0001347     0.5984195   -0.4312167 
   0.012553127     0.8357226   -0.3691535    -0.0005085   -0.0002330     0.0001807   -0.0002789     0.5944092   -0.4305000 
   0.012653152     0.8480974   -0.3413204     0.0006727   -0.0001141    -0.0001858   -0.0000161     0.5928215   -0.4339583 
   0.012753177     0.8463399   -0.3543830     0.0006992   -0.0003791     0.0001064    0.0000767     0.5920537   -0.4316465 
   0.012853202     0.8318895   -0.3483011     0.0009357   -0.0004212    -0.0002539    0.0002077     0.5841194   -0.4290290 
   0.012953227     0.8343889   -0.3533721    -0.0000451   -0.0004874    -0.0006102    0.0001075     0.5875968   -0.4335442 
   0.013053252     0.8124841   -0.3674536     0.0001426   -0.0006067    -0.0003606   -0.0001523     0.5822629   -0.4307631 
   0.013153277     0.8330930   -0.3574621    -0.0002693    0.0008195     0.0002556   -0.0002204     0.5782981   -0.4341019 
   0.013253302     0.8252891   -0.3601990     0.0010463    0.0000452    -0.0000397   -0.0001145     0.5734614   -0.4321793 
   0.013353327     0.8208215   -0.3561818    -0.0006968   -0.0005890     0.0000098   -0.0000608     0.5706270   -0.4327009 
   0.013453352     0.8296233   -0.3563860     0.0000995   -0.0007274     0.0001767    0.0000651     0.5684758   -0.4339859 
   0.013553377     0.8087376   -0.3685066    -0.0008457    0.0013334    -0.0002408   -0.0000366     0.5648971   -0.4330868 
   0.013653402     0.8078391   -0.3663459     0.0008273   -0.0006206    -0.0000796   -0.0000037     0.5616981   -0.4328457 
   0.013753427     0.8168325   -0.3831950     0.0000188   -0.0003332    -0.0001940    0.0000276     0.5572000   -0.4308958 
   0.013853452     0.8211675   -0.3740790     0.0000170    0.0003782    -0.0000049    0.0000220     0.5560704   -0.4312828 
   0.013953477     0.7978398   -0.3582381     0.0002970   -0.0000949     0.0000208   -0.0000605     0.5519620   -0.4334504 
   0.014053502     0.8166507   -0.3827887     0.0001504    0.0004394    -0.0000699   -0.0002705     0.5502536   -0.4314169 
   0.014153527     0.8039609   -0.3802379     0.0008790    0.0008667    -0.0001998    0.0003879     0.5468340   -0.4323539 
   0.014253552     0.8088584   -0.3845627    -0.0013245    0.0000340    -0.0002575    0.0003434     0.5449983   -0.4340179 
   0.014353577     0.7962323   -0.3826293     0.0000364   -0.0005212    -0.0001067    0.0001687     0.5382568   -0.4307140 
   0.014453602     0.8007742   -0.3759786     0.0000887   -0.0002463    -0.0002515    0.0000027     0.5383924   -0.4292236 
   0.014553627     0.7959983   -0.3780919    -0.0003313   -0.0003460    -0.0001365    0.0004478     0.5346767   -0.4313275 
   0.014653652     0.7943898   -0.3978258     0.0001344   -0.0003951    -0.0000357   -0.0001989     0.5301015   -0.4306788 
   0.014753677     0.7879343   -0.3873343     0.0003433    0.0002269    -0.0001593   -0.0000360     0.5260262   -0.4296290 
   0.014853702     0.7984841   -0.3816604     0.0005592   -0.0000726     0.0000578   -0.0000713     0.5243689   -0.4286962 
   0.014953727     0.7799268   -0.4096507    -0.0002943   -0.0001973     0.0000283   -0.0000911     0.5217811   -0.4312218 
   0.015053752     0.7887412   -0.3919463     0.0004522   -0.0004918    -0.0003072    0.0000949     0.5182756   -0.4287592 
   0.015153777     0.7821012   -0.4008608    -0.0004464    0.0001275    -0.0001541    0.0001607     0.5164784   -0.4298371 
   0.015253802     0.7832955   -0.3984155    -0.0000677   -0.0003365    -0.0001640   -0.0003111     0.5124819   -0.4296926 
   0.015353827     0.7830689   -0.4086305    -0.0013223   -0.0005624    -0.0001731   -0.0000288     0.5108870   -0.4288843 
   0.015453852     0.7807208   -0.4008234    -0.0003958    0.0005976    -0.0000891   -0.0000082     0.5081472   -0.4264302 
   0.015553877     0.7682665   -0.4116072    -0.0001876    0.0000436    -0.0001564    0.0000752     0.5061228   -0.4261582 
   0.015653902     0.7694568   -0.4069573    -0.0006557    0.0007997    -0.0002879    0.0003675     0.5024455   -0.4281569 
