! 26-Feb-26 12:32:31 PM
! E:\VNA_MEASUREMENTS\SP8T\SP8T_P6_RF7.S2P
! CHANNEL.1
! TR.MEASUREMENT
! CORRECTED.DATA
# GHZ S RI R 50.0
! FREQ.GHZ         S11RE         S11IM         S21RE         S21IM         S12RE         S12IM         S22RE         S22IM         
!; PortSelection: Port_12
   0.000050000    -0.0986727   -0.4030282     0.1847092    0.3928970     0.0011548    0.0119672     1.0263230   -0.0575911 
   0.000150025    -0.1501968    0.2964068     0.0453157    0.2605072     0.0003540    0.0000357     0.9940895   -0.0013666 
   0.000250050    -0.2825589   -0.3870974    -0.0086325   -0.0024380     0.0003807    0.0003961     1.0071960   -0.0224624 
   0.000350075     1.0066140   -0.0169300     0.0004423   -0.0099294    -0.0008665   -0.0001185     0.9873303   -0.0284704 
   0.000450100     1.0256010   -0.0752378     0.0000423   -0.0137352    -0.0002755    0.0003583     0.9950672   -0.0146215 
   0.000550125     0.9934242   -0.0346070    -0.0035308   -0.0091492     0.0003446    0.0018440     0.9888023   -0.0272676 
   0.000650150     0.9832014   -0.0421842    -0.0099909   -0.0089308    -0.0007311   -0.0010843     1.0114380   -0.0470228 
   0.000750175     1.0148150   -0.0505468    -0.0116055   -0.0133493     0.0002514   -0.0007638     0.9965529   -0.0551207 
   0.000850200     0.9806722   -0.0358902    -0.0063498   -0.0112592    -0.0000054   -0.0008201     1.0009380   -0.0443005 
   0.000950225     1.0134800   -0.0467203    -0.0114610   -0.0023920     0.0000832   -0.0009666     0.9947670   -0.0620631 
   0.001050250     0.9610190   -0.0808739    -0.0100783   -0.0087055    -0.0006523   -0.0006343     0.9945528   -0.0639337 
   0.001150275     1.0274470   -0.0813791    -0.0081611   -0.0038942     0.0001633    0.0005002     0.9885237   -0.0672538 
   0.001250300     1.0139410   -0.0545566    -0.0102121   -0.0054815    -0.0004203   -0.0006904     0.9942881   -0.0838849 
   0.001350325     1.0510210   -0.0682685    -0.0100884   -0.0012333     0.0004682   -0.0007175     0.9879599   -0.0888773 
   0.001450350     1.0026220   -0.0717216    -0.0078208   -0.0032658    -0.0015880    0.0007670     0.9867805   -0.0836964 
   0.001550375     1.0035830   -0.1105377    -0.0103044   -0.0049055    -0.0000835    0.0002480     0.9968152   -0.0919883 
   0.001650400     0.9849132   -0.0187033    -0.0060141    0.0011121     0.0000086   -0.0000209     0.9778852   -0.0978719 
   0.001750425     1.0247620   -0.0986256    -0.0076857   -0.0013609    -0.0006773    0.0005124     0.9852150   -0.1105614 
   0.001850450     0.9476604   -0.0792339    -0.0074211    0.0010604     0.0004387    0.0012019     0.9775557   -0.1158285 
   0.001950475     0.9777149   -0.0339464    -0.0083532    0.0003313    -0.0007797    0.0004783     0.9802872   -0.1207038 
   0.002050500     0.9454303   -0.0816993    -0.0029443   -0.0003305    -0.0002189    0.0005552     0.9778183   -0.1407861 
   0.002150525     1.0217520   -0.0520425    -0.0044347    0.0033179    -0.0002467    0.0007661     0.9780977   -0.1405714 
   0.002250550     0.9600998   -0.0958843    -0.0076308    0.0011503     0.0005065    0.0003309     0.9801040   -0.1414641 
   0.002350575     0.9496263   -0.0994168    -0.0062033    0.0030309    -0.0002527    0.0005898     0.9711999   -0.1494737 
   0.002450600     0.9833791   -0.0894362    -0.0032549    0.0011946    -0.0009213   -0.0000764     0.9759691   -0.1526079 
   0.002550625     0.9604151   -0.0667662    -0.0076168    0.0016515    -0.0003210   -0.0003606     0.9694402   -0.1564602 
   0.002650650     0.9829627   -0.0409367    -0.0037832    0.0022558     0.0000183   -0.0000851     0.9732945   -0.1687453 
   0.002750675     1.0077490   -0.0493192    -0.0013791    0.0030821    -0.0003332    0.0004357     0.9635750   -0.1643698 
   0.002850700     0.9897387   -0.1044988     0.0009427    0.0023424     0.0000354    0.0005240     0.9613764   -0.1811562 
   0.002950725     0.9497754   -0.0745608    -0.0023793    0.0027515    -0.0003342    0.0004748     0.9637297   -0.1801926 
   0.003050750     0.9790673   -0.0846960    -0.0012795    0.0015041     0.0002212    0.0002151     0.9521778   -0.1885009 
   0.003150775     1.0050170   -0.1419365    -0.0034279    0.0055680     0.0003370    0.0000320     0.9530672   -0.1945540 
   0.003250800     0.9671413   -0.0951467    -0.0014273    0.0052844     0.0002249   -0.0004411     0.9489102   -0.1990413 
   0.003350825     1.0018030   -0.0967134    -0.0012231    0.0024587    -0.0001416   -0.0006204     0.9448421   -0.2040250 
   0.003450850     0.9721293   -0.1488031    -0.0012837    0.0024906     0.0000334    0.0000302     0.9457620   -0.2099213 
   0.003550875     0.9994391   -0.1224187    -0.0001420    0.0006199     0.0001982    0.0006211     0.9403015   -0.2194951 
   0.003650900     0.9763727   -0.0990891    -0.0014031    0.0026845    -0.0002437    0.0002561     0.9388472   -0.2215875 
   0.003750925     0.9569336   -0.1291656    -0.0018026   -0.0017176     0.0001895    0.0005104     0.9318020   -0.2321841 
   0.003850950     0.9816062   -0.1776654    -0.0004885    0.0002582    -0.0000164   -0.0004907     0.9371397   -0.2312021 
   0.003950975     0.9937431   -0.1018116    -0.0015690    0.0015494     0.0001378    0.0000062     0.9301930   -0.2382130 
   0.004051001     0.9603754   -0.1774774    -0.0021502   -0.0000713     0.0007379    0.0003806     0.9266367   -0.2370141 
   0.004151026     0.9984118   -0.1318587    -0.0005248    0.0002026    -0.0002358    0.0009220     0.9263632   -0.2480800 
   0.004251051     0.9797688   -0.1425019    -0.0009725    0.0019354    -0.0003520    0.0000007     0.9185275   -0.2534148 
   0.004351076     0.9640061   -0.1244294     0.0005115    0.0012751    -0.0003878    0.0003562     0.9173340   -0.2544409 
   0.004451101     0.9905114   -0.1799435     0.0002643    0.0023810     0.0008089    0.0004720     0.9108554   -0.2557973 
   0.004551126     0.9677660   -0.1284957    -0.0020240    0.0018019    -0.0002078    0.0000276     0.9112075   -0.2573587 
   0.004651151     0.9596441   -0.1501867     0.0005744    0.0008697     0.0001311   -0.0000881     0.9121143   -0.2676047 
   0.004751176     0.9720786   -0.1779830     0.0001922    0.0014080    -0.0003313    0.0004654     0.9050552   -0.2741995 
   0.004851201     0.9340298   -0.1686737    -0.0018317    0.0001514    -0.0003252    0.0004148     0.8970660   -0.2780320 
   0.004951226     0.9444754   -0.1467561    -0.0011466    0.0011594    -0.0000993   -0.0001444     0.9004987   -0.2806999 
   0.005051251     1.0014740   -0.1600032     0.0000579    0.0030224     0.0002830    0.0006082     0.8943283   -0.2843521 
   0.005151276     0.9302583   -0.1583700     0.0005148   -0.0009499     0.0000177   -0.0003705     0.8880639   -0.2892185 
   0.005251301     0.9268505   -0.1592040    -0.0024859    0.0006444    -0.0000085   -0.0000676     0.8849686   -0.2941991 
   0.005351326     0.9497145   -0.1569105     0.0006557    0.0003527    -0.0003305   -0.0002717     0.8847684   -0.2971760 
   0.005451351     0.9502612   -0.1536897    -0.0005665    0.0017931     0.0004278    0.0001705     0.8808921   -0.3070083 
   0.005551376     0.9503762   -0.1827014     0.0012687   -0.0014014    -0.0005177    0.0001907     0.8734295   -0.3000048 
   0.005651401     0.9522159   -0.1719792     0.0010327    0.0014700     0.0005744    0.0002999     0.8689467   -0.3166901 
   0.005751426     0.9422328   -0.1712721    -0.0003197    0.0007574     0.0003954    0.0000717     0.8658278   -0.3144425 
   0.005851451     0.9835772   -0.2065941     0.0000695    0.0007281     0.0002056    0.0002967     0.8652323   -0.3204046 
   0.005951476     0.9793637   -0.1823130    -0.0000285    0.0010893     0.0001990    0.0003948     0.8577253   -0.3184105 
   0.006051501     0.9537477   -0.1929682    -0.0004153   -0.0003827    -0.0001211   -0.0002205     0.8578809   -0.3257950 
   0.006151526     0.9428485   -0.2070162    -0.0017094    0.0010557     0.0000887    0.0002531     0.8507119   -0.3263984 
   0.006251551     0.9284754   -0.1850322    -0.0015908    0.0011110    -0.0002403    0.0000117     0.8463291   -0.3336449 
   0.006351576     0.9229798   -0.1961197    -0.0021795    0.0008049     0.0000286    0.0002732     0.8402707   -0.3337159 
   0.006451601     0.9482989   -0.2138092     0.0009281    0.0009060     0.0002423   -0.0001969     0.8336020   -0.3392605 
   0.006551626     0.9194421   -0.2044161    -0.0005867   -0.0006802    -0.0000119   -0.0001391     0.8363041   -0.3434953 
   0.006651651     0.9407880   -0.2220761    -0.0004623    0.0002276     0.0003110    0.0000575     0.8273063   -0.3475735 
   0.006751676     0.9269125   -0.2376141    -0.0004335    0.0005060     0.0003554   -0.0001057     0.8284065   -0.3481692 
   0.006851701     0.9312400   -0.2134373    -0.0007046    0.0003167     0.0003788    0.0007626     0.8229237   -0.3559660 
   0.006951726     0.9141037   -0.2133326    -0.0004375    0.0006094    -0.0001972   -0.0003898     0.8141752   -0.3538045 
   0.007051751     0.9384679   -0.2019109     0.0011488   -0.0005252     0.0000517   -0.0000448     0.8123289   -0.3577698 
   0.007151776     0.9212604   -0.2232012     0.0000749    0.0011929     0.0001485    0.0001572     0.8053262   -0.3609741 
   0.007251801     0.9453781   -0.2127572    -0.0005876   -0.0003868     0.0001276    0.0003823     0.7980357   -0.3645751 
   0.007351826     0.9466720   -0.2289080     0.0004454   -0.0018859    -0.0001606    0.0003813     0.7967825   -0.3697286 
   0.007451851     0.9123915   -0.2553584     0.0007967    0.0011460    -0.0001726    0.0000069     0.7924212   -0.3635921 
   0.007551876     0.9228727   -0.2398512    -0.0016874    0.0010979     0.0002179    0.0005265     0.7901815   -0.3712998 
   0.007651901     0.9223645   -0.2531975     0.0004886    0.0001926    -0.0001527    0.0005641     0.7878322   -0.3721553 
   0.007751926     0.9045255   -0.2630219     0.0009400    0.0010189     0.0000749   -0.0001959     0.7810973   -0.3779312 
   0.007851951     0.9376618   -0.2313973     0.0001823   -0.0002680    -0.0004285    0.0007632     0.7798199   -0.3785820 
   0.007951976     0.9154141   -0.2643200     0.0019998   -0.0004129    -0.0002104    0.0001660     0.7752932   -0.3812215 
   0.008052001     0.9034051   -0.2543779    -0.0001594   -0.0000809    -0.0000634    0.0001309     0.7700710   -0.3824470 
   0.008152026     0.9077681   -0.2526325    -0.0001172    0.0004887    -0.0000127   -0.0000074     0.7666173   -0.3879726 
   0.008252051     0.9028670   -0.2477491    -0.0006895    0.0010618     0.0001865    0.0003453     0.7610055   -0.3880985 
   0.008352076     0.9233420   -0.2697054     0.0000338    0.0007023    -0.0001119   -0.0000594     0.7578847   -0.3910786 
   0.008452101     0.9238448   -0.2576109    -0.0009650    0.0009266    -0.0002134    0.0004713     0.7527113   -0.3912630 
   0.008552126     0.9263692   -0.2646264    -0.0002199    0.0004075     0.0001959   -0.0001028     0.7503211   -0.3938623 
   0.008652151     0.9091641   -0.2647648    -0.0006276    0.0017419     0.0005926    0.0005224     0.7443936   -0.3976435 
   0.008752176     0.9200132   -0.2329206    -0.0000138   -0.0002585     0.0001162    0.0002741     0.7397699   -0.4022308 
   0.008852201     0.9192217   -0.2533601    -0.0017248   -0.0013166     0.0000337    0.0002020     0.7365705   -0.3965990 
   0.008952226     0.9198570   -0.2823104    -0.0000642    0.0007458     0.0003870    0.0003256     0.7353138   -0.4003200 
   0.009052251     0.9060708   -0.2739407    -0.0004532   -0.0002294    -0.0002181    0.0004164     0.7319832   -0.4050108 
   0.009152276     0.9055083   -0.2933808    -0.0003399   -0.0004652     0.0002218   -0.0002132     0.7221430   -0.4073194 
   0.009252301     0.8882691   -0.2730272    -0.0006535    0.0003466     0.0004319   -0.0002853     0.7215666   -0.4097688 
   0.009352326     0.9112469   -0.2826291    -0.0001084   -0.0010736    -0.0000699    0.0004086     0.7154251   -0.4063248 
   0.009452351     0.9095956   -0.2837828    -0.0004512   -0.0002289    -0.0002030    0.0002072     0.7117412   -0.4079203 
   0.009552376     0.9014261   -0.3059477    -0.0001685    0.0004233    -0.0001389    0.0001643     0.7078414   -0.4090297 
   0.009652401     0.8897838   -0.2826839    -0.0008065   -0.0014090     0.0002057    0.0001102     0.7030432   -0.4095373 
   0.009752426     0.8938451   -0.2846646     0.0001931    0.0004815    -0.0002027    0.0005293     0.7002425   -0.4123625 
   0.009852451     0.8846853   -0.3129606     0.0003524   -0.0002025    -0.0005636    0.0003749     0.6956477   -0.4141932 
   0.009952476     0.8833804   -0.3054920     0.0006072    0.0010866     0.0001066   -0.0000492     0.6913881   -0.4137264 
   0.010052501     0.8830912   -0.3147232    -0.0004969   -0.0000412     0.0002294    0.0002701     0.6911460   -0.4155956 
   0.010152526     0.8896043   -0.2883383     0.0010514   -0.0001122     0.0000622    0.0002111     0.6815751   -0.4172843 
   0.010252551     0.8663339   -0.3153879    -0.0011259   -0.0002154     0.0002765    0.0001379     0.6810973   -0.4219258 
   0.010352576     0.8924212   -0.3217211     0.0005031    0.0003219    -0.0001130   -0.0000161     0.6762233   -0.4215220 
   0.010452601     0.8776700   -0.2834689    -0.0000121   -0.0001480     0.0000427    0.0001775     0.6726707   -0.4221264 
   0.010552626     0.8619387   -0.3142914    -0.0002461    0.0007641     0.0002399   -0.0002460     0.6688807   -0.4241994 
   0.010652651     0.8753155   -0.2983302    -0.0016362    0.0009142    -0.0000721    0.0000014     0.6631200   -0.4256107 
   0.010752676     0.8797239   -0.3400182    -0.0004703    0.0005344     0.0000960   -0.0000776     0.6594425   -0.4230112 
   0.010852701     0.8716053   -0.3065907     0.0012555    0.0018824     0.0002178    0.0001201     0.6591328   -0.4218390 
   0.010952726     0.8630199   -0.3108478    -0.0008373    0.0006382     0.0000595    0.0004798     0.6520371   -0.4279613 
   0.011052751     0.8764665   -0.3319635     0.0009176    0.0008469     0.0003465    0.0003621     0.6496695   -0.4273820 
   0.011152776     0.8723548   -0.3218848     0.0005672    0.0004440    -0.0002277   -0.0002103     0.6447898   -0.4265488 
   0.011252801     0.8679373   -0.3320041    -0.0000955   -0.0003757    -0.0002541    0.0003532     0.6417453   -0.4285088 
   0.011352826     0.8586333   -0.3390003    -0.0003978   -0.0002611    -0.0000505    0.0001483     0.6388437   -0.4263017 
   0.011452851     0.8623650   -0.3313647    -0.0011119    0.0011989     0.0002787    0.0003152     0.6317284   -0.4307709 
   0.011552876     0.8273438   -0.3400937    -0.0002769   -0.0007658     0.0003897    0.0006244     0.6298842   -0.4312013 
   0.011652901     0.8449544   -0.3485791     0.0000235   -0.0007339    -0.0001191    0.0002334     0.6264333   -0.4309930 
   0.011752926     0.8429505   -0.3344302    -0.0002528   -0.0002627    -0.0002437    0.0001716     0.6248268   -0.4294203 
   0.011852951     0.8493676   -0.3503524    -0.0011224   -0.0006338    -0.0000714   -0.0000617     0.6219015   -0.4321944 
   0.011952976     0.8472118   -0.3316455     0.0006765    0.0012350    -0.0001215    0.0003657     0.6154748   -0.4319118 
   0.012053002     0.8441348   -0.3573292     0.0004152    0.0011495     0.0000505    0.0004096     0.6106154   -0.4310284 
   0.012153027     0.8448851   -0.3578781    -0.0000421   -0.0008412    -0.0002388    0.0001661     0.6069148   -0.4329655 
   0.012253052     0.8352901   -0.3627183     0.0005401    0.0009990     0.0001414    0.0003965     0.6055523   -0.4328676 
   0.012353077     0.8414968   -0.3522660    -0.0008962    0.0009538    -0.0000043    0.0002074     0.6049315   -0.4329327 
   0.012453102     0.8412837   -0.3427031     0.0005681    0.0001221     0.0003710    0.0004252     0.5977309   -0.4373719 
   0.012553127     0.8342206   -0.3698177    -0.0010158    0.0000922    -0.0003856    0.0002656     0.5919885   -0.4338720 
   0.012653152     0.8495545   -0.3550015     0.0004195   -0.0004171     0.0001017    0.0005139     0.5893477   -0.4339641 
   0.012753177     0.8278604   -0.3462900     0.0000617   -0.0003443    -0.0001636    0.0000981     0.5888695   -0.4343795 
   0.012853202     0.8316280   -0.3534630     0.0003460    0.0009224     0.0001211    0.0004358     0.5827090   -0.4327508 
   0.012953227     0.8288648   -0.3598801     0.0004220    0.0000014     0.0002191    0.0000120     0.5827060   -0.4338210 
   0.013053252     0.8172260   -0.3781694    -0.0002774    0.0006924    -0.0002037    0.0002257     0.5790458   -0.4351248 
   0.013153277     0.8196424   -0.3579025     0.0004350   -0.0003774    -0.0001954    0.0000376     0.5755471   -0.4357398 
   0.013253302     0.8267486   -0.3566819     0.0000531    0.0008642    -0.0000531    0.0002715     0.5733534   -0.4320446 
   0.013353327     0.8175374   -0.3692444    -0.0015398   -0.0005053    -0.0002011   -0.0000132     0.5677833   -0.4365583 
   0.013453352     0.8298311   -0.3565868    -0.0005714    0.0000919     0.0001189    0.0005048     0.5659098   -0.4354787 
   0.013553377     0.7980212   -0.3712878     0.0000327   -0.0007389    -0.0001150    0.0002170     0.5611283   -0.4339134 
   0.013653402     0.8118503   -0.3693365    -0.0001877    0.0012146    -0.0002336    0.0003447     0.5593313   -0.4348396 
   0.013753427     0.8167182   -0.3727900    -0.0005988    0.0008703    -0.0000623    0.0003293     0.5541263   -0.4343898 
   0.013853452     0.8152111   -0.3936495     0.0002596   -0.0007190    -0.0003369    0.0004239     0.5542307   -0.4331800 
   0.013953477     0.7932011   -0.3615453    -0.0007843    0.0007796    -0.0000839    0.0001825     0.5483443   -0.4352032 
   0.014053502     0.8097180   -0.3982640    -0.0013719    0.0004185     0.0000400    0.0002456     0.5463033   -0.4346256 
   0.014153527     0.8044607   -0.3818926     0.0005042    0.0007095    -0.0001364    0.0001190     0.5459948   -0.4344749 
   0.014253552     0.8086594   -0.3782769     0.0004392    0.0002462     0.0002742    0.0006522     0.5413424   -0.4334139 
   0.014353577     0.7929518   -0.3828820     0.0005267   -0.0000275     0.0002492    0.0004340     0.5357301   -0.4335789 
   0.014453602     0.7828870   -0.3861582     0.0005421   -0.0001144     0.0000612    0.0002969     0.5349912   -0.4318697 
   0.014553627     0.7945077   -0.3915696     0.0003298    0.0005231     0.0001177    0.0001491     0.5310528   -0.4324517 
   0.014653652     0.7967350   -0.3885307     0.0013648    0.0004706    -0.0000848    0.0005234     0.5276128   -0.4337282 
   0.014753677     0.7846170   -0.3922957    -0.0006669   -0.0006253     0.0001369    0.0001804     0.5238510   -0.4304446 
   0.014853702     0.7848111   -0.3911439     0.0006418    0.0018099     0.0000215   -0.0000440     0.5213659   -0.4338982 
   0.014953727     0.7766080   -0.4104343     0.0012849   -0.0000554     0.0000594    0.0002868     0.5207837   -0.4313716 
   0.015053752     0.7823594   -0.3935563     0.0001280    0.0003193     0.0001620    0.0004387     0.5157449   -0.4306380 
   0.015153777     0.7831879   -0.3940079     0.0001498   -0.0003244    -0.0000341    0.0004346     0.5147797   -0.4327959 
   0.015253802     0.7694883   -0.3968383     0.0007649    0.0010017     0.0000487    0.0002461     0.5111789   -0.4305709 
   0.015353827     0.7699994   -0.4068394    -0.0001818   -0.0002352     0.0000361    0.0004077     0.5070197   -0.4297819 
   0.015453852     0.7690257   -0.3963980     0.0006833    0.0010372     0.0000688    0.0001137     0.5047910   -0.4292608 
   0.015553877     0.7728842   -0.4086131     0.0004404    0.0004099     0.0001149    0.0002603     0.5047096   -0.4302765 
   0.015653902     0.7605347   -0.4129790     0.0006277   -0.0000049    -0.0000881    0.0004517     0.5000338   -0.4313657 
