! 26-Feb-26 11:33:38 AM
! E:\VNA_MEASUREMENTS\SP8T\SP8T_P2_RF4.S2P
! CHANNEL.1
! TR.MEASUREMENT
! CORRECTED.DATA
# GHZ S RI R 50.0
! FREQ.GHZ         S11RE         S11IM         S21RE         S21IM         S12RE         S12IM         S22RE         S22IM         
!; PortSelection: Port_12
   0.000050000     0.1032389   -0.1167708    -0.2206246    0.5349336    -0.0018776   -0.0056641     1.0465270   -0.0167845 
   0.000150025    -0.1669911   -0.0535230     0.0061420    0.5414811    -0.0000613    0.0001936     1.0032210   -0.0047532 
   0.000250050     0.0605616   -0.0005532    -0.0062705    0.0034108     0.0010889   -0.0007530     1.0029000   -0.0078801 
   0.000350075     0.9870753   -0.0465042    -0.0027183   -0.0075736     0.0011638    0.0010994     0.9890018   -0.0379373 
   0.000450100     0.9814101   -0.1058537    -0.0058632   -0.0112974     0.0001216    0.0014875     0.9923077   -0.0137124 
   0.000550125     1.0204770   -0.0209428    -0.0012691   -0.0120210     0.0003395   -0.0018769     0.9988845   -0.0350593 
   0.000650150     1.0182740   -0.0179599    -0.0056397   -0.0084343    -0.0002233    0.0006946     1.0062310   -0.0484900 
   0.000750175     0.9923531   -0.0328036    -0.0061744   -0.0127468    -0.0001590   -0.0002065     0.9934318   -0.0563268 
   0.000850200     0.9736546   -0.0760180    -0.0084911   -0.0118442    -0.0006871    0.0005125     0.9953982   -0.0450211 
   0.000950225     0.9794914   -0.0401075    -0.0045416   -0.0068243    -0.0003157   -0.0000592     0.9900674   -0.0612046 
   0.001050250     0.9949216    0.0097026    -0.0100167   -0.0101411     0.0009836    0.0007848     0.9980099   -0.0543952 
   0.001150275     1.0013220   -0.0263906    -0.0135708   -0.0048388    -0.0000853   -0.0001220     0.9899135   -0.0673553 
   0.001250300     0.9520794   -0.0112207    -0.0163754   -0.0030471     0.0006246    0.0004567     0.9930742   -0.0843383 
   0.001350325     0.9730933   -0.0500464    -0.0070374    0.0005355     0.0000187    0.0000763     0.9933302   -0.0878793 
   0.001450350     1.0063130   -0.0240175    -0.0103850    0.0013272     0.0002961   -0.0000627     0.9849702   -0.0901513 
   0.001550375     0.9903690   -0.0606168    -0.0083002   -0.0023068    -0.0002142   -0.0011331     0.9945681   -0.0933306 
   0.001650400     0.9913086   -0.0133527    -0.0093670   -0.0010867    -0.0003563    0.0004223     0.9814015   -0.1012049 
   0.001750425     0.9539987   -0.0625467    -0.0089839    0.0019803    -0.0002387    0.0004129     0.9843264   -0.1121917 
   0.001850450     0.9818187   -0.0055186    -0.0076334    0.0045032    -0.0000919    0.0000549     0.9808627   -0.1165059 
   0.001950475     0.9822064    0.0523468    -0.0091645    0.0004535    -0.0004908    0.0006501     0.9843982   -0.1199038 
   0.002050500     0.9573381   -0.0231389    -0.0089240    0.0005413    -0.0005359    0.0002591     0.9853300   -0.1361473 
   0.002150525     0.9935518   -0.0277594    -0.0057342    0.0019444    -0.0004881   -0.0008292     0.9702432   -0.1366938 
   0.002250550     0.9959339   -0.0409141    -0.0021179    0.0021873     0.0004882   -0.0011901     0.9824370   -0.1409166 
   0.002350575     0.9256252   -0.0787104    -0.0051043   -0.0003571     0.0002842    0.0004453     0.9734689   -0.1503424 
   0.002450600     0.9850432   -0.0375960    -0.0051375    0.0038997     0.0004564    0.0001161     0.9777468   -0.1474667 
   0.002550625     0.9518139   -0.0354146    -0.0072265    0.0042948     0.0004851   -0.0008679     0.9789677   -0.1564901 
   0.002650650     0.9843276    0.0125025    -0.0056357    0.0002288     0.0006232   -0.0001149     0.9677804   -0.1728892 
   0.002750675     0.9921606    0.0134354    -0.0013427    0.0031993     0.0004635    0.0005056     0.9617519   -0.1699054 
   0.002850700     0.9612209   -0.0187751    -0.0034595   -0.0000840    -0.0007800    0.0001635     0.9624717   -0.1764580 
   0.002950725     0.9275404   -0.0269555    -0.0018694    0.0025652    -0.0004785    0.0000611     0.9638041   -0.1799040 
   0.003050750     0.9808874   -0.0540991    -0.0038805    0.0010133    -0.0004131   -0.0006802     0.9545466   -0.1846496 
   0.003150775     0.9415607   -0.0994892    -0.0046358    0.0012897     0.0001556   -0.0003120     0.9511403   -0.1950292 
   0.003250800     0.9500763   -0.0431539    -0.0009907    0.0025208     0.0001929   -0.0007118     0.9515930   -0.2021500 
   0.003350825     0.9609795   -0.0141632     0.0017981    0.0060632     0.0001233   -0.0006312     0.9481128   -0.2048012 
   0.003450850     0.9395656   -0.0712757    -0.0017502    0.0007154    -0.0008588    0.0010749     0.9442793   -0.2074374 
   0.003550875     0.9319077   -0.0496870    -0.0024351    0.0024256    -0.0000318    0.0002541     0.9396755   -0.2212319 
   0.003650900     0.9727347   -0.0054905    -0.0025239    0.0025514     0.0003608   -0.0001894     0.9434375   -0.2196004 
   0.003750925     0.9675839   -0.0652580    -0.0018545   -0.0004320    -0.0003669   -0.0001367     0.9338466   -0.2287186 
   0.003850950     0.9493355   -0.0401944    -0.0011776    0.0031900     0.0002446    0.0000698     0.9368276   -0.2286884 
   0.003950975     0.9691526   -0.0262452    -0.0014284    0.0015147    -0.0004284    0.0001223     0.9303584   -0.2288373 
   0.004051001     0.9423630   -0.0631699    -0.0005255    0.0015161     0.0002126   -0.0005127     0.9282204   -0.2395706 
   0.004151026     0.9932336   -0.0309717    -0.0022541    0.0032804    -0.0004503    0.0001340     0.9220710   -0.2454970 
   0.004251051     0.9603671   -0.0348361    -0.0022979   -0.0008478    -0.0005255    0.0004658     0.9219428   -0.2493167 
   0.004351076     0.9555316   -0.0027060    -0.0007082    0.0018259    -0.0005440   -0.0001581     0.9159287   -0.2505721 
   0.004451101     0.9646006   -0.0274309    -0.0012403    0.0000306    -0.0003822    0.0004336     0.9118150   -0.2562966 
   0.004551126     0.9691570   -0.0559236    -0.0014450   -0.0001040     0.0003935   -0.0001662     0.9087200   -0.2607225 
   0.004651151     0.9564024   -0.0461172     0.0029441   -0.0020245     0.0001621    0.0002279     0.9094081   -0.2672544 
   0.004751176     0.9703864   -0.0613698     0.0001400    0.0001566    -0.0005994   -0.0000623     0.9059277   -0.2739013 
   0.004851201     0.9398492   -0.0240188    -0.0012851   -0.0000633     0.0003825    0.0000697     0.8975148   -0.2776517 
   0.004951226     0.9526389   -0.0258234     0.0007818   -0.0017220    -0.0001959    0.0001905     0.8988509   -0.2805004 
   0.005051251     0.9809238   -0.0523300     0.0026776    0.0023195    -0.0001227    0.0005851     0.8965732   -0.2859268 
   0.005151276     0.9411401   -0.0191185    -0.0003977    0.0021231    -0.0001383   -0.0004979     0.8898826   -0.2928328 
   0.005251301     0.9435024   -0.0308839    -0.0014102    0.0028805     0.0002052    0.0002397     0.8858845   -0.2944097 
   0.005351326     0.9265873   -0.0276564     0.0006413    0.0011500    -0.0009594   -0.0001181     0.8839657   -0.3017023 
   0.005451351     0.9530305   -0.0432840     0.0018848    0.0009498     0.0001929    0.0001546     0.8783736   -0.3082396 
   0.005551376     0.9774457   -0.0676054     0.0008190   -0.0003103     0.0003227    0.0004707     0.8771575   -0.3043180 
   0.005651401     0.9424143    0.0089213    -0.0019684    0.0009511     0.0002667    0.0000286     0.8712029   -0.3138934 
   0.005751426     0.9124216   -0.0461668    -0.0010350    0.0006625    -0.0000678    0.0000228     0.8655645   -0.3144135 
   0.005851451     0.9198225   -0.0675752    -0.0002323   -0.0009064     0.0000375   -0.0001008     0.8633068   -0.3187169 
   0.005951476     0.9394079   -0.0302248    -0.0014937    0.0006153     0.0002281    0.0003580     0.8606960   -0.3222656 
   0.006051501     0.9495507   -0.0282034    -0.0007950   -0.0015680    -0.0002627    0.0002238     0.8572770   -0.3268961 
   0.006151526     0.9522522   -0.0564499    -0.0018161    0.0011829    -0.0002441    0.0001354     0.8520476   -0.3268890 
   0.006251551     0.9366710   -0.0199101     0.0011037    0.0023241    -0.0001401   -0.0000926     0.8479567   -0.3324488 
   0.006351576     0.9629272   -0.0465778     0.0007831   -0.0002003    -0.0003042    0.0002148     0.8420166   -0.3406154 
   0.006451601     0.9502290   -0.0477421    -0.0003369    0.0008262    -0.0003088   -0.0006126     0.8359137   -0.3443479 
   0.006551626     0.9516029   -0.0509209    -0.0005022    0.0000844    -0.0000040    0.0000325     0.8360224   -0.3388689 
   0.006651651     0.9573354   -0.0301337    -0.0020585    0.0015999    -0.0000503    0.0006232     0.8279997   -0.3479404 
   0.006751676     0.9257848   -0.0462618     0.0001979   -0.0002002    -0.0004115    0.0002257     0.8300680   -0.3470407 
   0.006851701     0.9617133   -0.0476481    -0.0009595    0.0023987     0.0000255    0.0000527     0.8234752   -0.3541769 
   0.006951726     0.9343446   -0.0545250     0.0008382    0.0005117    -0.0001484    0.0002830     0.8187505   -0.3512182 
   0.007051751     0.9465764   -0.0128802     0.0001208    0.0012784     0.0000906   -0.0001661     0.8096761   -0.3600045 
   0.007151776     0.9389582   -0.0359902    -0.0006843    0.0001134    -0.0002302    0.0002144     0.8085420   -0.3620264 
   0.007251801     0.9576590   -0.0388375     0.0005822    0.0012538    -0.0005513   -0.0001885     0.8015618   -0.3660995 
   0.007351826     0.9456819   -0.0540686    -0.0010682    0.0004296     0.0001516    0.0002631     0.7972527   -0.3696572 
   0.007451851     0.9433588   -0.0476592    -0.0006898    0.0010543    -0.0003335    0.0006112     0.7954956   -0.3679620 
   0.007551876     0.9572695   -0.0405369    -0.0017675    0.0001366     0.0004106    0.0002902     0.7935812   -0.3722503 
   0.007651901     0.9603875   -0.0469821    -0.0009999   -0.0002642    -0.0001364    0.0006289     0.7867320   -0.3763602 
   0.007751926     0.9397407   -0.0324696     0.0009919    0.0005856     0.0003240   -0.0002607     0.7832549   -0.3787505 
   0.007851951     0.9504415   -0.0347425    -0.0002282   -0.0001471     0.0001420   -0.0000360     0.7810639   -0.3782212 
   0.007951976     0.9595100   -0.0510569     0.0003426    0.0002214    -0.0006274    0.0001589     0.7746596   -0.3808050 
   0.008052001     0.9588745   -0.0413777     0.0005593    0.0005578    -0.0001482    0.0004640     0.7712428   -0.3850138 
   0.008152026     0.9605077   -0.0409295    -0.0000636   -0.0019962    -0.0000053    0.0003324     0.7705871   -0.3853636 
   0.008252051     0.9267443   -0.0512565     0.0006001   -0.0010934     0.0000472    0.0001655     0.7618765   -0.3881024 
   0.008352076     0.9465977   -0.0587483     0.0005452   -0.0009606    -0.0003535    0.0000380     0.7592835   -0.3873900 
   0.008452101     0.9411354   -0.0375006    -0.0003577    0.0011173     0.0000443    0.0006344     0.7561435   -0.3932163 
   0.008552126     0.9438512   -0.0383145     0.0007861    0.0013603     0.0001051    0.0002398     0.7537901   -0.3933339 
   0.008652151     0.9349931   -0.0483610    -0.0002944    0.0003078    -0.0000704   -0.0000585     0.7432516   -0.3973585 
   0.008752176     0.9387306   -0.0240142    -0.0001087   -0.0000201    -0.0004937    0.0005093     0.7417709   -0.3998733 
   0.008852201     0.9262763   -0.0347080    -0.0005461    0.0027023     0.0002695    0.0002668     0.7382950   -0.4021658 
   0.008952226     0.9469625   -0.0316355    -0.0015131    0.0005338     0.0003381    0.0004941     0.7343751   -0.4028010 
   0.009052251     0.9708808   -0.0470248     0.0003330   -0.0006055    -0.0001066   -0.0000398     0.7310979   -0.4037077 
   0.009152276     0.9513871   -0.0457960    -0.0006254    0.0008434    -0.0002100    0.0001168     0.7263026   -0.4055178 
   0.009252301     0.9435629   -0.0391450     0.0001674    0.0004842    -0.0001809    0.0002464     0.7224069   -0.4101006 
   0.009352326     0.9459599   -0.0224179    -0.0000485    0.0018546    -0.0000963    0.0004396     0.7184254   -0.4086218 
   0.009452351     0.9585142   -0.0485072    -0.0002117    0.0005423    -0.0002166    0.0003723     0.7114458   -0.4093512 
   0.009552376     0.9498496   -0.0495568    -0.0000091    0.0003097    -0.0000985    0.0005564     0.7085353   -0.4093222 
   0.009652401     0.9386376   -0.0438606    -0.0015026    0.0003147    -0.0002660    0.0000949     0.7057481   -0.4120478 
   0.009752426     0.9318666   -0.0440713    -0.0000794    0.0008285    -0.0001519    0.0001771     0.7016780   -0.4129159 
   0.009852451     0.9432998   -0.0557950     0.0002750    0.0005922    -0.0001034    0.0000287     0.6941572   -0.4152476 
   0.009952476     0.9397723   -0.0524982    -0.0000705    0.0000832    -0.0000830    0.0007454     0.6908104   -0.4153908 
   0.010052501     0.9351724   -0.0479686    -0.0012383    0.0002673    -0.0003209    0.0002197     0.6905956   -0.4139826 
   0.010152526     0.9268326   -0.0352132     0.0000616    0.0012375    -0.0001645    0.0002816     0.6845322   -0.4158763 
   0.010252551     0.9371941   -0.0648135     0.0001013   -0.0001424    -0.0006024    0.0000713     0.6811869   -0.4218022 
   0.010352576     0.9639145   -0.0524705    -0.0008282   -0.0000029    -0.0002196   -0.0001436     0.6762370   -0.4242943 
   0.010452601     0.9349093   -0.0239315     0.0012570    0.0004707    -0.0001240    0.0001865     0.6705886   -0.4233617 
   0.010552626     0.9332379   -0.0563122    -0.0002964    0.0000425     0.0002891    0.0002048     0.6684297   -0.4247287 
   0.010652651     0.9425744   -0.0508664     0.0000351    0.0007356    -0.0000534    0.0003095     0.6646656   -0.4236301 
   0.010752676     0.9513272   -0.0497076    -0.0005902   -0.0007555    -0.0001921    0.0006201     0.6623954   -0.4237445 
   0.010852701     0.9407983   -0.0251435    -0.0008230   -0.0004218    -0.0000115    0.0003754     0.6588650   -0.4247478 
   0.010952726     0.9482546   -0.0438437    -0.0005037    0.0003275    -0.0000747    0.0000245     0.6510608   -0.4283259 
   0.011052751     0.9377830   -0.0553015    -0.0001328    0.0006651     0.0002384    0.0005499     0.6491262   -0.4287792 
   0.011152776     0.9496650   -0.0367694     0.0000440    0.0007309     0.0000229    0.0008328     0.6462142   -0.4285219 
   0.011252801     0.9305474   -0.0539426    -0.0006622    0.0001550    -0.0001418   -0.0000443     0.6396545   -0.4287608 
   0.011352826     0.9476381   -0.0634792    -0.0010451    0.0005476     0.0001705    0.0005233     0.6415650   -0.4265250 
   0.011452851     0.9314898   -0.0518950     0.0002768    0.0005920     0.0002679    0.0000259     0.6323601   -0.4322428 
   0.011552876     0.9381850   -0.0585916     0.0001106    0.0001622     0.0000380    0.0002450     0.6308250   -0.4318369 
   0.011652901     0.9351892   -0.0620318    -0.0001591    0.0007720    -0.0001585    0.0005994     0.6261827   -0.4318101 
   0.011752926     0.9319295   -0.0515983    -0.0003332    0.0005831     0.0000234   -0.0001103     0.6251765   -0.4306184 
   0.011852951     0.9496828   -0.0479451    -0.0000519   -0.0001039     0.0001628    0.0001776     0.6216959   -0.4330952 
   0.011952976     0.9436504   -0.0426348    -0.0011228    0.0000564     0.0000950    0.0004814     0.6153329   -0.4315521 
   0.012053002     0.9310952   -0.0592431     0.0006909    0.0010665     0.0000628   -0.0000082     0.6102067   -0.4327338 
   0.012153027     0.9546351   -0.0699765     0.0000501   -0.0014470     0.0003499    0.0002700     0.6090642   -0.4356224 
   0.012253052     0.9430788   -0.0650846    -0.0001398    0.0002085     0.0003807    0.0004038     0.6069742   -0.4346874 
   0.012353077     0.9439194   -0.0533275    -0.0004226   -0.0007944     0.0002522   -0.0000527     0.6051785   -0.4348415 
   0.012453102     0.9302479   -0.0534655    -0.0010797    0.0000268    -0.0002790    0.0003929     0.5979555   -0.4367201 
   0.012553127     0.9251903   -0.0717726    -0.0001284    0.0004035     0.0001084    0.0002267     0.5949300   -0.4329070 
   0.012653152     0.9494860   -0.0454161    -0.0007518    0.0016994     0.0002695    0.0001227     0.5919662   -0.4358409 
   0.012753177     0.9307631   -0.0538803    -0.0005746    0.0001424    -0.0001355    0.0002780     0.5891235   -0.4356356 
   0.012853202     0.9269487   -0.0445266    -0.0010287    0.0020564    -0.0001964    0.0000458     0.5824751   -0.4349371 
   0.012953227     0.9392201   -0.0483343    -0.0002879    0.0019784    -0.0000083    0.0006548     0.5835363   -0.4359965 
   0.013053252     0.9343565   -0.0686910     0.0001021    0.0006587     0.0001584    0.0001946     0.5789820   -0.4364864 
   0.013153277     0.9476303   -0.0476156    -0.0002250   -0.0000607     0.0001741    0.0007819     0.5764606   -0.4376060 
   0.013253302     0.9355593   -0.0507770     0.0002586    0.0002653    -0.0000346    0.0004390     0.5739469   -0.4358495 
   0.013353327     0.9381915   -0.0534618     0.0009422    0.0004321    -0.0000934    0.0005346     0.5710225   -0.4351655 
   0.013453352     0.9451331   -0.0406734     0.0016400    0.0007824     0.0000262   -0.0000346     0.5646132   -0.4365629 
   0.013553377     0.9277540   -0.0660351    -0.0006525   -0.0000126     0.0002123    0.0006016     0.5606741   -0.4363467 
   0.013653402     0.9282930   -0.0627807    -0.0002431    0.0004449    -0.0001369    0.0004054     0.5584718   -0.4356722 
   0.013753427     0.9518911   -0.0428345    -0.0012049    0.0009753     0.0003375   -0.0000522     0.5531672   -0.4358305 
   0.013853452     0.9577025   -0.0692919    -0.0003874   -0.0005983    -0.0002821    0.0003202     0.5534639   -0.4351437 
   0.013953477     0.9205999   -0.0511465    -0.0004950    0.0008145     0.0001259    0.0005096     0.5502777   -0.4379671 
   0.014053502     0.9556237   -0.0733185    -0.0005538    0.0002371     0.0000930    0.0001536     0.5445201   -0.4339780 
   0.014153527     0.9418678   -0.0533635     0.0011301   -0.0002461     0.0001264    0.0003174     0.5450019   -0.4359823 
   0.014253552     0.9458105   -0.0497380     0.0007658    0.0009771    -0.0001133    0.0000755     0.5427077   -0.4363098 
   0.014353577     0.9383079   -0.0487745     0.0007081    0.0017630    -0.0001894    0.0005714     0.5355010   -0.4334921 
   0.014453602     0.9231943   -0.0488809    -0.0005914    0.0005337    -0.0001149    0.0006026     0.5352399   -0.4323630 
   0.014553627     0.9359822   -0.0644587     0.0015364    0.0013619     0.0002111    0.0002795     0.5316504   -0.4351507 
   0.014653652     0.9430222   -0.0624351     0.0013844    0.0014883     0.0002346    0.0002657     0.5277557   -0.4354531 
   0.014753677     0.9300614   -0.0545728     0.0009666    0.0006754    -0.0001399    0.0001725     0.5261944   -0.4312718 
   0.014853702     0.9467287   -0.0503177     0.0008452    0.0008003     0.0000224    0.0004455     0.5236852   -0.4333941 
   0.014953727     0.9406412   -0.0836323    -0.0005774    0.0005175    -0.0002927    0.0002812     0.5190780   -0.4339514 
   0.015053752     0.9346714   -0.0611166     0.0006872    0.0005270    -0.0003720    0.0004643     0.5172036   -0.4321577 
   0.015153777     0.9402170   -0.0630522     0.0000809   -0.0002533     0.0001015    0.0001524     0.5165289   -0.4340583 
   0.015253802     0.9367442   -0.0606701    -0.0003563    0.0012146     0.0003856    0.0000140     0.5111192   -0.4316323 
   0.015353827     0.9517795   -0.0566826    -0.0016308   -0.0008357    -0.0000616    0.0004747     0.5092314   -0.4322413 
   0.015453852     0.9468483   -0.0614123    -0.0002918    0.0003883    -0.0002127    0.0003706     0.5057565   -0.4322195 
   0.015553877     0.9445900   -0.0556000     0.0004797    0.0012895    -0.0001323    0.0005902     0.5041682   -0.4330364 
   0.015653902     0.9421611   -0.0536192    -0.0004453    0.0016014     0.0002478    0.0001873     0.5004802   -0.4331394 
