! 26-Feb-26 11:24:31 AM
! E:\VNA_MEASUREMENTS\SP8T\SP8T_P1_RF5.S2P
! CHANNEL.1
! TR.MEASUREMENT
! CORRECTED.DATA
# GHZ S RI R 50.0
! FREQ.GHZ         S11RE         S11IM         S21RE         S21IM         S12RE         S12IM         S22RE         S22IM         
!; PortSelection: Port_12
   0.000050000     0.2540321    0.3910212    -0.1358906    0.0344149    -0.0070685   -0.0071377     0.9604232   -0.0239752 
   0.000150025    -0.0714911   -0.0315825     0.2976136   -0.5068629    -0.0001074    0.0000699     1.0066460   -0.0129183 
   0.000250050     0.0973406   -0.1631013    -0.0008344   -0.0030573    -0.0005309   -0.0005444     1.0027140   -0.0165121 
   0.000350075     1.0641960   -0.0821814    -0.0104291   -0.0109586     0.0003922    0.0003920     0.9943461   -0.0281179 
   0.000450100     1.0314950   -0.0850338     0.0037747   -0.0102119     0.0007718   -0.0012123     0.9942755   -0.0184903 
   0.000550125     1.0284180   -0.0722099    -0.0051937   -0.0136798    -0.0001350   -0.0001544     0.9990574   -0.0334529 
   0.000650150     1.0033520   -0.0227825    -0.0052277   -0.0112423    -0.0002865    0.0002710     1.0101000   -0.0480061 
   0.000750175     0.9809961   -0.0898081    -0.0058297   -0.0089471     0.0004312    0.0006865     1.0018110   -0.0501136 
   0.000850200     0.9924076   -0.0568294    -0.0081332   -0.0068932     0.0002976   -0.0002501     0.9964273   -0.0422255 
   0.000950225     1.0208790   -0.0987061    -0.0079073   -0.0091270    -0.0000825    0.0001802     0.9990816   -0.0707766 
   0.001050250     1.0130220   -0.0828342    -0.0103457   -0.0036336    -0.0001759    0.0004573     0.9979084   -0.0566382 
   0.001150275     1.0223370   -0.0770601    -0.0103298   -0.0054930     0.0004813    0.0000511     0.9860908   -0.0693092 
   0.001250300     1.0008140   -0.0278934    -0.0078504   -0.0030795     0.0001065   -0.0002397     0.9889223   -0.0845329 
   0.001350325     0.9742045   -0.1255599    -0.0110118   -0.0036921    -0.0007489    0.0003710     0.9856560   -0.0846547 
   0.001450350     0.9985291   -0.0790310    -0.0111585   -0.0001678     0.0005085    0.0003589     0.9893524   -0.0851881 
   0.001550375     0.9720359   -0.0940705    -0.0082790   -0.0013662     0.0007439   -0.0002749     0.9975325   -0.0944642 
   0.001650400     0.9994128   -0.0364476    -0.0073062    0.0020815    -0.0000078   -0.0004182     0.9806758   -0.0923040 
   0.001750425     0.9875413   -0.1192684    -0.0073952    0.0022668    -0.0010494    0.0005458     0.9875430   -0.1064225 
   0.001850450     0.9887446   -0.0717089    -0.0158943   -0.0009795     0.0005915   -0.0000819     0.9878277   -0.1172558 
   0.001950475     0.9883633   -0.0046969    -0.0083690    0.0007418    -0.0000039   -0.0005062     0.9838489   -0.1235278 
   0.002050500     0.9840689   -0.0524220    -0.0068983    0.0014495     0.0006507   -0.0000271     0.9828480   -0.1378961 
   0.002150525     1.0118310   -0.0493078    -0.0055378    0.0006112    -0.0006429   -0.0000800     0.9788855   -0.1358382 
   0.002250550     0.9669595   -0.0574816    -0.0072025   -0.0004855     0.0001006    0.0001510     0.9795287   -0.1411881 
   0.002350575     0.9592280   -0.1284080    -0.0029004    0.0008217    -0.0000702    0.0004206     0.9794629   -0.1411840 
   0.002450600     1.0012200   -0.1184211    -0.0022644    0.0038090    -0.0004170   -0.0001956     0.9744137   -0.1584526 
   0.002550625     0.9612554   -0.1001524    -0.0057939    0.0047841    -0.0004912    0.0000501     0.9716930   -0.1576455 
   0.002650650     0.9877216   -0.0827161    -0.0051288   -0.0004649    -0.0001971   -0.0000083     0.9754288   -0.1682365 
   0.002750675     0.9762154   -0.0513950    -0.0040880    0.0026460     0.0001627    0.0000966     0.9616396   -0.1687213 
   0.002850700     1.0006740   -0.1071741    -0.0017382    0.0037934    -0.0001758    0.0000342     0.9620587   -0.1752117 
   0.002950725     0.9524551   -0.0853505    -0.0048224    0.0001820     0.0006230    0.0001123     0.9605405   -0.1746105 
   0.003050750     1.0007580   -0.1180534     0.0004285    0.0029199     0.0009089    0.0001394     0.9562590   -0.1855492 
   0.003150775     0.9666762   -0.1394970    -0.0001147    0.0031426     0.0003004    0.0001677     0.9487198   -0.1913029 
   0.003250800     0.9758974   -0.1303865    -0.0012744    0.0040145    -0.0000320   -0.0003847     0.9531869   -0.1966027 
   0.003350825     0.9958916   -0.0884666    -0.0020163    0.0036831    -0.0001036   -0.0002133     0.9517496   -0.2027439 
   0.003450850     0.9715815   -0.1661189    -0.0040185    0.0047419    -0.0006179   -0.0001812     0.9420460   -0.2095585 
   0.003550875     0.9439646   -0.1315214    -0.0036296    0.0021198     0.0007012    0.0001737     0.9438265   -0.2141002 
   0.003650900     0.9811857   -0.0979586    -0.0027254    0.0011064     0.0001275    0.0004958     0.9378653   -0.2165955 
   0.003750925     0.9857475   -0.1424647    -0.0018111    0.0010144    -0.0004404    0.0001860     0.9315701   -0.2233062 
   0.003850950     0.9616128   -0.1325713    -0.0004856   -0.0002661    -0.0003917    0.0001453     0.9386120   -0.2259533 
   0.003950975     0.9866427   -0.1159247    -0.0015376    0.0024719     0.0000214   -0.0004808     0.9324991   -0.2279304 
   0.004051001     0.9523658   -0.1611283    -0.0023831    0.0005666     0.0000777   -0.0000378     0.9284622   -0.2333954 
   0.004151026     1.0000000   -0.1469109    -0.0018453    0.0013250     0.0005556    0.0000221     0.9309629   -0.2395905 
   0.004251051     0.9780671   -0.1589212    -0.0010966    0.0028410     0.0003027    0.0001031     0.9244478   -0.2496741 
   0.004351076     0.9608909   -0.1141403    -0.0006192    0.0022867    -0.0002055   -0.0002428     0.9154882   -0.2538449 
   0.004451101     0.9640837   -0.1497673    -0.0033428    0.0019517     0.0004959   -0.0004755     0.9136987   -0.2518366 
   0.004551126     0.9866190   -0.1329432    -0.0003231    0.0000721    -0.0002219    0.0002965     0.9107845   -0.2571154 
   0.004651151     0.9606329   -0.1153225    -0.0039978    0.0005020    -0.0003386    0.0001034     0.9116680   -0.2672711 
   0.004751176     0.9705327   -0.1594573     0.0003385    0.0010300     0.0000893   -0.0001808     0.9088858   -0.2674432 
   0.004851201     0.9204710   -0.1607406    -0.0010979    0.0032976     0.0003968    0.0004145     0.9016254   -0.2729524 
   0.004951226     0.9496807   -0.1446285    -0.0002874    0.0008519    -0.0002877   -0.0000660     0.8990020   -0.2772908 
   0.005051251     0.9903544   -0.1807107    -0.0013324    0.0003187    -0.0002323   -0.0002924     0.8946410   -0.2776099 
   0.005151276     0.9410211   -0.1328920     0.0002287    0.0004223     0.0001344    0.0004764     0.8936160   -0.2875422 
   0.005251301     0.9343377   -0.1797133    -0.0006921    0.0029058     0.0002221   -0.0002104     0.8855702   -0.2886427 
   0.005351326     0.9423050   -0.1387477    -0.0008583    0.0013883    -0.0005582   -0.0003314     0.8823541   -0.2935551 
   0.005451351     0.9584445   -0.1675920    -0.0002355   -0.0003097    -0.0006762   -0.0000721     0.8796654   -0.3030477 
   0.005551376     0.9949512   -0.1962659     0.0020187    0.0011522    -0.0000452    0.0002237     0.8750356   -0.2973788 
   0.005651401     0.9758977   -0.1816012     0.0019475    0.0019234    -0.0002743   -0.0002984     0.8734197   -0.3148672 
   0.005751426     0.9418082   -0.1935750    -0.0000836    0.0001523    -0.0002187   -0.0003914     0.8659748   -0.3109733 
   0.005851451     0.9199334   -0.2141674    -0.0011267    0.0020766     0.0000878    0.0003851     0.8683852   -0.3155597 
   0.005951476     0.9538260   -0.1666544    -0.0024984    0.0017152     0.0000112    0.0001141     0.8598521   -0.3157375 
   0.006051501     0.9478266   -0.1873190    -0.0014249    0.0010758    -0.0002734    0.0000029     0.8559232   -0.3211254 
   0.006151526     0.9340788   -0.2301936     0.0006317    0.0003041     0.0000714   -0.0001916     0.8511832   -0.3257220 
   0.006251551     0.9498179   -0.1913435     0.0009218   -0.0009022    -0.0002579   -0.0001652     0.8472971   -0.3289322 
   0.006351576     0.9548623   -0.2083488     0.0001976   -0.0005037    -0.0002973    0.0003090     0.8437502   -0.3308609 
   0.006451601     0.9342515   -0.2041067     0.0000216    0.0017209     0.0001609   -0.0000824     0.8388797   -0.3382676 
   0.006551626     0.9311134   -0.2082016     0.0008872    0.0015039    -0.0002761   -0.0000404     0.8373516   -0.3393880 
   0.006651651     0.9224265   -0.2174430    -0.0007059    0.0004545    -0.0000686    0.0000636     0.8305355   -0.3426706 
   0.006751676     0.9277226   -0.2210873     0.0007532    0.0006902     0.0003614   -0.0002363     0.8305044   -0.3459536 
   0.006851701     0.9344146   -0.2355001     0.0008670    0.0005361     0.0000360   -0.0004697     0.8237184   -0.3490670 
   0.006951726     0.9147444   -0.2275261     0.0009911   -0.0004314    -0.0000765    0.0000012     0.8179737   -0.3506445 
   0.007051751     0.9336678   -0.2147581     0.0026095    0.0013345    -0.0003031    0.0003190     0.8125134   -0.3545738 
   0.007151776     0.9065329   -0.2335444    -0.0000958    0.0011396     0.0002460   -0.0000796     0.8036798   -0.3566487 
   0.007251801     0.9290835   -0.2262699    -0.0007238    0.0019735    -0.0001297   -0.0002888     0.8063273   -0.3607192 
   0.007351826     0.9246523   -0.2315119    -0.0000544   -0.0002652     0.0001900   -0.0003103     0.8052979   -0.3638117 
   0.007451851     0.9151155   -0.2162450    -0.0005256    0.0002482     0.0000712    0.0003372     0.7997037   -0.3621622 
   0.007551876     0.9249600   -0.2454675     0.0009688   -0.0008363     0.0001447    0.0001678     0.7974930   -0.3679485 
   0.007651901     0.9390713   -0.2551566    -0.0009525    0.0004944    -0.0004099    0.0004157     0.7951723   -0.3724395 
   0.007751926     0.9064623   -0.2460216    -0.0006329   -0.0001204    -0.0000728    0.0000992     0.7854623   -0.3712297 
   0.007851951     0.9333369   -0.2390937     0.0009167    0.0015097    -0.0003276    0.0002265     0.7849687   -0.3767123 
   0.007951976     0.9137831   -0.2669121     0.0000625   -0.0002822     0.0005016   -0.0000534     0.7770657   -0.3779709 
   0.008052001     0.9277077   -0.2485361    -0.0002784    0.0015926    -0.0000982    0.0002124     0.7732171   -0.3825476 
   0.008152026     0.9042472   -0.2689233    -0.0000428    0.0006129    -0.0001764    0.0003996     0.7734579   -0.3800015 
   0.008252051     0.8851119   -0.2459628     0.0007965    0.0001401    -0.0004663    0.0004194     0.7661412   -0.3864480 
   0.008352076     0.9186351   -0.2652389     0.0005125   -0.0006057     0.0000198   -0.0001332     0.7646727   -0.3881192 
   0.008452101     0.9177842   -0.2723316     0.0007966   -0.0005956    -0.0003467    0.0000569     0.7566581   -0.3861299 
   0.008552126     0.9161863   -0.2629867     0.0001436    0.0011867     0.0000551    0.0002064     0.7541751   -0.3899278 
   0.008652151     0.9103672   -0.2508664    -0.0003712   -0.0009822    -0.0003760    0.0000384     0.7509269   -0.3934741 
   0.008752176     0.9083695   -0.2591745     0.0010442   -0.0003768     0.0001176    0.0000729     0.7447875   -0.3976679 
   0.008852201     0.9087318   -0.2733331    -0.0001767   -0.0014042     0.0001327    0.0001251     0.7395521   -0.3965377 
   0.008952226     0.8955584   -0.2627144    -0.0008557   -0.0006647    -0.0004284    0.0002621     0.7393581   -0.3973359 
   0.009052251     0.9070730   -0.2784935    -0.0010026    0.0000512    -0.0003285   -0.0000176     0.7349988   -0.4004480 
   0.009152276     0.8954891   -0.2602654     0.0007303    0.0000378    -0.0001811    0.0001881     0.7271639   -0.4061886 
   0.009252301     0.8857939   -0.2750139     0.0005334    0.0006879     0.0000254    0.0003822     0.7249525   -0.4072107 
   0.009352326     0.8871105   -0.2865629     0.0003944    0.0005783    -0.0001344   -0.0001212     0.7234951   -0.4050437 
   0.009452351     0.8936919   -0.2829144     0.0005741   -0.0005345     0.0004100    0.0001647     0.7157316   -0.4053322 
   0.009552376     0.8931314   -0.2950168    -0.0012524   -0.0000052    -0.0002097   -0.0001168     0.7118310   -0.4045896 
   0.009652401     0.8788921   -0.2881524    -0.0001232    0.0002064    -0.0000601    0.0001262     0.7099883   -0.4075102 
   0.009752426     0.8867728   -0.2892148     0.0009791    0.0010582    -0.0001506   -0.0000094     0.7069632   -0.4098991 
   0.009852451     0.8747670   -0.3010623     0.0014019   -0.0001365     0.0000463    0.0002712     0.6987625   -0.4113393 
   0.009952476     0.8837367   -0.3055559    -0.0003746    0.0005814    -0.0000866    0.0002658     0.6968004   -0.4103011 
   0.010052501     0.8739420   -0.2992871    -0.0002467    0.0002227    -0.0001007   -0.0003012     0.6941155   -0.4112552 
   0.010152526     0.8789603   -0.2894816     0.0000492   -0.0000488    -0.0003987    0.0002326     0.6881140   -0.4129026 
   0.010252551     0.8656949   -0.2953841     0.0009603   -0.0008948    -0.0000023    0.0002702     0.6868364   -0.4184079 
   0.010352576     0.8767101   -0.3088523    -0.0015357    0.0005085    -0.0001217   -0.0002227     0.6766056   -0.4178845 
   0.010452601     0.8891507   -0.2951005    -0.0003584   -0.0003163     0.0003707   -0.0002447     0.6768957   -0.4209827 
   0.010552626     0.8648459   -0.3033032    -0.0002063   -0.0002886    -0.0000882    0.0004537     0.6736745   -0.4213831 
   0.010652651     0.8647549   -0.3120058    -0.0000933    0.0013496    -0.0003593   -0.0004361     0.6686466   -0.4212785 
   0.010752676     0.8725249   -0.3254023    -0.0002959   -0.0002637    -0.0002663    0.0001170     0.6638238   -0.4210934 
   0.010852701     0.8756721   -0.2935003    -0.0006929   -0.0006635    -0.0002398   -0.0002636     0.6658957   -0.4225072 
   0.010952726     0.8623267   -0.3120183    -0.0000695   -0.0000339    -0.0000836    0.0000410     0.6590262   -0.4249215 
   0.011052751     0.8646761   -0.3234592    -0.0005637    0.0000820    -0.0000902   -0.0002733     0.6540498   -0.4259402 
   0.011152776     0.8650997   -0.3218677    -0.0020708   -0.0000598    -0.0001611    0.0000792     0.6486524   -0.4246573 
   0.011252801     0.8696776   -0.3292530    -0.0008807   -0.0000274    -0.0000917   -0.0002710     0.6470401   -0.4228985 
   0.011352826     0.8617673   -0.3512118     0.0005075    0.0011494    -0.0000259   -0.0000409     0.6440544   -0.4253038 
   0.011452851     0.8395996   -0.3363864    -0.0002202    0.0001531    -0.0000167   -0.0000235     0.6393260   -0.4288487 
   0.011552876     0.8366800   -0.3377452     0.0001992    0.0004182    -0.0001012    0.0000761     0.6348618   -0.4309819 
   0.011652901     0.8530323   -0.3485899    -0.0004629   -0.0002033     0.0000905    0.0000214     0.6322755   -0.4299503 
   0.011752926     0.8249714   -0.3358122    -0.0005931    0.0006156     0.0002234   -0.0001348     0.6290324   -0.4265577 
   0.011852951     0.8429022   -0.3538983    -0.0005796   -0.0007431    -0.0000542   -0.0002126     0.6287640   -0.4290377 
   0.011952976     0.8495840   -0.3349762    -0.0007676    0.0006337    -0.0002425   -0.0002107     0.6218028   -0.4298537 
   0.012053002     0.8314042   -0.3590675    -0.0001495    0.0001279    -0.0000239    0.0001399     0.6182407   -0.4286303 
   0.012153027     0.8382578   -0.3568529     0.0005765    0.0010226    -0.0001130    0.0002533     0.6147488   -0.4313671 
   0.012253052     0.8222940   -0.3505545    -0.0008337    0.0002376     0.0003324   -0.0000197     0.6131813   -0.4308842 
   0.012353077     0.8333269   -0.3324155    -0.0009989   -0.0002163    -0.0001764   -0.0003321     0.6083249   -0.4319330 
   0.012453102     0.8357760   -0.3457632     0.0006842    0.0000427    -0.0002670   -0.0002394     0.6030087   -0.4353547 
   0.012553127     0.8166730   -0.3659324    -0.0008733    0.0008650    -0.0003161    0.0001658     0.5986292   -0.4327897 
   0.012653152     0.8316076   -0.3408976    -0.0003269    0.0007298    -0.0001041    0.0001315     0.5975221   -0.4323528 
   0.012753177     0.8193607   -0.3553833    -0.0010519   -0.0005089    -0.0002262    0.0002117     0.5936508   -0.4343871 
   0.012853202     0.8241552   -0.3407065     0.0005127   -0.0006953    -0.0002345    0.0002292     0.5872011   -0.4307673 
   0.012953227     0.8200599   -0.3542911    -0.0012778   -0.0003346     0.0000404    0.0001574     0.5891325   -0.4314567 
   0.013053252     0.8078098   -0.3682205    -0.0000687   -0.0003964     0.0000624    0.0000917     0.5865717   -0.4326333 
   0.013153277     0.8187482   -0.3613997     0.0001158    0.0010566    -0.0000149   -0.0000691     0.5818098   -0.4348205 
   0.013253302     0.8124006   -0.3573458    -0.0005148    0.0004484     0.0000769   -0.0001892     0.5771759   -0.4323343 
   0.013353327     0.7984192   -0.3688181     0.0000136    0.0004381    -0.0001440    0.0000829     0.5724851   -0.4341946 
   0.013453352     0.8142071   -0.3506821     0.0000912    0.0003141    -0.0001220    0.0002201     0.5712852   -0.4339640 
   0.013553377     0.7973414   -0.3658404     0.0004103   -0.0005066     0.0000486   -0.0001855     0.5667760   -0.4341054 
   0.013653402     0.8115944   -0.3692042    -0.0009992   -0.0008069    -0.0000296    0.0000304     0.5632381   -0.4337709 
   0.013753427     0.8055457   -0.3669536    -0.0009214    0.0001781     0.0000641   -0.0000055     0.5593427   -0.4344414 
   0.013853452     0.8049890   -0.3866660    -0.0003171   -0.0004592    -0.0001746    0.0000244     0.5614341   -0.4312190 
   0.013953477     0.7905487   -0.3633126    -0.0004248    0.0004709    -0.0000584   -0.0000677     0.5556979   -0.4341764 
   0.014053502     0.8027351   -0.3854592    -0.0010024   -0.0007154    -0.0000621   -0.0000995     0.5527269   -0.4326640 
   0.014153527     0.7970974   -0.3839492    -0.0009512   -0.0004785    -0.0002641   -0.0001403     0.5523907   -0.4309855 
   0.014253552     0.8024827   -0.3712032    -0.0001970   -0.0002715    -0.0004466    0.0001756     0.5472569   -0.4347638 
   0.014353577     0.7827978   -0.3761232     0.0005682    0.0001256    -0.0002632   -0.0000320     0.5417449   -0.4328684 
   0.014453602     0.7735273   -0.3783299    -0.0001704    0.0001281    -0.0004284    0.0001034     0.5402293   -0.4304537 
   0.014553627     0.7787700   -0.3880129     0.0001372    0.0001303    -0.0002971    0.0000171     0.5381360   -0.4333898 
   0.014653652     0.7921357   -0.3830660     0.0000748   -0.0001392    -0.0000753   -0.0001830     0.5322835   -0.4320705 
   0.014753677     0.7710511   -0.3872445    -0.0001585    0.0002072    -0.0000493    0.0000979     0.5313929   -0.4311948 
   0.014853702     0.7831715   -0.3813922     0.0002854   -0.0006473     0.0001427    0.0001101     0.5271169   -0.4305975 
   0.014953727     0.7711027   -0.4002092    -0.0002138   -0.0000680    -0.0000699   -0.0001690     0.5244493   -0.4299534 
   0.015053752     0.7725247   -0.3923251    -0.0005994    0.0007583    -0.0003548    0.0001121     0.5215136   -0.4297009 
   0.015153777     0.7723562   -0.3957633    -0.0008707   -0.0003651    -0.0001877    0.0000433     0.5224566   -0.4311186 
   0.015253802     0.7678624   -0.3858968    -0.0000794    0.0003073     0.0001038    0.0001002     0.5169152   -0.4303762 
   0.015353827     0.7652939   -0.3967423    -0.0003536   -0.0000454    -0.0003891    0.0000552     0.5146480   -0.4314654 
   0.015453852     0.7684720   -0.3993163     0.0001583    0.0000631    -0.0000072    0.0000637     0.5116441   -0.4286192 
   0.015553877     0.7702715   -0.4043562    -0.0007226   -0.0005095    -0.0003562    0.0002469     0.5094286   -0.4289242 
   0.015653902     0.7606280   -0.4015397    -0.0002157   -0.0001321     0.0000442    0.0000551     0.5066618   -0.4314927 
