! 26-Feb-26 11:30:25 AM
! E:\VNA_MEASUREMENTS\SP8T\SP8T_P2_RF1.S2P
! CHANNEL.1
! TR.MEASUREMENT
! CORRECTED.DATA
# GHZ S RI R 50.0
! FREQ.GHZ         S11RE         S11IM         S21RE         S21IM         S12RE         S12IM         S22RE         S22IM         
!; PortSelection: Port_12
   0.000050000     0.2962906    0.7494535    -0.2263604   -0.5615730     0.0024534   -0.0041317     0.9805975    0.0397457 
   0.000150025    -0.0136578    0.1457086     0.1431348    0.1886999    -0.0004372    0.0024928     0.9943600   -0.0032673 
   0.000250050    -0.2182989   -0.1811605     0.0011173   -0.0020794     0.0001413   -0.0000954     1.0079490   -0.0147370 
   0.000350075     1.0366010   -0.0790559    -0.0034082   -0.0135094     0.0010649    0.0014865     0.9903742   -0.0318396 
   0.000450100     0.9835418   -0.0753520    -0.0023000   -0.0087793     0.0002588    0.0008120     0.9876893   -0.0194473 
   0.000550125     1.0180630   -0.0269261    -0.0037136   -0.0123956     0.0007220    0.0007821     0.9930050   -0.0297617 
   0.000650150     1.0035300   -0.0244160    -0.0016319   -0.0081150     0.0008071    0.0002305     0.9948996   -0.0422737 
   0.000750175     0.9598107   -0.0905920    -0.0077588   -0.0080694     0.0013646    0.0005025     0.9989563   -0.0626453 
   0.000850200     1.0053850   -0.0486612    -0.0084381   -0.0108816    -0.0012521    0.0007310     0.9935493   -0.0562676 
   0.000950225     1.0431170   -0.0648291    -0.0093224   -0.0145439     0.0000203   -0.0001801     0.9863002   -0.0673063 
   0.001050250     0.9876118   -0.0550943    -0.0077277   -0.0073639    -0.0005671    0.0009573     0.9936437   -0.0630325 
   0.001150275     0.9893307   -0.0820512    -0.0099199   -0.0068490    -0.0002670    0.0006168     0.9818312   -0.0699049 
   0.001250300     0.9934158   -0.0406664    -0.0076009   -0.0072278    -0.0002187   -0.0006139     0.9947729   -0.0773885 
   0.001350325     1.0028960   -0.0802391    -0.0103478   -0.0039993    -0.0000959    0.0002554     0.9953921   -0.0844368 
   0.001450350     1.0015630   -0.0415104    -0.0095866   -0.0036549     0.0004043    0.0002742     0.9856133   -0.0880408 
   0.001550375     0.9750714   -0.0621844    -0.0125682    0.0022621     0.0004495    0.0000524     0.9885663   -0.0969351 
   0.001650400     1.0221120   -0.0587715    -0.0110413    0.0004845    -0.0000567   -0.0000150     0.9791996   -0.0949609 
   0.001750425     0.9910414   -0.0540612    -0.0116463    0.0015426    -0.0002173    0.0001914     0.9838730   -0.1033483 
   0.001850450     0.9634868   -0.0653780    -0.0107274    0.0017888    -0.0006758    0.0001729     0.9779894   -0.1151075 
   0.001950475     1.0043910   -0.0155874    -0.0125921   -0.0030141     0.0000658    0.0003098     0.9844818   -0.1181810 
   0.002050500     0.9821931   -0.0917544    -0.0086222    0.0013444     0.0007085   -0.0004582     0.9791199   -0.1326115 
   0.002150525     1.0029400   -0.0601453    -0.0088917    0.0027669     0.0008898   -0.0005317     0.9746846   -0.1341510 
   0.002250550     0.9965786   -0.0676813    -0.0081311    0.0005771    -0.0009769   -0.0000129     0.9748905   -0.1425439 
   0.002350575     0.9631985   -0.0894710    -0.0067303    0.0014236     0.0000874    0.0001899     0.9786465   -0.1483331 
   0.002450600     0.9942298   -0.0876845    -0.0039875    0.0030992    -0.0004350    0.0001988     0.9843882   -0.1584540 
   0.002550625     0.9744428   -0.1020253    -0.0057607    0.0058059     0.0004708    0.0004002     0.9716163   -0.1624348 
   0.002650650     1.0226550   -0.0778481    -0.0025131    0.0037446    -0.0006781    0.0002158     0.9740984   -0.1711256 
   0.002750675     0.9798027   -0.0227060    -0.0055406    0.0013363    -0.0001263    0.0001517     0.9677215   -0.1689292 
   0.002850700     0.9882951   -0.0707127    -0.0029507    0.0016744    -0.0003482    0.0004661     0.9614146   -0.1761100 
   0.002950725     0.9293749   -0.0839054    -0.0021390    0.0046282     0.0005490    0.0007341     0.9663866   -0.1746863 
   0.003050750     0.9674595   -0.0839553    -0.0010343    0.0036969    -0.0003365   -0.0000227     0.9580002   -0.1884870 
   0.003150775     0.9875172   -0.1553732    -0.0024164    0.0029743    -0.0000010   -0.0005116     0.9464613   -0.1951690 
   0.003250800     0.9821013   -0.1179846    -0.0013802    0.0033937    -0.0001156   -0.0001180     0.9534291   -0.1982738 
   0.003350825     0.9721693   -0.0974507    -0.0010913    0.0015426     0.0009486   -0.0003335     0.9489118   -0.2073560 
   0.003450850     0.9828113   -0.1274724     0.0014563    0.0011647    -0.0001730   -0.0004483     0.9469694   -0.2103398 
   0.003550875     0.9569681   -0.1182115    -0.0029263    0.0034907    -0.0007990    0.0007820     0.9478779   -0.2142406 
   0.003650900     0.9960284   -0.1062822    -0.0023107    0.0003294    -0.0000354   -0.0001518     0.9420953   -0.2209210 
   0.003750925     0.9421877   -0.1490006    -0.0002563    0.0021414    -0.0000046    0.0005213     0.9330740   -0.2284078 
   0.003850950     0.9820317   -0.1268096    -0.0029476    0.0025221     0.0002495    0.0002791     0.9393100   -0.2216917 
   0.003950975     0.9733666   -0.1075230    -0.0010204    0.0023883     0.0003426    0.0007947     0.9257588   -0.2333117 
   0.004051001     0.9653479   -0.1708999     0.0001733    0.0020327    -0.0000920   -0.0005655     0.9245580   -0.2388458 
   0.004151026     0.9958508   -0.1390323    -0.0009869    0.0013202     0.0000688    0.0003825     0.9300183   -0.2449238 
   0.004251051     0.9709686   -0.1551000    -0.0014609    0.0006385    -0.0003064    0.0001175     0.9192723   -0.2519387 
   0.004351076     0.9550114   -0.1180485    -0.0025489    0.0018074    -0.0000986    0.0004411     0.9127444   -0.2538406 
   0.004451101     0.9698687   -0.1703099     0.0004882    0.0006840    -0.0009803   -0.0003709     0.9128919   -0.2585648 
   0.004551126     0.9841331   -0.1717350    -0.0009006    0.0003431     0.0000837   -0.0001863     0.9121268   -0.2604908 
   0.004651151     0.9561932   -0.1488031     0.0015836   -0.0056266    -0.0001285    0.0003910     0.9119895   -0.2730272 
   0.004751176     0.9895517   -0.1925226    -0.0008207   -0.0004127     0.0007783    0.0003908     0.9058639   -0.2753260 
   0.004851201     0.9503075   -0.1551234    -0.0005413    0.0015554    -0.0000192   -0.0000304     0.8989798   -0.2771666 
   0.004951226     0.9648929   -0.1645230    -0.0023187   -0.0008582    -0.0003730    0.0004924     0.8950323   -0.2776650 
   0.005051251     0.9876442   -0.1622694    -0.0011616    0.0021187     0.0003868    0.0001510     0.8927087   -0.2824997 
   0.005151276     0.9467483   -0.1440059    -0.0007004    0.0002775    -0.0000733    0.0004100     0.8865018   -0.2901097 
   0.005251301     0.9328991   -0.1445305     0.0001010    0.0002787     0.0003409   -0.0001529     0.8875753   -0.2931046 
   0.005351326     0.9469129   -0.1324904    -0.0003410    0.0010654    -0.0000267    0.0002215     0.8824894   -0.3008236 
   0.005451351     0.9765747   -0.1700511     0.0025769   -0.0003279    -0.0009091   -0.0003353     0.8773937   -0.3033050 
   0.005551376     0.9835271   -0.2007044     0.0002118   -0.0003972     0.0006174    0.0004578     0.8736473   -0.3002255 
   0.005651401     0.9693288   -0.1818584     0.0004878    0.0017658     0.0001443    0.0000505     0.8696501   -0.3153349 
   0.005751426     0.9289868   -0.1858033    -0.0003148    0.0001425     0.0003152    0.0004449     0.8655712   -0.3146305 
   0.005851451     0.9490725   -0.2044870    -0.0009224    0.0000666     0.0001101   -0.0001322     0.8616492   -0.3213477 
   0.005951476     0.9440094   -0.1877334     0.0010088    0.0003477    -0.0000319    0.0001509     0.8561267   -0.3181695 
   0.006051501     0.9560053   -0.1936212    -0.0004933    0.0006765    -0.0001890   -0.0005283     0.8540897   -0.3263206 
   0.006151526     0.9281381   -0.2107316     0.0008009    0.0013190    -0.0002394    0.0001552     0.8502685   -0.3298531 
   0.006251551     0.9424362   -0.1737341    -0.0010795    0.0005792    -0.0002054    0.0000451     0.8482989   -0.3325567 
   0.006351576     0.9433004   -0.1958611     0.0006115    0.0011632     0.0001248    0.0001374     0.8374729   -0.3343656 
   0.006451601     0.9621034   -0.2080588     0.0015977    0.0021436    -0.0000969   -0.0000713     0.8344513   -0.3401088 
   0.006551626     0.9344612   -0.2205831    -0.0002866   -0.0002299    -0.0000856   -0.0000066     0.8308461   -0.3420643 
   0.006651651     0.9218573   -0.2163708    -0.0012629   -0.0008661    -0.0003430   -0.0001396     0.8269690   -0.3489050 
   0.006751676     0.9340009   -0.2315012    -0.0006482    0.0001353    -0.0002656    0.0000668     0.8278045   -0.3493047 
   0.006851701     0.9208938   -0.2294813    -0.0001052   -0.0018116     0.0003801    0.0003239     0.8207465   -0.3526417 
   0.006951726     0.9393939   -0.2298262    -0.0008130   -0.0004199     0.0004734    0.0005699     0.8150756   -0.3589184 
   0.007051751     0.9336647   -0.2040633     0.0000214   -0.0003145    -0.0001469    0.0002219     0.8151919   -0.3566416 
   0.007151776     0.8882151   -0.2250436    -0.0003738   -0.0000661     0.0000418   -0.0004971     0.8044511   -0.3619511 
   0.007251801     0.9527321   -0.2122701    -0.0003320    0.0023562    -0.0005062   -0.0000122     0.8049701   -0.3621655 
   0.007351826     0.9211242   -0.2375482     0.0008052   -0.0001618    -0.0003251   -0.0000431     0.8022156   -0.3670648 
   0.007451851     0.9231626   -0.2238669     0.0009452   -0.0002282    -0.0000727    0.0002056     0.7940626   -0.3703230 
   0.007551876     0.9052426   -0.2310642    -0.0003239    0.0011560    -0.0003670   -0.0002246     0.7912091   -0.3717036 
   0.007651901     0.9362170   -0.2492929     0.0001291    0.0009029    -0.0001693    0.0002053     0.7858797   -0.3723051 
   0.007751926     0.9227023   -0.2465005     0.0009001   -0.0005775    -0.0000807    0.0001545     0.7836587   -0.3783621 
   0.007851951     0.9185437   -0.2557382    -0.0000027   -0.0010542    -0.0001626    0.0002067     0.7796859   -0.3781057 
   0.007951976     0.9317301   -0.2444283    -0.0016405    0.0019368     0.0003593    0.0004613     0.7736253   -0.3840935 
   0.008052001     0.9211550   -0.2462780    -0.0002521   -0.0009979     0.0002896    0.0007809     0.7710845   -0.3837788 
   0.008152026     0.9342498   -0.2648140    -0.0005147   -0.0005561    -0.0000808    0.0001906     0.7666767   -0.3870889 
   0.008252051     0.9200594   -0.2265197    -0.0001839    0.0014504     0.0001873    0.0000441     0.7581415   -0.3867641 
   0.008352076     0.9138695   -0.2655711     0.0004106    0.0012735    -0.0000164    0.0003840     0.7596103   -0.3900899 
   0.008452101     0.9005419   -0.2473948    -0.0005427    0.0006076     0.0000142    0.0001857     0.7557449   -0.3948244 
   0.008552126     0.9343138   -0.2637366     0.0013322    0.0016337    -0.0002078   -0.0000287     0.7485942   -0.3940607 
   0.008652151     0.9154058   -0.2531252    -0.0004935    0.0000812    -0.0000764    0.0000708     0.7445003   -0.3971811 
   0.008752176     0.9163756   -0.2421408     0.0006760   -0.0004509     0.0000772    0.0001432     0.7448193   -0.4029398 
   0.008852201     0.9091255   -0.2359308    -0.0009250    0.0002132    -0.0001950    0.0005130     0.7368206   -0.3996035 
   0.008952226     0.9254824   -0.2716188    -0.0000944    0.0003658     0.0003253   -0.0000062     0.7338140   -0.4017284 
   0.009052251     0.9068132   -0.2756461     0.0009305   -0.0000325     0.0001412    0.0001568     0.7278079   -0.4059735 
   0.009152276     0.9158162   -0.2684967     0.0004113    0.0002151     0.0000734    0.0000263     0.7248873   -0.4067722 
   0.009252301     0.8996243   -0.2775569     0.0002983   -0.0004685     0.0002567   -0.0000708     0.7203625   -0.4099877 
   0.009352326     0.9151157   -0.2821968    -0.0003781    0.0006049    -0.0002305    0.0004239     0.7173108   -0.4056168 
   0.009452351     0.9002669   -0.2846616     0.0003133    0.0002428    -0.0002428    0.0001863     0.7092891   -0.4077007 
   0.009552376     0.9078477   -0.3023889     0.0008286   -0.0007306    -0.0000957    0.0001076     0.7062148   -0.4089860 
   0.009652401     0.8804275   -0.2749599    -0.0005412   -0.0001569     0.0000412    0.0000933     0.7024280   -0.4116806 
   0.009752426     0.8969988   -0.2879747     0.0009290    0.0005038     0.0000872    0.0001615     0.7016818   -0.4116592 
   0.009852451     0.8920102   -0.3027693    -0.0002341    0.0001081    -0.0000292   -0.0000097     0.6972207   -0.4168901 
   0.009952476     0.8837703   -0.3010433    -0.0004063   -0.0009372     0.0002159    0.0000520     0.6896477   -0.4147343 
   0.010052501     0.8900672   -0.2993316     0.0000764    0.0001761     0.0001007    0.0003819     0.6884409   -0.4123697 
   0.010152526     0.8824778   -0.2893250    -0.0003689    0.0001144     0.0001291    0.0001623     0.6829932   -0.4167207 
   0.010252551     0.8782935   -0.3029963    -0.0007014   -0.0001559    -0.0000705    0.0002444     0.6817570   -0.4203072 
   0.010352576     0.8919584   -0.3145039     0.0007271    0.0003711    -0.0001351    0.0006504     0.6747088   -0.4204827 
   0.010452601     0.8966761   -0.2886125    -0.0000291   -0.0004395    -0.0001673    0.0000831     0.6701480   -0.4226038 
   0.010552626     0.8642556   -0.3142535     0.0005564   -0.0007936    -0.0001642    0.0001245     0.6699104   -0.4259147 
   0.010652651     0.8822724   -0.3121163    -0.0002850   -0.0000135     0.0000603    0.0000501     0.6663129   -0.4262048 
   0.010752676     0.8716072   -0.3243973    -0.0003989   -0.0000325     0.0000073   -0.0000194     0.6637937   -0.4233819 
   0.010852701     0.8816150   -0.3069771    -0.0007974   -0.0005471    -0.0003338    0.0002429     0.6616331   -0.4243842 
   0.010952726     0.8758201   -0.3272960     0.0009071    0.0011046     0.0000535    0.0005838     0.6518896   -0.4276710 
   0.011052751     0.8644881   -0.3185973     0.0004163    0.0006741     0.0004513    0.0002320     0.6498703   -0.4283219 
   0.011152776     0.8761205   -0.3147388    -0.0005881    0.0009890    -0.0001199    0.0002625     0.6452929   -0.4272603 
   0.011252801     0.8661074   -0.3320683     0.0003255    0.0016893     0.0002641    0.0002497     0.6417971   -0.4290781 
   0.011352826     0.8697022   -0.3310719    -0.0000406    0.0009098    -0.0001364    0.0001158     0.6411018   -0.4284357 
   0.011452851     0.8654318   -0.3363840    -0.0006761   -0.0003837    -0.0004227    0.0001263     0.6337653   -0.4318920 
   0.011552876     0.8511312   -0.3382609    -0.0003099    0.0013642     0.0000531    0.0002363     0.6316780   -0.4347198 
   0.011652901     0.8630355   -0.3439696     0.0004288   -0.0001606    -0.0001954    0.0001499     0.6279476   -0.4329796 
   0.011752926     0.8530863   -0.3269593    -0.0016254   -0.0003639    -0.0000860    0.0002235     0.6235915   -0.4318566 
   0.011852951     0.8540826   -0.3455869    -0.0000096   -0.0018263    -0.0000188    0.0003426     0.6231846   -0.4322426 
   0.011952976     0.8433084   -0.3427256    -0.0006248   -0.0006079     0.0001075    0.0003253     0.6177376   -0.4330181 
   0.012053002     0.8471910   -0.3514556    -0.0000727    0.0006804    -0.0002755    0.0001375     0.6113990   -0.4343450 
   0.012153027     0.8393522   -0.3544782    -0.0000829   -0.0003804    -0.0001798    0.0001728     0.6105357   -0.4331415 
   0.012253052     0.8332736   -0.3521780    -0.0008295    0.0000285     0.0000816    0.0004515     0.6059619   -0.4338057 
   0.012353077     0.8583854   -0.3615355     0.0005948    0.0014789    -0.0003071    0.0000735     0.6049374   -0.4329938 
   0.012453102     0.8548084   -0.3458072     0.0000195   -0.0005917    -0.0000384    0.0002758     0.5980368   -0.4360631 
   0.012553127     0.8485581   -0.3546888     0.0003967   -0.0008483    -0.0000108   -0.0003784     0.5926102   -0.4364981 
   0.012653152     0.8505948   -0.3432393    -0.0003812   -0.0000414    -0.0001779    0.0001962     0.5905668   -0.4345763 
   0.012753177     0.8252537   -0.3689694     0.0003457   -0.0007970     0.0001351    0.0000532     0.5890152   -0.4360211 
   0.012853202     0.8238618   -0.3419152     0.0001350    0.0000359     0.0001014    0.0002390     0.5843377   -0.4337721 
   0.012953227     0.8381532   -0.3540510    -0.0000060   -0.0000161     0.0000885    0.0004166     0.5842637   -0.4357201 
   0.013053252     0.8249491   -0.3657896    -0.0002258    0.0008075    -0.0000579    0.0003464     0.5814255   -0.4338508 
   0.013153277     0.8328835   -0.3511925    -0.0004390   -0.0006202     0.0000289    0.0006210     0.5751520   -0.4380434 
   0.013253302     0.8236203   -0.3492973     0.0007276    0.0002662     0.0001534    0.0003100     0.5732739   -0.4338369 
   0.013353327     0.8181011   -0.3710270    -0.0003918   -0.0006554    -0.0001967    0.0002112     0.5672479   -0.4350178 
   0.013453352     0.8213825   -0.3627641    -0.0002241    0.0000324    -0.0002299    0.0002845     0.5659953   -0.4368479 
   0.013553377     0.8124814   -0.3679084     0.0010870   -0.0000716    -0.0000751    0.0004235     0.5612279   -0.4376621 
   0.013653402     0.8205905   -0.3692493     0.0012227    0.0004700     0.0001996    0.0003940     0.5595972   -0.4354566 
   0.013753427     0.8163296   -0.3749182     0.0000867    0.0006279     0.0002306    0.0001579     0.5547702   -0.4368889 
   0.013853452     0.8301911   -0.3867192    -0.0001403    0.0003944     0.0001251    0.0003132     0.5550554   -0.4352110 
   0.013953477     0.7978950   -0.3617669    -0.0001990    0.0000190    -0.0000496    0.0001907     0.5507073   -0.4374216 
   0.014053502     0.8120402   -0.3905539    -0.0012080    0.0005016     0.0002317    0.0001098     0.5455683   -0.4338790 
   0.014153527     0.8132495   -0.3853977    -0.0001109   -0.0005297     0.0000094    0.0003304     0.5453638   -0.4359909 
   0.014253552     0.8129160   -0.3853193     0.0005601    0.0014504     0.0001454    0.0005322     0.5429857   -0.4359639 
   0.014353577     0.8004621   -0.3853703    -0.0004225   -0.0004127     0.0000199    0.0002242     0.5362549   -0.4348885 
   0.014453602     0.7839656   -0.3801948     0.0009902    0.0012425     0.0000256   -0.0001148     0.5388792   -0.4328893 
   0.014553627     0.7966936   -0.3832881     0.0004173   -0.0002926    -0.0000904    0.0003022     0.5314515   -0.4356389 
   0.014653652     0.8016638   -0.3947827     0.0000712    0.0000279     0.0002059    0.0001021     0.5282003   -0.4344679 
   0.014753677     0.7969262   -0.3892364    -0.0003639    0.0007582     0.0000577    0.0000866     0.5258353   -0.4322522 
   0.014853702     0.8017937   -0.3784248    -0.0010131    0.0005469    -0.0000466    0.0002847     0.5213793   -0.4341207 
   0.014953727     0.7860131   -0.4006276    -0.0001354    0.0002756     0.0001356    0.0000840     0.5191562   -0.4333717 
   0.015053752     0.7876583   -0.3898816     0.0003256   -0.0000636    -0.0000788    0.0001917     0.5161383   -0.4323044 
   0.015153777     0.7834836   -0.4012680     0.0001598   -0.0002942     0.0003428    0.0002182     0.5138031   -0.4338294 
   0.015253802     0.7743047   -0.3984994    -0.0002662   -0.0004222     0.0000966    0.0000067     0.5125208   -0.4317736 
   0.015353827     0.7813184   -0.3952375     0.0004469    0.0004143     0.0000995    0.0002109     0.5090384   -0.4325930 
   0.015453852     0.7755177   -0.4029229    -0.0002528    0.0004510     0.0000799    0.0002854     0.5041157   -0.4302627 
   0.015553877     0.7805883   -0.4037134     0.0002743   -0.0001894     0.0001490    0.0005634     0.5040488   -0.4315183 
   0.015653902     0.7770156   -0.3949168    -0.0010269   -0.0000993     0.0003930    0.0003835     0.5001336   -0.4319307 
