! 26-Feb-26 12:20:16 PM
! E:\VNA_MEASUREMENTS\SP8T\SP8T_P5_RF4.S2P
! CHANNEL.1
! TR.MEASUREMENT
! CORRECTED.DATA
# GHZ S RI R 50.0
! FREQ.GHZ         S11RE         S11IM         S21RE         S21IM         S12RE         S12IM         S22RE         S22IM         
!; PortSelection: Port_12
   0.000050000     0.1432352   -0.2340833     0.0799020    0.1888115     0.0001700    0.0040751     1.0393220   -0.0168666 
   0.000150025    -0.2236350    0.0434038     0.5069556   -0.7367855    -0.0007519   -0.0005916     1.0004650   -0.0072088 
   0.000250050    -0.6940769   -0.1801689    -0.0035583   -0.0042307     0.0003415    0.0000742     0.9970239   -0.0204006 
   0.000350075     1.0544090   -0.0179289    -0.0047601   -0.0077575    -0.0014409    0.0000273     0.9993987   -0.0283448 
   0.000450100     0.9670359   -0.0620436    -0.0034777   -0.0072283     0.0006825   -0.0001793     0.9945709   -0.0186717 
   0.000550125     0.9927408   -0.0028792    -0.0088196   -0.0084701    -0.0007213   -0.0004344     0.9830803   -0.0369049 
   0.000650150     0.9897354   -0.0434662    -0.0097000   -0.0083002    -0.0005250   -0.0009302     1.0074980   -0.0494778 
   0.000750175     0.9565919   -0.0782084    -0.0096060   -0.0030287     0.0014252   -0.0003581     1.0015350   -0.0557386 
   0.000850200     0.9805550   -0.0650659    -0.0122928   -0.0103688    -0.0002336    0.0005988     0.9943749   -0.0506125 
   0.000950225     1.0572330   -0.0182818    -0.0105436   -0.0061435     0.0004587    0.0002467     0.9906889   -0.0641905 
   0.001050250     0.9785476   -0.0511562    -0.0110867   -0.0043432     0.0019923   -0.0016483     0.9917358   -0.0664337 
   0.001150275     1.0325190   -0.0496104    -0.0093473   -0.0005722     0.0010627   -0.0001511     0.9875742   -0.0654563 
   0.001250300     0.9458525   -0.0455156    -0.0109830   -0.0066540    -0.0000074    0.0001820     0.9969895   -0.0818599 
   0.001350325     0.9861359   -0.0606355    -0.0059000   -0.0021096     0.0006342    0.0010071     0.9980447   -0.0861478 
   0.001450350     1.0112840   -0.0198163    -0.0089784   -0.0017895    -0.0006186   -0.0015644     0.9871927   -0.0941103 
   0.001550375     0.9847237   -0.0870339    -0.0095186   -0.0018359    -0.0010369   -0.0005712     0.9901990   -0.0938205 
   0.001650400     0.9889383   -0.0210905    -0.0082234   -0.0003204     0.0001118   -0.0006135     0.9817425   -0.1008518 
   0.001750425     0.9638301   -0.0396199    -0.0070312    0.0021879    -0.0004778    0.0015363     0.9852583   -0.1087144 
   0.001850450     0.9624479   -0.0428278    -0.0073810    0.0027360    -0.0006872    0.0008724     0.9838771   -0.1138504 
   0.001950475     1.0637800   -0.0140709    -0.0089519   -0.0009368     0.0002844   -0.0003632     0.9865116   -0.1217347 
   0.002050500     0.9890047   -0.0538191    -0.0065518    0.0031762     0.0000754   -0.0002143     0.9759777   -0.1363497 
   0.002150525     1.0323950   -0.0556246    -0.0028440    0.0001971     0.0003179   -0.0001405     0.9758828   -0.1403224 
   0.002250550     0.9662464   -0.0467529    -0.0046083    0.0021053     0.0004982    0.0006198     0.9844918   -0.1491253 
   0.002350575     0.9646691   -0.1053618    -0.0053539    0.0061882     0.0000307    0.0012302     0.9689907   -0.1512246 
   0.002450600     0.9950358   -0.0734926    -0.0051685   -0.0001683    -0.0002454   -0.0004602     0.9700381   -0.1560225 
   0.002550625     1.0104060   -0.0910252    -0.0040638    0.0013016     0.0002685   -0.0004725     0.9688318   -0.1631678 
   0.002650650     0.9877959   -0.0595748    -0.0031333    0.0020563     0.0004987   -0.0004114     0.9686282   -0.1711904 
   0.002750675     0.9616386   -0.0663529    -0.0022408   -0.0006288    -0.0000147   -0.0004968     0.9613329   -0.1730631 
   0.002850700     1.0239010   -0.0899598    -0.0025738   -0.0010107    -0.0002409   -0.0004962     0.9621603   -0.1833718 
   0.002950725     0.9736447   -0.0956258    -0.0010523    0.0029869     0.0001380   -0.0002840     0.9593932   -0.1814269 
   0.003050750     0.9700511   -0.1203455     0.0005544    0.0035852    -0.0000622    0.0003942     0.9554806   -0.1869692 
   0.003150775     0.9921984   -0.1219206    -0.0034396    0.0024006    -0.0002987   -0.0001040     0.9484630   -0.1985059 
   0.003250800     0.9900100   -0.0848556    -0.0017764    0.0049712    -0.0002683    0.0000149     0.9530326   -0.1994769 
   0.003350825     0.9518752   -0.1211512    -0.0010693    0.0030200     0.0003589   -0.0003191     0.9426422   -0.2094314 
   0.003450850     0.9666055   -0.1408025    -0.0004155    0.0026329     0.0001576   -0.0000263     0.9450664   -0.2205061 
   0.003550875     0.9919699   -0.1238912    -0.0003222    0.0036708     0.0000741   -0.0004093     0.9408895   -0.2213295 
   0.003650900     0.9835401   -0.0970013    -0.0033542    0.0030132     0.0001707    0.0000807     0.9394816   -0.2261091 
   0.003750925     0.9798420   -0.1293710    -0.0018489    0.0032776    -0.0003021   -0.0002198     0.9312646   -0.2302418 
   0.003850950     0.9611143   -0.1516356     0.0015722    0.0035110    -0.0000505    0.0003854     0.9350972   -0.2319552 
   0.003950975     0.9727277   -0.0943922     0.0008307    0.0033392    -0.0001780   -0.0001526     0.9309018   -0.2399049 
   0.004051001     0.9806543   -0.1780356    -0.0023577    0.0015200     0.0000830    0.0000181     0.9220982   -0.2433349 
   0.004151026     0.9947304   -0.1378091    -0.0016877    0.0013744    -0.0001021   -0.0005359     0.9193723   -0.2513216 
   0.004251051     0.9543223   -0.1572900    -0.0020590    0.0022480     0.0003322   -0.0005474     0.9171097   -0.2582732 
   0.004351076     0.9758789   -0.1342074     0.0009767    0.0002310     0.0003111   -0.0001792     0.9093919   -0.2597206 
   0.004451101     1.0028110   -0.1654161    -0.0011350    0.0017327     0.0007600    0.0001845     0.9107977   -0.2636173 
   0.004551126     0.9793137   -0.1538484     0.0006002   -0.0019480     0.0003626   -0.0002908     0.9069413   -0.2610055 
   0.004651151     0.9338520   -0.1676579     0.0008364    0.0009170     0.0009852    0.0002152     0.9071463   -0.2716354 
   0.004751176     0.9568158   -0.1606629    -0.0009851    0.0005762    -0.0002608   -0.0002139     0.8986238   -0.2811856 
   0.004851201     0.9380388   -0.1398735     0.0007185    0.0011098    -0.0001914   -0.0002232     0.8947510   -0.2796991 
   0.004951226     0.9405246   -0.1387374     0.0003254    0.0021914     0.0003246    0.0000478     0.8957123   -0.2841232 
   0.005051251     0.9786025   -0.1811581     0.0011164    0.0017778     0.0001984    0.0002050     0.8948349   -0.2863294 
   0.005151276     0.9292411   -0.1739154    -0.0002016    0.0004282     0.0005431    0.0000652     0.8832674   -0.2925370 
   0.005251301     0.9518377   -0.1662462    -0.0001533    0.0004309    -0.0006664   -0.0001146     0.8821201   -0.2970420 
   0.005351326     0.9204560   -0.1419602    -0.0003527    0.0029464    -0.0002272    0.0001745     0.8778937   -0.3011360 
   0.005451351     0.9625118   -0.1859378     0.0000524   -0.0005280    -0.0004494    0.0000674     0.8774990   -0.3075893 
   0.005551376     0.9586090   -0.1932995     0.0006734    0.0020566     0.0001409    0.0005746     0.8725657   -0.3042996 
   0.005651401     0.9524061   -0.1752045     0.0006949   -0.0014598     0.0000293    0.0003880     0.8666850   -0.3200079 
   0.005751426     0.9204594   -0.1679083     0.0006686    0.0024565     0.0003155   -0.0003746     0.8613413   -0.3187430 
   0.005851451     0.9500156   -0.1966132    -0.0006748   -0.0009458     0.0004528    0.0003853     0.8604041   -0.3224056 
   0.005951476     0.9373404   -0.1723129     0.0019699    0.0001312    -0.0006742   -0.0001194     0.8536572   -0.3246042 
   0.006051501     0.9433229   -0.1959430    -0.0003374   -0.0010118    -0.0002796    0.0000751     0.8511362   -0.3255758 
   0.006151526     0.9609483   -0.2086244    -0.0007452   -0.0003440    -0.0000375    0.0001536     0.8501283   -0.3272472 
   0.006251551     0.9294945   -0.1926891     0.0002820    0.0007686    -0.0001456    0.0001536     0.8430644   -0.3363007 
   0.006351576     0.9501716   -0.2029300     0.0004930   -0.0011887     0.0001639    0.0001242     0.8359519   -0.3405411 
   0.006451601     0.9127106   -0.1999123    -0.0008813   -0.0014253    -0.0000069   -0.0003581     0.8317608   -0.3432379 
   0.006551626     0.9261984   -0.2187687    -0.0007267    0.0000060     0.0004939   -0.0002920     0.8276170   -0.3442665 
   0.006651651     0.9509807   -0.2174577    -0.0000785    0.0007506     0.0000612    0.0000917     0.8239803   -0.3517621 
   0.006751676     0.9270129   -0.2177257    -0.0009501   -0.0006116    -0.0005340    0.0000974     0.8207946   -0.3505691 
   0.006851701     0.9281486   -0.2258152    -0.0011860   -0.0013452    -0.0000710   -0.0005402     0.8132054   -0.3580276 
   0.006951726     0.9182917   -0.2180938     0.0002252    0.0000751    -0.0000722    0.0001098     0.8118870   -0.3530877 
   0.007051751     0.9405779   -0.2091215     0.0002924    0.0020778    -0.0004714   -0.0004390     0.8069237   -0.3602076 
   0.007151776     0.9066933   -0.2335615     0.0001216   -0.0017683    -0.0003900   -0.0001001     0.7981782   -0.3652597 
   0.007251801     0.9463525   -0.2213194     0.0001254   -0.0014098     0.0001020   -0.0003994     0.7979500   -0.3672417 
   0.007351826     0.9108989   -0.2372454    -0.0004515    0.0005250    -0.0002523    0.0003696     0.7937630   -0.3722255 
   0.007451851     0.9051386   -0.2475086    -0.0007040    0.0003453     0.0000013   -0.0003461     0.7886131   -0.3686219 
   0.007551876     0.9272049   -0.2428125    -0.0009441   -0.0000398     0.0004325    0.0004419     0.7893203   -0.3761602 
   0.007651901     0.9255148   -0.2543847    -0.0014692    0.0006586    -0.0000750    0.0003911     0.7793358   -0.3746776 
   0.007751926     0.9077969   -0.2449774    -0.0005432   -0.0002329     0.0000989    0.0002076     0.7779092   -0.3798111 
   0.007851951     0.9128693   -0.2418313     0.0005708   -0.0006990     0.0001350   -0.0004718     0.7704993   -0.3785039 
   0.007951976     0.9227380   -0.2595651     0.0003468    0.0004254     0.0002469   -0.0001376     0.7655607   -0.3813648 
   0.008052001     0.9065857   -0.2509120    -0.0010809   -0.0014299    -0.0001280    0.0002296     0.7621425   -0.3854410 
   0.008152026     0.9008919   -0.2364013    -0.0004880    0.0010964     0.0001107   -0.0002122     0.7613475   -0.3881476 
   0.008252051     0.8889983   -0.2514233     0.0011140   -0.0008403     0.0002512   -0.0001422     0.7537151   -0.3893008 
   0.008352076     0.9051818   -0.2684371     0.0021993   -0.0003067     0.0001654   -0.0000211     0.7513286   -0.3920542 
   0.008452101     0.9168511   -0.2567230    -0.0000873   -0.0000487    -0.0002404    0.0004721     0.7490143   -0.3929853 
   0.008552126     0.9185597   -0.2610360     0.0004918   -0.0000782    -0.0001812    0.0007143     0.7443076   -0.3926162 
   0.008652151     0.8999892   -0.2591528    -0.0001070    0.0008090    -0.0002279   -0.0000903     0.7370459   -0.3991632 
   0.008752176     0.9197747   -0.2579176    -0.0005705    0.0009558     0.0003021    0.0000717     0.7340847   -0.4013585 
   0.008852201     0.8946878   -0.2505130     0.0004713    0.0002350    -0.0002814   -0.0001001     0.7293035   -0.4023680 
   0.008952226     0.9135172   -0.2661366    -0.0000529   -0.0003136    -0.0001445    0.0002390     0.7251725   -0.4040160 
   0.009052251     0.9102587   -0.2531661    -0.0011648    0.0002703    -0.0001742   -0.0000181     0.7256582   -0.4024594 
   0.009152276     0.8912223   -0.2777278     0.0006537    0.0007375     0.0000952   -0.0000794     0.7143776   -0.4081798 
   0.009252301     0.8902990   -0.2696945     0.0008748    0.0004016     0.0001201   -0.0001956     0.7157815   -0.4103422 
   0.009352326     0.9059220   -0.2801887    -0.0003180   -0.0004128     0.0003643    0.0004940     0.7119962   -0.4094016 
   0.009452351     0.9097994   -0.2769224     0.0002323    0.0007173    -0.0001894    0.0001051     0.7030359   -0.4100922 
   0.009552376     0.8886397   -0.2915739     0.0006055    0.0010047    -0.0002884    0.0000889     0.6992537   -0.4103343 
   0.009652401     0.8829768   -0.2802400    -0.0004399    0.0000284     0.0000403   -0.0000160     0.6977632   -0.4126222 
   0.009752426     0.8876227   -0.2891987    -0.0007320   -0.0002402     0.0000393    0.0000562     0.6941637   -0.4122648 
   0.009852451     0.8891708   -0.3078531     0.0006540   -0.0007777     0.0002124    0.0003755     0.6887330   -0.4160815 
   0.009952476     0.8852670   -0.3077401    -0.0000194   -0.0002117    -0.0001445   -0.0001741     0.6838880   -0.4146760 
   0.010052501     0.8759173   -0.2959661     0.0001798   -0.0006832    -0.0000638   -0.0002303     0.6839387   -0.4135358 
   0.010152526     0.8719198   -0.2821794     0.0006720   -0.0003072    -0.0001010    0.0003965     0.6741880   -0.4152775 
   0.010252551     0.8876235   -0.2929321     0.0002496   -0.0007989    -0.0002614   -0.0000331     0.6722649   -0.4221663 
   0.010352576     0.8931740   -0.2983356     0.0001331    0.0012136     0.0001058   -0.0000864     0.6678245   -0.4204554 
   0.010452601     0.8916796   -0.2927735    -0.0002583   -0.0008246     0.0000517   -0.0002252     0.6634940   -0.4221691 
   0.010552626     0.8548271   -0.3017730     0.0001268   -0.0002515     0.0000474   -0.0002056     0.6607152   -0.4221153 
   0.010652651     0.8846072   -0.3088630     0.0008022   -0.0017609    -0.0001248    0.0002081     0.6567351   -0.4251272 
   0.010752676     0.8716266   -0.3387580     0.0005631   -0.0009652     0.0003753   -0.0000330     0.6540312   -0.4235093 
   0.010852701     0.8747339   -0.3000998    -0.0007470    0.0001508    -0.0000413   -0.0000461     0.6530018   -0.4249945 
   0.010952726     0.8646617   -0.3063982    -0.0012400   -0.0014604     0.0001920   -0.0004168     0.6452517   -0.4262270 
   0.011052751     0.8654702   -0.3334898    -0.0010605   -0.0001316     0.0004798    0.0001166     0.6428933   -0.4268770 
   0.011152776     0.8632995   -0.3192779    -0.0012097   -0.0006607    -0.0001540   -0.0002026     0.6346694   -0.4285186 
   0.011252801     0.8588182   -0.3292835     0.0007796   -0.0002885     0.0000456   -0.0001946     0.6334596   -0.4278214 
   0.011352826     0.8596894   -0.3362997     0.0012485    0.0000134     0.0001226    0.0003886     0.6325285   -0.4276980 
   0.011452851     0.8440976   -0.3265918    -0.0002594   -0.0004517     0.0004291    0.0002903     0.6259739   -0.4285486 
   0.011552876     0.8492386   -0.3365443     0.0004675   -0.0000037    -0.0002219    0.0002821     0.6218659   -0.4331136 
   0.011652901     0.8438215   -0.3351248    -0.0006445   -0.0000840     0.0001859    0.0000971     0.6200602   -0.4316384 
   0.011752926     0.8462557   -0.3351851     0.0006386   -0.0005635     0.0000370   -0.0001557     0.6171056   -0.4291921 
   0.011852951     0.8397486   -0.3466986     0.0009958    0.0001702    -0.0000880    0.0001457     0.6125025   -0.4308996 
   0.011952976     0.8478640   -0.3354748     0.0001060   -0.0011565     0.0002967   -0.0004109     0.6075013   -0.4324740 
   0.012053002     0.8431133   -0.3552753     0.0000066   -0.0002272     0.0000090    0.0000702     0.6017620   -0.4325956 
   0.012153027     0.8378944   -0.3548600     0.0000517    0.0004388    -0.0002407   -0.0000058     0.6001325   -0.4301390 
   0.012253052     0.8246046   -0.3585615     0.0000847    0.0003515     0.0000830   -0.0000152     0.5994719   -0.4313997 
   0.012353077     0.8392936   -0.3537106    -0.0017843   -0.0002600    -0.0001773    0.0004023     0.5987145   -0.4311774 
   0.012453102     0.8404735   -0.3495960    -0.0005881    0.0007749    -0.0003220    0.0002671     0.5906394   -0.4351090 
   0.012553127     0.8201095   -0.3662276    -0.0004007    0.0000760    -0.0000246    0.0001339     0.5875805   -0.4321260 
   0.012653152     0.8435141   -0.3478261     0.0013959   -0.0008919     0.0001011    0.0003517     0.5843464   -0.4330544 
   0.012753177     0.8151385   -0.3540183    -0.0003633   -0.0009820     0.0003600   -0.0000879     0.5818717   -0.4343203 
   0.012853202     0.8301119   -0.3394400     0.0003185   -0.0003728     0.0002020   -0.0002281     0.5750782   -0.4329179 
   0.012953227     0.8252826   -0.3433460     0.0004393    0.0004127    -0.0000678   -0.0001682     0.5741054   -0.4351563 
   0.013053252     0.8014537   -0.3707925     0.0004633   -0.0006574     0.0004277   -0.0002038     0.5729016   -0.4327103 
   0.013153277     0.8253244   -0.3524083     0.0002633   -0.0002947     0.0002164    0.0001010     0.5672231   -0.4338212 
   0.013253302     0.8202538   -0.3645009    -0.0003398    0.0001260     0.0001145    0.0003370     0.5655705   -0.4319932 
   0.013353327     0.8099355   -0.3619201     0.0000102    0.0008593     0.0002160   -0.0000693     0.5610588   -0.4327897 
   0.013453352     0.8174916   -0.3554597    -0.0004373    0.0010601    -0.0000144   -0.0000766     0.5575410   -0.4328720 
   0.013553377     0.8060795   -0.3573572    -0.0006857   -0.0000999    -0.0002146    0.0000374     0.5545312   -0.4323792 
   0.013653402     0.7919656   -0.3705748     0.0005661   -0.0011096     0.0000967    0.0001716     0.5515345   -0.4332150 
   0.013753427     0.8117303   -0.3780853    -0.0011401    0.0000847    -0.0003806   -0.0001400     0.5464957   -0.4318969 
   0.013853452     0.8181432   -0.3848419     0.0004729    0.0002485    -0.0000423   -0.0001762     0.5472048   -0.4342896 
   0.013953477     0.7930946   -0.3627832    -0.0001427    0.0005440    -0.0003093   -0.0000911     0.5416444   -0.4329114 
   0.014053502     0.8101457   -0.3896073    -0.0001138    0.0001814     0.0001522    0.0000612     0.5397036   -0.4310051 
   0.014153527     0.7959499   -0.3775463     0.0004478   -0.0003568    -0.0003334   -0.0000014     0.5378522   -0.4298381 
   0.014253552     0.8038666   -0.3712189    -0.0004599   -0.0000206     0.0002990   -0.0000930     0.5335073   -0.4333603 
   0.014353577     0.7892258   -0.3753643    -0.0000194    0.0006506    -0.0000296    0.0001326     0.5295749   -0.4307599 
   0.014453602     0.7881758   -0.3832085    -0.0005405    0.0005366    -0.0000616   -0.0000436     0.5293633   -0.4310200 
   0.014553627     0.7903105   -0.3830829     0.0009275   -0.0003130    -0.0001055   -0.0000357     0.5258361   -0.4316845 
   0.014653652     0.7879047   -0.3818612     0.0011895    0.0001365    -0.0001519    0.0001070     0.5200832   -0.4311057 
   0.014753677     0.7843206   -0.3859996    -0.0006240    0.0006902    -0.0000905   -0.0001039     0.5180291   -0.4270516 
   0.014853702     0.7867792   -0.3798795     0.0005872   -0.0001024     0.0002215    0.0001103     0.5168585   -0.4289376 
   0.014953727     0.7761995   -0.4060647     0.0002093    0.0002975    -0.0000363    0.0001385     0.5125517   -0.4281296 
   0.015053752     0.7806216   -0.3877579     0.0004078    0.0005676     0.0001346   -0.0001578     0.5092113   -0.4281206 
   0.015153777     0.7812748   -0.3984831    -0.0001029    0.0004750     0.0000418    0.0000663     0.5089486   -0.4298882 
   0.015253802     0.7688067   -0.3895336    -0.0000520   -0.0007924    -0.0000309   -0.0000207     0.5024804   -0.4282635 
   0.015353827     0.7720931   -0.3883080    -0.0000427    0.0008120    -0.0002695   -0.0000935     0.4994552   -0.4274132 
   0.015453852     0.7877741   -0.3924503    -0.0005948    0.0002249     0.0003117   -0.0002603     0.4994331   -0.4275711 
   0.015553877     0.7651039   -0.4089482    -0.0002633    0.0002134     0.0000435   -0.0000113     0.4965878   -0.4264951 
   0.015653902     0.7702147   -0.3993814     0.0001478   -0.0001402    -0.0001212    0.0000396     0.4936637   -0.4283251 
