! 26-Feb-26 1:05:22 PM
! E:\VNA_MEASUREMENTS\SP8T\SP8T_P7_RF7.S2P
! CHANNEL.1
! TR.MEASUREMENT
! CORRECTED.DATA
# GHZ S RI R 50.0
! FREQ.GHZ         S11RE         S11IM         S21RE         S21IM         S12RE         S12IM         S22RE         S22IM         
!; PortSelection: Port_12
   0.000050000     0.2788583    0.1314867    -0.1371853   -0.0792912    -0.0016508    0.0070384     1.0369960    0.0373441 
   0.000150025     0.1047752   -0.0278196     0.4267425    0.0253294    -0.0005503    0.0021135     1.0009040   -0.0047419 
   0.000250050    -0.0054487   -0.0249584    -0.0000564   -0.0024611    -0.0014055    0.0033985     1.0079000   -0.0086090 
   0.000350075     1.0041490   -0.0244818    -0.0022494   -0.0102281    -0.0017017    0.0089624     0.9882477   -0.0243356 
   0.000450100     0.9702615   -0.0284616    -0.0038085    0.0021161    -0.0023722    0.0106320     0.9884158   -0.0084132 
   0.000550125     0.9879820   -0.0453637    -0.0081462    0.0014119    -0.0013782    0.0136458     0.9962146   -0.0188856 
   0.000650150     1.0041950   -0.0142205    -0.0068989    0.0109321    -0.0021785    0.0163414     1.0016170   -0.0206452 
   0.000750175     0.9414915   -0.0259453    -0.0115258    0.0144144    -0.0024983    0.0186732     0.9851674   -0.0270181 
   0.000850200     0.9784879   -0.1018064    -0.0100145    0.0162239    -0.0021384    0.0228565     0.9934745   -0.0208269 
   0.000950225     1.0264020   -0.0099032    -0.0129668    0.0147454    -0.0032932    0.0261365     0.9921912   -0.0398463 
   0.001050250     1.0096190   -0.0706846    -0.0137800    0.0207037    -0.0027813    0.0285586     0.9986783   -0.0286141 
   0.001150275     0.9661818   -0.0396550    -0.0190175    0.0278608    -0.0024840    0.0310903     0.9860016   -0.0401197 
   0.001250300     0.9618898   -0.0045267    -0.0137805    0.0273820    -0.0041374    0.0344158     0.9945069   -0.0526665 
   0.001350325     0.9942461   -0.0705633    -0.0158483    0.0379951    -0.0043558    0.0383785     0.9887857   -0.0492613 
   0.001450350     1.0282630   -0.0688021    -0.0118709    0.0385769    -0.0020781    0.0407688     0.9868084   -0.0513197 
   0.001550375     0.9398690   -0.0844515    -0.0150066    0.0454953    -0.0023707    0.0430767     0.9936679   -0.0574013 
   0.001650400     0.9973627   -0.0425636    -0.0114623    0.0459038    -0.0018146    0.0469923     0.9821876   -0.0556009 
   0.001750425     0.9657264   -0.0487166    -0.0132763    0.0472984    -0.0032193    0.0494949     0.9884952   -0.0621295 
   0.001850450     0.9986656   -0.0510125    -0.0131440    0.0580181    -0.0029169    0.0553072     0.9896678   -0.0630404 
   0.001950475     1.0025280   -0.0213800    -0.0121527    0.0590224    -0.0042121    0.0579651     0.9957678   -0.0673114 
   0.002050500     0.9566269   -0.0669486    -0.0040548    0.0627797    -0.0012758    0.0593858     0.9841302   -0.0775765 
   0.002150525     1.0029740   -0.0430726    -0.0123791    0.0681448    -0.0025488    0.0617771     0.9792435   -0.0761605 
   0.002250550     0.9696223   -0.0519393    -0.0093289    0.0685471    -0.0028285    0.0649658     0.9828449   -0.0834454 
   0.002350575     0.9536906   -0.1178589    -0.0065054    0.0729083    -0.0005750    0.0688229     0.9876767   -0.0799790 
   0.002450600     1.0021760   -0.0992124    -0.0063858    0.0814938     0.0004416    0.0742376     0.9869344   -0.0890006 
   0.002550625     1.0008840   -0.1035944    -0.0031199    0.0792629     0.0008176    0.0777455     0.9916385   -0.0914303 
   0.002650650     0.9861549   -0.0749281    -0.0018125    0.0815849     0.0005375    0.0806897     0.9890455   -0.0952164 
   0.002750675     1.0111530   -0.0675643    -0.0068914    0.0876919     0.0009360    0.0837328     0.9817479   -0.1017109 
   0.002850700     1.0176510   -0.0992038    -0.0043251    0.0894362     0.0011925    0.0867817     0.9819134   -0.0999160 
   0.002950725     0.9447386   -0.0614590    -0.0054950    0.0855720     0.0005250    0.0872781     0.9795070   -0.1042390 
   0.003050750     0.9697094   -0.1258018     0.0005855    0.0926566     0.0024821    0.0922903     0.9819393   -0.1064376 
   0.003150775     1.0061810   -0.1466751     0.0056253    0.0996994     0.0038118    0.0953713     0.9795887   -0.1108265 
   0.003250800     0.9474583   -0.1057604     0.0019061    0.0997152     0.0031607    0.0970275     0.9845687   -0.1067839 
   0.003350825     0.9884382   -0.1166333     0.0028500    0.1042843     0.0040634    0.1015173     0.9783372   -0.1097475 
   0.003450850     0.9437408   -0.1361587     0.0031035    0.1070051     0.0049846    0.1028364     0.9773110   -0.1173483 
   0.003550875     0.9490119   -0.1268374     0.0017579    0.1070107     0.0060310    0.1071407     0.9777936   -0.1273506 
   0.003650900     0.9749367   -0.0958425    -0.0000389    0.1119906     0.0058506    0.1103468     0.9734156   -0.1300683 
   0.003750925     0.9764910   -0.1056988     0.0046174    0.1144992     0.0053347    0.1118536     0.9653588   -0.1319437 
   0.003850950     0.9735225   -0.1473362     0.0084160    0.1175202     0.0077389    0.1167890     0.9820554   -0.1298716 
   0.003950975     0.9802958   -0.0977759     0.0049104    0.1192977     0.0059945    0.1207694     0.9717516   -0.1328966 
   0.004051001     0.9446073   -0.1430654     0.0067040    0.1223411     0.0089176    0.1207999     0.9705722   -0.1353740 
   0.004151026     0.9938262   -0.1622004     0.0111880    0.1248185     0.0121673    0.1272528     0.9702740   -0.1438377 
   0.004251051     0.9725693   -0.1273253     0.0097120    0.1317981     0.0101652    0.1286453     0.9716712   -0.1467749 
   0.004351076     0.9755113   -0.1429270     0.0151415    0.1361558     0.0126929    0.1319701     0.9661542   -0.1514688 
   0.004451101     0.9852843   -0.1635518     0.0117328    0.1376972     0.0136800    0.1345876     0.9651759   -0.1442702 
   0.004551126     0.9970782   -0.1502687     0.0113787    0.1473219     0.0133490    0.1392020     0.9693976   -0.1461778 
   0.004651151     0.9805281   -0.1653855     0.0129476    0.1464665     0.0159168    0.1420537     0.9698879   -0.1546051 
   0.004751176     0.9685066   -0.1714204     0.0151678    0.1473470     0.0160111    0.1439985     0.9658676   -0.1585290 
   0.004851201     0.9267771   -0.1298987     0.0127309    0.1450046     0.0143195    0.1441572     0.9612741   -0.1634288 
   0.004951226     0.9554716   -0.1657957     0.0184556    0.1498898     0.0173733    0.1498212     0.9662181   -0.1613100 
   0.005051251     0.9949418   -0.1807202     0.0206980    0.1556387     0.0188256    0.1539870     0.9625390   -0.1663023 
   0.005151276     0.9388704   -0.1608088     0.0175121    0.1554828     0.0182408    0.1540718     0.9548277   -0.1702229 
   0.005251301     0.9434090   -0.1677370     0.0208975    0.1600474     0.0194680    0.1580939     0.9611111   -0.1690862 
   0.005351326     0.9502121   -0.1478457     0.0202582    0.1617882     0.0195979    0.1610672     0.9564354   -0.1742102 
   0.005451351     0.9476228   -0.1919291     0.0245228    0.1615069     0.0232032    0.1633845     0.9591121   -0.1811263 
   0.005551376     0.9665196   -0.1811204     0.0274910    0.1679234     0.0233519    0.1679268     0.9515961   -0.1776037 
   0.005651401     0.9410674   -0.1684435     0.0240811    0.1688768     0.0238362    0.1697303     0.9561616   -0.1900188 
   0.005751426     0.9338969   -0.1641043     0.0244649    0.1684261     0.0233724    0.1722687     0.9524387   -0.1873687 
   0.005851451     0.9432867   -0.2162345     0.0319768    0.1738797     0.0286503    0.1752879     0.9530216   -0.1926045 
   0.005951476     0.9336780   -0.1899886     0.0280347    0.1766410     0.0289297    0.1783889     0.9513001   -0.1954424 
   0.006051501     0.9596888   -0.2120478     0.0368934    0.1838112     0.0313049    0.1822692     0.9508011   -0.1961759 
   0.006151526     0.9317861   -0.2202581     0.0366898    0.1789800     0.0334962    0.1823816     0.9484669   -0.2012251 
   0.006251551     0.9477252   -0.1794859     0.0291342    0.1837494     0.0312220    0.1877270     0.9471601   -0.2037766 
   0.006351576     0.9281411   -0.2029936     0.0313613    0.1879973     0.0338918    0.1880230     0.9455746   -0.2119750 
   0.006451601     0.9377033   -0.2159978     0.0354179    0.1902724     0.0365295    0.1920977     0.9429763   -0.2113758 
   0.006551626     0.9330879   -0.2240051     0.0361090    0.1949049     0.0358584    0.1956445     0.9423152   -0.2089935 
   0.006651651     0.9227229   -0.2043260     0.0345198    0.1934817     0.0372273    0.1969315     0.9399045   -0.2199417 
   0.006751676     0.9344735   -0.2479206     0.0447196    0.2040460     0.0428684    0.1997101     0.9433916   -0.2187421 
   0.006851701     0.9375114   -0.2367750     0.0426164    0.2046094     0.0427658    0.2030901     0.9359460   -0.2240639 
   0.006951726     0.9201201   -0.2290252     0.0434350    0.2073863     0.0425636    0.2057270     0.9374349   -0.2244914 
   0.007051751     0.9410720   -0.2237147     0.0454443    0.2093162     0.0431472    0.2098147     0.9335676   -0.2292324 
   0.007151776     0.9081483   -0.2367841     0.0441887    0.2097288     0.0446350    0.2086623     0.9256285   -0.2337105 
   0.007251801     0.9457851   -0.2195069     0.0463083    0.2166514     0.0460712    0.2163422     0.9304180   -0.2339108 
   0.007351826     0.9356054   -0.2331673     0.0454558    0.2200087     0.0491058    0.2164988     0.9279379   -0.2402613 
   0.007451851     0.9201819   -0.2348300     0.0489620    0.2152614     0.0483987    0.2184688     0.9276833   -0.2351736 
   0.007551876     0.9203377   -0.2495274     0.0540545    0.2219711     0.0516173    0.2228352     0.9299499   -0.2410816 
   0.007651901     0.9187881   -0.2503767     0.0513297    0.2251373     0.0526435    0.2226796     0.9242743   -0.2437388 
   0.007751926     0.9185917   -0.2355997     0.0513503    0.2264623     0.0518410    0.2279011     0.9230328   -0.2427328 
   0.007851951     0.9157819   -0.2538691     0.0587942    0.2292121     0.0552352    0.2289629     0.9217452   -0.2477583 
   0.007951976     0.9137965   -0.2696186     0.0554425    0.2320539     0.0583659    0.2311062     0.9211589   -0.2525849 
   0.008052001     0.9385903   -0.2294229     0.0532557    0.2434227     0.0574695    0.2381114     0.9159365   -0.2534899 
   0.008152026     0.9063903   -0.2692608     0.0612943    0.2342118     0.0622700    0.2373067     0.9233881   -0.2603513 
   0.008252051     0.9045901   -0.2398543     0.0585069    0.2390211     0.0598663    0.2389262     0.9125203   -0.2609423 
   0.008352076     0.9184980   -0.2603326     0.0629822    0.2446678     0.0631935    0.2431927     0.9149109   -0.2625513 
   0.008452101     0.9162142   -0.2556820     0.0636868    0.2477877     0.0649236    0.2471354     0.9158233   -0.2639099 
   0.008552126     0.9350195   -0.2736027     0.0723661    0.2526274     0.0698986    0.2492210     0.9116472   -0.2650563 
   0.008652151     0.9063829   -0.2416656     0.0665782    0.2490014     0.0667205    0.2520322     0.9112087   -0.2746850 
   0.008752176     0.9111685   -0.2470944     0.0646944    0.2532637     0.0686631    0.2540504     0.9107192   -0.2757440 
   0.008852201     0.9031246   -0.2580363     0.0719024    0.2535211     0.0699987    0.2554705     0.9065366   -0.2740957 
   0.008952226     0.9140540   -0.2644155     0.0708797    0.2578436     0.0725192    0.2600767     0.9073121   -0.2763462 
   0.009052251     0.9148662   -0.2703652     0.0785452    0.2634476     0.0759633    0.2624712     0.9047628   -0.2814667 
   0.009152276     0.9213244   -0.2582382     0.0732590    0.2676236     0.0769032    0.2654453     0.8990734   -0.2862063 
   0.009252301     0.9062845   -0.2822566     0.0807478    0.2657174     0.0794325    0.2639794     0.8983164   -0.2888290 
   0.009352326     0.9104816   -0.2822308     0.0792776    0.2695926     0.0797347    0.2681587     0.8953673   -0.2871299 
   0.009452351     0.8926355   -0.2794088     0.0843196    0.2665497     0.0811262    0.2695689     0.8957004   -0.2908767 
   0.009552376     0.9090932   -0.2907429     0.0822523    0.2765853     0.0846891    0.2725465     0.8921627   -0.2938692 
   0.009652401     0.8979049   -0.2867737     0.0835357    0.2751034     0.0850550    0.2749912     0.8908411   -0.2931519 
   0.009752426     0.8841653   -0.2941268     0.0885033    0.2724943     0.0875381    0.2747726     0.8895251   -0.2989477 
   0.009852451     0.9088050   -0.2902039     0.0860768    0.2828297     0.0915792    0.2812193     0.8861610   -0.3028486 
   0.009952476     0.8994670   -0.2980477     0.0906902    0.2845835     0.0922696    0.2804005     0.8819646   -0.3007796 
   0.010052501     0.8885606   -0.2867670     0.0883260    0.2824038     0.0904312    0.2847135     0.8830518   -0.3018508 
   0.010152526     0.8914530   -0.2872009     0.0922225    0.2841369     0.0936669    0.2872063     0.8798472   -0.3060751 
   0.010252551     0.8755280   -0.3001681     0.0957609    0.2868548     0.0959563    0.2880518     0.8822303   -0.3112700 
   0.010352576     0.8970752   -0.3036566     0.0953318    0.2923316     0.1003822    0.2914853     0.8750796   -0.3138907 
   0.010452601     0.8822180   -0.3050545     0.0983297    0.2928508     0.1002821    0.2928520     0.8773915   -0.3155233 
   0.010552626     0.8705271   -0.3118169     0.0993363    0.2965113     0.1032376    0.2938462     0.8756022   -0.3183030 
   0.010652651     0.8715178   -0.3094302     0.1054775    0.2945396     0.1049891    0.2952493     0.8718280   -0.3229800 
   0.010752676     0.8936120   -0.3189870     0.1046560    0.3049008     0.1087974    0.2998677     0.8677613   -0.3207866 
   0.010852701     0.8761669   -0.3117767     0.1095983    0.2978276     0.1080992    0.3023865     0.8706933   -0.3205419 
   0.010952726     0.8687721   -0.3171264     0.1097426    0.3037989     0.1093923    0.3030068     0.8658383   -0.3276941 
   0.011052751     0.8646272   -0.3389995     0.1153598    0.3033363     0.1136918    0.3022196     0.8642785   -0.3272347 
   0.011152776     0.8654526   -0.3213421     0.1126218    0.3037594     0.1148061    0.3064526     0.8599926   -0.3329118 
   0.011252801     0.8698285   -0.3401440     0.1180260    0.3058231     0.1186422    0.3083461     0.8620795   -0.3324301 
   0.011352826     0.8634725   -0.3424712     0.1180528    0.3117149     0.1194810    0.3098266     0.8587549   -0.3321358 
   0.011452851     0.8623769   -0.3298775     0.1211973    0.3125301     0.1208129    0.3122023     0.8548565   -0.3381228 
   0.011552876     0.8567640   -0.3415810     0.1255579    0.3126209     0.1239258    0.3131980     0.8554638   -0.3417276 
   0.011652901     0.8606535   -0.3540633     0.1271728    0.3160472     0.1270320    0.3148953     0.8517284   -0.3425681 
   0.011752926     0.8459021   -0.3328199     0.1207978    0.3182958     0.1230252    0.3171783     0.8498738   -0.3408870 
   0.011852951     0.8590007   -0.3565445     0.1303532    0.3230245     0.1316084    0.3210861     0.8519101   -0.3450832 
   0.011952976     0.8397632   -0.3380017     0.1296473    0.3199395     0.1273612    0.3216081     0.8485170   -0.3477137 
   0.012053002     0.8473135   -0.3623091     0.1349867    0.3227375     0.1342821    0.3214695     0.8437477   -0.3477711 
   0.012153027     0.8420534   -0.3521300     0.1335588    0.3226787     0.1342921    0.3251324     0.8438787   -0.3512967 
   0.012253052     0.8266066   -0.3630828     0.1395896    0.3232016     0.1351536    0.3239692     0.8428716   -0.3516816 
   0.012353077     0.8527088   -0.3478723     0.1377418    0.3331962     0.1385064    0.3311516     0.8401685   -0.3538705 
   0.012453102     0.8461025   -0.3543140     0.1440987    0.3328191     0.1428466    0.3320836     0.8397132   -0.3613908 
   0.012553127     0.8314699   -0.3571669     0.1366317    0.3281328     0.1418236    0.3317348     0.8307273   -0.3610044 
   0.012653152     0.8468917   -0.3471517     0.1439615    0.3389248     0.1440789    0.3363454     0.8288332   -0.3613349 
   0.012753177     0.8312351   -0.3621994     0.1468375    0.3345459     0.1474234    0.3374812     0.8329393   -0.3635305 
   0.012853202     0.8284501   -0.3514619     0.1494014    0.3373768     0.1476445    0.3378175     0.8250379   -0.3641364 
   0.012953227     0.8350872   -0.3627137     0.1521847    0.3412434     0.1520875    0.3424004     0.8297576   -0.3672081 
   0.013053252     0.8145718   -0.3680668     0.1510360    0.3358561     0.1517528    0.3420686     0.8279278   -0.3702542 
   0.013153277     0.8275189   -0.3591997     0.1554960    0.3424911     0.1561569    0.3442425     0.8218213   -0.3739165 
   0.013253302     0.8245451   -0.3632510     0.1577991    0.3450093     0.1572694    0.3468951     0.8204470   -0.3693221 
   0.013353327     0.8186411   -0.3650777     0.1604732    0.3453383     0.1587976    0.3464712     0.8153770   -0.3755275 
   0.013453352     0.8237923   -0.3604769     0.1589659    0.3472784     0.1607531    0.3520515     0.8179821   -0.3774310 
   0.013553377     0.8015710   -0.3721130     0.1644484    0.3461507     0.1594332    0.3473128     0.8109841   -0.3772636 
   0.013653402     0.8109332   -0.3772239     0.1638780    0.3478879     0.1666680    0.3491428     0.8104271   -0.3828593 
   0.013753427     0.8109714   -0.3734777     0.1622648    0.3513846     0.1658698    0.3520097     0.8049015   -0.3831249 
   0.013853452     0.8137474   -0.3903351     0.1710521    0.3546525     0.1719303    0.3539094     0.8098413   -0.3833247 
   0.013953477     0.8049950   -0.3683244     0.1663823    0.3590760     0.1701578    0.3582987     0.8036963   -0.3862876 
   0.014053502     0.8086191   -0.3963789     0.1790315    0.3566477     0.1760914    0.3554814     0.8037011   -0.3856666 
   0.014153527     0.8047450   -0.3841798     0.1758979    0.3575370     0.1752919    0.3612495     0.8023122   -0.3863511 
   0.014253552     0.8037449   -0.3810390     0.1813623    0.3652137     0.1785563    0.3626069     0.8003057   -0.3881899 
   0.014353577     0.7911860   -0.3800917     0.1744584    0.3594740     0.1776976    0.3595266     0.7923873   -0.3922779 
   0.014453602     0.7894276   -0.3863975     0.1819024    0.3603945     0.1792494    0.3656313     0.7966642   -0.3892559 
   0.014553627     0.7893856   -0.3823306     0.1806821    0.3607089     0.1822220    0.3660550     0.7911116   -0.3957898 
   0.014653652     0.7974963   -0.3867368     0.1813180    0.3691507     0.1867705    0.3672254     0.7850966   -0.3980360 
   0.014753677     0.7979202   -0.3960680     0.1921188    0.3716734     0.1887196    0.3688554     0.7865068   -0.3938915 
   0.014853702     0.7954109   -0.3951283     0.1949211    0.3630650     0.1915286    0.3707218     0.7858648   -0.3997401 
   0.014953727     0.7875476   -0.4045912     0.1954218    0.3710792     0.1937988    0.3706769     0.7863621   -0.3991500 
   0.015053752     0.7916342   -0.3944523     0.1878860    0.3703546     0.1969991    0.3728743     0.7775512   -0.4040826 
   0.015153777     0.7894824   -0.4030077     0.1998271    0.3754040     0.2006804    0.3747006     0.7822517   -0.4037411 
   0.015253802     0.7761479   -0.3948708     0.1987469    0.3747526     0.1971322    0.3765423     0.7762699   -0.4043596 
   0.015353827     0.7783355   -0.4013374     0.2072645    0.3765912     0.2029903    0.3757328     0.7734709   -0.4089102 
   0.015453852     0.7782322   -0.4026102     0.2038690    0.3786016     0.2048108    0.3778501     0.7711195   -0.4096437 
   0.015553877     0.7691631   -0.4116279     0.2114304    0.3741571     0.2072985    0.3781866     0.7727759   -0.4121301 
   0.015653902     0.7685688   -0.4055393     0.2092739    0.3767385     0.2094011    0.3807332     0.7693766   -0.4141738 
