! 26-Feb-26 11:22:34 AM
! E:\VNA_MEASUREMENTS\SP8T\SP8T_P1_RF3.S2P
! CHANNEL.1
! TR.MEASUREMENT
! CORRECTED.DATA
# GHZ S RI R 50.0
! FREQ.GHZ         S11RE         S11IM         S21RE         S21IM         S12RE         S12IM         S22RE         S22IM         
!; PortSelection: Port_12
   0.000050000     0.0658675    0.2303126    -0.0180845   -0.2043158     0.0012548    0.0009096     1.0202510    0.0433762 
   0.000150025     0.3828884   -0.5154165    -1.5450630   -2.1230170     0.0008758    0.0014938     0.9976065    0.0008929 
   0.000250050    -0.2850542   -0.2075923     0.0098052   -0.0011691    -0.0004795    0.0002307     1.0123440   -0.0139574 
   0.000350075     1.0257170   -0.0631875    -0.0037275   -0.0070688     0.0019363    0.0006086     0.9983747   -0.0225940 
   0.000450100     1.0336540   -0.0525191    -0.0062690   -0.0078051     0.0008501   -0.0009149     0.9946573   -0.0205205 
   0.000550125     1.0356100   -0.0697531    -0.0017882   -0.0079541    -0.0002404   -0.0002964     0.9903902   -0.0309262 
   0.000650150     1.0265400    0.0379289    -0.0064194   -0.0099412     0.0003258   -0.0009209     1.0069860   -0.0541144 
   0.000750175     0.9754239   -0.0469062    -0.0076321   -0.0100173    -0.0004883   -0.0005237     0.9891415   -0.0535393 
   0.000850200     0.9855987   -0.0710950    -0.0073146   -0.0058860     0.0011548    0.0005062     0.9967645   -0.0513468 
   0.000950225     0.9958886   -0.0426681    -0.0084552   -0.0100407     0.0002664   -0.0003032     0.9955006   -0.0671882 
   0.001050250     0.9896733   -0.0762912    -0.0139061   -0.0064206    -0.0011152    0.0003384     0.9906592   -0.0659241 
   0.001150275     0.9892220   -0.0628759    -0.0111454   -0.0050006     0.0005372   -0.0004152     0.9856664   -0.0745449 
   0.001250300     0.9933336   -0.0300966    -0.0138790   -0.0041360     0.0003493   -0.0002322     0.9940161   -0.0879159 
   0.001350325     1.0010230   -0.0771176    -0.0109651   -0.0027058    -0.0000400    0.0000464     0.9854043   -0.0862263 
   0.001450350     0.9913682   -0.0439677    -0.0104962   -0.0061252    -0.0002325   -0.0002778     0.9848227   -0.0872362 
   0.001550375     0.9496589   -0.0718218    -0.0082434   -0.0034009     0.0002106   -0.0001355     0.9888096   -0.0981188 
   0.001650400     1.0200540   -0.0206162    -0.0081320   -0.0018954    -0.0004999   -0.0017153     0.9808801   -0.0946860 
   0.001750425     0.9838093   -0.0689198    -0.0089697    0.0025262    -0.0001813   -0.0003846     0.9888350   -0.1119355 
   0.001850450     0.9720622   -0.0869888    -0.0057073    0.0006035    -0.0006430   -0.0003087     0.9850201   -0.1111721 
   0.001950475     1.0228460   -0.0321736    -0.0066219   -0.0022055    -0.0001962   -0.0004362     0.9815706   -0.1163108 
   0.002050500     0.9751865   -0.0726783    -0.0102115    0.0003273     0.0002687    0.0006643     0.9861041   -0.1331897 
   0.002150525     0.9930240   -0.0523729    -0.0032135    0.0040452    -0.0013929   -0.0006200     0.9776461   -0.1328285 
   0.002250550     0.9838544   -0.0953623    -0.0027231    0.0017333     0.0005509   -0.0002252     0.9771882   -0.1366196 
   0.002350575     0.9487728   -0.1476899    -0.0074102   -0.0010553    -0.0001190    0.0002696     0.9705405   -0.1411249 
   0.002450600     1.0050760   -0.0475965    -0.0022911    0.0009082    -0.0003340    0.0002855     0.9730781   -0.1536711 
   0.002550625     1.0036900   -0.0747701    -0.0056746    0.0061870     0.0000264   -0.0001590     0.9663638   -0.1592246 
   0.002650650     0.9990991   -0.0593047    -0.0055551    0.0024532    -0.0006894   -0.0004451     0.9786265   -0.1725022 
   0.002750675     0.9720258   -0.0595437    -0.0040648    0.0023286     0.0003379    0.0002578     0.9651352   -0.1660789 
   0.002850700     1.0059850   -0.0876693    -0.0035300    0.0019339     0.0002364    0.0000539     0.9618553   -0.1731937 
   0.002950725     0.9369472   -0.1006071    -0.0036145    0.0004942    -0.0002277    0.0000597     0.9633312   -0.1771151 
   0.003050750     0.9856991   -0.0851178    -0.0028133    0.0021955    -0.0006326   -0.0000613     0.9617781   -0.1862710 
   0.003150775     0.9776768   -0.1389065    -0.0029894    0.0020714     0.0001428    0.0004555     0.9519279   -0.1889696 
   0.003250800     0.9566176   -0.1036153    -0.0034359   -0.0006657    -0.0003547    0.0001838     0.9540970   -0.1939504 
   0.003350825     0.9752728   -0.1057529    -0.0012213    0.0016076    -0.0003392   -0.0004632     0.9426413   -0.2018297 
   0.003450850     0.9526854   -0.1622696    -0.0019077    0.0015343    -0.0001161   -0.0000750     0.9452828   -0.2079860 
   0.003550875     0.9505323   -0.1386602    -0.0016451    0.0041275    -0.0005841   -0.0001689     0.9452699   -0.2077283 
   0.003650900     0.9840887   -0.0946082    -0.0029633    0.0014966    -0.0000510   -0.0003172     0.9436263   -0.2188192 
   0.003750925     0.9644901   -0.1294952     0.0010587    0.0000203     0.0001658   -0.0001620     0.9353215   -0.2288571 
   0.003850950     0.9774682   -0.1176167    -0.0008617    0.0004503    -0.0002011    0.0001126     0.9382721   -0.2277758 
   0.003950975     0.9888716   -0.0969238    -0.0034421    0.0030815     0.0005891   -0.0001734     0.9270678   -0.2255433 
   0.004051001     0.9620592   -0.1619174    -0.0019925    0.0020492    -0.0000366   -0.0003333     0.9269277   -0.2373409 
   0.004151026     0.9762486   -0.1425680     0.0001148    0.0014754     0.0007210   -0.0006075     0.9262610   -0.2433486 
   0.004251051     0.9876986   -0.1589826    -0.0016286    0.0003354     0.0002848   -0.0000433     0.9238262   -0.2509696 
   0.004351076     0.9574144   -0.1081189    -0.0007354    0.0017364     0.0003240    0.0002865     0.9158722   -0.2498375 
   0.004451101     0.9947281   -0.1541829     0.0002038    0.0006097    -0.0004928    0.0007670     0.9131221   -0.2573391 
   0.004551126     0.9873382   -0.1403000     0.0018715   -0.0002766    -0.0004661   -0.0006792     0.9122980   -0.2603635 
   0.004651151     0.9705083   -0.1408123    -0.0057004   -0.0006007     0.0000897    0.0001527     0.9096197   -0.2670393 
   0.004751176     0.9916223   -0.1745679    -0.0001958    0.0011264    -0.0000679    0.0005740     0.9026362   -0.2691692 
   0.004851201     0.9339556   -0.1680383    -0.0007344    0.0004938    -0.0002455   -0.0000432     0.8996090   -0.2745706 
   0.004951226     0.9711050   -0.1471531    -0.0007587    0.0006065     0.0000159   -0.0001629     0.8987271   -0.2735009 
   0.005051251     0.9907759   -0.1808838    -0.0000513   -0.0029060     0.0004707    0.0000584     0.8953429   -0.2816992 
   0.005151276     0.9467643   -0.1306781    -0.0005246    0.0019027     0.0003324   -0.0000602     0.8904104   -0.2854024 
   0.005251301     0.9670805   -0.1505747    -0.0012910   -0.0003102    -0.0001917    0.0001107     0.8867702   -0.2881217 
   0.005351326     0.9504696   -0.1576453     0.0007355   -0.0009979     0.0008315    0.0001714     0.8864681   -0.2959155 
   0.005451351     0.9739628   -0.1811339    -0.0000355   -0.0000314    -0.0001671   -0.0001543     0.8781444   -0.2965369 
   0.005551376     0.9713281   -0.2021766    -0.0034245   -0.0012192     0.0001992    0.0000210     0.8781474   -0.3026351 
   0.005651401     0.9503744   -0.1827583    -0.0004392    0.0041047     0.0004277    0.0002218     0.8711888   -0.3165087 
   0.005751426     0.9442708   -0.1809602    -0.0019682    0.0002908    -0.0005758   -0.0000852     0.8674156   -0.3092752 
   0.005851451     0.9548662   -0.1885460    -0.0008875    0.0009719    -0.0004555   -0.0000574     0.8637105   -0.3130027 
   0.005951476     0.9564711   -0.1482300     0.0003276    0.0017865    -0.0001417    0.0003591     0.8634204   -0.3174323 
   0.006051501     0.9444324   -0.2074845     0.0007759    0.0012714     0.0000441   -0.0000557     0.8588175   -0.3187261 
   0.006151526     0.9597138   -0.2207266    -0.0010198    0.0004994    -0.0002560   -0.0001041     0.8542987   -0.3272933 
   0.006251551     0.9438350   -0.1829838    -0.0005455    0.0012528    -0.0000226   -0.0000125     0.8501753   -0.3326701 
   0.006351576     0.9544293   -0.2100718     0.0008121    0.0002405     0.0001223   -0.0002444     0.8426515   -0.3315408 
   0.006451601     0.9308518   -0.2032816     0.0003700    0.0014882    -0.0001308    0.0001743     0.8403186   -0.3370393 
   0.006551626     0.9326644   -0.1908967    -0.0003661    0.0013825    -0.0000697   -0.0003017     0.8370935   -0.3391832 
   0.006651651     0.9299456   -0.1988382    -0.0017354    0.0014947    -0.0000468    0.0001634     0.8293192   -0.3450887 
   0.006751676     0.9279441   -0.2251861    -0.0005948    0.0012315    -0.0004891   -0.0001023     0.8291657   -0.3455225 
   0.006851701     0.9469658   -0.2281090    -0.0012755    0.0007852     0.0002963   -0.0000034     0.8214611   -0.3507469 
   0.006951726     0.9175503   -0.2343952     0.0004294   -0.0011855     0.0001002    0.0003247     0.8228044   -0.3482819 
   0.007051751     0.9428259   -0.2023961    -0.0007476   -0.0002766    -0.0001075    0.0001707     0.8161143   -0.3575678 
   0.007151776     0.9269392   -0.2234620    -0.0005339    0.0019195     0.0004875    0.0000620     0.8109078   -0.3554813 
   0.007251801     0.9622138   -0.2152771     0.0015820   -0.0005758    -0.0002271    0.0000246     0.8053522   -0.3614144 
   0.007351826     0.9235060   -0.2400048    -0.0009563    0.0006763    -0.0000002    0.0002911     0.8025188   -0.3663577 
   0.007451851     0.9284769   -0.2376604    -0.0028000    0.0000320    -0.0002263   -0.0001237     0.7992837   -0.3627251 
   0.007551876     0.9317784   -0.2428764    -0.0002206    0.0017507     0.0000886   -0.0004718     0.7964341   -0.3714280 
   0.007651901     0.9556334   -0.2452235    -0.0014918    0.0001132    -0.0003114    0.0002275     0.7952580   -0.3708099 
   0.007751926     0.9296615   -0.2359894    -0.0001272    0.0012182    -0.0001762   -0.0003638     0.7874841   -0.3702259 
   0.007851951     0.9169904   -0.2339152    -0.0000154   -0.0005222     0.0004861    0.0005329     0.7835236   -0.3756463 
   0.007951976     0.9288087   -0.2501265    -0.0001574   -0.0002234     0.0000897    0.0003194     0.7783930   -0.3769964 
   0.008052001     0.9205095   -0.2368231     0.0003522    0.0008213     0.0004877   -0.0001326     0.7723795   -0.3831404 
   0.008152026     0.9100804   -0.2582626    -0.0005200    0.0009570    -0.0003794    0.0001483     0.7714878   -0.3858075 
   0.008252051     0.8911055   -0.2610691     0.0003062   -0.0005656    -0.0000376   -0.0000853     0.7631842   -0.3855926 
   0.008352076     0.9178438   -0.2682991     0.0003959    0.0013652    -0.0004009    0.0002701     0.7612306   -0.3885770 
   0.008452101     0.9203357   -0.2445846     0.0013823   -0.0016695     0.0000138   -0.0003743     0.7598293   -0.3877113 
   0.008552126     0.9274673   -0.2597654    -0.0012504    0.0010072    -0.0001731    0.0000055     0.7514862   -0.3902482 
   0.008652151     0.9098276   -0.2504432     0.0007152    0.0019828    -0.0005082   -0.0000082     0.7516921   -0.3910275 
   0.008752176     0.9259772   -0.2610387     0.0002292   -0.0001598     0.0005734    0.0000673     0.7476568   -0.3981003 
   0.008852201     0.9137990   -0.2550824    -0.0005341    0.0003386    -0.0002315    0.0009911     0.7463197   -0.3954790 
   0.008952226     0.9326185   -0.2519189    -0.0013692   -0.0000314     0.0001645    0.0001867     0.7397584   -0.3968190 
   0.009052251     0.9033399   -0.2650564    -0.0005750   -0.0004321    -0.0002022   -0.0001249     0.7331409   -0.4023921 
   0.009152276     0.9071278   -0.2655085    -0.0010203   -0.0002135    -0.0000482   -0.0001126     0.7287489   -0.4028068 
   0.009252301     0.9111618   -0.2812439     0.0001028    0.0000941    -0.0002486    0.0000096     0.7245879   -0.4051943 
   0.009352326     0.9127424   -0.2770878    -0.0000644    0.0004422    -0.0001792   -0.0001407     0.7200446   -0.4040237 
   0.009452351     0.9065969   -0.2917913     0.0013618   -0.0001683    -0.0001116    0.0002316     0.7181872   -0.4064171 
   0.009552376     0.9004167   -0.2766696    -0.0008804    0.0006155    -0.0001700   -0.0002528     0.7133062   -0.4064081 
   0.009652401     0.8843499   -0.2879749    -0.0000977   -0.0000355     0.0001276   -0.0000747     0.7074752   -0.4091451 
   0.009752426     0.8880650   -0.3026237     0.0003191    0.0001180    -0.0000509   -0.0001365     0.7058809   -0.4093027 
   0.009852451     0.8791901   -0.2996317     0.0002019    0.0000096    -0.0003230    0.0002216     0.6996027   -0.4112369 
   0.009952476     0.8829197   -0.2892832     0.0002810    0.0011147    -0.0002666    0.0002619     0.6945297   -0.4115406 
   0.010052501     0.8977727   -0.3013318     0.0001122    0.0004807     0.0002033    0.0000571     0.6930892   -0.4115904 
   0.010152526     0.8773143   -0.2882841     0.0003955    0.0009393    -0.0001126    0.0001104     0.6906541   -0.4152133 
   0.010252551     0.8778062   -0.2979428    -0.0019919   -0.0007955    -0.0001083    0.0005399     0.6878584   -0.4182988 
   0.010352576     0.9084331   -0.3041098    -0.0000079   -0.0000779    -0.0006244    0.0003776     0.6807318   -0.4184659 
   0.010452601     0.8961008   -0.2946027    -0.0008609    0.0005458    -0.0002600    0.0001301     0.6756502   -0.4199341 
   0.010552626     0.8644855   -0.3056085     0.0005573   -0.0008447    -0.0001247   -0.0000238     0.6727989   -0.4228348 
   0.010652651     0.8632742   -0.3096007    -0.0000887   -0.0007090    -0.0003199    0.0003093     0.6712081   -0.4230014 
   0.010752676     0.8915169   -0.3260290     0.0014718    0.0011983     0.0000122    0.0006248     0.6649944   -0.4237789 
   0.010852701     0.8660902   -0.2965778    -0.0010735    0.0010313     0.0000530    0.0000387     0.6675563   -0.4210952 
   0.010952726     0.8855008   -0.3162454     0.0006592   -0.0007904    -0.0001084    0.0000491     0.6593279   -0.4247370 
   0.011052751     0.8776621   -0.3273420    -0.0012894   -0.0004799    -0.0001106    0.0003584     0.6551679   -0.4266865 
   0.011152776     0.8691084   -0.3173043    -0.0002325    0.0002116    -0.0001108    0.0003854     0.6517362   -0.4260796 
   0.011252801     0.8702788   -0.3235096    -0.0004748    0.0001422     0.0001183    0.0003050     0.6495050   -0.4265540 
   0.011352826     0.8626392   -0.3401089     0.0000884    0.0005265    -0.0000185    0.0001812     0.6442528   -0.4259409 
   0.011452851     0.8633828   -0.3346929    -0.0001725   -0.0000247    -0.0002632    0.0000814     0.6406879   -0.4267879 
   0.011552876     0.8527750   -0.3364244    -0.0000401   -0.0001345    -0.0002472   -0.0000552     0.6374097   -0.4308793 
   0.011652901     0.8531016   -0.3458916    -0.0000569   -0.0007656     0.0001162   -0.0000059     0.6341289   -0.4277167 
   0.011752926     0.8370107   -0.3345793     0.0004243    0.0004257     0.0001178    0.0002510     0.6290020   -0.4271934 
   0.011852951     0.8461179   -0.3465811    -0.0004759    0.0007121     0.0002721    0.0002161     0.6294897   -0.4288371 
   0.011952976     0.8400210   -0.3327986    -0.0000473    0.0005931    -0.0001013    0.0002164     0.6224185   -0.4281840 
   0.012053002     0.8263599   -0.3521644    -0.0003619    0.0006494    -0.0004258    0.0004838     0.6165993   -0.4297045 
   0.012153027     0.8475223   -0.3491214     0.0005034    0.0004779    -0.0002692    0.0005724     0.6136953   -0.4312749 
   0.012253052     0.8368461   -0.3467066     0.0003437    0.0008282    -0.0003649   -0.0000499     0.6113529   -0.4298420 
   0.012353077     0.8579474   -0.3523084    -0.0000879   -0.0017099    -0.0003779    0.0000817     0.6102089   -0.4315425 
   0.012453102     0.8406457   -0.3409925     0.0006847   -0.0008132    -0.0002792    0.0001649     0.6043130   -0.4343248 
   0.012553127     0.8314478   -0.3684331    -0.0004527   -0.0000575     0.0001538    0.0001116     0.5985833   -0.4311701 
   0.012653152     0.8484457   -0.3485674    -0.0000038   -0.0000361    -0.0000386   -0.0000357     0.5980557   -0.4326324 
   0.012753177     0.8316068   -0.3551116     0.0005164   -0.0004056    -0.0001304    0.0003046     0.5939776   -0.4311142 
   0.012853202     0.8291689   -0.3417209     0.0007417   -0.0006969     0.0001642    0.0005931     0.5861691   -0.4315682 
   0.012953227     0.8464759   -0.3627413    -0.0011035    0.0014150    -0.0002114    0.0001105     0.5901246   -0.4353673 
   0.013053252     0.8189486   -0.3654103     0.0002964    0.0003782    -0.0002326    0.0001332     0.5855277   -0.4323749 
   0.013153277     0.8272592   -0.3571979    -0.0000660    0.0003163    -0.0000397    0.0001299     0.5807187   -0.4355156 
   0.013253302     0.8196294   -0.3619760     0.0001024   -0.0006254     0.0001488    0.0003227     0.5770547   -0.4316414 
   0.013353327     0.8181852   -0.3510814     0.0001879    0.0011041     0.0002042    0.0000486     0.5746607   -0.4332957 
   0.013453352     0.8265355   -0.3584534     0.0002406   -0.0003023     0.0001954    0.0001720     0.5704724   -0.4354052 
   0.013553377     0.8035873   -0.3664110    -0.0006241   -0.0001969    -0.0003945    0.0002607     0.5663849   -0.4317345 
   0.013653402     0.8160397   -0.3800627    -0.0004552    0.0002405     0.0000598    0.0004110     0.5645009   -0.4345639 
   0.013753427     0.8181374   -0.3795843     0.0005204    0.0002430    -0.0001034    0.0000138     0.5605455   -0.4320803 
   0.013853452     0.8239757   -0.3761274     0.0006322   -0.0003547    -0.0004859    0.0003816     0.5591942   -0.4332692 
   0.013953477     0.7999792   -0.3624102     0.0001523    0.0002865    -0.0000612    0.0003456     0.5545765   -0.4330543 
   0.014053502     0.8165891   -0.3883874     0.0000183    0.0002988     0.0000731    0.0002619     0.5511369   -0.4315989 
   0.014153527     0.8069820   -0.3739333     0.0002363    0.0008058    -0.0001324   -0.0000295     0.5497150   -0.4333817 
   0.014253552     0.8078952   -0.3788279     0.0005176    0.0004392    -0.0000298    0.0004600     0.5481507   -0.4322273 
   0.014353577     0.7955683   -0.3719803    -0.0000670    0.0002559     0.0001069    0.0002405     0.5412654   -0.4309039 
   0.014453602     0.7860320   -0.3906890    -0.0003212   -0.0003291    -0.0000111    0.0005503     0.5412663   -0.4296342 
   0.014553627     0.7994755   -0.3759125    -0.0002543   -0.0002227    -0.0005025    0.0001460     0.5397907   -0.4334618 
   0.014653652     0.7929230   -0.3910011    -0.0002223    0.0000677    -0.0000322    0.0003773     0.5339103   -0.4328651 
   0.014753677     0.7884347   -0.3862526    -0.0002711   -0.0001436    -0.0001522    0.0002453     0.5310630   -0.4296435 
   0.014853702     0.7952092   -0.3794430     0.0003202   -0.0003281    -0.0000763    0.0000420     0.5308031   -0.4295652 
   0.014953727     0.7818755   -0.4004053     0.0000584    0.0006648    -0.0001378    0.0002008     0.5272356   -0.4309666 
   0.015053752     0.7920763   -0.3948967     0.0007310   -0.0005444    -0.0003286    0.0000448     0.5219994   -0.4303613 
   0.015153777     0.7818257   -0.4002334    -0.0004066    0.0000909     0.0000209    0.0003190     0.5210125   -0.4305704 
   0.015253802     0.7780863   -0.3940235     0.0000616   -0.0004193    -0.0001119    0.0001603     0.5162611   -0.4277963 
   0.015353827     0.7818007   -0.4017670     0.0010968    0.0010268    -0.0004071    0.0003045     0.5128518   -0.4296038 
   0.015453852     0.7879328   -0.3928793    -0.0000276    0.0007338    -0.0002576    0.0002237     0.5119531   -0.4293809 
   0.015553877     0.7860417   -0.4058499    -0.0005726    0.0003369     0.0000585    0.0001192     0.5103951   -0.4281504 
   0.015653902     0.7789494   -0.4048868     0.0003058    0.0012036    -0.0001148    0.0001234     0.5046030   -0.4312272 
