! 26-Feb-26 11:51:15 AM
! E:\VNA_MEASUREMENTS\SP8T\SP8T_P4_RF2.S2P
! CHANNEL.1
! TR.MEASUREMENT
! CORRECTED.DATA
# GHZ S RI R 50.0
! FREQ.GHZ         S11RE         S11IM         S21RE         S21IM         S12RE         S12IM         S22RE         S22IM         
!; PortSelection: Port_12
   0.000050000     0.1817757   -0.1940856    -0.4886254   -0.2933860    -0.0040833    0.0054643     1.0110760    0.0342725 
   0.000150025    -0.1655216    0.1432008    -1.0447440   -0.0992127     0.0010294   -0.0003339     0.9975873   -0.0045639 
   0.000250050     0.0082483    0.1344842    -0.0023173   -0.0024544     0.0005582   -0.0003230     1.0169700   -0.0159395 
   0.000350075     1.0409230   -0.0500820    -0.0003801   -0.0120797     0.0013554    0.0005983     0.9989993   -0.0272953 
   0.000450100     1.0063990   -0.0681191    -0.0061855   -0.0086179     0.0001862    0.0003136     0.9915155   -0.0297810 
   0.000550125     0.9529213   -0.0685111    -0.0035967   -0.0116329     0.0005955    0.0003875     0.9899208   -0.0428510 
   0.000650150     1.0631950   -0.0165529    -0.0059702   -0.0158421     0.0001587    0.0004889     1.0107960   -0.0496823 
   0.000750175     1.0086300   -0.0765413    -0.0098717   -0.0090962     0.0000476    0.0002589     0.9924682   -0.0471613 
   0.000850200     0.9708983   -0.1131991    -0.0072804   -0.0110266     0.0000112    0.0006679     0.9978939   -0.0424142 
   0.000950225     1.0423120   -0.0001396    -0.0087103   -0.0045548    -0.0007051    0.0010454     0.9989505   -0.0626351 
   0.001050250     0.9653984   -0.0329156    -0.0088327   -0.0040094     0.0006928    0.0009413     0.9984992   -0.0663219 
   0.001150275     0.9718623   -0.0803477    -0.0119622   -0.0015350     0.0002214    0.0001514     0.9889086   -0.0712924 
   0.001250300     1.0164170    0.0303416    -0.0051917   -0.0077500     0.0010998    0.0009813     0.9996402   -0.0846581 
   0.001350325     1.0319380   -0.0890972    -0.0099888   -0.0032553     0.0004313   -0.0001638     0.9868854   -0.0885139 
   0.001450350     0.9833614   -0.0606459    -0.0127706    0.0012084    -0.0003680   -0.0006856     0.9817509   -0.0866336 
   0.001550375     0.9719836   -0.0500115    -0.0079350   -0.0030762     0.0000439    0.0001745     0.9897701   -0.0961684 
   0.001650400     0.9883468   -0.0271299    -0.0131953   -0.0023252     0.0004240    0.0009846     0.9850279   -0.1015491 
   0.001750425     0.9908176   -0.0682298    -0.0043384    0.0033219     0.0002466   -0.0003457     0.9888591   -0.1074174 
   0.001850450     0.9950588   -0.0912108    -0.0130824    0.0000996    -0.0008424   -0.0000165     0.9835498   -0.1116961 
   0.001950475     0.9989756    0.0046010    -0.0031399   -0.0021512    -0.0000979    0.0002135     0.9849874   -0.1221974 
   0.002050500     0.9790307   -0.0373321    -0.0100328    0.0062830    -0.0005294   -0.0002035     0.9815657   -0.1331161 
   0.002150525     0.9798599   -0.0605103    -0.0075502    0.0004603     0.0004860    0.0003309     0.9800745   -0.1305514 
   0.002250550     0.9995179   -0.0852847    -0.0071299   -0.0013134     0.0007445   -0.0001316     0.9785362   -0.1354080 
   0.002350575     0.9648473   -0.1163665    -0.0060335    0.0016199    -0.0002437   -0.0005335     0.9708005   -0.1380588 
   0.002450600     1.0258750   -0.1114833    -0.0068116    0.0040811     0.0001631   -0.0001131     0.9711959   -0.1497270 
   0.002550625     0.9753463   -0.1021517    -0.0042164    0.0078541    -0.0002267    0.0000917     0.9756801   -0.1551573 
   0.002650650     0.9939733   -0.0794537    -0.0066163    0.0046566    -0.0001194   -0.0000003     0.9711981   -0.1637428 
   0.002750675     0.9889048   -0.0366250    -0.0021651    0.0020962     0.0008676   -0.0002879     0.9636717   -0.1735565 
   0.002850700     0.9919133   -0.0746750    -0.0025375    0.0021510     0.0002239    0.0005935     0.9590146   -0.1690951 
   0.002950725     0.9604964   -0.0656209    -0.0041305    0.0025065    -0.0000094   -0.0002360     0.9614181   -0.1740223 
   0.003050750     1.0069460   -0.0898751    -0.0044551    0.0036174    -0.0002961    0.0011580     0.9557502   -0.1799009 
   0.003150775     0.9497752   -0.1074866    -0.0016585    0.0033533     0.0002027    0.0001318     0.9549121   -0.1889735 
   0.003250800     0.9545069   -0.0962897     0.0003284    0.0054596     0.0003166    0.0004278     0.9569088   -0.1944531 
   0.003350825     0.9850188   -0.0969571    -0.0040216    0.0013968     0.0000967    0.0005487     0.9433697   -0.1985630 
   0.003450850     0.9631251   -0.1471196    -0.0013456    0.0035726     0.0001832   -0.0010253     0.9432929   -0.2071134 
   0.003550875     0.9512033   -0.1223749    -0.0031939    0.0015937    -0.0000640   -0.0001199     0.9441140   -0.2149105 
   0.003650900     0.9649768   -0.1048155    -0.0003276    0.0046762    -0.0005585    0.0004179     0.9431797   -0.2173532 
   0.003750925     0.9498961   -0.1535899    -0.0007676    0.0035979     0.0000698   -0.0000746     0.9267210   -0.2256839 
   0.003850950     0.9864774   -0.1391495     0.0015627    0.0011150    -0.0003309   -0.0000765     0.9388783   -0.2263227 
   0.003950975     0.9883663   -0.1303084    -0.0027831   -0.0001181     0.0000871    0.0004225     0.9324099   -0.2317253 
   0.004051001     0.9436202   -0.1457911    -0.0020269    0.0031738     0.0006876   -0.0004559     0.9291418   -0.2369440 
   0.004151026     0.9731715   -0.1368456    -0.0008530   -0.0008137     0.0003617    0.0000566     0.9264745   -0.2429526 
   0.004251051     0.9666136   -0.1583044    -0.0039044    0.0000099     0.0002315   -0.0001478     0.9250625   -0.2470532 
   0.004351076     0.9833479   -0.1089436     0.0019566    0.0019940     0.0000757   -0.0000290     0.9180881   -0.2565807 
   0.004451101     1.0139980   -0.1663379     0.0029492    0.0009054     0.0000177   -0.0006264     0.9110025   -0.2525836 
   0.004551126     1.0031450   -0.1836252     0.0023826    0.0025443    -0.0003279    0.0002651     0.9126288   -0.2558057 
   0.004651151     0.9652845   -0.1497251    -0.0051681    0.0053650     0.0000827   -0.0001727     0.9127121   -0.2628025 
   0.004751176     0.9584129   -0.1701750    -0.0020008    0.0009837     0.0003581   -0.0000084     0.9038868   -0.2702745 
   0.004851201     0.9235139   -0.1705986     0.0001421    0.0036167    -0.0002029    0.0000606     0.9044148   -0.2718544 
   0.004951226     0.9503978   -0.1689041    -0.0002524   -0.0000009    -0.0002999    0.0003537     0.9024269   -0.2774429 
   0.005051251     0.9814292   -0.1539875    -0.0008351    0.0005898     0.0002383   -0.0003085     0.8975695   -0.2764716 
   0.005151276     0.9368045   -0.1568457    -0.0006515   -0.0003968     0.0004538    0.0002371     0.8959516   -0.2838809 
   0.005251301     0.9519091   -0.1881176    -0.0008566    0.0007098    -0.0000676   -0.0002740     0.8924677   -0.2931925 
   0.005351326     0.9409572   -0.1805736     0.0001339   -0.0015831     0.0002069    0.0001461     0.8890710   -0.2934674 
   0.005451351     0.9495202   -0.1715934    -0.0011592    0.0016603    -0.0000446   -0.0000142     0.8827505   -0.3019294 
   0.005551376     0.9416433   -0.1912290    -0.0015089    0.0009853     0.0002442   -0.0004037     0.8804673   -0.3000683 
   0.005651401     0.9365156   -0.1634436     0.0017542    0.0012668    -0.0000641   -0.0000866     0.8699948   -0.3120024 
   0.005751426     0.9304848   -0.1677396     0.0006980    0.0008059     0.0003021   -0.0002790     0.8708379   -0.3121493 
   0.005851451     0.9402981   -0.2259681     0.0001299    0.0008128    -0.0005025   -0.0001599     0.8673531   -0.3115397 
   0.005951476     0.9442305   -0.1699291    -0.0003381    0.0018820     0.0001675    0.0005457     0.8629427   -0.3153454 
   0.006051501     0.9526335   -0.1869845    -0.0014038    0.0013310     0.0002575    0.0003417     0.8579155   -0.3196136 
   0.006151526     0.9251041   -0.2097841     0.0018923   -0.0001993     0.0007263   -0.0001743     0.8560021   -0.3245448 
   0.006251551     0.9394405   -0.1758955     0.0009301    0.0003849     0.0005463   -0.0003323     0.8507395   -0.3256873 
   0.006351576     0.9402992   -0.2109047    -0.0007215    0.0001454    -0.0003977    0.0003058     0.8469698   -0.3314513 
   0.006451601     0.9436239   -0.2121987    -0.0019726    0.0025170    -0.0003626    0.0000495     0.8417631   -0.3359454 
   0.006551626     0.9333845   -0.2046136    -0.0002170    0.0004970     0.0000260    0.0002266     0.8406289   -0.3382235 
   0.006651651     0.9416675   -0.2139278    -0.0003834   -0.0013858    -0.0003218    0.0003241     0.8327577   -0.3417436 
   0.006751676     0.9372618   -0.2346725    -0.0001186    0.0004231    -0.0001001   -0.0000847     0.8332509   -0.3432546 
   0.006851701     0.9374375   -0.2454597    -0.0017879   -0.0006990    -0.0001601    0.0002618     0.8225054   -0.3472479 
   0.006951726     0.9187881   -0.2002034     0.0003452   -0.0016933    -0.0001556    0.0002097     0.8240152   -0.3466720 
   0.007051751     0.9136268   -0.2209845     0.0001302   -0.0003205    -0.0000454   -0.0001131     0.8174175   -0.3543241 
   0.007151776     0.9211119   -0.2285030     0.0009853   -0.0026784    -0.0003717   -0.0004024     0.8088490   -0.3589188 
   0.007251801     0.9392621   -0.2161564    -0.0007420    0.0013929    -0.0003499    0.0001182     0.8071447   -0.3585274 
   0.007351826     0.9302075   -0.2473817     0.0011712    0.0003884    -0.0001299   -0.0001905     0.8068820   -0.3650995 
   0.007451851     0.9270982   -0.2370225    -0.0006647   -0.0003020     0.0003452   -0.0002208     0.7971825   -0.3605228 
   0.007551876     0.9215292   -0.2413108     0.0014037   -0.0003550     0.0001926    0.0005430     0.7984513   -0.3718703 
   0.007651901     0.9359140   -0.2400089    -0.0006703    0.0006092    -0.0002225   -0.0002593     0.7940062   -0.3703804 
   0.007751926     0.9230653   -0.2350585    -0.0015516   -0.0001059     0.0000538   -0.0002068     0.7876644   -0.3692575 
   0.007851951     0.9184451   -0.2342403    -0.0002020    0.0010102     0.0002610   -0.0001533     0.7850816   -0.3760784 
   0.007951976     0.9270186   -0.2648903    -0.0000292    0.0000393    -0.0000029   -0.0000398     0.7807502   -0.3750995 
   0.008052001     0.9169983   -0.2403223    -0.0000063   -0.0000245    -0.0001427    0.0002385     0.7777656   -0.3826105 
   0.008152026     0.9087090   -0.2657612    -0.0002295    0.0005338    -0.0003542    0.0003548     0.7729053   -0.3791728 
   0.008252051     0.9041218   -0.2539458    -0.0011918    0.0000532     0.0002044   -0.0001255     0.7685251   -0.3816770 
   0.008352076     0.9059689   -0.2757976    -0.0004262   -0.0013225    -0.0002490   -0.0001520     0.7610281   -0.3839786 
   0.008452101     0.9220915   -0.2593389    -0.0001777    0.0016063     0.0000994    0.0002258     0.7586023   -0.3869475 
   0.008552126     0.9164271   -0.2683769    -0.0005317   -0.0007889     0.0002113    0.0001346     0.7581530   -0.3888869 
   0.008652151     0.9166279   -0.2611224     0.0010890    0.0023217    -0.0001515    0.0005221     0.7522079   -0.3904625 
   0.008752176     0.9303762   -0.2486096     0.0009930    0.0006711    -0.0002809   -0.0001141     0.7497518   -0.3951158 
   0.008852201     0.8879412   -0.2572635    -0.0001466    0.0020768    -0.0002340   -0.0002836     0.7434502   -0.3950216 
   0.008952226     0.9309921   -0.2587701    -0.0008787    0.0004294     0.0000464   -0.0003233     0.7441423   -0.3973386 
   0.009052251     0.8997210   -0.2769285     0.0002171    0.0006048     0.0002208   -0.0004025     0.7380906   -0.4004688 
   0.009152276     0.9077559   -0.2564346    -0.0000748   -0.0005660    -0.0000796   -0.0002867     0.7292187   -0.4001874 
   0.009252301     0.8945603   -0.2849799    -0.0004238   -0.0001348     0.0001403    0.0005667     0.7272144   -0.4062063 
   0.009352326     0.9183294   -0.2833053     0.0013410    0.0003464     0.0002169   -0.0001387     0.7249504   -0.4019652 
   0.009452351     0.9057369   -0.2742374     0.0006705    0.0003369     0.0002336   -0.0000821     0.7178895   -0.4065078 
   0.009552376     0.8950183   -0.2924640     0.0003182   -0.0012115     0.0000247   -0.0001903     0.7167706   -0.4081114 
   0.009652401     0.8819069   -0.2967827     0.0000143   -0.0000467     0.0001572    0.0003416     0.7108534   -0.4097724 
   0.009752426     0.8961140   -0.2808876     0.0007329    0.0015012     0.0000802    0.0000868     0.7080378   -0.4053262 
   0.009852451     0.8847352   -0.2882437    -0.0011718   -0.0020771    -0.0000470    0.0002231     0.7044310   -0.4112697 
   0.009952476     0.8952751   -0.3069710    -0.0006533   -0.0003415     0.0000803    0.0000960     0.6983607   -0.4093931 
   0.010052501     0.9014072   -0.2794436    -0.0005307    0.0010935     0.0000375   -0.0002545     0.6962615   -0.4090124 
   0.010152526     0.8784789   -0.2889038    -0.0010540    0.0004065     0.0000982    0.0000867     0.6896377   -0.4130184 
   0.010252551     0.8740004   -0.2986287     0.0006502    0.0006974    -0.0002775   -0.0000718     0.6905681   -0.4168312 
   0.010352576     0.8808349   -0.3149982    -0.0003124   -0.0002229     0.0000700   -0.0000940     0.6836124   -0.4154647 
   0.010452601     0.8781170   -0.3036292    -0.0011331    0.0007717     0.0002038    0.0003703     0.6792323   -0.4193245 
   0.010552626     0.8667453   -0.3233031     0.0009981   -0.0007633    -0.0002647    0.0002186     0.6750191   -0.4183401 
   0.010652651     0.8809470   -0.3270749    -0.0006630   -0.0003289     0.0000926   -0.0001025     0.6704589   -0.4208099 
   0.010752676     0.8732811   -0.3246923     0.0006820   -0.0007006     0.0000443    0.0000329     0.6672216   -0.4191452 
   0.010852701     0.8720456   -0.3023021    -0.0008472   -0.0002755    -0.0000732   -0.0000086     0.6680870   -0.4195466 
   0.010952726     0.8684443   -0.3053802    -0.0008094    0.0000039    -0.0000154    0.0001916     0.6589365   -0.4235035 
   0.011052751     0.8665431   -0.3411441     0.0005239   -0.0003314    -0.0000209   -0.0002481     0.6566995   -0.4234277 
   0.011152776     0.8746422   -0.3215507    -0.0003919    0.0016195     0.0002286    0.0001525     0.6510586   -0.4241591 
   0.011252801     0.8636640   -0.3148277    -0.0007887   -0.0007696    -0.0001440    0.0003177     0.6482699   -0.4251144 
   0.011352826     0.8658690   -0.3404577     0.0006073   -0.0004487     0.0000201    0.0001685     0.6495712   -0.4230793 
   0.011452851     0.8624312   -0.3296224     0.0006571    0.0001588    -0.0001267   -0.0002179     0.6430876   -0.4278257 
   0.011552876     0.8525372   -0.3447493    -0.0006700   -0.0005212     0.0003098    0.0000416     0.6383881   -0.4299220 
   0.011652901     0.8478502   -0.3428269    -0.0006009    0.0009571    -0.0000301    0.0000364     0.6338252   -0.4262575 
   0.011752926     0.8431812   -0.3375678    -0.0004794    0.0003161     0.0001490   -0.0001093     0.6324394   -0.4290320 
   0.011852951     0.8502195   -0.3530901     0.0007940    0.0016597     0.0001285   -0.0002085     0.6266348   -0.4267963 
   0.011952976     0.8462263   -0.3436300     0.0008090    0.0000686    -0.0001106    0.0001890     0.6244518   -0.4304338 
   0.012053002     0.8468644   -0.3510017     0.0002949   -0.0009167     0.0000332    0.0002588     0.6212808   -0.4282852 
   0.012153027     0.8496496   -0.3525576    -0.0009957    0.0001620    -0.0000164   -0.0000438     0.6175311   -0.4290487 
   0.012253052     0.8312779   -0.3540272    -0.0001107   -0.0003738     0.0002459    0.0001304     0.6132842   -0.4309216 
   0.012353077     0.8481898   -0.3420263     0.0002249   -0.0012974    -0.0002495    0.0001142     0.6114900   -0.4292966 
   0.012453102     0.8503892   -0.3403546    -0.0000909    0.0008828    -0.0000394   -0.0001590     0.6034760   -0.4333939 
   0.012553127     0.8294638   -0.3635066    -0.0004829   -0.0000978     0.0000651    0.0001413     0.6003302   -0.4301401 
   0.012653152     0.8385749   -0.3548235    -0.0001466   -0.0007095    -0.0000118    0.0003456     0.5992485   -0.4326438 
   0.012753177     0.8301929   -0.3543582     0.0000529   -0.0002269    -0.0001580   -0.0000934     0.5959470   -0.4322895 
   0.012853202     0.8241007   -0.3432587     0.0003662   -0.0003479    -0.0001170    0.0003004     0.5898285   -0.4316078 
   0.012953227     0.8362437   -0.3446264    -0.0000671   -0.0009681     0.0001472   -0.0001478     0.5901080   -0.4306319 
   0.013053252     0.8302037   -0.3717068     0.0001203    0.0001026     0.0001886    0.0002196     0.5880052   -0.4316098 
   0.013153277     0.8219641   -0.3565790     0.0002429   -0.0009722     0.0000109    0.0001503     0.5851662   -0.4323397 
   0.013253302     0.8256086   -0.3601399    -0.0006294    0.0001102    -0.0001110    0.0003437     0.5807503   -0.4305198 
   0.013353327     0.8206127   -0.3622072     0.0008584    0.0008207    -0.0000787   -0.0001201     0.5755162   -0.4309545 
   0.013453352     0.8305936   -0.3574292    -0.0003648   -0.0009871     0.0000605   -0.0001194     0.5746896   -0.4320173 
   0.013553377     0.8060558   -0.3681767     0.0003643   -0.0000241     0.0001496    0.0001061     0.5686899   -0.4330325 
   0.013653402     0.8091946   -0.3741226     0.0008836    0.0005263    -0.0002674    0.0002298     0.5681119   -0.4315555 
   0.013753427     0.8147770   -0.3693836     0.0006990    0.0007602     0.0001809    0.0000320     0.5620894   -0.4325208 
   0.013853452     0.8142598   -0.3851294     0.0004718   -0.0001691     0.0000371   -0.0002120     0.5620543   -0.4294280 
   0.013953477     0.8074744   -0.3672225     0.0006930    0.0003949     0.0002341   -0.0001329     0.5569012   -0.4328020 
   0.014053502     0.8105166   -0.3931562    -0.0001261   -0.0003133     0.0000917   -0.0000516     0.5557609   -0.4298978 
   0.014153527     0.8038980   -0.3825565    -0.0004849    0.0000137    -0.0003446   -0.0001614     0.5533131   -0.4315266 
   0.014253552     0.8090801   -0.3786598     0.0006812   -0.0006898    -0.0002438    0.0001630     0.5519304   -0.4344018 
   0.014353577     0.7945949   -0.3790005     0.0003123   -0.0001738    -0.0002518   -0.0000833     0.5444024   -0.4303018 
   0.014453602     0.7894118   -0.3830873     0.0002447   -0.0002121    -0.0001140    0.0001642     0.5463763   -0.4298081 
   0.014553627     0.7963504   -0.3809867    -0.0003054   -0.0000370    -0.0000184    0.0002504     0.5403947   -0.4313297 
   0.014653652     0.7901852   -0.3840966    -0.0002565    0.0002017    -0.0001069    0.0002933     0.5360145   -0.4338651 
   0.014753677     0.7922256   -0.3827430    -0.0008315   -0.0002064    -0.0000593   -0.0001081     0.5342276   -0.4298707 
   0.014853702     0.7952749   -0.3853846    -0.0003445   -0.0006697     0.0001552   -0.0001223     0.5304328   -0.4305669 
   0.014953727     0.7809238   -0.4031342    -0.0002763    0.0008460    -0.0003427   -0.0001078     0.5304775   -0.4300708 
   0.015053752     0.7831456   -0.3979099    -0.0004243   -0.0003545     0.0000546    0.0002182     0.5266485   -0.4293900 
   0.015153777     0.7894833   -0.3967486    -0.0007013   -0.0000119     0.0000428   -0.0000618     0.5248622   -0.4302913 
   0.015253802     0.7806013   -0.3937902     0.0005220    0.0002043    -0.0002118   -0.0000249     0.5198934   -0.4293061 
   0.015353827     0.7686626   -0.3979377    -0.0001207   -0.0001839    -0.0002169   -0.0000553     0.5167146   -0.4282086 
   0.015453852     0.7784931   -0.3972071    -0.0003107    0.0003882     0.0001337    0.0001185     0.5142371   -0.4293384 
   0.015553877     0.7727972   -0.4007832    -0.0005200    0.0000022    -0.0000949   -0.0000690     0.5130334   -0.4281145 
   0.015653902     0.7701387   -0.4007915    -0.0000334   -0.0004677     0.0000477   -0.0001487     0.5097306   -0.4300437 
