! 26-Feb-26 12:23:12 PM
! E:\VNA_MEASUREMENTS\SP8T\SP8T_P5_RF8.S2P
! CHANNEL.1
! TR.MEASUREMENT
! CORRECTED.DATA
# GHZ S RI R 50.0
! FREQ.GHZ         S11RE         S11IM         S21RE         S21IM         S12RE         S12IM         S22RE         S22IM         
!; PortSelection: Port_12
   0.000050000     0.2318294    0.0915617     0.1384224   -0.0965586     0.0004564   -0.0067483     1.0061040    0.0002123 
   0.000150025     0.5821897   -0.0554477    -1.2335490   -0.6038044    -0.0003389    0.0013876     1.0081180   -0.0041066 
   0.000250050    -0.4390934   -0.1959893     0.0008451   -0.0005765     0.0006963    0.0008612     0.9937950   -0.0080412 
   0.000350075     1.0245040   -0.0693497    -0.0059844   -0.0119205    -0.0013430    0.0002160     0.9898598   -0.0283974 
   0.000450100     1.0829930   -0.0474257    -0.0004398   -0.0088609    -0.0004638   -0.0012594     0.9937763   -0.0155540 
   0.000550125     0.9886864   -0.0379231    -0.0017439   -0.0102635     0.0000452   -0.0004812     0.9914803   -0.0360167 
   0.000650150     0.9740682   -0.0906235    -0.0055835   -0.0057669    -0.0002299   -0.0001922     1.0053470   -0.0459529 
   0.000750175     1.0011910   -0.0820454    -0.0054861   -0.0129900    -0.0004104   -0.0000176     0.9923263   -0.0457727 
   0.000850200     0.9865811   -0.1032210    -0.0096754   -0.0105607    -0.0004160   -0.0004139     0.9933264   -0.0482846 
   0.000950225     1.0285530   -0.0391775    -0.0136877   -0.0025797    -0.0000748    0.0006589     0.9983664   -0.0626367 
   0.001050250     0.9739491   -0.0407713    -0.0096812   -0.0085145    -0.0001368   -0.0001855     0.9937940   -0.0636438 
   0.001150275     0.9884880   -0.0127788    -0.0062138   -0.0052194     0.0003532   -0.0003165     0.9833032   -0.0665444 
   0.001250300     0.9417221   -0.0389564    -0.0128200   -0.0041778    -0.0003141   -0.0007296     0.9881510   -0.0775524 
   0.001350325     1.0133850   -0.0643245    -0.0108333   -0.0025153    -0.0003060    0.0008796     0.9856586   -0.0907840 
   0.001450350     1.0247600   -0.0491458    -0.0073376   -0.0025933    -0.0000823    0.0003352     0.9880831   -0.0912190 
   0.001550375     0.9967914   -0.0745536    -0.0029476    0.0015082    -0.0006648    0.0006277     0.9889195   -0.0936785 
   0.001650400     0.9688228   -0.0219331    -0.0094132   -0.0021245    -0.0000326    0.0004293     0.9792076   -0.1039805 
   0.001750425     0.9629229   -0.0619671    -0.0097684   -0.0010191    -0.0003039    0.0010538     0.9926088   -0.1118226 
   0.001850450     0.9719573   -0.0623107    -0.0101069    0.0017010    -0.0004999   -0.0001420     0.9857615   -0.1153853 
   0.001950475     1.0564790   -0.0198422    -0.0083965   -0.0016672     0.0004067    0.0000426     0.9861845   -0.1271924 
   0.002050500     0.9666289   -0.0845703    -0.0058437    0.0005382    -0.0002781    0.0001594     0.9832472   -0.1348546 
   0.002150525     0.9984561   -0.0848058    -0.0069171    0.0045322    -0.0003390   -0.0009168     0.9733115   -0.1426688 
   0.002250550     0.9498170   -0.0656746    -0.0037056    0.0003571     0.0001313    0.0004579     0.9715952   -0.1465961 
   0.002350575     0.9504462   -0.0926557    -0.0055200    0.0043604    -0.0011875    0.0003846     0.9726482   -0.1466930 
   0.002450600     0.9960191   -0.0952758    -0.0050626    0.0053591     0.0001285   -0.0000627     0.9797898   -0.1560889 
   0.002550625     0.9980444   -0.0765786    -0.0043943    0.0024217    -0.0001440   -0.0001447     0.9689589   -0.1592331 
   0.002650650     1.0044240   -0.0450023    -0.0041989    0.0056452    -0.0001438   -0.0000311     0.9677037   -0.1766896 
   0.002750675     0.9733970   -0.0458268    -0.0049462    0.0002557    -0.0000394    0.0000877     0.9607013   -0.1763385 
   0.002850700     1.0099150   -0.0993313    -0.0055698    0.0039641    -0.0009735   -0.0001989     0.9611413   -0.1799375 
   0.002950725     0.9797357   -0.0989681    -0.0047973    0.0027523     0.0003113    0.0000436     0.9584757   -0.1821014 
   0.003050750     0.9695467   -0.0935609    -0.0026464    0.0033692     0.0002548    0.0009363     0.9575633   -0.1887543 
   0.003150775     0.9631712   -0.1601378    -0.0055857    0.0033157     0.0006914    0.0004593     0.9508751   -0.1977596 
   0.003250800     0.9707791   -0.0752130    -0.0011350    0.0014925    -0.0006160   -0.0002076     0.9484727   -0.2022065 
   0.003350825     0.9915673   -0.0955093    -0.0002749    0.0025072    -0.0001642   -0.0002875     0.9496877   -0.2038593 
   0.003450850     0.9468139   -0.1583986    -0.0030931    0.0027045     0.0003850    0.0005541     0.9442251   -0.2098587 
   0.003550875     0.9606953   -0.1341698    -0.0010580    0.0029999     0.0000717    0.0008055     0.9406471   -0.2218835 
   0.003650900     1.0087210   -0.1052828    -0.0018301    0.0032328    -0.0004500   -0.0004954     0.9378893   -0.2235091 
   0.003750925     0.9953588   -0.1131206    -0.0012566    0.0005826    -0.0000820   -0.0002355     0.9296091   -0.2315910 
   0.003850950     1.0030410   -0.1252650    -0.0002323    0.0024071    -0.0001367    0.0003366     0.9327437   -0.2347970 
   0.003950975     0.9983665   -0.1160517    -0.0013519    0.0002947     0.0000375   -0.0003242     0.9282717   -0.2363777 
   0.004051001     0.9539530   -0.1686898     0.0006883    0.0024021    -0.0002353   -0.0001887     0.9201906   -0.2480984 
   0.004151026     0.9948217   -0.1149350    -0.0024901    0.0014848     0.0002363    0.0003597     0.9230425   -0.2475522 
   0.004251051     0.9716449   -0.1147452    -0.0022203    0.0006593     0.0007838   -0.0000869     0.9130926   -0.2574256 
   0.004351076     0.9746327   -0.1288613    -0.0000973   -0.0003201     0.0003940    0.0000016     0.9161484   -0.2561047 
   0.004451101     1.0028410   -0.1593816    -0.0012588    0.0018812    -0.0001778    0.0003576     0.9099718   -0.2604386 
   0.004551126     1.0054650   -0.1589416     0.0026395    0.0019505     0.0002120    0.0003863     0.9096784   -0.2654994 
   0.004651151     0.9925271   -0.1584019     0.0022969    0.0028629    -0.0004582    0.0006615     0.9099783   -0.2728162 
   0.004751176     0.9788365   -0.1766580    -0.0038351    0.0007258    -0.0002922   -0.0000226     0.8992888   -0.2736987 
   0.004851201     0.9661270   -0.1517760    -0.0005000    0.0022422     0.0001565    0.0003983     0.8965307   -0.2813470 
   0.004951226     0.9716319   -0.1746722     0.0003753    0.0014428    -0.0002987   -0.0007905     0.8921309   -0.2781070 
   0.005051251     0.9901207   -0.1913284    -0.0003464    0.0008660    -0.0003608   -0.0002300     0.8910078   -0.2854085 
   0.005151276     0.9578503   -0.1450538     0.0005230    0.0007366     0.0000116   -0.0003127     0.8851352   -0.2928210 
   0.005251301     0.9692451   -0.1537874    -0.0002587    0.0007176    -0.0001978   -0.0001828     0.8807335   -0.2956076 
   0.005351326     0.9598908   -0.1873085     0.0009262   -0.0005346    -0.0001817   -0.0004681     0.8773224   -0.3039358 
   0.005451351     0.9571748   -0.1664155     0.0001536    0.0005790     0.0003470    0.0002892     0.8762726   -0.3070075 
   0.005551376     0.9874478   -0.2069202    -0.0001796    0.0003470     0.0004235    0.0001389     0.8695598   -0.3052165 
   0.005651401     0.9892793   -0.1702670     0.0002483   -0.0021716    -0.0000008   -0.0002699     0.8645415   -0.3189416 
   0.005751426     0.9483772   -0.1791027    -0.0018903    0.0001750     0.0000368   -0.0001330     0.8649839   -0.3168756 
   0.005851451     0.9456856   -0.2118767    -0.0021392   -0.0017290    -0.0000837    0.0002754     0.8603031   -0.3199466 
   0.005951476     0.9605477   -0.1603689    -0.0011192    0.0011816     0.0000201   -0.0003753     0.8565675   -0.3252945 
   0.006051501     0.9746493   -0.1976953     0.0021071   -0.0000695     0.0003093   -0.0003139     0.8489473   -0.3306636 
   0.006151526     0.9589279   -0.2235827    -0.0030236    0.0008291    -0.0002112    0.0005796     0.8475839   -0.3295837 
   0.006251551     0.9606321   -0.1907551    -0.0006792    0.0001243    -0.0001783    0.0003643     0.8412616   -0.3366832 
   0.006351576     0.9483985   -0.2377993     0.0018619    0.0006782    -0.0002678   -0.0001993     0.8366688   -0.3403802 
   0.006451601     0.9675002   -0.2166506    -0.0008880    0.0010746     0.0003508   -0.0003780     0.8329731   -0.3453854 
   0.006551626     0.9563442   -0.2230933     0.0004850   -0.0000204    -0.0000971   -0.0000631     0.8308186   -0.3411406 
   0.006651651     0.9693823   -0.2159679     0.0000167   -0.0002902     0.0003710   -0.0000085     0.8232026   -0.3495640 
   0.006751676     0.9463839   -0.2281519     0.0015849   -0.0004274     0.0005760    0.0001798     0.8190086   -0.3506896 
   0.006851701     0.9720047   -0.2311490    -0.0018582   -0.0002787     0.0005770   -0.0003298     0.8147888   -0.3557548 
   0.006951726     0.9451454   -0.2232001    -0.0000823   -0.0004236     0.0002786    0.0001783     0.8117949   -0.3556427 
   0.007051751     0.9594318   -0.2171198     0.0005665   -0.0011921    -0.0004492   -0.0003667     0.8069700   -0.3591045 
   0.007151776     0.9268781   -0.2512771    -0.0009844    0.0004790    -0.0002593   -0.0005639     0.7986552   -0.3632152 
   0.007251801     0.9749662   -0.2370187    -0.0005636    0.0016175     0.0005445   -0.0005200     0.7972353   -0.3689373 
   0.007351826     0.9582556   -0.2538446     0.0001586   -0.0012930    -0.0001069    0.0001884     0.7928141   -0.3733060 
   0.007451851     0.9313923   -0.2180579     0.0013463    0.0008208     0.0002821   -0.0003758     0.7882591   -0.3674751 
   0.007551876     0.9501225   -0.2646708    -0.0004517    0.0004276     0.0004766   -0.0000028     0.7901809   -0.3738736 
   0.007651901     0.9574642   -0.2604911     0.0016751    0.0011739     0.0001150    0.0000024     0.7804899   -0.3763183 
   0.007751926     0.9599959   -0.2479648     0.0005781   -0.0004547     0.0000784    0.0001163     0.7731692   -0.3804762 
   0.007851951     0.9503952   -0.2496691    -0.0000355   -0.0007667    -0.0002439   -0.0002074     0.7701222   -0.3811828 
   0.007951976     0.9414721   -0.2899989     0.0005377    0.0026587     0.0001247    0.0004862     0.7673128   -0.3828889 
   0.008052001     0.9414517   -0.2678349     0.0000680   -0.0008212    -0.0000885    0.0000854     0.7627251   -0.3842403 
   0.008152026     0.9390410   -0.2618677    -0.0005311    0.0001366    -0.0003140    0.0001348     0.7587683   -0.3871155 
   0.008252051     0.9184564   -0.2692509    -0.0005805   -0.0001049     0.0001838   -0.0000204     0.7556251   -0.3895690 
   0.008352076     0.9509934   -0.2699944     0.0007827    0.0010396     0.0001659   -0.0001791     0.7516850   -0.3933569 
   0.008452101     0.9451959   -0.2781993     0.0000358    0.0011044     0.0001412    0.0003704     0.7450854   -0.3926837 
   0.008552126     0.9456165   -0.2687444    -0.0007616   -0.0009694     0.0001921    0.0000956     0.7444345   -0.3976821 
   0.008652151     0.9489098   -0.2883500    -0.0005209   -0.0009768     0.0003274    0.0002643     0.7383245   -0.3969772 
   0.008752176     0.9543782   -0.2657728    -0.0007271    0.0006909     0.0000888    0.0000747     0.7338117   -0.3996938 
   0.008852201     0.9377142   -0.2784684     0.0001956   -0.0001604     0.0002842    0.0000654     0.7283725   -0.4000979 
   0.008952226     0.9563485   -0.2939379    -0.0009939   -0.0003096    -0.0000765    0.0006737     0.7260175   -0.4033972 
   0.009052251     0.9456947   -0.2900867     0.0001026    0.0013832    -0.0001147   -0.0001880     0.7243575   -0.4042552 
   0.009152276     0.9453225   -0.2786861     0.0000903   -0.0003219     0.0000690   -0.0004972     0.7163301   -0.4080297 
   0.009252301     0.9293799   -0.2943199     0.0005999    0.0010289    -0.0003020   -0.0002476     0.7148389   -0.4093168 
   0.009352326     0.9580272   -0.2945338    -0.0007159    0.0004030    -0.0002720    0.0001240     0.7099040   -0.4058709 
   0.009452351     0.9375767   -0.3009339    -0.0005167    0.0007730     0.0000857   -0.0001589     0.7037419   -0.4099349 
   0.009552376     0.9563256   -0.3027307    -0.0010095    0.0007675     0.0000421   -0.0000136     0.7025867   -0.4104961 
   0.009652401     0.9422895   -0.3004555     0.0005332   -0.0009164    -0.0003293   -0.0001711     0.6976346   -0.4132658 
   0.009752426     0.9422767   -0.2974368    -0.0005857   -0.0002983     0.0001948    0.0000560     0.6936867   -0.4124822 
   0.009852451     0.9386401   -0.3167672     0.0005673    0.0003858    -0.0001825    0.0000047     0.6874020   -0.4132551 
   0.009952476     0.9430230   -0.3227816    -0.0002614   -0.0004832    -0.0002298    0.0001432     0.6849988   -0.4167604 
   0.010052501     0.9277883   -0.3016175     0.0005764   -0.0003980     0.0001850   -0.0001351     0.6825769   -0.4134277 
   0.010152526     0.9186075   -0.3254687     0.0003237    0.0000807     0.0000029   -0.0003789     0.6767963   -0.4163272 
   0.010252551     0.9138870   -0.3179705    -0.0007154   -0.0001595    -0.0000223   -0.0000140     0.6741884   -0.4216361 
   0.010352576     0.9451036   -0.3476760     0.0000939   -0.0015173    -0.0000693    0.0002638     0.6675903   -0.4195420 
   0.010452601     0.9216073   -0.3096469    -0.0002704    0.0001789     0.0000943   -0.0001272     0.6634516   -0.4230982 
   0.010552626     0.9170030   -0.3451003    -0.0002383   -0.0010927    -0.0002403   -0.0000727     0.6618804   -0.4246970 
   0.010652651     0.9361392   -0.3321204    -0.0001444    0.0011803     0.0000851    0.0002070     0.6563592   -0.4222313 
   0.010752676     0.9312692   -0.3713212    -0.0011297    0.0011780    -0.0002993    0.0003756     0.6543252   -0.4230803 
   0.010852701     0.9278331   -0.3290487    -0.0013234   -0.0002263     0.0001176    0.0000365     0.6522409   -0.4228726 
   0.010952726     0.9086573   -0.3393679    -0.0003484   -0.0008277    -0.0001793    0.0000158     0.6436206   -0.4240385 
   0.011052751     0.9208190   -0.3505120     0.0002809   -0.0001568    -0.0000427   -0.0003671     0.6417909   -0.4281175 
   0.011152776     0.9153679   -0.3450829     0.0003999   -0.0009238    -0.0002333   -0.0000076     0.6370512   -0.4294549 
   0.011252801     0.9167237   -0.3612188    -0.0009969   -0.0013244    -0.0002896   -0.0000643     0.6326078   -0.4264548 
   0.011352826     0.9228365   -0.3773117    -0.0004583    0.0005529     0.0001029   -0.0002579     0.6331885   -0.4283802 
   0.011452851     0.9096256   -0.3556626     0.0004165   -0.0004301    -0.0000217    0.0001224     0.6259379   -0.4295942 
   0.011552876     0.9107516   -0.3604933     0.0012299    0.0000385     0.0001401   -0.0000544     0.6237652   -0.4301558 
   0.011652901     0.9061047   -0.3677569    -0.0007392   -0.0004545     0.0002586   -0.0002166     0.6184775   -0.4286312 
   0.011752926     0.8927915   -0.3517542     0.0004054    0.0005992    -0.0002028    0.0001807     0.6173422   -0.4296460 
   0.011852951     0.8978245   -0.3789064     0.0004683   -0.0008684    -0.0001239    0.0000793     0.6131691   -0.4306666 
   0.011952976     0.8992923   -0.3737729    -0.0005989    0.0004414    -0.0000475    0.0000637     0.6074375   -0.4324653 
   0.012053002     0.9055014   -0.3821511    -0.0017318   -0.0002140    -0.0002068    0.0003693     0.6068660   -0.4299757 
   0.012153027     0.9006775   -0.3916468    -0.0008113    0.0002529     0.0001853   -0.0002687     0.6016263   -0.4330626 
   0.012253052     0.8869317   -0.3942932     0.0001348    0.0000318     0.0002415    0.0001686     0.5976409   -0.4319012 
   0.012353077     0.9158623   -0.3718101     0.0008411   -0.0002330     0.0000683    0.0001655     0.5959349   -0.4327758 
   0.012453102     0.9033082   -0.3966958     0.0000059   -0.0005904    -0.0002300    0.0002449     0.5889448   -0.4341189 
   0.012553127     0.8795919   -0.4034706     0.0013208   -0.0013925     0.0002938   -0.0000003     0.5862079   -0.4320608 
   0.012653152     0.9100175   -0.3893852    -0.0008261   -0.0006817    -0.0000358   -0.0001340     0.5829654   -0.4339294 
   0.012753177     0.8709473   -0.4026051     0.0002561    0.0012730    -0.0002369    0.0004503     0.5814350   -0.4317191 
   0.012853202     0.8943010   -0.3776555     0.0002553    0.0005796    -0.0004133    0.0001903     0.5761719   -0.4333332 
   0.012953227     0.8896477   -0.3883713     0.0007293   -0.0002128     0.0001360   -0.0000930     0.5757636   -0.4349028 
   0.013053252     0.8835143   -0.4114597    -0.0006346   -0.0005203     0.0003107    0.0000015     0.5725705   -0.4319020 
   0.013153277     0.8871283   -0.4031681    -0.0001222    0.0008710     0.0001173   -0.0001562     0.5689708   -0.4356903 
   0.013253302     0.8925478   -0.4078106     0.0006464   -0.0008951     0.0000931   -0.0000793     0.5651895   -0.4308636 
   0.013353327     0.8873971   -0.4099153     0.0004674   -0.0007958     0.0000112    0.0000720     0.5593389   -0.4336411 
   0.013453352     0.8985022   -0.3947621     0.0005607    0.0009144     0.0003330   -0.0000959     0.5565963   -0.4322421 
   0.013553377     0.8788309   -0.4119097     0.0010663   -0.0002809     0.0000598    0.0002297     0.5528510   -0.4317490 
   0.013653402     0.8880150   -0.4085894     0.0003114   -0.0000114    -0.0000319    0.0001928     0.5518187   -0.4323935 
   0.013753427     0.8967988   -0.4162705    -0.0003134    0.0006509    -0.0002220   -0.0000947     0.5472201   -0.4324639 
   0.013853452     0.8799035   -0.4301001    -0.0000308   -0.0000391     0.0002952    0.0003799     0.5465153   -0.4322256 
   0.013953477     0.8713239   -0.4134016     0.0003344   -0.0003538     0.0001994   -0.0004545     0.5416123   -0.4326050 
   0.014053502     0.8735408   -0.4377284    -0.0012974    0.0004892     0.0001839    0.0002245     0.5391176   -0.4325209 
   0.014153527     0.8779961   -0.4354488     0.0007596    0.0000408     0.0002297    0.0001052     0.5375754   -0.4305204 
   0.014253552     0.8801228   -0.4341104    -0.0001526   -0.0009913    -0.0000060    0.0002566     0.5346254   -0.4323038 
   0.014353577     0.8637487   -0.4407394    -0.0002549   -0.0004366     0.0003967    0.0000058     0.5299125   -0.4323030 
   0.014453602     0.8559592   -0.4376238    -0.0004380   -0.0003693    -0.0003043   -0.0001950     0.5288203   -0.4292104 
   0.014553627     0.8650112   -0.4458062    -0.0008547   -0.0000682     0.0004129   -0.0000693     0.5257158   -0.4303585 
   0.014653652     0.8626194   -0.4463817     0.0004950    0.0002157    -0.0001009   -0.0002783     0.5204468   -0.4312535 
   0.014753677     0.8508259   -0.4460642    -0.0004959    0.0004205    -0.0001019   -0.0000884     0.5190154   -0.4281545 
   0.014853702     0.8794985   -0.4465733    -0.0000369   -0.0001219     0.0000703    0.0000400     0.5164927   -0.4294974 
   0.014953727     0.8701878   -0.4652239    -0.0001402   -0.0007150     0.0001565   -0.0001787     0.5110316   -0.4276732 
   0.015053752     0.8632042   -0.4497128     0.0005466   -0.0003624     0.0001799    0.0000571     0.5082130   -0.4269749 
   0.015153777     0.8585013   -0.4628215    -0.0005150   -0.0002641    -0.0000879   -0.0000801     0.5074707   -0.4278459 
   0.015253802     0.8523128   -0.4615744    -0.0006139    0.0000871    -0.0000853   -0.0001029     0.5059161   -0.4280546 
   0.015353827     0.8500491   -0.4579433     0.0001503   -0.0003064    -0.0003909    0.0001161     0.5030826   -0.4267240 
   0.015453852     0.8535722   -0.4637125     0.0001766    0.0009419     0.0001318   -0.0000399     0.4981665   -0.4263408 
   0.015553877     0.8533754   -0.4731418     0.0000163   -0.0005619    -0.0001339   -0.0000872     0.4966030   -0.4262969 
   0.015653902     0.8498551   -0.4765667     0.0003051   -0.0005163     0.0000411   -0.0000273     0.4951258   -0.4268667 
