! 26-Feb-26 1:00:21 PM
! E:\VNA_MEASUREMENTS\SP8T\SP8T_P7_RF2.S2P
! CHANNEL.1
! TR.MEASUREMENT
! CORRECTED.DATA
# GHZ S RI R 50.0
! FREQ.GHZ         S11RE         S11IM         S21RE         S21IM         S12RE         S12IM         S22RE         S22IM         
!; PortSelection: Port_12
   0.000050000     0.2809528   -0.0372704     0.1800366   -0.0743542    -0.0045944   -0.0109324     0.9757934    0.0664675 
   0.000150025    -0.1381216   -0.0685177     0.0527128   -0.7066740    -0.0001003   -0.0013293     0.9907367   -0.0120042 
   0.000250050    -0.1762663   -0.5522884     0.0012625    0.0013291    -0.0000935    0.0000126     1.0056090   -0.0176037 
   0.000350075     0.9989761   -0.0639991    -0.0031510   -0.0107663     0.0003639   -0.0004664     1.0009010   -0.0385370 
   0.000450100     0.9727205   -0.0504314    -0.0037482   -0.0096905    -0.0007043    0.0007387     0.9934800   -0.0157750 
   0.000550125     0.9999399   -0.0081248    -0.0120076   -0.0047151     0.0004666    0.0014464     0.9897959   -0.0404752 
   0.000650150     1.0039370   -0.0555341    -0.0027826   -0.0117435    -0.0007975    0.0014267     1.0014950   -0.0400548 
   0.000750175     0.9507150   -0.0836580    -0.0109210   -0.0091542     0.0006960   -0.0006666     0.9992776   -0.0570216 
   0.000850200     0.9996406   -0.1009730    -0.0067218   -0.0100187     0.0012463   -0.0001612     0.9938905   -0.0524192 
   0.000950225     1.0242500   -0.0187358    -0.0080016   -0.0047970    -0.0000341   -0.0000861     0.9916549   -0.0708885 
   0.001050250     0.9801160   -0.0350610    -0.0082686   -0.0047490    -0.0000615   -0.0003022     0.9969500   -0.0701078 
   0.001150275     0.9837094   -0.0417880    -0.0056528   -0.0059176     0.0004660    0.0002578     0.9914905   -0.0698802 
   0.001250300     0.9728603   -0.0417362    -0.0089549   -0.0032152    -0.0000469   -0.0001770     0.9925842   -0.0917031 
   0.001350325     0.9739559   -0.0420895    -0.0076595    0.0003364     0.0003770   -0.0000459     0.9882050   -0.0912155 
   0.001450350     0.9914643   -0.0433553    -0.0116523   -0.0022391    -0.0002792    0.0003003     0.9858834   -0.0897827 
   0.001550375     0.9774332   -0.0737758    -0.0097195   -0.0032337     0.0011825    0.0004336     0.9941862   -0.0962210 
   0.001650400     0.9624404   -0.0450929    -0.0066984   -0.0002406    -0.0005025   -0.0004030     0.9777563   -0.0968253 
   0.001750425     1.0103520   -0.0671124    -0.0094748    0.0043040     0.0000183    0.0002947     0.9837059   -0.1141076 
   0.001850450     1.0153910   -0.0246721    -0.0089165    0.0014328    -0.0003277   -0.0001520     0.9817582   -0.1183440 
   0.001950475     1.0179690   -0.0332214    -0.0092477    0.0030327     0.0009346   -0.0000560     0.9896200   -0.1244770 
   0.002050500     0.9520280   -0.0558792    -0.0066567    0.0027499    -0.0010691   -0.0004551     0.9812446   -0.1383059 
   0.002150525     1.0334990   -0.0749407    -0.0083069   -0.0007233     0.0007834    0.0005561     0.9740989   -0.1392058 
   0.002250550     0.9828641   -0.0736414    -0.0073247    0.0060762     0.0006170   -0.0001473     0.9750521   -0.1443893 
   0.002350575     0.9565187   -0.1085097    -0.0031060    0.0017081    -0.0004328    0.0005299     0.9765411   -0.1540193 
   0.002450600     0.9864765   -0.0567853    -0.0029352    0.0032731     0.0000470   -0.0001616     0.9789036   -0.1528523 
   0.002550625     1.0025420   -0.0852884    -0.0036832    0.0019041     0.0002793    0.0000663     0.9619716   -0.1679864 
   0.002650650     0.9840844   -0.0782460    -0.0059266   -0.0011983     0.0004889   -0.0001324     0.9706213   -0.1749216 
   0.002750675     0.9912230   -0.0414803    -0.0001686    0.0065510     0.0004981   -0.0004123     0.9617027   -0.1752731 
   0.002850700     0.9956671   -0.1216313    -0.0014049    0.0039804    -0.0001262   -0.0005508     0.9603528   -0.1782729 
   0.002950725     0.9737738   -0.0881612    -0.0037636    0.0021665    -0.0001794    0.0004924     0.9626158   -0.1784206 
   0.003050750     1.0095650   -0.1035192    -0.0037701    0.0015232    -0.0005006    0.0006940     0.9576044   -0.1887333 
   0.003150775     0.9819309   -0.1329292    -0.0035538    0.0060270    -0.0005678    0.0003689     0.9487641   -0.1994674 
   0.003250800     0.9800342   -0.1039689     0.0002983    0.0038098     0.0001908   -0.0000951     0.9534706   -0.2030452 
   0.003350825     0.9747615   -0.0892607     0.0029913    0.0006766    -0.0003785   -0.0002309     0.9453119   -0.2026497 
   0.003450850     0.9618433   -0.1589471    -0.0004602    0.0003361    -0.0005543    0.0005665     0.9526782   -0.2102828 
   0.003550875     0.9388199   -0.1318635    -0.0019378    0.0007701    -0.0006012    0.0003329     0.9377713   -0.2192402 
   0.003650900     0.9765328   -0.1328069     0.0023954    0.0049952    -0.0000875    0.0006220     0.9446248   -0.2261253 
   0.003750925     0.9375185   -0.1470236    -0.0010912    0.0027032     0.0002767   -0.0002664     0.9342169   -0.2322773 
   0.003850950     0.9704899   -0.1323146    -0.0003632    0.0018566     0.0004555    0.0005999     0.9357780   -0.2302075 
   0.003950975     0.9744019   -0.1121019    -0.0001208    0.0012139    -0.0001769   -0.0007960     0.9276141   -0.2365649 
   0.004051001     0.9584100   -0.1706291    -0.0019183   -0.0002098     0.0000049    0.0000440     0.9239990   -0.2432482 
   0.004151026     1.0094490   -0.1311832     0.0009997    0.0000304     0.0000767   -0.0001753     0.9214849   -0.2485063 
   0.004251051     0.9430651   -0.1282203    -0.0006840   -0.0018775    -0.0004960   -0.0001521     0.9200796   -0.2551678 
   0.004351076     0.9707753   -0.1486671     0.0008370    0.0017794    -0.0005304   -0.0004645     0.9126071   -0.2614464 
   0.004451101     1.0027800   -0.1619145    -0.0008429    0.0008730    -0.0004035   -0.0001162     0.9114901   -0.2590340 
   0.004551126     0.9803555   -0.1688741    -0.0006806    0.0033749     0.0004755    0.0000887     0.9107795   -0.2646709 
   0.004651151     0.9721523   -0.1688307     0.0016021    0.0010506     0.0003716    0.0003437     0.9049848   -0.2710816 
   0.004751176     0.9656736   -0.1811086     0.0003561    0.0000327     0.0001976    0.0000622     0.9049376   -0.2752860 
   0.004851201     0.9460872   -0.1651392     0.0004842    0.0011352    -0.0002020    0.0001050     0.8925234   -0.2787128 
   0.004951226     0.9427186   -0.1481028     0.0005730    0.0000095    -0.0003046   -0.0004019     0.8939822   -0.2840463 
   0.005051251     0.9692023   -0.1752451     0.0020807    0.0019830     0.0003614   -0.0002193     0.8947852   -0.2876927 
   0.005151276     0.9372478   -0.1454557     0.0015984    0.0018502     0.0002280    0.0002246     0.8861384   -0.2914443 
   0.005251301     0.9512836   -0.1639153     0.0001801   -0.0007788     0.0003426   -0.0003761     0.8798157   -0.2964346 
   0.005351326     0.9537631   -0.1559922     0.0005747    0.0025608     0.0002369    0.0000865     0.8825573   -0.3024116 
   0.005451351     0.9559181   -0.1759508     0.0008019    0.0001993     0.0002823   -0.0000839     0.8746600   -0.3088512 
   0.005551376     0.9656619   -0.1884502    -0.0020638    0.0003570     0.0002842    0.0002092     0.8685988   -0.3040254 
   0.005651401     0.9493661   -0.1728213    -0.0013490    0.0028930     0.0001593    0.0000868     0.8678012   -0.3178467 
   0.005751426     0.9374576   -0.1951777    -0.0004731   -0.0010385    -0.0001962   -0.0000479     0.8607920   -0.3137077 
   0.005851451     0.9409602   -0.2016838    -0.0012817    0.0009092    -0.0001845    0.0000322     0.8595495   -0.3247819 
   0.005951476     0.9443758   -0.1929789    -0.0015172    0.0009806     0.0005359   -0.0002639     0.8568743   -0.3225330 
   0.006051501     0.9461700   -0.1864363     0.0016102   -0.0002351     0.0002228    0.0001504     0.8499035   -0.3283604 
   0.006151526     0.9270655   -0.2262722     0.0009584   -0.0002522     0.0004472    0.0002961     0.8461663   -0.3362164 
   0.006251551     0.9472427   -0.1929963    -0.0008299   -0.0002795     0.0000751   -0.0001600     0.8430451   -0.3415560 
   0.006351576     0.9310251   -0.2169830     0.0006395   -0.0000207    -0.0001355    0.0002221     0.8372200   -0.3404449 
   0.006451601     0.9416440   -0.1931238    -0.0005666   -0.0009944    -0.0001245    0.0003829     0.8304833   -0.3452092 
   0.006551626     0.9274731   -0.1973645    -0.0005470   -0.0020803     0.0003210    0.0001298     0.8292537   -0.3465112 
   0.006651651     0.9326416   -0.2072663    -0.0008921    0.0015372     0.0002993    0.0004360     0.8232834   -0.3511145 
   0.006751676     0.9381818   -0.2069721     0.0003403    0.0004431    -0.0000417    0.0000475     0.8212662   -0.3490797 
   0.006851701     0.9576907   -0.2281451    -0.0016108   -0.0011532     0.0003560    0.0006358     0.8191301   -0.3576301 
   0.006951726     0.9137712   -0.2084199    -0.0007949    0.0015848     0.0000863   -0.0001620     0.8081112   -0.3534250 
   0.007051751     0.9520364   -0.2161371    -0.0001822    0.0005635     0.0001249    0.0000667     0.8049611   -0.3611381 
   0.007151776     0.9211452   -0.2453286     0.0000856   -0.0000441     0.0001602   -0.0001167     0.8003753   -0.3628367 
   0.007251801     0.9306135   -0.2225020     0.0002682   -0.0000325     0.0003866    0.0001637     0.7933344   -0.3691487 
   0.007351826     0.9305949   -0.2312903    -0.0007976    0.0018532     0.0006773    0.0001423     0.7951055   -0.3725719 
   0.007451851     0.9191427   -0.2379204    -0.0014689    0.0002732     0.0000361    0.0000027     0.7880399   -0.3695306 
   0.007551876     0.9331392   -0.2468151     0.0004710    0.0005315     0.0002019    0.0001162     0.7870966   -0.3719949 
   0.007651901     0.9389968   -0.2584071    -0.0001014    0.0001024    -0.0003837   -0.0002063     0.7828445   -0.3766488 
   0.007751926     0.9119283   -0.2330748     0.0007628    0.0002336     0.0000138    0.0002790     0.7770144   -0.3806781 
   0.007851951     0.9350671   -0.2579335     0.0002473    0.0005715     0.0001741    0.0002961     0.7728158   -0.3820619 
   0.007951976     0.9187344   -0.2686019     0.0010055   -0.0016791     0.0005825    0.0000658     0.7663481   -0.3853494 
   0.008052001     0.9163904   -0.2304528    -0.0009682    0.0001379    -0.0000054    0.0000029     0.7640134   -0.3856597 
   0.008152026     0.9119909   -0.2499326    -0.0009550   -0.0006467     0.0003484   -0.0003408     0.7622271   -0.3913112 
   0.008252051     0.9122432   -0.2567517     0.0003102    0.0005909    -0.0003987   -0.0002201     0.7560256   -0.3885968 
   0.008352076     0.9231178   -0.2548219    -0.0000046   -0.0000478     0.0001479    0.0001769     0.7512259   -0.3918267 
   0.008452101     0.9122779   -0.2603298    -0.0006856   -0.0000548     0.0000999    0.0004899     0.7519707   -0.3961993 
   0.008552126     0.9130815   -0.2529305     0.0009680    0.0000686     0.0002677    0.0000692     0.7433535   -0.3956408 
   0.008652151     0.9137288   -0.2534003    -0.0018148   -0.0001446     0.0002307    0.0002548     0.7410380   -0.4020239 
   0.008752176     0.9123882   -0.2567487    -0.0011526    0.0001193    -0.0002141    0.0004145     0.7359732   -0.4027554 
   0.008852201     0.8914363   -0.2561006     0.0014940    0.0004949    -0.0002485   -0.0000433     0.7300317   -0.4022608 
   0.008952226     0.9403717   -0.2756708     0.0010017   -0.0011003    -0.0001059    0.0002527     0.7291016   -0.4048292 
   0.009052251     0.9144797   -0.2599837     0.0000636   -0.0014852    -0.0001786   -0.0001221     0.7242280   -0.4056144 
   0.009152276     0.9154106   -0.2579243     0.0000696   -0.0013769     0.0001407    0.0002568     0.7148457   -0.4095104 
   0.009252301     0.9054860   -0.2887392     0.0010707    0.0000503    -0.0002117   -0.0003049     0.7145814   -0.4126854 
   0.009352326     0.9133291   -0.2854688    -0.0014511   -0.0013238     0.0000568    0.0001167     0.7103817   -0.4082689 
   0.009452351     0.8972337   -0.2776530    -0.0006628    0.0007786     0.0004195   -0.0004354     0.7051609   -0.4125459 
   0.009552376     0.8979229   -0.2839309    -0.0010326   -0.0004286    -0.0001171    0.0000238     0.7006108   -0.4117616 
   0.009652401     0.8982359   -0.2772895    -0.0008492    0.0008390    -0.0000457    0.0002203     0.6953827   -0.4145570 
   0.009752426     0.8920475   -0.2930469     0.0003387   -0.0008294     0.0000614   -0.0003397     0.6944913   -0.4153438 
   0.009852451     0.8845127   -0.2940867    -0.0006284    0.0013263    -0.0000677   -0.0005345     0.6879488   -0.4175886 
   0.009952476     0.8859094   -0.3003514     0.0000286    0.0007516     0.0003096    0.0001508     0.6832017   -0.4144922 
   0.010052501     0.8812745   -0.2967080     0.0001132   -0.0010337     0.0002063   -0.0001079     0.6828663   -0.4193145 
   0.010152526     0.8763810   -0.2887339     0.0003035    0.0002430     0.0001108   -0.0002008     0.6752985   -0.4167714 
   0.010252551     0.8726310   -0.2862186    -0.0001626   -0.0000294     0.0000199   -0.0000912     0.6747743   -0.4225924 
   0.010352576     0.9036343   -0.3072459     0.0002602    0.0011281     0.0001690    0.0000297     0.6682737   -0.4218578 
   0.010452601     0.8841411   -0.2985621    -0.0011172   -0.0004666     0.0001722   -0.0001040     0.6633772   -0.4253620 
   0.010552626     0.8625606   -0.3252924    -0.0011308    0.0010092    -0.0001987    0.0000084     0.6609668   -0.4274983 
   0.010652651     0.8741995   -0.3073690     0.0001765   -0.0001617     0.0002491    0.0000532     0.6568777   -0.4267114 
   0.010752676     0.8791083   -0.3227750    -0.0006741   -0.0001234    -0.0000461    0.0001227     0.6523715   -0.4239450 
   0.010852701     0.8718866   -0.3181199    -0.0010768    0.0005193    -0.0000838    0.0002628     0.6519622   -0.4268926 
   0.010952726     0.8742604   -0.3147534    -0.0020880   -0.0013450    -0.0003696   -0.0000916     0.6450943   -0.4273666 
   0.011052751     0.8780722   -0.3281964     0.0005985    0.0003373     0.0001435   -0.0002688     0.6431158   -0.4285100 
   0.011152776     0.8773409   -0.3179215    -0.0008989    0.0014894     0.0001576   -0.0000225     0.6379800   -0.4316249 
   0.011252801     0.8671042   -0.3160825     0.0000636    0.0002312     0.0003213    0.0003945     0.6326867   -0.4304304 
   0.011352826     0.8653443   -0.3442565    -0.0003038    0.0000123     0.0001895   -0.0002953     0.6309754   -0.4275977 
   0.011452851     0.8604066   -0.3214623     0.0003957    0.0005360     0.0003171    0.0001229     0.6269245   -0.4304572 
   0.011552876     0.8509352   -0.3498387    -0.0007854    0.0001997     0.0000464   -0.0002530     0.6228150   -0.4341556 
   0.011652901     0.8635008   -0.3437139    -0.0007855   -0.0002067    -0.0001362   -0.0000006     0.6180319   -0.4327928 
   0.011752926     0.8499935   -0.3405633     0.0000100    0.0001734    -0.0000991   -0.0000037     0.6163129   -0.4311764 
   0.011852951     0.8493274   -0.3468187     0.0013328    0.0000452    -0.0001107   -0.0002376     0.6137595   -0.4325860 
   0.011952976     0.8531675   -0.3363509     0.0002623    0.0003736    -0.0002762   -0.0000501     0.6082064   -0.4341673 
   0.012053002     0.8463617   -0.3384880     0.0005798    0.0010538    -0.0001731   -0.0001165     0.6067582   -0.4329852 
   0.012153027     0.8478951   -0.3496574     0.0003248    0.0005704    -0.0001211   -0.0002008     0.6021824   -0.4334245 
   0.012253052     0.8381045   -0.3613350    -0.0007165   -0.0008973    -0.0003311   -0.0001273     0.6000340   -0.4350012 
   0.012353077     0.8435494   -0.3490880     0.0006182    0.0001539    -0.0001317    0.0002512     0.5973720   -0.4328043 
   0.012453102     0.8401361   -0.3474377     0.0003187    0.0007944     0.0001400   -0.0000182     0.5894363   -0.4362880 
   0.012553127     0.8299602   -0.3710116    -0.0000328    0.0000750     0.0001049    0.0001981     0.5852627   -0.4307206 
   0.012653152     0.8401250   -0.3416520    -0.0002209   -0.0002652     0.0000350    0.0001194     0.5828754   -0.4360419 
   0.012753177     0.8208877   -0.3430906     0.0001651    0.0008923    -0.0002113   -0.0001339     0.5814518   -0.4351190 
   0.012853202     0.8391026   -0.3422250     0.0003555    0.0007552    -0.0001406   -0.0002188     0.5767347   -0.4354289 
   0.012953227     0.8291748   -0.3523651     0.0003422    0.0004575     0.0000740   -0.0001192     0.5757712   -0.4343155 
   0.013053252     0.8088898   -0.3723586    -0.0010420    0.0006320    -0.0002713   -0.0001108     0.5713340   -0.4336124 
   0.013153277     0.8283765   -0.3673145    -0.0001612    0.0002033     0.0001432    0.0001760     0.5674569   -0.4381520 
   0.013253302     0.8289938   -0.3573155    -0.0002071    0.0008266    -0.0001942    0.0002898     0.5655777   -0.4341514 
   0.013353327     0.8203291   -0.3615858    -0.0003503   -0.0003265     0.0001051   -0.0002272     0.5618896   -0.4365209 
   0.013453352     0.8171886   -0.3443838    -0.0009131    0.0001470     0.0001339    0.0001239     0.5597962   -0.4356559 
   0.013553377     0.8073544   -0.3650438     0.0001028    0.0007629    -0.0001191    0.0000769     0.5529740   -0.4349477 
   0.013653402     0.8140246   -0.3774399    -0.0002082   -0.0009057    -0.0000138    0.0000490     0.5500779   -0.4338706 
   0.013753427     0.8119289   -0.3703799    -0.0008067   -0.0003833     0.0001577   -0.0000342     0.5485864   -0.4344181 
   0.013853452     0.8042772   -0.3829331    -0.0006981    0.0002001     0.0000604   -0.0000810     0.5474731   -0.4333327 
   0.013953477     0.7866354   -0.3650164    -0.0005098   -0.0004147    -0.0000939   -0.0001341     0.5419281   -0.4332235 
   0.014053502     0.8066612   -0.3925334    -0.0003700    0.0002937     0.0001600   -0.0003140     0.5393652   -0.4333359 
   0.014153527     0.8069894   -0.3798546     0.0006238   -0.0004128    -0.0001781   -0.0003028     0.5378951   -0.4332390 
   0.014253552     0.8044869   -0.3768257     0.0003459   -0.0000106     0.0000750   -0.0001877     0.5343313   -0.4334233 
   0.014353577     0.8007569   -0.3821499    -0.0001391    0.0008441     0.0001827   -0.0001569     0.5279403   -0.4320913 
   0.014453602     0.7895580   -0.3721731     0.0002490   -0.0010225    -0.0000041   -0.0001629     0.5260613   -0.4323301 
   0.014553627     0.7919007   -0.3841849     0.0000128    0.0003200    -0.0000838   -0.0001266     0.5247276   -0.4341046 
   0.014653652     0.7981957   -0.3929618    -0.0004392   -0.0008050    -0.0000884   -0.0000256     0.5199355   -0.4313425 
   0.014753677     0.7923638   -0.3895375    -0.0002034   -0.0000941     0.0000200    0.0001796     0.5196979   -0.4311998 
   0.014853702     0.7972938   -0.3860223     0.0007036    0.0013817    -0.0000731    0.0002111     0.5153223   -0.4316676 
   0.014953727     0.7875557   -0.4001270    -0.0009707    0.0004644     0.0000462   -0.0000357     0.5125453   -0.4303137 
   0.015053752     0.7908329   -0.3975382     0.0001087    0.0004304    -0.0001038   -0.0001668     0.5097432   -0.4306521 
   0.015153777     0.7930145   -0.4037734    -0.0005508   -0.0005490    -0.0001599   -0.0001708     0.5075537   -0.4324352 
   0.015253802     0.7800436   -0.3951064    -0.0007998    0.0006238    -0.0001149   -0.0001578     0.5036897   -0.4301811 
   0.015353827     0.7810190   -0.4064299     0.0003922    0.0007949    -0.0000598   -0.0000673     0.4998464   -0.4304807 
   0.015453852     0.7758868   -0.4016356     0.0006940    0.0002986    -0.0000538    0.0000029     0.4979098   -0.4290834 
   0.015553877     0.7748081   -0.4126363    -0.0003072    0.0001654     0.0000931   -0.0001181     0.4975249   -0.4288401 
   0.015653902     0.7760713   -0.4084460    -0.0003859   -0.0000382    -0.0000558   -0.0000487     0.4941355   -0.4294565 
