! 26-Feb-26 1:12:12 PM
! E:\VNA_MEASUREMENTS\SP8T\SP8T_P8_RF4.S2P
! CHANNEL.1
! TR.MEASUREMENT
! CORRECTED.DATA
# GHZ S RI R 50.0
! FREQ.GHZ         S11RE         S11IM         S21RE         S21IM         S12RE         S12IM         S22RE         S22IM         
!; PortSelection: Port_12
   0.000050000     0.0454401    0.1052369    -0.3362743    0.0819560     0.0017759   -0.0052384     0.9571510   -0.0189198 
   0.000150025    -0.1504945    0.0395833     0.1519451    0.0901382    -0.0012844    0.0000128     1.0038720   -0.0056964 
   0.000250050    -3.7390200    0.0757054    -0.0151838   -0.0024302    -0.0003539    0.0023078     1.0035790   -0.0151659 
   0.000350075     1.0535180   -0.0901962    -0.0056229   -0.0083897    -0.0000261    0.0009371     0.9920458   -0.0331137 
   0.000450100     1.0217400   -0.0660735    -0.0013522   -0.0086624     0.0006919    0.0001459     0.9852050   -0.0232186 
   0.000550125     1.0011260   -0.0239470    -0.0055468   -0.0121857     0.0004764   -0.0000349     0.9933409   -0.0319603 
   0.000650150     1.0030920   -0.0207171    -0.0043713   -0.0096996    -0.0003589   -0.0000176     0.9926689   -0.0431233 
   0.000750175     1.0191680   -0.0549662    -0.0092184   -0.0095882    -0.0003931    0.0010982     1.0032270   -0.0522931 
   0.000850200     0.9702275   -0.0876820    -0.0060929   -0.0040211    -0.0009509    0.0003290     0.9927905   -0.0590816 
   0.000950225     0.9952607   -0.0631810    -0.0090798   -0.0116076    -0.0001736    0.0001767     0.9893590   -0.0692606 
   0.001050250     0.9857897   -0.0744623    -0.0058100   -0.0047779    -0.0010354    0.0011115     0.9990016   -0.0630760 
   0.001150275     1.0130410   -0.0608103    -0.0094439   -0.0093952     0.0000519   -0.0008106     0.9796085   -0.0687779 
   0.001250300     0.9525091   -0.0387957    -0.0093282   -0.0029102     0.0002239   -0.0004698     0.9899189   -0.0808158 
   0.001350325     1.0008650   -0.0588470    -0.0086606   -0.0036375     0.0006418    0.0003683     0.9853839   -0.0847032 
   0.001450350     1.0397190   -0.0685231    -0.0126933   -0.0013368    -0.0004628   -0.0002181     0.9846063   -0.0860284 
   0.001550375     0.9898944   -0.0673406    -0.0090120   -0.0034140    -0.0002583   -0.0000485     0.9907984   -0.0917599 
   0.001650400     1.0177250   -0.0122619    -0.0107252   -0.0020476    -0.0001173    0.0006462     0.9793432   -0.0993513 
   0.001750425     0.9600672   -0.0923253    -0.0085628    0.0012976    -0.0008582    0.0002937     0.9877657   -0.1068631 
   0.001850450     0.9545137   -0.0936397    -0.0047354    0.0046623     0.0000180    0.0009298     0.9842669   -0.1135706 
   0.001950475     1.0423390   -0.0168035    -0.0050124    0.0030954     0.0001990   -0.0001297     0.9785314   -0.1163577 
   0.002050500     0.9526858   -0.0836357    -0.0087699    0.0058416    -0.0003771    0.0005225     0.9792761   -0.1365474 
   0.002150525     0.9903008   -0.0757067    -0.0080742    0.0016126    -0.0006301   -0.0000859     0.9676028   -0.1349701 
   0.002250550     0.9393563   -0.0653266    -0.0035581    0.0061437    -0.0001827   -0.0005125     0.9732804   -0.1369124 
   0.002350575     0.9436041   -0.1469980    -0.0078176    0.0025642    -0.0003665   -0.0011133     0.9722390   -0.1446721 
   0.002450600     1.0010500   -0.0921215    -0.0045075    0.0057705     0.0003960    0.0002066     0.9774683   -0.1491620 
   0.002550625     0.9701552   -0.0694246    -0.0050388    0.0052071    -0.0003798    0.0005972     0.9739979   -0.1582571 
   0.002650650     1.0109320   -0.0835199    -0.0076802    0.0009050    -0.0007574   -0.0013669     0.9638766   -0.1658447 
   0.002750675     0.9898614   -0.0598826    -0.0044999    0.0035229    -0.0003199   -0.0006149     0.9631556   -0.1754848 
   0.002850700     0.9993278   -0.1103770    -0.0022206    0.0036466    -0.0004592    0.0006243     0.9627572   -0.1794669 
   0.002950725     0.9707342   -0.0896762    -0.0028526    0.0014848     0.0006544    0.0000248     0.9647149   -0.1822910 
   0.003050750     0.9647865   -0.0854022    -0.0005044    0.0024545    -0.0001442   -0.0002517     0.9530168   -0.1892413 
   0.003150775     0.9759735   -0.1159735    -0.0033056   -0.0011466    -0.0001081    0.0001784     0.9511377   -0.1927985 
   0.003250800     0.9611618   -0.1196989    -0.0019523    0.0022049     0.0002615   -0.0003587     0.9539354   -0.1986629 
   0.003350825     1.0131350   -0.1040961    -0.0015476    0.0029007     0.0013294   -0.0007332     0.9484457   -0.2020417 
   0.003450850     0.9416568   -0.1347365    -0.0011024    0.0034294     0.0001120   -0.0001264     0.9481240   -0.2082862 
   0.003550875     0.9281643   -0.1383531    -0.0000112    0.0027151     0.0002825    0.0001426     0.9471317   -0.2141568 
   0.003650900     0.9806657   -0.1380776    -0.0015489   -0.0011793    -0.0004161    0.0001743     0.9386178   -0.2230698 
   0.003750925     0.9472591   -0.1363141    -0.0031486    0.0026724     0.0003350    0.0003349     0.9390516   -0.2255845 
   0.003850950     0.9790615   -0.1405379    -0.0008130   -0.0000432    -0.0002311    0.0002944     0.9380682   -0.2343983 
   0.003950975     0.9833713   -0.1253291    -0.0014454    0.0027796     0.0003448    0.0001649     0.9283403   -0.2326577 
   0.004051001     0.9585279   -0.1678638     0.0009256   -0.0001444     0.0003329   -0.0002565     0.9238368   -0.2421245 
   0.004151026     0.9643924   -0.1410519     0.0006434   -0.0005621    -0.0009565    0.0001246     0.9229562   -0.2443621 
   0.004251051     0.9851392   -0.1298920    -0.0009630    0.0013924    -0.0004060   -0.0001790     0.9150819   -0.2540602 
   0.004351076     0.9594473   -0.1055333    -0.0025428    0.0026275     0.0003072    0.0005313     0.9147048   -0.2538099 
   0.004451101     0.9541872   -0.1747320     0.0002403    0.0019168     0.0000418    0.0007168     0.9157139   -0.2593841 
   0.004551126     0.9622983   -0.1465277    -0.0025075    0.0019638     0.0004080   -0.0006283     0.9181194   -0.2595583 
   0.004651151     0.9567016   -0.1384146    -0.0011749    0.0009318    -0.0000661    0.0000812     0.9117303   -0.2650604 
   0.004751176     0.9859261   -0.1735654     0.0016128    0.0007352     0.0000576    0.0001850     0.9064778   -0.2747799 
   0.004851201     0.9306192   -0.1755522    -0.0007431   -0.0002550    -0.0001613    0.0000026     0.8956703   -0.2759634 
   0.004951226     0.9588900   -0.1513463    -0.0003475   -0.0005314     0.0004368    0.0002588     0.8975059   -0.2763931 
   0.005051251     0.9731357   -0.1659591    -0.0003707   -0.0003571    -0.0004684    0.0003344     0.8923943   -0.2826453 
   0.005151276     0.9468076   -0.1518762    -0.0000177    0.0014765     0.0005379   -0.0000957     0.8872281   -0.2869144 
   0.005251301     0.9442904   -0.1751837    -0.0029711   -0.0004505    -0.0004662   -0.0003317     0.8887070   -0.2896577 
   0.005351326     0.9319824   -0.1593347     0.0004169    0.0017713    -0.0000365   -0.0001902     0.8822998   -0.2915624 
   0.005451351     0.9655052   -0.1590504     0.0012990   -0.0017735     0.0000356   -0.0005122     0.8790652   -0.3026651 
   0.005551376     0.9799085   -0.1851211     0.0005335    0.0011585     0.0000026   -0.0004347     0.8714831   -0.2989659 
   0.005651401     0.9451206   -0.1841056    -0.0010593    0.0007543     0.0004190    0.0003828     0.8718380   -0.3119231 
   0.005751426     0.9253795   -0.1814929     0.0010760    0.0006285     0.0003151   -0.0006232     0.8674764   -0.3147207 
   0.005851451     0.9438040   -0.1755241     0.0006998    0.0009444     0.0004386    0.0011133     0.8622805   -0.3204597 
   0.005951476     0.9376842   -0.1946520    -0.0011082    0.0007822     0.0004724    0.0004576     0.8591734   -0.3165925 
   0.006051501     0.9476095   -0.2034332     0.0005467    0.0001314    -0.0001688   -0.0004708     0.8601922   -0.3222725 
   0.006151526     0.9126610   -0.2069443    -0.0010507   -0.0008671    -0.0006007   -0.0002757     0.8487236   -0.3282411 
   0.006251551     0.9455557   -0.1957684     0.0011592   -0.0005621    -0.0003632   -0.0005681     0.8487133   -0.3317753 
   0.006351576     0.9515634   -0.2105230     0.0019445    0.0000629     0.0002626    0.0000716     0.8434480   -0.3330046 
   0.006451601     0.9326031   -0.2156840    -0.0000743   -0.0000418     0.0001307   -0.0003217     0.8388466   -0.3407227 
   0.006551626     0.9272395   -0.1948371     0.0002558    0.0005008    -0.0000248    0.0000030     0.8362479   -0.3397306 
   0.006651651     0.9324746   -0.2133625    -0.0008545    0.0007116    -0.0000369   -0.0000088     0.8272990   -0.3437728 
   0.006751676     0.9324995   -0.2176225    -0.0005621    0.0016471     0.0000267   -0.0002158     0.8272223   -0.3456157 
   0.006851701     0.9334162   -0.2292982    -0.0003656   -0.0019049     0.0003472    0.0003563     0.8215127   -0.3452011 
   0.006951726     0.9087159   -0.2253911    -0.0008533    0.0015894     0.0002590   -0.0002081     0.8213128   -0.3522732 
   0.007051751     0.9212171   -0.2052100    -0.0003532    0.0005891     0.0003151    0.0000411     0.8147348   -0.3557498 
   0.007151776     0.9013180   -0.2074484    -0.0009410    0.0008073    -0.0004198   -0.0000319     0.8006608   -0.3581421 
   0.007251801     0.9498480   -0.2229926     0.0001047    0.0013793    -0.0000868    0.0004182     0.8019718   -0.3618409 
   0.007351826     0.9257274   -0.2453411    -0.0001649   -0.0018881     0.0002789   -0.0004728     0.8016099   -0.3681705 
   0.007451851     0.9130449   -0.2326595    -0.0002970    0.0007325    -0.0001784    0.0000639     0.7959415   -0.3622020 
   0.007551876     0.9283012   -0.2380577    -0.0012490   -0.0004114    -0.0002540    0.0000332     0.7934063   -0.3667642 
   0.007651901     0.9314274   -0.2438402    -0.0007122   -0.0004848     0.0002702   -0.0000846     0.7874618   -0.3684398 
   0.007751926     0.9193646   -0.2327948    -0.0006941   -0.0008653    -0.0000838    0.0004423     0.7850243   -0.3740742 
   0.007851951     0.9257518   -0.2585846     0.0010868    0.0003199     0.0004097   -0.0001634     0.7828252   -0.3775487 
   0.007951976     0.9134088   -0.2819238     0.0000045   -0.0006179     0.0001799   -0.0000145     0.7762458   -0.3751124 
   0.008052001     0.9230191   -0.2510858     0.0006773    0.0026528     0.0001996   -0.0000346     0.7666667   -0.3824100 
   0.008152026     0.9073974   -0.2567952     0.0001099   -0.0015815     0.0000399   -0.0001379     0.7690440   -0.3851568 
   0.008252051     0.8961826   -0.2319409    -0.0000203   -0.0005772     0.0003440   -0.0000672     0.7626967   -0.3879139 
   0.008352076     0.9283946   -0.2674021     0.0006204   -0.0001709     0.0000132    0.0002222     0.7584565   -0.3914881 
   0.008452101     0.9139369   -0.2440918     0.0008091    0.0001501     0.0003116   -0.0001459     0.7553820   -0.3906330 
   0.008552126     0.9239625   -0.2627799     0.0010642   -0.0000896    -0.0002240    0.0002558     0.7490584   -0.3897291 
   0.008652151     0.9024616   -0.2619714    -0.0001203   -0.0004632    -0.0000531   -0.0000515     0.7475764   -0.3965894 
   0.008752176     0.9096746   -0.2469112     0.0001841   -0.0004939     0.0000303    0.0002087     0.7424070   -0.3977283 
   0.008852201     0.8955655   -0.2523077     0.0014891    0.0008358     0.0003582    0.0004752     0.7369329   -0.3960362 
   0.008952226     0.9109320   -0.2665488     0.0003677    0.0003272     0.0000480    0.0001528     0.7361845   -0.3998528 
   0.009052251     0.9084465   -0.2590365     0.0015683   -0.0003971    -0.0001034    0.0000852     0.7294669   -0.4017330 
   0.009152276     0.8969054   -0.2504998    -0.0006157    0.0002298     0.0000163   -0.0000057     0.7263947   -0.4066906 
   0.009252301     0.8910531   -0.2863551    -0.0008050   -0.0000718    -0.0002571    0.0000826     0.7221892   -0.4088894 
   0.009352326     0.8998517   -0.2705722     0.0000398    0.0010551     0.0000649    0.0002205     0.7191100   -0.4029072 
   0.009452351     0.9018281   -0.2698103    -0.0009953    0.0006084     0.0002503    0.0001186     0.7123174   -0.4071655 
   0.009552376     0.9100605   -0.2909228    -0.0011531    0.0002584    -0.0000380   -0.0000081     0.7089968   -0.4083837 
   0.009652401     0.8892991   -0.2796055     0.0006652   -0.0004370     0.0004107   -0.0002324     0.7043307   -0.4102720 
   0.009752426     0.8909571   -0.2933447     0.0002608    0.0012061     0.0000642   -0.0001895     0.7031369   -0.4100557 
   0.009852451     0.8901770   -0.3069440     0.0000579   -0.0000735    -0.0001697   -0.0000316     0.6971931   -0.4124217 
   0.009952476     0.8948444   -0.3055171     0.0005672    0.0003141     0.0000819    0.0001464     0.6924515   -0.4107206 
   0.010052501     0.8870389   -0.2909959    -0.0001214    0.0005188    -0.0000901   -0.0001495     0.6925123   -0.4152660 
   0.010152526     0.8774346   -0.2907602     0.0002010    0.0001432     0.0002613   -0.0002410     0.6826720   -0.4125159 
   0.010252551     0.8625945   -0.3033550     0.0001880    0.0008999     0.0001608    0.0000055     0.6848978   -0.4197160 
   0.010352576     0.8896962   -0.3103885    -0.0010079    0.0001708    -0.0000233    0.0000543     0.6773641   -0.4207540 
   0.010452601     0.8986920   -0.2979070     0.0003374   -0.0002774    -0.0001709    0.0001015     0.6731389   -0.4201449 
   0.010552626     0.8414387   -0.3126925     0.0001294   -0.0009222    -0.0001337   -0.0000261     0.6704746   -0.4216428 
   0.010652651     0.8776798   -0.3071990    -0.0007346    0.0005486    -0.0000716   -0.0000379     0.6657862   -0.4249171 
   0.010752676     0.8837309   -0.3396757    -0.0000356   -0.0003803     0.0001104   -0.0000538     0.6641837   -0.4224031 
   0.010852701     0.8776734   -0.2916566    -0.0008341    0.0002443     0.0002097   -0.0000564     0.6594502   -0.4202935 
   0.010952726     0.8680193   -0.3145848    -0.0004565   -0.0008650    -0.0003837   -0.0001248     0.6551038   -0.4246334 
   0.011052751     0.8632796   -0.3169269    -0.0009767   -0.0006547     0.0002609   -0.0000382     0.6516488   -0.4244713 
   0.011152776     0.8573946   -0.3132956    -0.0004585    0.0005733     0.0000234   -0.0000148     0.6491503   -0.4275764 
   0.011252801     0.8629842   -0.3364721    -0.0001218    0.0005332     0.0001089   -0.0001490     0.6446784   -0.4263268 
   0.011352826     0.8607451   -0.3509919     0.0009383    0.0001241     0.0000770    0.0003652     0.6414911   -0.4260914 
   0.011452851     0.8380219   -0.3264618     0.0000650    0.0003478    -0.0001255    0.0001821     0.6358016   -0.4302984 
   0.011552876     0.8441660   -0.3338012    -0.0003473   -0.0008557    -0.0000210    0.0000168     0.6328401   -0.4317519 
   0.011652901     0.8455958   -0.3443231     0.0003054    0.0002463    -0.0000005   -0.0002335     0.6284372   -0.4291945 
   0.011752926     0.8441151   -0.3429608    -0.0000303   -0.0008219    -0.0001005    0.0002800     0.6271545   -0.4286398 
   0.011852951     0.8510769   -0.3411687     0.0009323    0.0002591    -0.0000607    0.0001628     0.6231290   -0.4282178 
   0.011952976     0.8378435   -0.3286296    -0.0006201    0.0005036    -0.0001162    0.0001997     0.6169432   -0.4304952 
   0.012053002     0.8344539   -0.3575762    -0.0005178   -0.0002349     0.0001332    0.0000161     0.6130528   -0.4306629 
   0.012153027     0.8402830   -0.3482473    -0.0005607   -0.0001893    -0.0002564   -0.0001619     0.6116806   -0.4319010 
   0.012253052     0.8287995   -0.3524137    -0.0005127   -0.0000975    -0.0003500   -0.0001713     0.6069717   -0.4312299 
   0.012353077     0.8400189   -0.3447971    -0.0005738    0.0000839     0.0001786   -0.0001561     0.6060359   -0.4322831 
   0.012453102     0.8286452   -0.3366084    -0.0011486    0.0004752    -0.0001779    0.0002981     0.5995432   -0.4344738 
   0.012553127     0.8325046   -0.3619631     0.0000403   -0.0000554     0.0000252   -0.0001760     0.5943558   -0.4314844 
   0.012653152     0.8333380   -0.3390424    -0.0000480    0.0004699     0.0000484   -0.0000822     0.5950055   -0.4320444 
   0.012753177     0.8296459   -0.3505532    -0.0000332   -0.0004941    -0.0003395    0.0000256     0.5911579   -0.4323127 
   0.012853202     0.8221965   -0.3365363    -0.0005179   -0.0001550    -0.0001504   -0.0001779     0.5860062   -0.4319000 
   0.012953227     0.8253422   -0.3520368    -0.0010562    0.0004282     0.0002460    0.0000539     0.5853049   -0.4324026 
   0.013053252     0.8157907   -0.3624122    -0.0000592    0.0000324    -0.0003319    0.0001701     0.5806714   -0.4323367 
   0.013153277     0.8258213   -0.3599748     0.0004118   -0.0001466    -0.0000633   -0.0000253     0.5775638   -0.4354680 
   0.013253302     0.8233337   -0.3446847     0.0017088   -0.0001442    -0.0002508   -0.0003050     0.5754778   -0.4320303 
   0.013353327     0.8116027   -0.3651427     0.0001666    0.0006907    -0.0000818    0.0002822     0.5703880   -0.4328688 
   0.013453352     0.8202762   -0.3490836     0.0006961    0.0003972    -0.0000675    0.0000168     0.5658298   -0.4321665 
   0.013553377     0.8071760   -0.3558514     0.0001323    0.0005384    -0.0001157    0.0000736     0.5640534   -0.4333062 
   0.013653402     0.8031517   -0.3653269    -0.0000436   -0.0000702    -0.0000614    0.0001079     0.5610911   -0.4320382 
   0.013753427     0.8096402   -0.3752207     0.0001256   -0.0000481    -0.0002371   -0.0002274     0.5578727   -0.4324489 
   0.013853452     0.8137501   -0.3825172    -0.0000959    0.0001015    -0.0001567    0.0002032     0.5576202   -0.4311819 
   0.013953477     0.8053417   -0.3618415    -0.0000468    0.0014307     0.0000156    0.0000453     0.5533581   -0.4325005 
   0.014053502     0.8116855   -0.3901017    -0.0001535    0.0014571    -0.0003406    0.0001633     0.5476667   -0.4289514 
   0.014153527     0.8042853   -0.3774210    -0.0012635   -0.0000642    -0.0001439   -0.0001652     0.5467031   -0.4319452 
   0.014253552     0.7965071   -0.3844955    -0.0003978    0.0002258    -0.0001872   -0.0003765     0.5437662   -0.4308486 
   0.014353577     0.7913716   -0.3743970    -0.0005280    0.0003704    -0.0001905   -0.0000392     0.5396626   -0.4320631 
   0.014453602     0.7886185   -0.3817185    -0.0003182   -0.0004224     0.0001738    0.0004526     0.5368187   -0.4313403 
   0.014553627     0.7914086   -0.3842328    -0.0001931   -0.0003386    -0.0004621   -0.0000026     0.5360011   -0.4302573 
   0.014653652     0.7943081   -0.3871336    -0.0001937    0.0002071     0.0001457    0.0002119     0.5291195   -0.4311023 
   0.014753677     0.7869433   -0.3835565    -0.0005584    0.0007006    -0.0004828    0.0001836     0.5276992   -0.4282566 
   0.014853702     0.7902604   -0.3772059    -0.0006125   -0.0008220    -0.0000007    0.0002192     0.5252587   -0.4297616 
   0.014953727     0.7805273   -0.3939692     0.0000479    0.0000269    -0.0001934   -0.0001314     0.5220437   -0.4287406 
   0.015053752     0.7810559   -0.3907870    -0.0008791    0.0001223    -0.0001210    0.0000562     0.5189809   -0.4283404 
   0.015153777     0.7815960   -0.3926660    -0.0003834    0.0002416    -0.0004431   -0.0001280     0.5215023   -0.4311712 
   0.015253802     0.7830887   -0.3909337    -0.0010588   -0.0002696     0.0000055   -0.0000348     0.5140067   -0.4301795 
   0.015353827     0.7702829   -0.4050489    -0.0001662   -0.0000173    -0.0001058   -0.0002119     0.5096102   -0.4293964 
   0.015453852     0.7761227   -0.3932227    -0.0002706   -0.0007506    -0.0000257   -0.0001193     0.5081930   -0.4288826 
   0.015553877     0.7701914   -0.4029133     0.0000808   -0.0004297     0.0000062   -0.0000206     0.5066474   -0.4276096 
   0.015653902     0.7749513   -0.4067456    -0.0008402    0.0004390    -0.0000753    0.0003053     0.5040048   -0.4294476 
