! 26-Feb-26 11:35:30 AM
! E:\VNA_MEASUREMENTS\SP8T\SP8T_P2_RF6.S2P
! CHANNEL.1
! TR.MEASUREMENT
! CORRECTED.DATA
# GHZ S RI R 50.0
! FREQ.GHZ         S11RE         S11IM         S21RE         S21IM         S12RE         S12IM         S22RE         S22IM         
!; PortSelection: Port_12
   0.000050000     0.1893642   -0.0491274    -0.0614825    0.0315107     0.0086108    0.0015800     0.9380720    0.0327691 
   0.000150025    -0.0130728    0.0836952     0.2866165    0.1618194     0.0001944    0.0011761     1.0013560    0.0009952 
   0.000250050    -0.3161013   -0.1609185    -0.0012136   -0.0028377     0.0000829    0.0001826     1.0038250   -0.0105349 
   0.000350075     1.0363050   -0.0413933     0.0040026   -0.0103185     0.0005471    0.0007121     0.9903086   -0.0332750 
   0.000450100     0.9884495   -0.0316127     0.0000594   -0.0096970    -0.0002956    0.0007590     0.9888006   -0.0232421 
   0.000550125     1.0128050   -0.0276045    -0.0093704   -0.0115111     0.0009434   -0.0009854     0.9899865   -0.0376712 
   0.000650150     1.0105310   -0.0129550    -0.0023649   -0.0105634    -0.0009299   -0.0012376     1.0006060   -0.0465433 
   0.000750175     0.9910203   -0.0856256    -0.0034736   -0.0064129     0.0010998   -0.0002557     0.9944411   -0.0507766 
   0.000850200     1.0029710   -0.0739703    -0.0068869   -0.0099901    -0.0003690   -0.0007763     1.0006600   -0.0515839 
   0.000950225     1.0134580   -0.0789323    -0.0072944   -0.0008698    -0.0002064    0.0001226     0.9972918   -0.0695899 
   0.001050250     0.9889147   -0.0300771    -0.0130306   -0.0041781    -0.0004222   -0.0001768     0.9894966   -0.0601529 
   0.001150275     1.0285550   -0.0376003    -0.0046246   -0.0033779    -0.0008631    0.0002899     0.9896578   -0.0698457 
   0.001250300     0.9510965   -0.0237909    -0.0089851   -0.0068542    -0.0001813   -0.0002206     0.9965192   -0.0915731 
   0.001350325     1.0158140   -0.0570399    -0.0110691   -0.0065945     0.0000284    0.0002619     0.9911881   -0.0879260 
   0.001450350     0.9889262   -0.0595246    -0.0072872   -0.0047931    -0.0002705   -0.0006618     0.9807921   -0.0850938 
   0.001550375     0.9956703   -0.0957336    -0.0062993    0.0021796    -0.0003635    0.0011114     0.9965314   -0.0952483 
   0.001650400     0.9816461   -0.0379525    -0.0081726   -0.0010827    -0.0000411   -0.0003231     0.9803440   -0.1045130 
   0.001750425     0.9792795   -0.0906514    -0.0075219    0.0002318     0.0001945    0.0006803     0.9828548   -0.1122164 
   0.001850450     1.0072880   -0.0557046    -0.0051252    0.0022910     0.0003430   -0.0005654     0.9775167   -0.1186557 
   0.001950475     1.0334090   -0.0749634    -0.0079309    0.0018636    -0.0003422    0.0005103     0.9795438   -0.1276755 
   0.002050500     0.9378409   -0.0485865    -0.0053174    0.0004068    -0.0001838   -0.0004216     0.9853469   -0.1338581 
   0.002150525     0.9955791   -0.0570694    -0.0060514    0.0040093    -0.0002978    0.0000621     0.9756703   -0.1362366 
   0.002250550     0.9902001   -0.0925291    -0.0039872    0.0073099     0.0001118   -0.0001520     0.9778903   -0.1384161 
   0.002350575     0.9857826   -0.0939800    -0.0022481    0.0039625     0.0001688   -0.0006504     0.9756149   -0.1458386 
   0.002450600     1.0064630   -0.0967321    -0.0058382    0.0034959    -0.0001868    0.0005590     0.9766863   -0.1513497 
   0.002550625     1.0108210   -0.0710107    -0.0066060    0.0011255    -0.0000815   -0.0012147     0.9722853   -0.1621071 
   0.002650650     1.0217110   -0.0473147    -0.0038116   -0.0003790     0.0001788    0.0002808     0.9720097   -0.1685863 
   0.002750675     0.9592943   -0.0354794    -0.0049595    0.0030445    -0.0001847   -0.0002257     0.9619613   -0.1696838 
   0.002850700     0.9997404   -0.1171144     0.0005389    0.0034940    -0.0004906    0.0002947     0.9570726   -0.1777850 
   0.002950725     0.9730318   -0.0640768    -0.0038042    0.0045387    -0.0001407   -0.0000927     0.9597400   -0.1780503 
   0.003050750     0.9765595   -0.0819571    -0.0068756    0.0034585     0.0002411   -0.0005122     0.9591882   -0.1860124 
   0.003150775     0.9577963   -0.1316554    -0.0014092    0.0008335    -0.0000901   -0.0005120     0.9478801   -0.1933504 
   0.003250800     0.9895284   -0.1035857    -0.0058971    0.0012903     0.0003016   -0.0001364     0.9538054   -0.1972939 
   0.003350825     0.9722365   -0.1060138    -0.0029741    0.0032052    -0.0000394   -0.0001749     0.9505000   -0.2081052 
   0.003450850     0.9535537   -0.1635016    -0.0028149    0.0018966     0.0002710    0.0001052     0.9466130   -0.2048818 
   0.003550875     0.9739243   -0.1236756     0.0003858    0.0018430    -0.0003064    0.0008822     0.9426810   -0.2167775 
   0.003650900     0.9879909   -0.1159667    -0.0025798    0.0049511    -0.0002563   -0.0001489     0.9459544   -0.2246175 
   0.003750925     0.9631931   -0.1216433    -0.0018390    0.0021563    -0.0006093    0.0004599     0.9339172   -0.2287969 
   0.003850950     0.9705736   -0.1087314    -0.0018021    0.0045263    -0.0003958   -0.0003056     0.9361950   -0.2272246 
   0.003950975     0.9874611   -0.1166474     0.0013931    0.0024841    -0.0003397    0.0002635     0.9303697   -0.2291695 
   0.004051001     0.9640835   -0.1537437    -0.0012304    0.0023482     0.0000972   -0.0002557     0.9268981   -0.2389344 
   0.004151026     0.9976788   -0.1233110    -0.0008148    0.0014003    -0.0000672    0.0004468     0.9215807   -0.2439734 
   0.004251051     0.9770322   -0.1323621     0.0007028    0.0008486     0.0002954   -0.0000412     0.9223034   -0.2569139 
   0.004351076     0.9840111   -0.1402231    -0.0011926   -0.0016760    -0.0004935    0.0000021     0.9156667   -0.2539624 
   0.004451101     0.9913802   -0.1563943     0.0000345    0.0026284    -0.0001371    0.0002998     0.9135900   -0.2594351 
   0.004551126     0.9707622   -0.1389550     0.0029274    0.0024200    -0.0002334    0.0002095     0.9115314   -0.2585922 
   0.004651151     0.9660472   -0.1559543     0.0047620    0.0052300     0.0001948    0.0001534     0.9096351   -0.2681033 
   0.004751176     0.9443164   -0.1817997    -0.0022147    0.0002395     0.0002395    0.0000206     0.9093994   -0.2710688 
   0.004851201     0.9286792   -0.1461084    -0.0018672    0.0026909     0.0003572   -0.0001661     0.8953604   -0.2781414 
   0.004951226     0.9608734   -0.1555668    -0.0004227    0.0002672    -0.0006720   -0.0002338     0.8971019   -0.2835526 
   0.005051251     0.9765129   -0.1683336    -0.0005783    0.0004256     0.0003246   -0.0001933     0.8938753   -0.2866029 
   0.005151276     0.9521937   -0.1598560    -0.0013615   -0.0004121     0.0002377    0.0002971     0.8886096   -0.2875971 
   0.005251301     0.9406079   -0.1498721     0.0007853   -0.0001405     0.0002827   -0.0000113     0.8842712   -0.2926097 
   0.005351326     0.9503236   -0.1532245    -0.0009901    0.0009041     0.0003591   -0.0005287     0.8849841   -0.2961979 
   0.005451351     0.9751899   -0.1828922     0.0004234    0.0005257     0.0004544    0.0001026     0.8810399   -0.3067719 
   0.005551376     0.9972891   -0.1821130    -0.0002554    0.0014871    -0.0003700   -0.0000935     0.8745496   -0.3051353 
   0.005651401     0.9363474   -0.1789877    -0.0001081    0.0016606    -0.0000604   -0.0002848     0.8748345   -0.3163624 
   0.005751426     0.9275253   -0.1821115    -0.0005623    0.0009691    -0.0000129    0.0000134     0.8650899   -0.3163870 
   0.005851451     0.9359490   -0.2179866    -0.0002184    0.0009508    -0.0001089    0.0000273     0.8630842   -0.3191530 
   0.005951476     0.9424461   -0.1780574     0.0009596    0.0021660     0.0001963   -0.0004045     0.8632320   -0.3237127 
   0.006051501     0.9571090   -0.2052209    -0.0018798   -0.0012664    -0.0002758   -0.0003458     0.8565584   -0.3259963 
   0.006151526     0.9524032   -0.2064329    -0.0019121    0.0004242    -0.0002415    0.0006084     0.8508309   -0.3295451 
   0.006251551     0.9557611   -0.1937555     0.0001770    0.0009282    -0.0002694   -0.0005682     0.8494270   -0.3375998 
   0.006351576     0.9330794   -0.2146044     0.0014617    0.0007890    -0.0001306   -0.0000701     0.8402127   -0.3337806 
   0.006451601     0.9486317   -0.1956832     0.0008725    0.0008016    -0.0000743    0.0002076     0.8370633   -0.3386009 
   0.006551626     0.9461148   -0.2278592    -0.0008337    0.0013811    -0.0000786    0.0002244     0.8349712   -0.3380904 
   0.006651651     0.9398521   -0.2206407     0.0014199    0.0014952     0.0001373   -0.0001972     0.8277522   -0.3490815 
   0.006751676     0.9167286   -0.2285999     0.0004156   -0.0000866     0.0004196   -0.0000850     0.8268870   -0.3471420 
   0.006851701     0.9591987   -0.2206807     0.0003449    0.0003301     0.0001656    0.0000964     0.8238816   -0.3517438 
   0.006951726     0.9187816   -0.2174464     0.0017145    0.0009238     0.0001266    0.0001434     0.8172800   -0.3549076 
   0.007051751     0.9383431   -0.1940103     0.0002334   -0.0008890     0.0001952   -0.0003773     0.8141727   -0.3566280 
   0.007151776     0.9271371   -0.2246603     0.0002421    0.0007376     0.0002642   -0.0000716     0.8060096   -0.3603234 
   0.007251801     0.9453471   -0.2167847     0.0004123   -0.0000173    -0.0001534    0.0001171     0.8022615   -0.3634366 
   0.007351826     0.9288475   -0.2239183     0.0008129    0.0016768     0.0000299    0.0002970     0.7995375   -0.3680722 
   0.007451851     0.9083006   -0.2363017    -0.0023014   -0.0018445    -0.0003564   -0.0003200     0.7958194   -0.3654583 
   0.007551876     0.9332172   -0.2430049     0.0010115   -0.0003909     0.0001694   -0.0001385     0.7916184   -0.3743786 
   0.007651901     0.9307266   -0.2545504    -0.0003346    0.0007022     0.0005104   -0.0001615     0.7875367   -0.3744257 
   0.007751926     0.9102476   -0.2406564    -0.0010141   -0.0001407    -0.0000943    0.0001393     0.7825584   -0.3750151 
   0.007851951     0.9162301   -0.2426432    -0.0015278   -0.0002071     0.0002498   -0.0003487     0.7828866   -0.3737346 
   0.007951976     0.9111371   -0.2693681    -0.0005182   -0.0001483     0.0000229   -0.0000050     0.7752645   -0.3796521 
   0.008052001     0.9236140   -0.2466872    -0.0008817   -0.0010455    -0.0001690    0.0001769     0.7718869   -0.3832295 
   0.008152026     0.9251649   -0.2747451    -0.0001937   -0.0003523    -0.0000809    0.0004886     0.7671077   -0.3896796 
   0.008252051     0.9267584   -0.2315405    -0.0001755    0.0002031    -0.0001809    0.0004019     0.7592476   -0.3877055 
   0.008352076     0.9051930   -0.2710098    -0.0008050   -0.0002577    -0.0002807    0.0001916     0.7594767   -0.3908102 
   0.008452101     0.9200317   -0.2516427    -0.0004881   -0.0022632     0.0001916    0.0003345     0.7558846   -0.3910330 
   0.008552126     0.9303966   -0.2641800    -0.0002450    0.0003106     0.0001521   -0.0000985     0.7503952   -0.3956510 
   0.008652151     0.9109925   -0.2612591    -0.0006075   -0.0030348     0.0001198   -0.0003284     0.7443131   -0.3969692 
   0.008752176     0.9066796   -0.2681228     0.0001328   -0.0003707    -0.0000225    0.0000303     0.7419369   -0.4009361 
   0.008852201     0.8955725   -0.2569907    -0.0011168    0.0006226     0.0000246    0.0000543     0.7366599   -0.3980924 
   0.008952226     0.9256147   -0.2636334     0.0018474   -0.0008029     0.0000526    0.0005236     0.7348118   -0.4007764 
   0.009052251     0.9042812   -0.2872204    -0.0002447   -0.0005554     0.0000331   -0.0005137     0.7313725   -0.4032580 
   0.009152276     0.9066589   -0.2684069     0.0003506   -0.0003170    -0.0001951   -0.0004440     0.7208039   -0.4049875 
   0.009252301     0.8863390   -0.2859665     0.0000697    0.0006050    -0.0003683   -0.0005358     0.7206296   -0.4114220 
   0.009352326     0.9108160   -0.2906696     0.0014027    0.0010943     0.0001897   -0.0004424     0.7188302   -0.4075406 
   0.009452351     0.8958517   -0.2843678    -0.0004063    0.0009526    -0.0000363    0.0004299     0.7125638   -0.4108602 
   0.009552376     0.8995347   -0.2951490    -0.0008852   -0.0012660    -0.0000985    0.0000170     0.7070085   -0.4102722 
   0.009652401     0.8844216   -0.2873935     0.0013294    0.0012195    -0.0002311    0.0002961     0.7032072   -0.4116176 
   0.009752426     0.8883758   -0.2844148    -0.0006238   -0.0014826    -0.0002155    0.0002668     0.6997553   -0.4119999 
   0.009852451     0.8893126   -0.3003590     0.0005286    0.0000093    -0.0000383   -0.0003056     0.6962704   -0.4161408 
   0.009952476     0.8920015   -0.3058651    -0.0005377    0.0002834    -0.0000941   -0.0002248     0.6910676   -0.4128628 
   0.010052501     0.8765599   -0.2906934    -0.0004860    0.0004716    -0.0002525   -0.0001161     0.6901270   -0.4146167 
   0.010152526     0.8824153   -0.2929929     0.0002500    0.0011638     0.0001429    0.0001956     0.6855490   -0.4163021 
   0.010252551     0.8756238   -0.3109277    -0.0003254    0.0003534    -0.0002586   -0.0001238     0.6818152   -0.4207764 
   0.010352576     0.8881339   -0.3060857     0.0001771    0.0008795     0.0002201    0.0001458     0.6778878   -0.4210666 
   0.010452601     0.8959213   -0.2977895    -0.0004863    0.0006520     0.0000890    0.0000329     0.6712296   -0.4232044 
   0.010552626     0.8582666   -0.3108558    -0.0014812   -0.0000666     0.0001125    0.0001734     0.6678514   -0.4219912 
   0.010652651     0.8819676   -0.3180643    -0.0012560   -0.0004478    -0.0003323    0.0003299     0.6648864   -0.4245853 
   0.010752676     0.8746995   -0.3269883     0.0002841   -0.0004867    -0.0000746   -0.0001152     0.6610641   -0.4238942 
   0.010852701     0.8711227   -0.3052021    -0.0007115    0.0004005    -0.0001110    0.0004212     0.6624289   -0.4258004 
   0.010952726     0.8723837   -0.3161387     0.0011549    0.0001472     0.0001526    0.0001213     0.6527331   -0.4268149 
   0.011052751     0.8756353   -0.3235835     0.0007557    0.0001326     0.0003423    0.0002934     0.6495472   -0.4287194 
   0.011152776     0.8718843   -0.3313494     0.0003478   -0.0006077     0.0001739    0.0002592     0.6449986   -0.4298335 
   0.011252801     0.8609020   -0.3330655     0.0001118   -0.0002862     0.0002755    0.0001482     0.6393175   -0.4277570 
   0.011352826     0.8660668   -0.3364557     0.0003832    0.0009225    -0.0001414   -0.0002642     0.6401462   -0.4297024 
   0.011452851     0.8635768   -0.3247271    -0.0000187    0.0009328     0.0000393   -0.0000395     0.6348550   -0.4306596 
   0.011552876     0.8523567   -0.3340648    -0.0011003    0.0004767    -0.0002208   -0.0001660     0.6296644   -0.4332498 
   0.011652901     0.8488725   -0.3363254    -0.0011538    0.0002814    -0.0001024   -0.0005546     0.6273830   -0.4317955 
   0.011752926     0.8477920   -0.3359084     0.0004465   -0.0000489     0.0002200   -0.0000785     0.6250028   -0.4318351 
   0.011852951     0.8600201   -0.3359225     0.0004114   -0.0010056     0.0000052   -0.0001200     0.6216112   -0.4331752 
   0.011952976     0.8378336   -0.3312269    -0.0000681   -0.0013505    -0.0000220   -0.0000942     0.6161515   -0.4322171 
   0.012053002     0.8452595   -0.3605294     0.0002669   -0.0009435     0.0001994   -0.0000009     0.6119232   -0.4342543 
   0.012153027     0.8384566   -0.3476489     0.0002151   -0.0003989     0.0004497   -0.0001104     0.6085978   -0.4352733 
   0.012253052     0.8267538   -0.3526369    -0.0004232   -0.0005820    -0.0001806    0.0002293     0.6078968   -0.4359789 
   0.012353077     0.8291124   -0.3450281    -0.0003782   -0.0001112     0.0000720   -0.0002958     0.6063268   -0.4358003 
   0.012453102     0.8515198   -0.3479975     0.0007047    0.0005567    -0.0000767    0.0000778     0.5968246   -0.4353361 
   0.012553127     0.8331510   -0.3680567     0.0001309   -0.0000829    -0.0003490    0.0000735     0.5938622   -0.4334107 
   0.012653152     0.8436407   -0.3447695     0.0002230   -0.0009162     0.0001598    0.0002229     0.5925900   -0.4348033 
   0.012753177     0.8240325   -0.3518677     0.0001888    0.0005601    -0.0000432    0.0002164     0.5889131   -0.4344379 
   0.012853202     0.8273932   -0.3332812     0.0000448   -0.0005075     0.0001528   -0.0003139     0.5825157   -0.4352946 
   0.012953227     0.8281958   -0.3550755    -0.0000244   -0.0012576    -0.0001388   -0.0002587     0.5843653   -0.4361607 
   0.013053252     0.8193806   -0.3666019     0.0011310   -0.0001532    -0.0002253    0.0002993     0.5775163   -0.4346951 
   0.013153277     0.8249660   -0.3580593     0.0008999   -0.0000340    -0.0002975   -0.0000516     0.5740656   -0.4377275 
   0.013253302     0.8176556   -0.3632025     0.0001151   -0.0006669    -0.0001136   -0.0000371     0.5745795   -0.4344457 
   0.013353327     0.8183923   -0.3699495     0.0002137   -0.0008160     0.0000835    0.0002061     0.5687896   -0.4365652 
   0.013453352     0.8119805   -0.3535987    -0.0003172   -0.0008635     0.0004456    0.0002603     0.5644510   -0.4350034 
   0.013553377     0.8093504   -0.3547989    -0.0004024   -0.0005665    -0.0000883    0.0001820     0.5603533   -0.4346406 
   0.013653402     0.8154080   -0.3710421    -0.0011444   -0.0005779    -0.0002413    0.0001481     0.5596911   -0.4358373 
   0.013753427     0.8219409   -0.3786009    -0.0001569   -0.0001974    -0.0000032   -0.0003171     0.5530761   -0.4357333 
   0.013853452     0.8185208   -0.3804737    -0.0005992    0.0001626     0.0000781   -0.0000198     0.5545706   -0.4348969 
   0.013953477     0.8056489   -0.3755283     0.0005094    0.0006794     0.0000754    0.0001435     0.5477772   -0.4364734 
   0.014053502     0.8142533   -0.3867527    -0.0004798   -0.0006383     0.0001106   -0.0000130     0.5468570   -0.4356117 
   0.014153527     0.8123794   -0.3810102    -0.0002523    0.0001705     0.0000872    0.0001644     0.5453823   -0.4346002 
   0.014253552     0.8173403   -0.3782763    -0.0000015    0.0004314    -0.0002156    0.0001730     0.5414547   -0.4355422 
   0.014353577     0.7996901   -0.3777100    -0.0000458    0.0001672    -0.0000042    0.0002352     0.5354673   -0.4349416 
   0.014453602     0.7870138   -0.3896291    -0.0004243    0.0005360     0.0000499   -0.0000470     0.5345929   -0.4319120 
   0.014553627     0.7957575   -0.3898562    -0.0000861    0.0004250    -0.0000569    0.0000405     0.5337781   -0.4349887 
   0.014653652     0.7931128   -0.3887032    -0.0003606   -0.0011550    -0.0000088   -0.0001515     0.5279041   -0.4356448 
   0.014753677     0.7813521   -0.3905679    -0.0003357    0.0010577    -0.0000151    0.0000263     0.5260351   -0.4328879 
   0.014853702     0.7959843   -0.3841304    -0.0015323   -0.0001343    -0.0002654   -0.0000030     0.5236948   -0.4341711 
   0.014953727     0.7782584   -0.4078698    -0.0004805   -0.0003903    -0.0002312   -0.0000195     0.5194522   -0.4331796 
   0.015053752     0.7858874   -0.3943330    -0.0005999   -0.0006996     0.0000945   -0.0002048     0.5174690   -0.4326426 
   0.015153777     0.7858009   -0.4001072     0.0006160    0.0001560     0.0000812   -0.0000152     0.5154205   -0.4322199 
   0.015253802     0.7792407   -0.3992503    -0.0002247    0.0002238    -0.0000666    0.0000111     0.5106790   -0.4326985 
   0.015353827     0.7799107   -0.4004379     0.0004139    0.0005798    -0.0000258   -0.0000440     0.5105181   -0.4327540 
   0.015453852     0.7881637   -0.3932017     0.0002341    0.0003315    -0.0001874   -0.0000277     0.5062491   -0.4312612 
   0.015553877     0.7734659   -0.4080020    -0.0008526   -0.0001940    -0.0001153   -0.0000240     0.5032765   -0.4291931 
   0.015653902     0.7710609   -0.4027760     0.0005177    0.0008226    -0.0001185    0.0001437     0.5007735   -0.4319526 
