! 26-Feb-26 12:18:24 PM
! E:\VNA_MEASUREMENTS\SP8T\SP8T_P5_RF1.S2P
! CHANNEL.1
! TR.MEASUREMENT
! CORRECTED.DATA
# GHZ S RI R 50.0
! FREQ.GHZ         S11RE         S11IM         S21RE         S21IM         S12RE         S12IM         S22RE         S22IM         
!; PortSelection: Port_12
   0.000050000     0.3501514    0.5317416    -0.1665712   -0.0976593     0.0081536    0.0039100     1.0161170    0.0221411 
   0.000150025     0.0309816    0.0230937    -0.3985670   -0.0810111    -0.0009336   -0.0009955     1.0103250   -0.0043419 
   0.000250050    -0.6330951    0.6063291    -0.0042020   -0.0066428    -0.0002033   -0.0002400     1.0066950   -0.0137068 
   0.000350075     1.0133830   -0.0796269     0.0000849   -0.0009164    -0.0004209    0.0001879     0.9946409   -0.0335041 
   0.000450100     1.0222240   -0.0394448    -0.0051775   -0.0134550     0.0003876   -0.0008417     0.9974921   -0.0236185 
   0.000550125     0.9840381   -0.0100515    -0.0071563   -0.0110781     0.0004837   -0.0005022     0.9976758   -0.0354406 
   0.000650150     1.0356500   -0.0826737    -0.0053214   -0.0127058    -0.0004701    0.0003615     1.0032630   -0.0429080 
   0.000750175     0.9577003   -0.0300141    -0.0079849   -0.0069072    -0.0002792   -0.0006972     0.9994326   -0.0517262 
   0.000850200     0.9981140   -0.0839966    -0.0047385   -0.0097148     0.0001209    0.0004879     0.9883830   -0.0423197 
   0.000950225     1.0119830   -0.0766889    -0.0104194   -0.0088442    -0.0000413    0.0004373     0.9887834   -0.0667130 
   0.001050250     1.0315230   -0.0795435    -0.0101365   -0.0049788    -0.0000353   -0.0006228     0.9888526   -0.0617301 
   0.001150275     1.0312360    0.0011577    -0.0058559   -0.0068307    -0.0004836    0.0005822     0.9804834   -0.0661539 
   0.001250300     0.9758983   -0.0875224    -0.0059838   -0.0072058     0.0001434    0.0006192     1.0002630   -0.0835654 
   0.001350325     1.0360260   -0.0547113    -0.0084377   -0.0020471     0.0003568   -0.0001230     0.9872468   -0.0888771 
   0.001450350     0.9954134   -0.1071292    -0.0096851    0.0013872     0.0007793   -0.0001747     0.9901944   -0.0884829 
   0.001550375     0.9698169   -0.0937574    -0.0097819   -0.0072094     0.0006138    0.0003946     0.9976591   -0.1005509 
   0.001650400     0.9772080   -0.0365279    -0.0096772   -0.0017179    -0.0000083    0.0003911     0.9778939   -0.1006248 
   0.001750425     0.9747584   -0.0301415    -0.0096319   -0.0018197    -0.0000546   -0.0001091     0.9831967   -0.1053416 
   0.001850450     0.9616374   -0.0673899    -0.0041549    0.0023317     0.0002786   -0.0003251     0.9876186   -0.1234678 
   0.001950475     1.0327330   -0.0224015    -0.0091286    0.0003705     0.0011339    0.0000151     0.9815227   -0.1267083 
   0.002050500     0.9805830   -0.0371178    -0.0091919    0.0025878    -0.0005479   -0.0008186     0.9833282   -0.1357533 
   0.002150525     1.0210820   -0.0575770    -0.0108416    0.0012483     0.0002590    0.0005024     0.9764984   -0.1370978 
   0.002250550     0.9646400   -0.0727084    -0.0057499    0.0005236    -0.0000031    0.0003964     0.9758543   -0.1418277 
   0.002350575     0.9697404   -0.1068482    -0.0037496    0.0075906     0.0007332    0.0000835     0.9721108   -0.1542902 
   0.002450600     0.9820601   -0.0954816    -0.0018462   -0.0011859    -0.0001458   -0.0003829     0.9730898   -0.1523433 
   0.002550625     0.9714791   -0.1131032    -0.0046553    0.0034745    -0.0005596    0.0005971     0.9713941   -0.1618899 
   0.002650650     0.9978644   -0.0867882    -0.0052515    0.0008873    -0.0004726    0.0005895     0.9667874   -0.1694699 
   0.002750675     0.9588757   -0.0495931    -0.0003488    0.0053290    -0.0002693   -0.0007816     0.9601417   -0.1742060 
   0.002850700     0.9845734   -0.0749528    -0.0033281    0.0021495    -0.0000212   -0.0005685     0.9590654   -0.1784658 
   0.002950725     0.9366375   -0.0627026    -0.0026812    0.0025468     0.0007114   -0.0000535     0.9544026   -0.1791292 
   0.003050750     0.9668829   -0.0882025    -0.0025195    0.0043297    -0.0002104   -0.0000505     0.9593660   -0.1898991 
   0.003150775     0.9982441   -0.1508466    -0.0012851    0.0053780     0.0009595    0.0002292     0.9499838   -0.1961197 
   0.003250800     0.9613064   -0.1135335    -0.0061645    0.0035055    -0.0006278   -0.0000464     0.9494922   -0.1949559 
   0.003350825     1.0102490   -0.1206258    -0.0038451    0.0034062    -0.0000422   -0.0011647     0.9476955   -0.2072211 
   0.003450850     0.9201276   -0.1245981    -0.0020732    0.0014339    -0.0000187   -0.0006263     0.9486071   -0.2153823 
   0.003550875     0.9608383   -0.1318134     0.0001725    0.0048476    -0.0002958    0.0000549     0.9421487   -0.2201693 
   0.003650900     0.9937606   -0.1426655    -0.0018084    0.0018904     0.0006201    0.0003788     0.9386041   -0.2256531 
   0.003750925     0.9795859   -0.1346583    -0.0006040    0.0022128     0.0004831    0.0006838     0.9289541   -0.2273488 
   0.003850950     0.9962797   -0.1780445    -0.0000157    0.0033286    -0.0000118    0.0008790     0.9351850   -0.2307462 
   0.003950975     1.0163780   -0.1191767     0.0000559    0.0043999    -0.0000992    0.0000598     0.9286633   -0.2378539 
   0.004051001     0.9687690   -0.1597340    -0.0017143    0.0010760    -0.0002111   -0.0003031     0.9240438   -0.2415846 
   0.004151026     0.9886912   -0.1638427    -0.0016929    0.0031642    -0.0000625    0.0000021     0.9199997   -0.2479861 
   0.004251051     0.9987707   -0.1282796    -0.0009126    0.0042936    -0.0006959    0.0000554     0.9177166   -0.2539811 
   0.004351076     0.9994062   -0.1161760     0.0011619    0.0002671     0.0000022   -0.0000398     0.9165362   -0.2589962 
   0.004451101     0.9709556   -0.1578578    -0.0011364    0.0027253    -0.0002374    0.0001263     0.9083291   -0.2621643 
   0.004551126     0.9740835   -0.1374676    -0.0029011    0.0027558     0.0000795    0.0006113     0.9114516   -0.2645059 
   0.004651151     0.9854112   -0.1627620    -0.0008784    0.0009689     0.0001135    0.0005556     0.9070539   -0.2683354 
   0.004751176     0.9595253   -0.1796975     0.0000521    0.0015904    -0.0001398    0.0002908     0.9019011   -0.2751593 
   0.004851201     0.9279431   -0.1518000    -0.0010705    0.0012597     0.0004205   -0.0004973     0.8953987   -0.2784118 
   0.004951226     0.9640300   -0.1545810    -0.0003679   -0.0000413     0.0001350   -0.0001936     0.8938417   -0.2824772 
   0.005051251     0.9928398   -0.1523302     0.0005148    0.0023472     0.0003002    0.0004748     0.8924654   -0.2855923 
   0.005151276     0.9287717   -0.1491591    -0.0009195    0.0018520     0.0001070   -0.0000627     0.8841781   -0.2911548 
   0.005251301     0.9404012   -0.1806600    -0.0018471    0.0006593     0.0003806   -0.0002979     0.8802471   -0.2941045 
   0.005351326     0.9601521   -0.1760623     0.0017354    0.0034161    -0.0001201   -0.0000013     0.8787128   -0.3005344 
   0.005451351     0.9417737   -0.1628000     0.0014947    0.0016814     0.0002012   -0.0001147     0.8731531   -0.3094948 
   0.005551376     0.9687549   -0.1868459    -0.0003358   -0.0001702    -0.0002130    0.0003065     0.8676909   -0.3089659 
   0.005651401     0.9629019   -0.1632099     0.0014189   -0.0006997     0.0000651   -0.0002667     0.8656203   -0.3144731 
   0.005751426     0.9374872   -0.1753484     0.0016571    0.0012303    -0.0000350   -0.0002202     0.8585265   -0.3165214 
   0.005851451     0.9224558   -0.1934710     0.0007062    0.0003621     0.0001102   -0.0002205     0.8643295   -0.3219318 
   0.005951476     0.9360159   -0.1865985    -0.0008606    0.0014562    -0.0001363   -0.0003078     0.8547968   -0.3226005 
   0.006051501     0.9430594   -0.2212619    -0.0011478   -0.0011814    -0.0003943   -0.0000466     0.8530474   -0.3301477 
   0.006151526     0.9404394   -0.2200133    -0.0009587    0.0036257     0.0000583    0.0000423     0.8478495   -0.3302815 
   0.006251551     0.9461600   -0.1654704     0.0006239    0.0018260     0.0000460    0.0000322     0.8403607   -0.3384300 
   0.006351576     0.9498879   -0.2028276    -0.0001842   -0.0015043    -0.0001820   -0.0004702     0.8371078   -0.3381102 
   0.006451601     0.9490775   -0.1909218     0.0007211    0.0001644    -0.0000111    0.0003024     0.8331521   -0.3425302 
   0.006551626     0.9126917   -0.2158690    -0.0005791    0.0020415    -0.0003656    0.0002052     0.8304179   -0.3424582 
   0.006651651     0.9327562   -0.1931021    -0.0007604    0.0004925     0.0003524   -0.0002487     0.8246357   -0.3491222 
   0.006751676     0.9243342   -0.2295082    -0.0007980    0.0017217    -0.0001243    0.0003039     0.8211252   -0.3484355 
   0.006851701     0.9415302   -0.2323288    -0.0002575    0.0008952     0.0002130    0.0001599     0.8150168   -0.3537996 
   0.006951726     0.9169490   -0.2360195    -0.0017390    0.0000034    -0.0002364   -0.0001814     0.8102637   -0.3568249 
   0.007051751     0.9347242   -0.2218156    -0.0020657    0.0004657     0.0001801   -0.0002281     0.8065903   -0.3608751 
   0.007151776     0.9215976   -0.2151538    -0.0016284   -0.0006317     0.0005257   -0.0006998     0.7991209   -0.3664416 
   0.007251801     0.9681341   -0.2234367    -0.0011908    0.0011956     0.0007956   -0.0001647     0.8000210   -0.3640935 
   0.007351826     0.9303755   -0.2439933    -0.0010981    0.0003577    -0.0003766    0.0000690     0.7913941   -0.3704792 
   0.007451851     0.9191946   -0.2215335    -0.0013843    0.0003546     0.0002450    0.0002663     0.7888480   -0.3699636 
   0.007551876     0.9354107   -0.2358440    -0.0026526    0.0015031    -0.0002148    0.0002363     0.7858264   -0.3751892 
   0.007651901     0.9319729   -0.2529666     0.0007147    0.0005475    -0.0005597    0.0003128     0.7817600   -0.3760518 
   0.007751926     0.9274916   -0.2091581     0.0011768    0.0017243     0.0000423    0.0001223     0.7780060   -0.3779731 
   0.007851951     0.9302388   -0.2410676     0.0010498   -0.0008476     0.0000972   -0.0002441     0.7742437   -0.3818328 
   0.007951976     0.9303715   -0.2574318     0.0007698   -0.0012043    -0.0000864    0.0002213     0.7663617   -0.3826806 
   0.008052001     0.9175447   -0.2643755     0.0013216   -0.0005385    -0.0001994    0.0000154     0.7649845   -0.3880804 
   0.008152026     0.9132128   -0.2478787    -0.0010087    0.0011765    -0.0002359   -0.0001234     0.7642969   -0.3870236 
   0.008252051     0.9214869   -0.2264593     0.0001854    0.0007971    -0.0001022    0.0001403     0.7507801   -0.3894481 
   0.008352076     0.9251492   -0.2773125     0.0007013    0.0004995     0.0001729    0.0003339     0.7536855   -0.3932078 
   0.008452101     0.9223273   -0.2412487    -0.0005497   -0.0002630     0.0000524    0.0003546     0.7465677   -0.3932280 
   0.008552126     0.9343846   -0.2481153     0.0005683    0.0009995    -0.0000451   -0.0000542     0.7451710   -0.3936029 
   0.008652151     0.9123324   -0.2575448     0.0002458    0.0004895    -0.0002088   -0.0000484     0.7388197   -0.3976793 
   0.008752176     0.9344352   -0.2428137     0.0010422    0.0006915    -0.0000079    0.0001156     0.7368848   -0.4007256 
   0.008852201     0.8996252   -0.2577530     0.0012382   -0.0004705     0.0001504   -0.0000859     0.7269619   -0.4011127 
   0.008952226     0.9109684   -0.2772072     0.0010030   -0.0002119    -0.0000438   -0.0001283     0.7281205   -0.3992985 
   0.009052251     0.9094906   -0.2787900     0.0010037    0.0013197     0.0002504   -0.0000279     0.7246672   -0.4028441 
   0.009152276     0.8963018   -0.2707432    -0.0021433    0.0008685    -0.0003269    0.0000372     0.7148933   -0.4075468 
   0.009252301     0.8904366   -0.2761842    -0.0010852    0.0006497    -0.0002327    0.0002202     0.7152163   -0.4130727 
   0.009352326     0.9140729   -0.2811189    -0.0009467   -0.0016387    -0.0003200    0.0000904     0.7103376   -0.4083534 
   0.009452351     0.9230374   -0.2793632    -0.0002668    0.0016180     0.0001672    0.0000027     0.7045578   -0.4092085 
   0.009552376     0.9017613   -0.2909360     0.0003362    0.0006520    -0.0002790    0.0000329     0.7018468   -0.4094358 
   0.009652401     0.8863447   -0.2866457     0.0005582   -0.0009400     0.0001912   -0.0002556     0.6957450   -0.4120601 
   0.009752426     0.8960189   -0.2853099    -0.0003148   -0.0013342     0.0004596    0.0000751     0.6915157   -0.4143834 
   0.009852451     0.8879061   -0.2996147     0.0000097   -0.0007043     0.0000678    0.0000194     0.6873180   -0.4170357 
   0.009952476     0.8952139   -0.3029049     0.0007856    0.0005052    -0.0001194   -0.0001290     0.6827528   -0.4156345 
   0.010052501     0.8732671   -0.2882380    -0.0001510   -0.0010401     0.0001699    0.0001074     0.6859082   -0.4183132 
   0.010152526     0.8939056   -0.2941912     0.0003263   -0.0012069     0.0001777   -0.0002158     0.6741985   -0.4170477 
   0.010252551     0.8832145   -0.2956746    -0.0000271    0.0007748    -0.0001200    0.0001302     0.6736125   -0.4221610 
   0.010352576     0.9010852   -0.3114588    -0.0007960   -0.0002095     0.0002303   -0.0001368     0.6683689   -0.4218749 
   0.010452601     0.8785789   -0.2858226     0.0001513   -0.0004387     0.0001325   -0.0001691     0.6641662   -0.4240926 
   0.010552626     0.8675243   -0.3071904    -0.0007871   -0.0004460    -0.0000954   -0.0001971     0.6604629   -0.4233778 
   0.010652651     0.8844439   -0.3069197     0.0008769    0.0005242    -0.0001774   -0.0002967     0.6568371   -0.4242513 
   0.010752676     0.8764454   -0.3125936     0.0002671   -0.0000447    -0.0000756    0.0001489     0.6535999   -0.4206569 
   0.010852701     0.9004278   -0.3041329     0.0013201    0.0001204     0.0000109   -0.0002110     0.6530950   -0.4249700 
   0.010952726     0.8709224   -0.3088459     0.0005980   -0.0005574    -0.0000537    0.0002011     0.6460039   -0.4272660 
   0.011052751     0.8720412   -0.3274942     0.0001640    0.0001757    -0.0000725   -0.0002994     0.6433910   -0.4273811 
   0.011152776     0.8721726   -0.3235994    -0.0005689    0.0011528    -0.0002572   -0.0002715     0.6363521   -0.4288314 
   0.011252801     0.8743550   -0.3242994     0.0005543   -0.0003824     0.0001701    0.0001553     0.6339185   -0.4282120 
   0.011352826     0.8749780   -0.3468338     0.0010837   -0.0002450     0.0001749   -0.0003826     0.6314527   -0.4262646 
   0.011452851     0.8534490   -0.3260998     0.0010475   -0.0000360     0.0001418   -0.0004744     0.6267183   -0.4288807 
   0.011552876     0.8655031   -0.3315775     0.0000747    0.0003854    -0.0003999   -0.0002749     0.6224084   -0.4308555 
   0.011652901     0.8500788   -0.3417267     0.0002233   -0.0011984     0.0001944    0.0000024     0.6209648   -0.4279405 
   0.011752926     0.8486732   -0.3297987    -0.0000537   -0.0011543     0.0005243    0.0001761     0.6155921   -0.4292907 
   0.011852951     0.8590335   -0.3527342     0.0007741    0.0006152    -0.0000915   -0.0001803     0.6151839   -0.4305105 
   0.011952976     0.8513399   -0.3377540    -0.0004649    0.0003141    -0.0000859   -0.0001172     0.6082716   -0.4328347 
   0.012053002     0.8389742   -0.3661234     0.0004441   -0.0008817    -0.0000987   -0.0001165     0.6037495   -0.4302399 
   0.012153027     0.8470726   -0.3519987    -0.0000781   -0.0003516     0.0001256    0.0000980     0.6009901   -0.4317997 
   0.012253052     0.8296100   -0.3402390     0.0002239   -0.0001604    -0.0000283   -0.0001573     0.5977885   -0.4313935 
   0.012353077     0.8486170   -0.3411053     0.0009712   -0.0002387    -0.0000307    0.0000321     0.5949549   -0.4325748 
   0.012453102     0.8375246   -0.3435605    -0.0004099    0.0002136    -0.0003171    0.0003527     0.5893615   -0.4350417 
   0.012553127     0.8360797   -0.3682826    -0.0014597   -0.0001672     0.0000896   -0.0002820     0.5851529   -0.4312566 
   0.012653152     0.8481809   -0.3404172    -0.0006152    0.0012110     0.0004176    0.0002452     0.5835450   -0.4336929 
   0.012753177     0.8307798   -0.3474025    -0.0008606   -0.0005913    -0.0000573    0.0000335     0.5829681   -0.4317712 
   0.012853202     0.8353583   -0.3396881     0.0005128    0.0006240    -0.0000307    0.0002219     0.5732766   -0.4313688 
   0.012953227     0.8397146   -0.3505996    -0.0000356   -0.0009799    -0.0003046   -0.0000895     0.5753339   -0.4338890 
   0.013053252     0.8180768   -0.3682144     0.0005399   -0.0008418     0.0001434    0.0000631     0.5734361   -0.4304015 
   0.013153277     0.8221968   -0.3626663    -0.0008717   -0.0001259     0.0001058    0.0000148     0.5669835   -0.4343848 
   0.013253302     0.8239725   -0.3534364    -0.0001427   -0.0009077     0.0002394   -0.0002707     0.5650624   -0.4324666 
   0.013353327     0.8130068   -0.3704107     0.0000463   -0.0007676    -0.0000664    0.0002944     0.5598553   -0.4337022 
   0.013453352     0.8289800   -0.3595841    -0.0001083   -0.0005602     0.0002628    0.0001684     0.5584533   -0.4328821 
   0.013553377     0.8041481   -0.3624545     0.0004931    0.0000370     0.0002103    0.0002528     0.5525682   -0.4344858 
   0.013653402     0.8202153   -0.3671581    -0.0003633   -0.0004461    -0.0001256    0.0000133     0.5502323   -0.4315906 
   0.013753427     0.8128945   -0.3804948     0.0009674    0.0001146    -0.0000036    0.0000978     0.5454047   -0.4324974 
   0.013853452     0.8243176   -0.3756015    -0.0001064    0.0006618     0.0001820   -0.0000858     0.5445973   -0.4311604 
   0.013953477     0.8023361   -0.3691173     0.0006147   -0.0000288    -0.0000890    0.0001286     0.5421317   -0.4316234 
   0.014053502     0.8131050   -0.3866824     0.0002918    0.0002579     0.0002893    0.0001487     0.5380840   -0.4299784 
   0.014153527     0.8091059   -0.3754190    -0.0002392    0.0009963     0.0000005   -0.0002467     0.5384075   -0.4309839 
   0.014253552     0.8157477   -0.3807313    -0.0005747   -0.0003380    -0.0000486    0.0001819     0.5343597   -0.4304290 
   0.014353577     0.8007202   -0.3833915     0.0009651   -0.0000226     0.0001105   -0.0001310     0.5299472   -0.4286716 
   0.014453602     0.7887484   -0.3792943     0.0007068   -0.0004000    -0.0001693   -0.0000100     0.5269213   -0.4298285 
   0.014553627     0.8007250   -0.3767579     0.0001296    0.0000286     0.0001319    0.0001111     0.5247921   -0.4308127 
   0.014653652     0.7965878   -0.3864168     0.0005371   -0.0002253     0.0003712    0.0003176     0.5205121   -0.4287453 
   0.014753677     0.7868478   -0.3850819    -0.0002279   -0.0000431    -0.0001575    0.0001100     0.5176008   -0.4296607 
   0.014853702     0.8029197   -0.3922863     0.0003499    0.0000758    -0.0001198   -0.0001530     0.5153609   -0.4269310 
   0.014953727     0.7860400   -0.4074991     0.0001735   -0.0002228    -0.0001233    0.0000181     0.5133352   -0.4279732 
   0.015053752     0.7866045   -0.3899744    -0.0001251   -0.0005472     0.0000584   -0.0001651     0.5086821   -0.4291101 
   0.015153777     0.7887281   -0.3970806    -0.0003733    0.0001231    -0.0000146    0.0000858     0.5082518   -0.4295005 
   0.015253802     0.7819198   -0.3996955     0.0008399   -0.0000211     0.0000085    0.0000916     0.5043880   -0.4268480 
   0.015353827     0.7831397   -0.4027720    -0.0003924    0.0001319    -0.0002145    0.0000616     0.5027890   -0.4278097 
   0.015453852     0.7809774   -0.3990696     0.0003218    0.0000579    -0.0000315    0.0001556     0.4996274   -0.4255158 
   0.015553877     0.7762921   -0.4063913     0.0001352   -0.0007747     0.0000396    0.0000082     0.4954284   -0.4265344 
   0.015653902     0.7756582   -0.4061105    -0.0001534    0.0002358    -0.0000772    0.0000990     0.4944040   -0.4283006 
