! 26-Feb-26 12:25:25 PM
! E:\VNA_MEASUREMENTS\SP8T\SP8T_P6_RF1.S2P
! CHANNEL.1
! TR.MEASUREMENT
! CORRECTED.DATA
# GHZ S RI R 50.0
! FREQ.GHZ         S11RE         S11IM         S21RE         S21IM         S12RE         S12IM         S22RE         S22IM         
!; PortSelection: Port_12
   0.000050000    -0.1486078    0.0368908    -0.0933105    0.1121301    -0.0052038   -0.0049120     1.0143970    0.0055251 
   0.000150025    -0.3112034    0.1397795    -0.2369515   -0.5544192    -0.0004091   -0.0002335     1.0069130   -0.0151885 
   0.000250050    -0.8533862    0.2055581    -0.0034786    0.0005078    -0.0002699   -0.0003133     1.0100270   -0.0136308 
   0.000350075     1.0040200   -0.0497665     0.0042779   -0.0086818     0.0005501   -0.0004599     0.9974754   -0.0270013 
   0.000450100     1.0249210   -0.0458474    -0.0054974   -0.0106296    -0.0005261    0.0002379     0.9902483   -0.0212292 
   0.000550125     1.0406290   -0.0556973    -0.0081614   -0.0135619     0.0003625   -0.0008238     0.9818066   -0.0241274 
   0.000650150     1.0304630   -0.0510772    -0.0071480   -0.0125614    -0.0006317   -0.0015673     1.0021390   -0.0555165 
   0.000750175     0.9649019   -0.0949024    -0.0074587   -0.0067714     0.0008395   -0.0013904     0.9974305   -0.0462593 
   0.000850200     1.0015390   -0.0926999    -0.0080161   -0.0023291    -0.0014445   -0.0009657     0.9974909   -0.0529650 
   0.000950225     1.0481560   -0.0573082    -0.0079590   -0.0020576     0.0008181    0.0007060     0.9830888   -0.0659161 
   0.001050250     1.0158510   -0.0600519    -0.0100745   -0.0016610    -0.0001363   -0.0009700     0.9948598   -0.0663354 
   0.001150275     1.0004410   -0.0126518    -0.0040417   -0.0082580     0.0007324   -0.0009626     0.9854521   -0.0723353 
   0.001250300     0.9967592   -0.0313755    -0.0087957   -0.0061000    -0.0004873   -0.0000205     0.9929950   -0.0851699 
   0.001350325     0.9724567   -0.0611875    -0.0124162   -0.0010914    -0.0001657   -0.0001952     0.9935760   -0.0911387 
   0.001450350     0.9904875   -0.0419334    -0.0121672   -0.0001944    -0.0000872   -0.0007536     0.9868625   -0.0847420 
   0.001550375     0.9577488   -0.0459046    -0.0073344   -0.0041997    -0.0002866   -0.0007917     0.9974537   -0.0906805 
   0.001650400     0.9806455   -0.0736523    -0.0086149    0.0009139    -0.0004982   -0.0003925     0.9813119   -0.0927582 
   0.001750425     1.0092550   -0.0732304    -0.0092082   -0.0010376    -0.0008942    0.0000087     0.9828302   -0.1097152 
   0.001850450     0.9894447   -0.0471932    -0.0063928    0.0048639     0.0004305    0.0010794     0.9855063   -0.1101983 
   0.001950475     1.0086010   -0.0280208    -0.0073918    0.0020307     0.0001479    0.0000601     0.9856424   -0.1192655 
   0.002050500     1.0039550   -0.0922023    -0.0073742    0.0043733    -0.0002422   -0.0000289     0.9801606   -0.1338774 
   0.002150525     0.9850181   -0.0977583    -0.0073812    0.0024689     0.0000307    0.0007037     0.9720244   -0.1363989 
   0.002250550     0.9924348   -0.0572981    -0.0027395   -0.0008144     0.0000860    0.0003292     0.9754547   -0.1415255 
   0.002350575     0.9972891   -0.1014803    -0.0052722    0.0038964    -0.0002302    0.0007125     0.9796702   -0.1406735 
   0.002450600     0.9506192   -0.0892115    -0.0062021    0.0021330    -0.0004574   -0.0002337     0.9752378   -0.1444560 
   0.002550625     0.9912761   -0.1258356    -0.0032026    0.0022781     0.0002298   -0.0011152     0.9647198   -0.1568321 
   0.002650650     1.0277070   -0.0648906    -0.0031827    0.0014624     0.0000413   -0.0011082     0.9724859   -0.1693914 
   0.002750675     0.9819691   -0.0414259    -0.0040930    0.0041084     0.0000857    0.0012194     0.9666889   -0.1713585 
   0.002850700     1.0134880   -0.1122187    -0.0041265    0.0063931    -0.0002233    0.0003542     0.9612336   -0.1816143 
   0.002950725     0.9535730   -0.0926161    -0.0043504    0.0016320    -0.0003346    0.0005405     0.9648749   -0.1800915 
   0.003050750     0.9915463   -0.1203118    -0.0023346    0.0041561     0.0007076    0.0003064     0.9588799   -0.1872937 
   0.003150775     0.9518095   -0.1070802    -0.0012633    0.0039994     0.0006627   -0.0007900     0.9521683   -0.1957867 
   0.003250800     0.9949091   -0.1037720    -0.0033551    0.0005694    -0.0001052   -0.0001932     0.9458215   -0.1981002 
   0.003350825     0.9889542   -0.1025745    -0.0040018    0.0021824     0.0001283    0.0000955     0.9507455   -0.2036745 
   0.003450850     0.9639481   -0.1443729    -0.0037327    0.0014320     0.0000913   -0.0008635     0.9448695   -0.2082850 
   0.003550875     0.9730555   -0.1308184    -0.0024838    0.0021543    -0.0001108   -0.0005391     0.9453955   -0.2177234 
   0.003650900     0.9754032   -0.1158847    -0.0004688    0.0008892    -0.0003325   -0.0003346     0.9407902   -0.2224709 
   0.003750925     0.9566535   -0.1378908    -0.0020143    0.0008712     0.0001997    0.0003139     0.9313098   -0.2295589 
   0.003850950     0.9558307   -0.1437803    -0.0007045   -0.0018708    -0.0001366    0.0005049     0.9295326   -0.2295023 
   0.003950975     1.0047760   -0.1265741    -0.0023915    0.0017523     0.0002078   -0.0002176     0.9294858   -0.2349768 
   0.004051001     0.9711904   -0.1628662    -0.0002097    0.0011637     0.0009946   -0.0001243     0.9239017   -0.2376113 
   0.004151026     0.9949392   -0.1508164    -0.0034970    0.0030105     0.0004758   -0.0000786     0.9233271   -0.2423563 
   0.004251051     0.9797369   -0.1212050    -0.0012223    0.0007727     0.0001039   -0.0001613     0.9246524   -0.2503074 
   0.004351076     0.9731813   -0.1190369    -0.0000481    0.0030187     0.0001607    0.0003290     0.9092210   -0.2536112 
   0.004451101     0.9935421   -0.1740975     0.0001335   -0.0010187     0.0000040    0.0004943     0.9123028   -0.2594607 
   0.004551126     0.9708040   -0.1751307    -0.0017512    0.0007589    -0.0001734   -0.0001687     0.9101428   -0.2582054 
   0.004651151     0.9473216   -0.1642899     0.0000516    0.0012293    -0.0000782    0.0002253     0.9098153   -0.2693081 
   0.004751176     0.9652654   -0.1617055    -0.0039345   -0.0008181     0.0000221   -0.0000659     0.9084363   -0.2710617 
   0.004851201     0.9483296   -0.1484677     0.0004892    0.0029165     0.0001543    0.0002454     0.8996736   -0.2750118 
   0.004951226     0.9556001   -0.1566435    -0.0001255    0.0000757    -0.0003169   -0.0001553     0.8973008   -0.2770711 
   0.005051251     0.9713165   -0.1688104    -0.0001070    0.0022005    -0.0004510    0.0005119     0.8916240   -0.2812558 
   0.005151276     0.9409216   -0.1705579     0.0017856   -0.0022045    -0.0000601   -0.0003325     0.8837233   -0.2930260 
   0.005251301     0.9499967   -0.1824884    -0.0004433   -0.0006202     0.0006863    0.0001112     0.8851348   -0.2950514 
   0.005351326     0.9640459   -0.1556724    -0.0023007    0.0007971    -0.0000595   -0.0001209     0.8845309   -0.3020548 
   0.005451351     0.9597706   -0.1598013     0.0007193    0.0020609    -0.0000396   -0.0000417     0.8767145   -0.3067163 
   0.005551376     0.9494340   -0.2057561    -0.0001122   -0.0003909    -0.0003072   -0.0000308     0.8756553   -0.2984900 
   0.005651401     0.9456892   -0.1656214    -0.0003333    0.0020477    -0.0002955   -0.0007045     0.8676057   -0.3179601 
   0.005751426     0.9231973   -0.1804578     0.0000517   -0.0001114     0.0005950   -0.0000491     0.8622705   -0.3154148 
   0.005851451     0.9633339   -0.2414796    -0.0000620    0.0010020     0.0004792    0.0002715     0.8649487   -0.3179185 
   0.005951476     0.9431164   -0.1761819    -0.0001181    0.0007345    -0.0000451    0.0000971     0.8565304   -0.3210703 
   0.006051501     0.9457392   -0.1938223    -0.0000449    0.0011135    -0.0000844   -0.0001607     0.8567693   -0.3277633 
   0.006151526     0.9313739   -0.2169316     0.0006271    0.0012239     0.0001209    0.0000433     0.8519740   -0.3298286 
   0.006251551     0.9615707   -0.1654968     0.0001198   -0.0009216     0.0001082   -0.0003231     0.8458382   -0.3331891 
   0.006351576     0.9406702   -0.2109737    -0.0015440    0.0000457     0.0002570    0.0004537     0.8424778   -0.3378309 
   0.006451601     0.9386224   -0.1992856     0.0001290    0.0017496     0.0000232   -0.0004130     0.8369856   -0.3405764 
   0.006551626     0.9224343   -0.2149305     0.0007200   -0.0002369    -0.0000282   -0.0000488     0.8346525   -0.3434834 
   0.006651651     0.9411404   -0.2249060    -0.0024685    0.0008705     0.0001783   -0.0001576     0.8273103   -0.3461336 
   0.006751676     0.9372615   -0.2336737     0.0009635    0.0014451    -0.0000348    0.0000292     0.8272402   -0.3437920 
   0.006851701     0.9533536   -0.2174152    -0.0001659    0.0020069    -0.0003649    0.0002989     0.8199105   -0.3579205 
   0.006951726     0.9388842   -0.2057052     0.0006862    0.0012423    -0.0000822    0.0001057     0.8178875   -0.3533126 
   0.007051751     0.9445622   -0.2245506     0.0001058    0.0004824     0.0000866    0.0003401     0.8100024   -0.3583986 
   0.007151776     0.9151338   -0.2328526    -0.0003371   -0.0007463    -0.0003358    0.0000908     0.8049795   -0.3597286 
   0.007251801     0.9325722   -0.2145425     0.0005447    0.0015278     0.0002590    0.0000776     0.8034754   -0.3621215 
   0.007351826     0.9381537   -0.2323454    -0.0000904    0.0000481     0.0000771   -0.0002753     0.8020545   -0.3660047 
   0.007451851     0.9127578   -0.2196006     0.0008818    0.0002335     0.0004059    0.0000744     0.7952332   -0.3670070 
   0.007551876     0.9297104   -0.2410646    -0.0004788    0.0002382     0.0002510    0.0002806     0.7923192   -0.3684914 
   0.007651901     0.9349318   -0.2318380     0.0002030    0.0012549    -0.0003381    0.0001424     0.7887180   -0.3691221 
   0.007751926     0.9402696   -0.2412764    -0.0012772   -0.0022190     0.0001593    0.0000825     0.7835834   -0.3760734 
   0.007851951     0.9160735   -0.2448425     0.0003507    0.0002450     0.0000392    0.0000802     0.7820882   -0.3757231 
   0.007951976     0.9440998   -0.2748895     0.0003324    0.0001461     0.0001527    0.0000493     0.7757896   -0.3802439 
   0.008052001     0.9091042   -0.2525788    -0.0000332   -0.0003553    -0.0000981   -0.0000313     0.7671502   -0.3838710 
   0.008152026     0.9263314   -0.2553714     0.0006767   -0.0009154    -0.0002338   -0.0003131     0.7673846   -0.3892299 
   0.008252051     0.8981739   -0.2306783    -0.0022169   -0.0011094    -0.0000537    0.0000243     0.7576508   -0.3892460 
   0.008352076     0.9232512   -0.2665974     0.0002838    0.0000108    -0.0000083   -0.0007083     0.7601554   -0.3905365 
   0.008452101     0.9297720   -0.2533466    -0.0000314   -0.0003933    -0.0000001   -0.0002863     0.7546124   -0.3887028 
   0.008552126     0.9242411   -0.2580032     0.0008431    0.0004517     0.0000595   -0.0003016     0.7469239   -0.3917345 
   0.008652151     0.9145139   -0.2455088     0.0011688    0.0005846     0.0001702   -0.0000456     0.7467986   -0.3984745 
   0.008752176     0.9136895   -0.2497885     0.0005827   -0.0014573    -0.0000167   -0.0003665     0.7422525   -0.3987972 
   0.008852201     0.8971517   -0.2501096    -0.0006873    0.0005394    -0.0000542   -0.0000835     0.7377181   -0.3984477 
   0.008952226     0.9141586   -0.2790057     0.0000368    0.0019175     0.0008194    0.0004149     0.7355230   -0.4003897 
   0.009052251     0.9177430   -0.2578658     0.0002287    0.0007270     0.0000527    0.0000915     0.7320682   -0.4039784 
   0.009152276     0.9066363   -0.2693631     0.0012102   -0.0008628    -0.0000491    0.0001621     0.7229730   -0.4057207 
   0.009252301     0.8977305   -0.2685301     0.0012146   -0.0013515    -0.0000589    0.0000067     0.7184317   -0.4080222 
   0.009352326     0.9061661   -0.2847014    -0.0001456   -0.0011591    -0.0001271    0.0000361     0.7176545   -0.4084057 
   0.009452351     0.9052826   -0.2722490     0.0009647    0.0005138     0.0000795    0.0000136     0.7110668   -0.4107534 
   0.009552376     0.9063290   -0.2947270    -0.0003673    0.0009550     0.0002617   -0.0000856     0.7074597   -0.4099556 
   0.009652401     0.8830138   -0.3040781    -0.0001493    0.0005164     0.0001848   -0.0002391     0.7045661   -0.4104024 
   0.009752426     0.8887162   -0.2795376    -0.0009042   -0.0011965    -0.0002237    0.0003022     0.7005537   -0.4110610 
   0.009852451     0.9010323   -0.2950558    -0.0002642   -0.0004290     0.0001312    0.0001406     0.6954486   -0.4158921 
   0.009952476     0.8906314   -0.3024253     0.0005249   -0.0004472    -0.0003080    0.0001464     0.6890211   -0.4136479 
   0.010052501     0.8821326   -0.2858511    -0.0012136    0.0006437    -0.0003282   -0.0000392     0.6863396   -0.4141721 
   0.010152526     0.8956415   -0.2892659    -0.0000254    0.0000955    -0.0002530   -0.0000772     0.6813348   -0.4164013 
   0.010252551     0.8933557   -0.3077265    -0.0001034    0.0010488    -0.0002046   -0.0000768     0.6806941   -0.4219595 
   0.010352576     0.8938426   -0.3047083    -0.0008133    0.0005958     0.0002260    0.0000299     0.6757129   -0.4197546 
   0.010452601     0.9009830   -0.3017536     0.0004861   -0.0004667     0.0003789    0.0000093     0.6706780   -0.4224615 
   0.010552626     0.8710419   -0.3075364     0.0005440   -0.0005664     0.0001019   -0.0000361     0.6677110   -0.4259125 
   0.010652651     0.8885382   -0.3081545    -0.0009253    0.0010080    -0.0001598    0.0003632     0.6635063   -0.4230105 
   0.010752676     0.8719403   -0.3252037     0.0013743   -0.0002016     0.0000005   -0.0001174     0.6598018   -0.4231782 
   0.010852701     0.8812408   -0.2940220    -0.0008000   -0.0003317     0.0002850    0.0001764     0.6606869   -0.4240864 
   0.010952726     0.8844865   -0.3316328    -0.0002966   -0.0002988     0.0002040   -0.0000520     0.6520705   -0.4267180 
   0.011052751     0.8787341   -0.3240612     0.0000683   -0.0005139    -0.0000739    0.0002854     0.6503060   -0.4282020 
   0.011152776     0.8719304   -0.3240026     0.0001085   -0.0000766     0.0000883   -0.0001024     0.6443300   -0.4299183 
   0.011252801     0.8716201   -0.3314701    -0.0008534    0.0011685    -0.0000537    0.0002532     0.6394762   -0.4288432 
   0.011352826     0.8705209   -0.3404368     0.0006468    0.0004931     0.0000027    0.0003944     0.6417437   -0.4268666 
   0.011452851     0.8690246   -0.3306198    -0.0004402    0.0005244     0.0000202    0.0000031     0.6320525   -0.4305386 
   0.011552876     0.8600837   -0.3405600     0.0006427    0.0003126    -0.0000012   -0.0000533     0.6308268   -0.4304554 
   0.011652901     0.8607139   -0.3485239     0.0011395   -0.0005643     0.0003448   -0.0006061     0.6279302   -0.4327151 
   0.011752926     0.8482035   -0.3385753     0.0006178   -0.0001466     0.0000807   -0.0001287     0.6241508   -0.4319572 
   0.011852951     0.8572868   -0.3411550     0.0003490    0.0005454    -0.0001600    0.0001798     0.6212257   -0.4334321 
   0.011952976     0.8481682   -0.3271110     0.0006162   -0.0002508     0.0000408    0.0000125     0.6181676   -0.4335458 
   0.012053002     0.8471316   -0.3538392     0.0003346    0.0002537     0.0001177   -0.0000911     0.6137370   -0.4337586 
   0.012153027     0.8436930   -0.3563810    -0.0006368    0.0002126     0.0001402   -0.0001087     0.6076540   -0.4326265 
   0.012253052     0.8393896   -0.3415347     0.0001851    0.0007054     0.0002439   -0.0000637     0.6046227   -0.4340737 
   0.012353077     0.8444158   -0.3446947    -0.0002659   -0.0002013     0.0002207   -0.0001605     0.6022844   -0.4324059 
   0.012453102     0.8411296   -0.3494707    -0.0004699    0.0002327     0.0000208    0.0000662     0.5977731   -0.4357564 
   0.012553127     0.8287923   -0.3607043    -0.0003713   -0.0018009     0.0003744    0.0001266     0.5934662   -0.4326625 
   0.012653152     0.8516840   -0.3439367    -0.0012208   -0.0001600     0.0002505   -0.0001957     0.5902604   -0.4338268 
   0.012753177     0.8278019   -0.3587952    -0.0015665    0.0000557    -0.0003563   -0.0000476     0.5884183   -0.4326083 
   0.012853202     0.8276556   -0.3435967     0.0015341   -0.0004362    -0.0001980   -0.0000294     0.5832933   -0.4342587 
   0.012953227     0.8367995   -0.3550659    -0.0001202    0.0004762     0.0002020    0.0000634     0.5817076   -0.4336389 
   0.013053252     0.8190282   -0.3717647     0.0002754   -0.0006619     0.0000788   -0.0000087     0.5780308   -0.4337326 
   0.013153277     0.8361450   -0.3691158     0.0002540    0.0006778     0.0002514    0.0001440     0.5738524   -0.4355735 
   0.013253302     0.8193135   -0.3553153    -0.0009170    0.0000517    -0.0000160   -0.0002220     0.5721002   -0.4321732 
   0.013353327     0.8196018   -0.3611716     0.0005140   -0.0006973     0.0002308   -0.0001470     0.5669027   -0.4358369 
   0.013453352     0.8348756   -0.3613926     0.0013314    0.0010290    -0.0000823   -0.0000162     0.5642473   -0.4353061 
   0.013553377     0.8126696   -0.3572035     0.0006026    0.0003493    -0.0002153   -0.0000448     0.5618132   -0.4345755 
   0.013653402     0.8108763   -0.3614705    -0.0007644   -0.0005332     0.0000341   -0.0000873     0.5593830   -0.4353724 
   0.013753427     0.8210635   -0.3658956     0.0013897   -0.0006019     0.0000650   -0.0001016     0.5546433   -0.4329629 
   0.013853452     0.8283718   -0.3863299    -0.0003424   -0.0006824     0.0001598    0.0000979     0.5551748   -0.4337594 
   0.013953477     0.8077030   -0.3654903    -0.0004458   -0.0000643     0.0001432    0.0000951     0.5487111   -0.4331915 
   0.014053502     0.8149396   -0.3803137    -0.0003526    0.0000422     0.0001161    0.0001450     0.5455488   -0.4331751 
   0.014153527     0.8154268   -0.3829440     0.0000527    0.0003615     0.0000643   -0.0000750     0.5439196   -0.4335206 
   0.014253552     0.8079413   -0.3794789     0.0006830   -0.0001599    -0.0002193   -0.0000515     0.5418596   -0.4335983 
   0.014353577     0.7977342   -0.3794869    -0.0000447    0.0001769    -0.0002225   -0.0001486     0.5349193   -0.4328009 
   0.014453602     0.7875285   -0.3836260    -0.0001421   -0.0000065    -0.0000222    0.0002835     0.5359120   -0.4328909 
   0.014553627     0.7947290   -0.3778284     0.0004203   -0.0005610    -0.0000719   -0.0003783     0.5313466   -0.4324109 
   0.014653652     0.7936572   -0.3822900     0.0006965   -0.0000711     0.0000094    0.0001367     0.5268943   -0.4341227 
   0.014753677     0.7893039   -0.3850822    -0.0008050    0.0000927    -0.0001593   -0.0001274     0.5239626   -0.4319123 
   0.014853702     0.8007770   -0.3856896    -0.0011441    0.0002204    -0.0000289    0.0000359     0.5232505   -0.4322461 
   0.014953727     0.7839166   -0.4047436    -0.0003108    0.0009443     0.0001703   -0.0000680     0.5175473   -0.4319588 
   0.015053752     0.7865526   -0.3948473    -0.0004436    0.0000582     0.0000059   -0.0002801     0.5155129   -0.4305875 
   0.015153777     0.7899103   -0.3976676     0.0002963   -0.0008676    -0.0003067   -0.0000447     0.5141549   -0.4318706 
   0.015253802     0.7836967   -0.3934283    -0.0006903    0.0002685    -0.0001472    0.0000904     0.5116110   -0.4310653 
   0.015353827     0.7805480   -0.3939440     0.0008384    0.0004886    -0.0000181   -0.0000436     0.5077074   -0.4325674 
   0.015453852     0.7874602   -0.4045409    -0.0003150    0.0001411     0.0002228   -0.0000266     0.5053992   -0.4288653 
   0.015553877     0.7774429   -0.4071059     0.0004414    0.0009658     0.0002428   -0.0000285     0.5034086   -0.4291092 
   0.015653902     0.7724071   -0.4014482    -0.0003990   -0.0001335    -0.0000420   -0.0000276     0.5006227   -0.4316427 
