! 26-Feb-26 11:47:19 AM
! E:\VNA_MEASUREMENTS\SP8T\SP8T_P3_RF8.S2P
! CHANNEL.1
! TR.MEASUREMENT
! CORRECTED.DATA
# GHZ S RI R 50.0
! FREQ.GHZ         S11RE         S11IM         S21RE         S21IM         S12RE         S12IM         S22RE         S22IM         
!; PortSelection: Port_12
   0.000050000     0.2542635   -0.1084069    -0.1600464    0.2934007     0.0119395   -0.0023544     0.9736782    0.0952162 
   0.000150025     0.0622619   -0.0060146    -0.1466969   -0.3485227    -0.0006943   -0.0003622     0.9973084   -0.0085974 
   0.000250050    -0.3601445   -0.1194034     0.0013148   -0.0021710    -0.0008405    0.0003724     0.9967327   -0.0137949 
   0.000350075     0.9974539   -0.0450224     0.0040834   -0.0122725    -0.0001604   -0.0011211     0.9929973   -0.0346430 
   0.000450100     0.9452081   -0.0463830     0.0023519   -0.0141482    -0.0016225    0.0000249     0.9943038   -0.0223062 
   0.000550125     0.9989001   -0.0039282    -0.0041027   -0.0124118     0.0002593    0.0003218     0.9984103   -0.0325209 
   0.000650150     0.9865390   -0.0219320    -0.0120429   -0.0131485    -0.0008944    0.0002097     0.9987286   -0.0412025 
   0.000750175     0.9801110   -0.0454106    -0.0064081   -0.0077528    -0.0009210   -0.0004849     0.9926232   -0.0542546 
   0.000850200     0.9957554   -0.0657723    -0.0100336   -0.0089488    -0.0002077   -0.0005428     0.9906614   -0.0450846 
   0.000950225     1.0115930   -0.0630606    -0.0089162   -0.0108453     0.0010512   -0.0013417     0.9922953   -0.0687856 
   0.001050250     1.0165080   -0.0339043    -0.0079817   -0.0053461    -0.0002936   -0.0011505     0.9876481   -0.0668443 
   0.001150275     1.0018280   -0.0917826    -0.0114162    0.0000568     0.0001195    0.0000362     0.9877079   -0.0616533 
   0.001250300     0.9551357   -0.0292459    -0.0127609   -0.0003937     0.0015546    0.0005086     0.9954381   -0.0825997 
   0.001350325     1.0250230   -0.0502583    -0.0092551   -0.0006096    -0.0009079   -0.0003243     0.9874198   -0.0929519 
   0.001450350     1.0224590   -0.0279061    -0.0108733   -0.0042213    -0.0005271   -0.0004057     0.9864159   -0.0864072 
   0.001550375     0.9720168   -0.0783012    -0.0080112   -0.0012902     0.0002897    0.0004922     0.9981815   -0.0953778 
   0.001650400     0.9978676   -0.0559374    -0.0070591   -0.0002216     0.0003026    0.0004450     0.9819433   -0.1002354 
   0.001750425     0.9837660   -0.1019759    -0.0085332    0.0016859    -0.0004835    0.0000337     0.9834857   -0.1032987 
   0.001850450     0.9776738   -0.0646530    -0.0082325    0.0010252     0.0003033   -0.0007570     0.9828349   -0.1131788 
   0.001950475     0.9927260    0.0132314    -0.0068988    0.0038293     0.0012395   -0.0007955     0.9832509   -0.1158012 
   0.002050500     0.9634167   -0.0590346    -0.0066708    0.0046703     0.0001884   -0.0002533     0.9813219   -0.1368512 
   0.002150525     1.0310810   -0.0731551    -0.0129162    0.0008545    -0.0008551    0.0001698     0.9723263   -0.1352298 
   0.002250550     0.9873992   -0.0873293    -0.0079716    0.0037861     0.0010386   -0.0008175     0.9783741   -0.1333866 
   0.002350575     0.9729419   -0.1298847    -0.0046627    0.0046112     0.0005022   -0.0003161     0.9800146   -0.1476200 
   0.002450600     0.9706020   -0.1175767    -0.0034879    0.0027360    -0.0000182    0.0000039     0.9733350   -0.1574993 
   0.002550625     0.9730578   -0.0864715    -0.0069284    0.0051897    -0.0004925    0.0000823     0.9676281   -0.1562049 
   0.002650650     1.0062670   -0.0790222     0.0004473    0.0011521     0.0002407    0.0006506     0.9706634   -0.1634728 
   0.002750675     0.9721199   -0.0317188    -0.0041817    0.0021584     0.0002896   -0.0001563     0.9569978   -0.1720105 
   0.002850700     1.0357750   -0.1149283    -0.0030291    0.0012264    -0.0001341    0.0004168     0.9587619   -0.1695403 
   0.002950725     0.9731520   -0.0669149    -0.0084263    0.0017835     0.0004638    0.0007705     0.9715937   -0.1761990 
   0.003050750     0.9943593   -0.0979744    -0.0023170    0.0041170    -0.0000063    0.0003259     0.9608845   -0.1788859 
   0.003150775     0.9893826   -0.1738824    -0.0003824    0.0052762    -0.0013737   -0.0004033     0.9483480   -0.1889535 
   0.003250800     0.9742371   -0.1085335    -0.0000206    0.0066206    -0.0001189    0.0001597     0.9553874   -0.1977919 
   0.003350825     1.0030510   -0.0980990    -0.0030131    0.0029067     0.0000287   -0.0007787     0.9469993   -0.2034943 
   0.003450850     0.9897290   -0.1534481    -0.0025867   -0.0000897     0.0004607    0.0002148     0.9449509   -0.2026578 
   0.003550875     0.9645675   -0.1268354    -0.0031455    0.0009611     0.0000497   -0.0003248     0.9414061   -0.2164839 
   0.003650900     0.9958361   -0.0723917    -0.0022006    0.0019525    -0.0000771   -0.0004241     0.9431179   -0.2206145 
   0.003750925     0.9717125   -0.1386371    -0.0025378    0.0032671     0.0000349    0.0000598     0.9375903   -0.2255817 
   0.003850950     0.9800378   -0.1463587    -0.0009017    0.0022117     0.0000130    0.0001466     0.9398324   -0.2266198 
   0.003950975     0.9884615   -0.1319611     0.0000812    0.0009130     0.0004487   -0.0005422     0.9275055   -0.2321275 
   0.004051001     0.9633513   -0.1673104    -0.0013501    0.0032350    -0.0000847   -0.0000469     0.9269778   -0.2299350 
   0.004151026     0.9801308   -0.1643208     0.0007187    0.0009807     0.0005749   -0.0004443     0.9253948   -0.2413482 
   0.004251051     0.9890413   -0.1308417    -0.0012705    0.0018884     0.0003230    0.0005773     0.9314069   -0.2460514 
   0.004351076     0.9521342   -0.1292405    -0.0011435    0.0019081     0.0001394   -0.0006982     0.9174442   -0.2474344 
   0.004451101     1.0130550   -0.1640435     0.0002462    0.0022376    -0.0008269    0.0004835     0.9149689   -0.2520623 
   0.004551126     1.0029170   -0.1383597     0.0006035    0.0010566    -0.0000070    0.0002245     0.9137154   -0.2575538 
   0.004651151     0.9475465   -0.1581111    -0.0056854   -0.0000293     0.0002316    0.0007486     0.9140305   -0.2649908 
   0.004751176     0.9696373   -0.1825998    -0.0004866    0.0007151    -0.0000707   -0.0002946     0.9067552   -0.2712226 
   0.004851201     0.9315457   -0.1640502    -0.0005725   -0.0014847     0.0006576   -0.0005553     0.9024677   -0.2724670 
   0.004951226     0.9627811   -0.1513371    -0.0013178    0.0014924     0.0005214   -0.0003277     0.8985120   -0.2747483 
   0.005051251     1.0191000   -0.1601272    -0.0015644    0.0018893     0.0000884    0.0004028     0.8937103   -0.2775753 
   0.005151276     0.9717929   -0.1485969     0.0006420    0.0030057     0.0006911    0.0004390     0.8888556   -0.2841943 
   0.005251301     0.9537900   -0.1813873    -0.0010529    0.0002861     0.0005146    0.0000228     0.8891175   -0.2893333 
   0.005351326     0.9406254   -0.1743897     0.0003544    0.0003054    -0.0005254   -0.0000126     0.8842116   -0.2995502 
   0.005451351     0.9748735   -0.1825642     0.0007634    0.0027295    -0.0001524    0.0001466     0.8851804   -0.3024122 
   0.005551376     0.9825566   -0.2038317    -0.0030983    0.0017582     0.0002043   -0.0002255     0.8781329   -0.3023926 
   0.005651401     0.9578820   -0.1756010     0.0007937    0.0005382    -0.0001622    0.0001328     0.8738927   -0.3138368 
   0.005751426     0.9298443   -0.1745516    -0.0007827    0.0013637    -0.0000583   -0.0004759     0.8689164   -0.3081309 
   0.005851451     0.9601078   -0.2122025    -0.0005517    0.0021615     0.0001081    0.0004047     0.8640969   -0.3136042 
   0.005951476     0.9465867   -0.1789239    -0.0023266   -0.0002500     0.0001126   -0.0005836     0.8627364   -0.3200763 
   0.006051501     0.9685501   -0.2064793    -0.0006132    0.0004298    -0.0004669   -0.0003664     0.8579371   -0.3223709 
   0.006151526     0.9590527   -0.2027250     0.0006679    0.0007375    -0.0002011   -0.0004545     0.8553114   -0.3266182 
   0.006251551     0.9690748   -0.1861537     0.0010594    0.0020148    -0.0000360    0.0001498     0.8518088   -0.3281338 
   0.006351576     0.9680337   -0.2208405    -0.0011621   -0.0002425     0.0002320   -0.0000336     0.8446091   -0.3315996 
   0.006451601     0.9617181   -0.2101825    -0.0004954   -0.0012838    -0.0001303    0.0001978     0.8402222   -0.3372286 
   0.006551626     0.9245561   -0.2073026    -0.0001913    0.0010485    -0.0001170   -0.0001904     0.8338635   -0.3411478 
   0.006651651     0.9615535   -0.2307618    -0.0007156    0.0001534    -0.0001070    0.0000058     0.8306597   -0.3457352 
   0.006751676     0.9690762   -0.2210021    -0.0004494    0.0015340     0.0000265    0.0001616     0.8296815   -0.3440973 
   0.006851701     0.9680352   -0.2436384     0.0004419    0.0002080     0.0001227    0.0003143     0.8254676   -0.3480779 
   0.006951726     0.9282215   -0.2511468    -0.0003487    0.0009651    -0.0002949   -0.0000256     0.8214002   -0.3497280 
   0.007051751     0.9599703   -0.2180470    -0.0000148   -0.0010591     0.0004381   -0.0001291     0.8152575   -0.3557891 
   0.007151776     0.9327041   -0.2248660    -0.0008938   -0.0014241    -0.0001679    0.0000823     0.8067803   -0.3593540 
   0.007251801     0.9619013   -0.2108389     0.0005983    0.0009055    -0.0001784   -0.0000714     0.8068709   -0.3617092 
   0.007351826     0.9546520   -0.2400237    -0.0016488    0.0005369     0.0005964   -0.0003336     0.8035862   -0.3629256 
   0.007451851     0.9419908   -0.2333953    -0.0019187   -0.0008048    -0.0001709   -0.0003582     0.7982508   -0.3638643 
   0.007551876     0.9422776   -0.2448144     0.0004830    0.0003523    -0.0001351    0.0001676     0.7971258   -0.3692306 
   0.007651901     0.9685687   -0.2671402     0.0008388   -0.0007468    -0.0002935   -0.0001830     0.7937492   -0.3694842 
   0.007751926     0.9518085   -0.2644407    -0.0009920   -0.0012636    -0.0001039   -0.0000006     0.7879825   -0.3738327 
   0.007851951     0.9612350   -0.2553076     0.0002821   -0.0012639    -0.0001509   -0.0002308     0.7823346   -0.3726798 
   0.007951976     0.9427410   -0.2677633    -0.0002742   -0.0001210     0.0002242    0.0001352     0.7792561   -0.3778911 
   0.008052001     0.9629437   -0.2612989    -0.0004352   -0.0011536     0.0002589   -0.0001029     0.7752156   -0.3811052 
   0.008152026     0.9463204   -0.2868567    -0.0003559   -0.0021877    -0.0001406    0.0001595     0.7744735   -0.3843924 
   0.008252051     0.9411730   -0.2555639     0.0007266    0.0005933     0.0001466   -0.0003515     0.7657025   -0.3852329 
   0.008352076     0.9361888   -0.2717522     0.0012162    0.0009836     0.0001759    0.0002434     0.7605617   -0.3878909 
   0.008452101     0.9486964   -0.2731138     0.0001236   -0.0004510     0.0001346   -0.0002057     0.7581155   -0.3889848 
   0.008552126     0.9460416   -0.2788890    -0.0010025    0.0014098     0.0001127   -0.0001786     0.7544692   -0.3882446 
   0.008652151     0.9555376   -0.2700493    -0.0007052    0.0003395    -0.0000066   -0.0003081     0.7482545   -0.3937357 
   0.008752176     0.9566769   -0.2733708    -0.0005237    0.0008801     0.0001784    0.0000970     0.7468771   -0.3970362 
   0.008852201     0.9402338   -0.2693905    -0.0012384   -0.0016846    -0.0001452   -0.0000616     0.7407901   -0.3956853 
   0.008952226     0.9638909   -0.2879066    -0.0009859    0.0013584     0.0005059   -0.0001635     0.7391606   -0.3985116 
   0.009052251     0.9466391   -0.2877698    -0.0000943   -0.0005551     0.0004466    0.0001741     0.7342829   -0.4008453 
   0.009152276     0.9285935   -0.2781601    -0.0008044   -0.0003439     0.0000560   -0.0000511     0.7261681   -0.4047336 
   0.009252301     0.9389741   -0.3028280     0.0011873    0.0004698     0.0001074   -0.0001092     0.7262992   -0.4050178 
   0.009352326     0.9486100   -0.2935356     0.0003391   -0.0006177     0.0001453   -0.0001237     0.7232657   -0.4035872 
   0.009452351     0.9427531   -0.2928333     0.0001922    0.0001330     0.0000000   -0.0002927     0.7154241   -0.4041536 
   0.009552376     0.9548393   -0.3125033    -0.0012469    0.0003170    -0.0001962    0.0000754     0.7146292   -0.4082375 
   0.009652401     0.9110246   -0.2929806    -0.0004405    0.0012691    -0.0001293   -0.0000230     0.7094521   -0.4084224 
   0.009752426     0.9321325   -0.3083666     0.0005528   -0.0004780     0.0001826   -0.0002894     0.7053978   -0.4085607 
   0.009852451     0.9421058   -0.3301867     0.0008026   -0.0006381     0.0001648   -0.0002652     0.7018607   -0.4120883 
   0.009952476     0.9238828   -0.3255474    -0.0003755    0.0003328    -0.0002677    0.0002596     0.6969235   -0.4094203 
   0.010052501     0.9226225   -0.3160313     0.0002150    0.0003127    -0.0003188    0.0002830     0.6954107   -0.4125071 
   0.010152526     0.9298699   -0.3159015    -0.0007757    0.0002323     0.0005405    0.0001682     0.6861843   -0.4134791 
   0.010252551     0.9136191   -0.3275898    -0.0003119   -0.0000490     0.0000680    0.0003012     0.6851417   -0.4167469 
   0.010352576     0.9259438   -0.3402747     0.0003040   -0.0002707    -0.0002062   -0.0002326     0.6798596   -0.4173607 
   0.010452601     0.9362856   -0.3065400     0.0009434   -0.0000237    -0.0002051   -0.0000301     0.6776512   -0.4211687 
   0.010552626     0.9183478   -0.3340676     0.0000116    0.0000545     0.0000858   -0.0001552     0.6745623   -0.4227622 
   0.010652651     0.9235508   -0.3363156     0.0008283    0.0007980    -0.0000768    0.0004706     0.6707028   -0.4222292 
   0.010752676     0.9220908   -0.3535015     0.0012776   -0.0005936    -0.0000812    0.0000699     0.6682543   -0.4232103 
   0.010852701     0.9298736   -0.3195063    -0.0002069   -0.0000342     0.0001434    0.0001002     0.6656603   -0.4211803 
   0.010952726     0.9038511   -0.3446196     0.0001512   -0.0000925    -0.0002833   -0.0001045     0.6574343   -0.4250631 
   0.011052751     0.9253867   -0.3625910    -0.0016746   -0.0010334    -0.0000873   -0.0000098     0.6551736   -0.4278233 
   0.011152776     0.9194334   -0.3350727     0.0001207   -0.0002174    -0.0001261    0.0001536     0.6509156   -0.4298606 
   0.011252801     0.9197683   -0.3564734     0.0000769    0.0002575     0.0001569    0.0002271     0.6454369   -0.4254565 
   0.011352826     0.9152399   -0.3744988    -0.0005747    0.0001162    -0.0002941   -0.0002587     0.6450670   -0.4260710 
   0.011452851     0.9052683   -0.3704087    -0.0001921    0.0003783     0.0000811    0.0000703     0.6372582   -0.4293022 
   0.011552876     0.9089591   -0.3693103    -0.0006950    0.0003057    -0.0001635    0.0001328     0.6348354   -0.4312427 
   0.011652901     0.9118645   -0.3826377     0.0003234    0.0003537     0.0001439   -0.0000903     0.6314447   -0.4313888 
   0.011752926     0.9037128   -0.3629594    -0.0005375    0.0003822     0.0003034   -0.0001770     0.6291004   -0.4299819 
   0.011852951     0.9151743   -0.3854538     0.0004383   -0.0005624    -0.0000985   -0.0004398     0.6284810   -0.4314936 
   0.011952976     0.9018946   -0.3665040    -0.0007529    0.0006330    -0.0004245   -0.0000020     0.6228197   -0.4301308 
   0.012053002     0.8969009   -0.3764987     0.0002860   -0.0014319    -0.0002473   -0.0000138     0.6191371   -0.4315175 
   0.012153027     0.9120408   -0.3856477    -0.0004889   -0.0000880     0.0001422   -0.0001613     0.6145090   -0.4326971 
   0.012253052     0.8946940   -0.3726335    -0.0002657   -0.0007149    -0.0000817   -0.0001217     0.6120064   -0.4322206 
   0.012353077     0.8975691   -0.3724956     0.0001907   -0.0002071     0.0000756   -0.0002899     0.6085818   -0.4327954 
   0.012453102     0.9021232   -0.3874585    -0.0013123    0.0006604    -0.0001812   -0.0000329     0.6033694   -0.4342762 
   0.012553127     0.8850806   -0.4024984     0.0006867   -0.0003011    -0.0003587    0.0001017     0.5988762   -0.4319715 
   0.012653152     0.9068072   -0.3907548    -0.0014556   -0.0000851     0.0000514    0.0000011     0.5962936   -0.4351478 
   0.012753177     0.8929157   -0.3893726     0.0006766   -0.0000286     0.0002060    0.0001405     0.5965670   -0.4335933 
   0.012853202     0.8939249   -0.3747762    -0.0012725   -0.0001322     0.0000567   -0.0001871     0.5892904   -0.4336296 
   0.012953227     0.8968280   -0.3891295     0.0003520    0.0000366    -0.0001448   -0.0001338     0.5884181   -0.4340611 
   0.013053252     0.8811867   -0.4122976     0.0000385    0.0001403    -0.0000094   -0.0000595     0.5847425   -0.4348628 
   0.013153277     0.8901763   -0.4074386     0.0008092    0.0006253    -0.0001206    0.0002579     0.5796078   -0.4340505 
   0.013253302     0.8886750   -0.4068234    -0.0003671    0.0005268     0.0001145   -0.0002713     0.5788838   -0.4334361 
   0.013353327     0.8924444   -0.4090054     0.0004610    0.0004115     0.0003024   -0.0001349     0.5763649   -0.4370348 
   0.013453352     0.8936999   -0.3834447    -0.0009493   -0.0010206     0.0003457    0.0000553     0.5731131   -0.4342906 
   0.013553377     0.8691990   -0.4147561     0.0005300   -0.0004444     0.0001868    0.0002236     0.5688402   -0.4344541 
   0.013653402     0.8852071   -0.4251582     0.0000898    0.0001060     0.0003025   -0.0001304     0.5666134   -0.4356192 
   0.013753427     0.8767020   -0.4254790     0.0007304   -0.0005437     0.0000004    0.0001347     0.5609221   -0.4350320 
   0.013853452     0.8869484   -0.4284820    -0.0000563   -0.0003237    -0.0002252    0.0000544     0.5599938   -0.4339173 
   0.013953477     0.8710445   -0.4154309    -0.0003100   -0.0003010     0.0000242   -0.0000727     0.5564071   -0.4357966 
   0.014053502     0.8825509   -0.4339336     0.0006367   -0.0000762    -0.0003242    0.0000935     0.5524483   -0.4334354 
   0.014153527     0.8836399   -0.4216239    -0.0000453   -0.0002568    -0.0003730   -0.0001496     0.5508515   -0.4344012 
   0.014253552     0.8728002   -0.4144050     0.0000688   -0.0003811    -0.0000537    0.0001623     0.5502636   -0.4357290 
   0.014353577     0.8596473   -0.4236871    -0.0006006   -0.0008227     0.0000463    0.0000089     0.5403444   -0.4311506 
   0.014453602     0.8619332   -0.4216833    -0.0000620   -0.0005433    -0.0001279    0.0001586     0.5422938   -0.4307944 
   0.014553627     0.8615496   -0.4381101     0.0006385    0.0001128     0.0000649    0.0003614     0.5375380   -0.4344826 
   0.014653652     0.8657940   -0.4514997     0.0002019    0.0005206     0.0000573   -0.0000396     0.5355545   -0.4348105 
   0.014753677     0.8523976   -0.4477584    -0.0000034   -0.0008526     0.0000695    0.0000440     0.5329385   -0.4331540 
   0.014853702     0.8720071   -0.4457012    -0.0002897   -0.0001106    -0.0000340   -0.0002486     0.5277808   -0.4329470 
   0.014953727     0.8530905   -0.4648997     0.0001535    0.0011362    -0.0000157    0.0000175     0.5256042   -0.4312465 
   0.015053752     0.8554325   -0.4531936     0.0005498    0.0001407    -0.0000950   -0.0000867     0.5223917   -0.4335810 
   0.015153777     0.8748070   -0.4627812     0.0007544    0.0005954    -0.0001115    0.0001002     0.5213907   -0.4327621 
   0.015253802     0.8538814   -0.4657566     0.0002304   -0.0007556    -0.0000142    0.0001020     0.5168533   -0.4338396 
   0.015353827     0.8516307   -0.4672695     0.0000008   -0.0004545    -0.0003305    0.0001134     0.5144902   -0.4307817 
   0.015453852     0.8584005   -0.4672846    -0.0001463   -0.0002650    -0.0001482   -0.0001246     0.5106173   -0.4318651 
   0.015553877     0.8428928   -0.4760124     0.0000477   -0.0007945     0.0000677    0.0002559     0.5085983   -0.4286215 
   0.015653902     0.8447520   -0.4704729     0.0007806    0.0000749    -0.0000783   -0.0000312     0.5052430   -0.4321497 
