! 26-Feb-26 12:27:18 PM
! E:\VNA_MEASUREMENTS\SP8T\SP8T_P6_RF3.S2P
! CHANNEL.1
! TR.MEASUREMENT
! CORRECTED.DATA
# GHZ S RI R 50.0
! FREQ.GHZ         S11RE         S11IM         S21RE         S21IM         S12RE         S12IM         S22RE         S22IM         
!; PortSelection: Port_12
   0.000050000     1.4599130    0.1201042    -1.1271540   -0.6769564     0.0059409    0.0016760     0.9416692   -0.0537523 
   0.000150025    -0.7880246    0.2670720     2.1916280   -1.0519620     0.0000944   -0.0005579     1.0181800   -0.0168715 
   0.000250050     0.1398642   -0.0740303     0.0147232    0.0070441     0.0007154   -0.0008122     1.0019480   -0.0114069 
   0.000350075     0.9549937   -0.0711872    -0.0050137   -0.0074376     0.0004683   -0.0015167     0.9952403   -0.0325010 
   0.000450100     1.0381240   -0.0719317    -0.0031099   -0.0086565     0.0006442   -0.0006565     0.9917024   -0.0216933 
   0.000550125     1.0377360   -0.0023720    -0.0038645   -0.0066685    -0.0004397   -0.0001735     0.9942734   -0.0383375 
   0.000650150     0.9785255   -0.0332310    -0.0121765   -0.0090640     0.0013372   -0.0005557     1.0034860   -0.0486423 
   0.000750175     0.9672990   -0.0773806    -0.0103020   -0.0115841     0.0011432   -0.0000444     0.9862505   -0.0532873 
   0.000850200     0.9778640   -0.0504935    -0.0034989   -0.0059098     0.0000191   -0.0008764     0.9968761   -0.0400279 
   0.000950225     1.0091740   -0.0090531    -0.0097210   -0.0057206     0.0004299   -0.0000445     0.9948658   -0.0643825 
   0.001050250     0.9882839   -0.0156130    -0.0082368   -0.0039493    -0.0002446   -0.0003074     0.9957773   -0.0641142 
   0.001150275     1.0014790   -0.0306664    -0.0102245   -0.0081041     0.0002431   -0.0004663     0.9939061   -0.0720639 
   0.001250300     0.9692943    0.0291949    -0.0078313   -0.0050727     0.0011922    0.0004273     0.9925306   -0.0817395 
   0.001350325     1.0343860   -0.0303609    -0.0089597   -0.0027145    -0.0002807    0.0011011     0.9838585   -0.0904640 
   0.001450350     0.9827977   -0.0269805    -0.0076297    0.0001539    -0.0004040   -0.0000049     0.9834988   -0.0912214 
   0.001550375     1.0049800   -0.0203158    -0.0111392   -0.0017607     0.0005667    0.0005061     0.9868858   -0.0962224 
   0.001650400     1.0246810   -0.0280491    -0.0073828   -0.0013771    -0.0005112   -0.0004533     0.9738554   -0.0980297 
   0.001750425     0.9503325   -0.0536791    -0.0074251    0.0036382     0.0004211    0.0013502     0.9830413   -0.1119061 
   0.001850450     0.9486985   -0.0400496    -0.0099422   -0.0016259    -0.0004538   -0.0003920     0.9790912   -0.1154962 
   0.001950475     1.0057590    0.0235219    -0.0090849    0.0044253    -0.0000778   -0.0007912     0.9853014   -0.1154101 
   0.002050500     0.9294074   -0.0044614    -0.0093995    0.0040368     0.0005127    0.0008091     0.9792460   -0.1354600 
   0.002150525     0.9390661   -0.0432304    -0.0066877   -0.0035984    -0.0000664   -0.0000993     0.9748703   -0.1374731 
   0.002250550     0.9667658    0.0060678    -0.0065437    0.0033943     0.0007147    0.0004306     0.9811149   -0.1384576 
   0.002350575     0.9644322   -0.0475561    -0.0016770    0.0012123    -0.0000781    0.0000675     0.9714010   -0.1434719 
   0.002450600     0.9741913   -0.0436691    -0.0047894    0.0024876    -0.0005491   -0.0001276     0.9776452   -0.1601024 
   0.002550625     0.9869018   -0.0245940    -0.0030761    0.0028338     0.0001242   -0.0000113     0.9720882   -0.1589796 
   0.002650650     0.9775904    0.0085594    -0.0037026    0.0033395    -0.0002676   -0.0000142     0.9656652   -0.1666807 
   0.002750675     1.0140510   -0.0443022    -0.0035398    0.0017722     0.0001759    0.0012110     0.9613979   -0.1707828 
   0.002850700     1.0108300   -0.0339874    -0.0015192    0.0028464    -0.0004501   -0.0004724     0.9552668   -0.1799944 
   0.002950725     0.9657105   -0.0373133    -0.0036325    0.0035323    -0.0000298   -0.0003458     0.9630004   -0.1803961 
   0.003050750     0.9479570   -0.0374357    -0.0012225    0.0007457     0.0002911    0.0003210     0.9583213   -0.1858371 
   0.003150775     0.9790425   -0.0500259    -0.0028777    0.0017210     0.0002296    0.0002484     0.9501708   -0.1975193 
   0.003250800     0.9566224   -0.0232565    -0.0028195    0.0029554    -0.0009262    0.0002936     0.9516213   -0.1928587 
   0.003350825     0.9863676    0.0236135    -0.0021276    0.0022822    -0.0004066    0.0001213     0.9475322   -0.2100663 
   0.003450850     0.9536351   -0.0725779    -0.0019967   -0.0003771     0.0005344    0.0004484     0.9427961   -0.2120655 
   0.003550875     0.9275455   -0.0535312     0.0001128   -0.0007727    -0.0004729   -0.0006581     0.9443641   -0.2173808 
   0.003650900     0.9960101   -0.0136896    -0.0025779    0.0009349     0.0003555    0.0002096     0.9424204   -0.2222704 
   0.003750925     0.9715192   -0.0393167     0.0006559   -0.0005017    -0.0001952    0.0002392     0.9328291   -0.2250594 
   0.003850950     0.9753212   -0.0565336    -0.0001854    0.0010112    -0.0001969   -0.0004564     0.9336374   -0.2289784 
   0.003950975     0.9928912    0.0016395     0.0005939    0.0014420    -0.0001654   -0.0001322     0.9295340   -0.2365145 
   0.004051001     0.9518878   -0.0733476     0.0003866    0.0016932    -0.0001876    0.0002715     0.9270810   -0.2359835 
   0.004151026     0.9784127   -0.0153514    -0.0027641   -0.0002628     0.0000303   -0.0000311     0.9283364   -0.2454446 
   0.004251051     0.9486642   -0.0069722    -0.0001401    0.0029241    -0.0001960   -0.0000012     0.9253086   -0.2572224 
   0.004351076     0.9772727   -0.0348906    -0.0004563    0.0007459     0.0002463   -0.0000356     0.9133691   -0.2548600 
   0.004451101     0.9950658   -0.0086293    -0.0039436    0.0028160    -0.0002605   -0.0005908     0.9148380   -0.2612991 
   0.004551126     0.9891378   -0.0216419     0.0016650    0.0010285    -0.0010033    0.0003880     0.9135495   -0.2597524 
   0.004651151     0.9788382   -0.0268805    -0.0005338    0.0038017     0.0001754    0.0000319     0.9113564   -0.2708618 
   0.004751176     0.9497152   -0.0691929     0.0003015   -0.0015616     0.0003206   -0.0005279     0.9093739   -0.2747346 
   0.004851201     0.9468705   -0.0440633    -0.0008509    0.0036743     0.0005346    0.0000031     0.8962509   -0.2779585 
   0.004951226     0.9404711   -0.0278773    -0.0006007    0.0007499    -0.0006687    0.0005041     0.8928735   -0.2780688 
   0.005051251     0.9935673   -0.0320440    -0.0010240    0.0014093    -0.0001210    0.0001990     0.8921615   -0.2816417 
   0.005151276     0.9426891   -0.0330194    -0.0011058   -0.0000339    -0.0002310    0.0001669     0.8876325   -0.2899838 
   0.005251301     0.9561180   -0.0328383    -0.0006464    0.0020653     0.0000713   -0.0003626     0.8841367   -0.2888215 
   0.005351326     0.9186934   -0.0255690    -0.0007698    0.0017607     0.0002663    0.0002629     0.8840484   -0.2978404 
   0.005451351     0.9652352   -0.0253755    -0.0004713    0.0005388    -0.0000100    0.0003979     0.8796204   -0.3076390 
   0.005551376     0.9959357   -0.0526726     0.0010407    0.0022720     0.0001224    0.0004685     0.8721105   -0.3043611 
   0.005651401     0.9601331   -0.0223260    -0.0016919    0.0007281     0.0000410    0.0001878     0.8713781   -0.3151052 
   0.005751426     0.9335434   -0.0212869    -0.0002761    0.0017772    -0.0005979    0.0003363     0.8655260   -0.3150037 
   0.005851451     0.9656503   -0.0552486    -0.0013829    0.0008505     0.0006349    0.0000851     0.8659268   -0.3179697 
   0.005951476     0.9409025   -0.0388356     0.0019163    0.0014153    -0.0005183   -0.0002970     0.8598161   -0.3192085 
   0.006051501     0.9659365   -0.0405457    -0.0001225    0.0009054    -0.0001553    0.0004857     0.8524246   -0.3258167 
   0.006151526     0.9591680   -0.0534407     0.0022276    0.0021398     0.0000149    0.0003384     0.8508140   -0.3253469 
   0.006251551     0.9232390   -0.0285027     0.0000664   -0.0006776     0.0001097    0.0000197     0.8498201   -0.3329866 
   0.006351576     0.9484501   -0.0355534    -0.0003650   -0.0012728    -0.0000662   -0.0000287     0.8380367   -0.3336579 
   0.006451601     0.9864063   -0.0418096    -0.0002007    0.0000925    -0.0000726   -0.0002479     0.8379795   -0.3426644 
   0.006551626     0.9566454   -0.0458679     0.0025989    0.0000618    -0.0001647    0.0005194     0.8305898   -0.3404749 
   0.006651651     0.9591055   -0.0478079     0.0014888    0.0006053     0.0000127    0.0002716     0.8276187   -0.3489009 
   0.006751676     0.9715789   -0.0555008     0.0000282   -0.0005155     0.0002756   -0.0003281     0.8275405   -0.3466987 
   0.006851701     0.9671483   -0.0547650     0.0003486   -0.0007478    -0.0001084   -0.0000989     0.8223054   -0.3524739 
   0.006951726     0.9430133   -0.0697063     0.0002052    0.0000135     0.0003498    0.0002028     0.8187691   -0.3531466 
   0.007051751     0.9585969   -0.0262459     0.0003133   -0.0010782     0.0002156    0.0003041     0.8127207   -0.3582861 
   0.007151776     0.9726264   -0.0457964     0.0001580   -0.0007230     0.0003331    0.0000543     0.8065317   -0.3612008 
   0.007251801     0.9653934   -0.0146956     0.0014021   -0.0000142    -0.0001029    0.0002615     0.8022526   -0.3650999 
   0.007351826     0.9516352   -0.0486306    -0.0001687   -0.0003558    -0.0001284    0.0000394     0.8015426   -0.3695131 
   0.007451851     0.9607229   -0.0396270    -0.0015157    0.0004032    -0.0003030    0.0002345     0.7937030   -0.3673399 
   0.007551876     0.9511828   -0.0451303     0.0016640   -0.0004096    -0.0002989    0.0005396     0.7913876   -0.3707666 
   0.007651901     0.9693536   -0.0547657     0.0009677    0.0001572    -0.0000348   -0.0003708     0.7887579   -0.3693015 
   0.007751926     0.9667092   -0.0336282    -0.0017634    0.0014559     0.0001331   -0.0001063     0.7793677   -0.3776624 
   0.007851951     0.9478953   -0.0374254    -0.0009229    0.0012088     0.0002669    0.0001505     0.7812867   -0.3790402 
   0.007951976     0.9732522   -0.0494678     0.0015800    0.0019234    -0.0001483    0.0000676     0.7758721   -0.3759932 
   0.008052001     0.9539440   -0.0437367     0.0015236   -0.0002289    -0.0000608   -0.0001945     0.7688748   -0.3837253 
   0.008152026     0.9382878   -0.0493166     0.0000657   -0.0001968    -0.0002237    0.0003057     0.7696778   -0.3874138 
   0.008252051     0.9356979   -0.0346625    -0.0005078    0.0000314     0.0002636    0.0001270     0.7583272   -0.3872829 
   0.008352076     0.9658388   -0.0672019    -0.0000079    0.0007855     0.0001460   -0.0003802     0.7592339   -0.3938679 
   0.008452101     0.9504633   -0.0504404     0.0015404    0.0010299     0.0004549    0.0000740     0.7556806   -0.3925050 
   0.008552126     0.9624976   -0.0395073     0.0014682    0.0006091    -0.0000037   -0.0000768     0.7491007   -0.3923275 
   0.008652151     0.9682725   -0.0439308     0.0001262   -0.0004449     0.0001200    0.0002210     0.7454168   -0.3963223 
   0.008752176     0.9518041   -0.0204964     0.0001592    0.0018054     0.0001469   -0.0000271     0.7415243   -0.4018427 
   0.008852201     0.9420851   -0.0393646    -0.0006729    0.0007765    -0.0007239   -0.0001433     0.7352974   -0.3992547 
   0.008952226     0.9784940   -0.0246887     0.0007144    0.0003919     0.0003633   -0.0000853     0.7339897   -0.4001344 
   0.009052251     0.9722090   -0.0312707    -0.0013170   -0.0001478    -0.0004691   -0.0000486     0.7314363   -0.4018510 
   0.009152276     0.9571722   -0.0205003    -0.0011563   -0.0001837    -0.0000107   -0.0001338     0.7237992   -0.4061282 
   0.009252301     0.9516115   -0.0346416    -0.0007428    0.0000619    -0.0001110   -0.0000092     0.7183872   -0.4073368 
   0.009352326     0.9805920   -0.0340058    -0.0009533    0.0001012     0.0000270    0.0001759     0.7176486   -0.4043914 
   0.009452351     0.9585867   -0.0440065     0.0001281    0.0001034    -0.0002579   -0.0002507     0.7116071   -0.4099935 
   0.009552376     0.9511333   -0.0536904    -0.0007438   -0.0000712    -0.0001279    0.0002968     0.7059368   -0.4086372 
   0.009652401     0.9457935   -0.0410084     0.0003733    0.0001111    -0.0000197   -0.0004467     0.7040203   -0.4129162 
   0.009752426     0.9461475   -0.0351856    -0.0008430    0.0008186     0.0004372   -0.0001072     0.7000802   -0.4139708 
   0.009852451     0.9599826   -0.0549513     0.0005560    0.0001969     0.0002662    0.0001022     0.6953710   -0.4149123 
   0.009952476     0.9689600   -0.0548513    -0.0000481    0.0008986     0.0002131    0.0003275     0.6903762   -0.4154743 
   0.010052501     0.9451709   -0.0455383     0.0009077   -0.0007923     0.0002327    0.0005008     0.6887330   -0.4131981 
   0.010152526     0.9575177   -0.0375418     0.0005119   -0.0009394     0.0004168   -0.0002010     0.6808599   -0.4159983 
   0.010252551     0.9516182   -0.0414227     0.0003996   -0.0002964    -0.0004426   -0.0004003     0.6797395   -0.4212976 
   0.010352576     0.9731281   -0.0631389    -0.0014951    0.0003483    -0.0001341    0.0000132     0.6753427   -0.4200226 
   0.010452601     0.9759229   -0.0259072     0.0011245    0.0009530    -0.0000426    0.0001474     0.6725099   -0.4223588 
   0.010552626     0.9533342   -0.0579468    -0.0010148    0.0005138    -0.0002112   -0.0002203     0.6692519   -0.4223512 
   0.010652651     0.9510957   -0.0477913    -0.0003188   -0.0003040    -0.0001973    0.0001277     0.6642276   -0.4250041 
   0.010752676     0.9726841   -0.0564310    -0.0009843   -0.0000239    -0.0001560   -0.0001618     0.6613933   -0.4259653 
   0.010852701     0.9593068   -0.0140196     0.0010278    0.0009473     0.0002224    0.0001543     0.6598990   -0.4234507 
   0.010952726     0.9558296   -0.0285062     0.0003750    0.0003930    -0.0001133   -0.0001907     0.6537777   -0.4268224 
   0.011052751     0.9645745   -0.0583531    -0.0000318   -0.0010822     0.0000653    0.0002263     0.6494601   -0.4274043 
   0.011152776     0.9632777   -0.0420186    -0.0000233    0.0003011     0.0000194   -0.0002502     0.6451494   -0.4287875 
   0.011252801     0.9639769   -0.0479232    -0.0004967    0.0006412    -0.0000997    0.0003436     0.6401685   -0.4280513 
   0.011352826     0.9760112   -0.0696303    -0.0001876    0.0007138     0.0002668    0.0001149     0.6401089   -0.4284023 
   0.011452851     0.9501940   -0.0610440     0.0009526    0.0013295     0.0005726    0.0001580     0.6324718   -0.4319673 
   0.011552876     0.9575649   -0.0352637    -0.0005632   -0.0000806    -0.0000160    0.0002153     0.6303658   -0.4340766 
   0.011652901     0.9653870   -0.0624689    -0.0004547   -0.0004036     0.0000856   -0.0000480     0.6245994   -0.4312584 
   0.011752926     0.9537206   -0.0613703    -0.0013192    0.0002724     0.0002166   -0.0002683     0.6259267   -0.4324794 
   0.011852951     0.9656225   -0.0586353     0.0009655   -0.0000677    -0.0006171   -0.0002107     0.6205825   -0.4339850 
   0.011952976     0.9374387   -0.0649047    -0.0002753   -0.0007340    -0.0003285   -0.0002135     0.6170596   -0.4323364 
   0.012053002     0.9514978   -0.0702524    -0.0003122   -0.0010513     0.0000582    0.0000518     0.6110821   -0.4305845 
   0.012153027     0.9677924   -0.0730735     0.0002722   -0.0000115     0.0003642    0.0001039     0.6072407   -0.4336729 
   0.012253052     0.9494312   -0.0708596    -0.0001974    0.0012051     0.0002997    0.0000262     0.6056366   -0.4330652 
   0.012353077     0.9554408   -0.0545844     0.0000768   -0.0007830    -0.0000752   -0.0002899     0.6035705   -0.4338221 
   0.012453102     0.9610162   -0.0512755    -0.0000424    0.0020191     0.0000965   -0.0000661     0.5979745   -0.4354095 
   0.012553127     0.9557975   -0.0818083    -0.0005003   -0.0002664     0.0002841    0.0001277     0.5950481   -0.4315437 
   0.012653152     0.9465689   -0.0458154     0.0003441   -0.0005462    -0.0002056   -0.0003998     0.5896799   -0.4344728 
   0.012753177     0.9657943   -0.0552624    -0.0000021    0.0003841     0.0001488    0.0000913     0.5890995   -0.4351264 
   0.012853202     0.9531201   -0.0387190     0.0008919    0.0006245     0.0000622    0.0001071     0.5820044   -0.4338743 
   0.012953227     0.9522251   -0.0360919     0.0004512    0.0000502     0.0000502   -0.0000071     0.5822549   -0.4342545 
   0.013053252     0.9491085   -0.0707749    -0.0004281   -0.0001041     0.0002404   -0.0002172     0.5794109   -0.4341612 
   0.013153277     0.9506804   -0.0470156    -0.0016942    0.0001626    -0.0000099    0.0003244     0.5729833   -0.4363663 
   0.013253302     0.9500513   -0.0615115    -0.0003734    0.0005090     0.0003890    0.0002257     0.5719680   -0.4338691 
   0.013353327     0.9602392   -0.0491094     0.0002924   -0.0000466    -0.0002316   -0.0002635     0.5681214   -0.4355217 
   0.013453352     0.9641067   -0.0399378    -0.0000997    0.0002534     0.0000253    0.0001713     0.5641605   -0.4359620 
   0.013553377     0.9481314   -0.0661261     0.0009836    0.0006701    -0.0001700    0.0001792     0.5612062   -0.4350153 
   0.013653402     0.9433320   -0.0550141    -0.0006927   -0.0003118     0.0002116    0.0001395     0.5567728   -0.4343387 
   0.013753427     0.9485648   -0.0554864    -0.0000071    0.0008882    -0.0000681    0.0000717     0.5547367   -0.4332516 
   0.013853452     0.9625649   -0.0713553    -0.0003571    0.0006912     0.0004621    0.0001222     0.5524464   -0.4344187 
   0.013953477     0.9422856   -0.0627979    -0.0000704    0.0001349     0.0001777   -0.0002240     0.5520189   -0.4360060 
   0.014053502     0.9767329   -0.0696065    -0.0001673   -0.0001400     0.0000927    0.0002253     0.5466793   -0.4333214 
   0.014153527     0.9528270   -0.0532202    -0.0002252    0.0009738    -0.0001100    0.0000331     0.5440886   -0.4340060 
   0.014253552     0.9742727   -0.0567103     0.0003725   -0.0000142     0.0000502    0.0002177     0.5424896   -0.4349456 
   0.014353577     0.9437278   -0.0636247     0.0009499   -0.0014772     0.0001472   -0.0000987     0.5359631   -0.4327655 
   0.014453602     0.9462827   -0.0659608     0.0006259    0.0001839    -0.0001353    0.0000759     0.5333241   -0.4322145 
   0.014553627     0.9452605   -0.0620221     0.0000465    0.0008417     0.0000862    0.0001715     0.5312787   -0.4334236 
   0.014653652     0.9505681   -0.0702955    -0.0006578   -0.0002154    -0.0001220    0.0002026     0.5291197   -0.4318480 
   0.014753677     0.9539349   -0.0595135     0.0007373    0.0000901    -0.0000734    0.0000323     0.5251967   -0.4317620 
   0.014853702     0.9582513   -0.0466755     0.0000465   -0.0003436     0.0000514   -0.0000578     0.5222328   -0.4301659 
   0.014953727     0.9746147   -0.0682430    -0.0004536   -0.0010113     0.0002487   -0.0001945     0.5192710   -0.4306056 
   0.015053752     0.9668142   -0.0578584    -0.0002328    0.0004303     0.0001338   -0.0001221     0.5167081   -0.4314843 
   0.015153777     0.9624014   -0.0739223     0.0000242    0.0000861    -0.0001324    0.0000883     0.5155449   -0.4347087 
   0.015253802     0.9506676   -0.0529959    -0.0000662    0.0000900     0.0000644    0.0001479     0.5118560   -0.4309489 
   0.015353827     0.9621302   -0.0584867     0.0004155   -0.0004432    -0.0000447    0.0000615     0.5071245   -0.4289186 
   0.015453852     0.9580811   -0.0578642    -0.0009608    0.0002440     0.0000292    0.0001142     0.5067433   -0.4292157 
   0.015553877     0.9652400   -0.0629367    -0.0004445    0.0004576     0.0000923    0.0001971     0.5023164   -0.4307071 
   0.015653902     0.9482363   -0.0657258     0.0006771    0.0011127    -0.0000112    0.0002848     0.4984074   -0.4314207 
