! 26-Feb-26 11:55:24 AM
! E:\VNA_MEASUREMENTS\SP8T\SP8T_P4_RF6.S2P
! CHANNEL.1
! TR.MEASUREMENT
! CORRECTED.DATA
# GHZ S RI R 50.0
! FREQ.GHZ         S11RE         S11IM         S21RE         S21IM         S12RE         S12IM         S22RE         S22IM         
!; PortSelection: Port_12
   0.000050000     0.8901434   -0.0768487    -0.2881846    0.0300375     0.0009669   -0.0059238     0.9775832    0.0196663 
   0.000150025    -0.2749528    0.0323653     0.3820200   -0.0132422    -0.0001880   -0.0018294     0.9982873   -0.0066125 
   0.000250050     0.5583702   -0.6498760     0.0045391    0.0040975    -0.0009273    0.0011172     0.9994140   -0.0200712 
   0.000350075     1.0200610   -0.0300325    -0.0013889   -0.0101083     0.0004010   -0.0013362     0.9959885   -0.0246206 
   0.000450100     0.9744742   -0.0652146    -0.0020253   -0.0100098    -0.0027458   -0.0009217     0.9936671   -0.0160329 
   0.000550125     1.0320510   -0.0425028    -0.0040100   -0.0059461    -0.0012308   -0.0002310     0.9955007   -0.0321333 
   0.000650150     0.9485147   -0.0260938    -0.0087022   -0.0092016    -0.0000700   -0.0002591     1.0015930   -0.0503228 
   0.000750175     1.0060260    0.0049093    -0.0035642   -0.0063382    -0.0006079    0.0001276     0.9927104   -0.0492802 
   0.000850200     0.9751326   -0.0774797    -0.0058191   -0.0109124     0.0008733   -0.0007601     0.9992519   -0.0440304 
   0.000950225     1.0203880   -0.0463885    -0.0056263   -0.0093096     0.0003457    0.0002514     0.9848140   -0.0657029 
   0.001050250     0.9661415   -0.0667811    -0.0091320   -0.0071974    -0.0001487    0.0003976     0.9886572   -0.0608116 
   0.001150275     0.9524769   -0.0217851    -0.0096588   -0.0038156    -0.0005641    0.0001879     0.9866866   -0.0704579 
   0.001250300     0.9548749   -0.0215305    -0.0066067   -0.0020901     0.0001601    0.0001130     0.9963143   -0.0810268 
   0.001350325     1.0291260   -0.0529966    -0.0079993    0.0019890     0.0012464   -0.0000461     0.9827912   -0.0866755 
   0.001450350     1.0329590   -0.0883969    -0.0141649   -0.0035963     0.0002048    0.0003573     0.9870471   -0.0871664 
   0.001550375     1.0018910   -0.0648586    -0.0115505   -0.0020920    -0.0008659   -0.0004063     0.9924803   -0.0969555 
   0.001650400     0.9775188   -0.0722162    -0.0086390    0.0006087    -0.0000343    0.0010599     0.9823782   -0.0937056 
   0.001750425     1.0133170   -0.0942058    -0.0033401    0.0002528     0.0002155    0.0010392     0.9854547   -0.1071509 
   0.001850450     0.9595326   -0.0603219    -0.0076565    0.0004391    -0.0000667   -0.0000462     0.9849339   -0.1172437 
   0.001950475     1.0341680   -0.0235071    -0.0069746    0.0037707     0.0003080   -0.0002485     0.9844648   -0.1167624 
   0.002050500     0.9752479   -0.0373713    -0.0049985    0.0009862     0.0001340   -0.0000863     0.9840310   -0.1300957 
   0.002150525     0.9981924   -0.0782863    -0.0082083    0.0008611     0.0008631    0.0002168     0.9769811   -0.1336117 
   0.002250550     1.0134540   -0.0415403    -0.0049906    0.0017597     0.0001226    0.0000197     0.9711162   -0.1369216 
   0.002350575     0.9554551   -0.0796280    -0.0073493    0.0031879    -0.0001413   -0.0001288     0.9783177   -0.1399813 
   0.002450600     0.9873313   -0.0835462    -0.0072462   -0.0005392     0.0001730   -0.0000131     0.9768641   -0.1555293 
   0.002550625     0.9646057   -0.0755493    -0.0076712    0.0026948     0.0010651    0.0002001     0.9707488   -0.1506167 
   0.002650650     1.0293760   -0.0961008    -0.0039899    0.0046810     0.0004952   -0.0004087     0.9629964   -0.1656546 
   0.002750675     0.9926088   -0.0479041    -0.0025067    0.0036476     0.0002074    0.0008761     0.9595258   -0.1708511 
   0.002850700     1.0004450   -0.0906095    -0.0059236    0.0043921     0.0004635    0.0000137     0.9555236   -0.1732618 
   0.002950725     0.9395030   -0.0843888     0.0004371    0.0044629     0.0000656   -0.0001285     0.9655245   -0.1796735 
   0.003050750     0.9815021   -0.0978552    -0.0027058    0.0013081    -0.0003275    0.0003652     0.9606190   -0.1854700 
   0.003150775     0.9785147   -0.1108668    -0.0041888    0.0044098    -0.0001238    0.0002059     0.9527462   -0.1945109 
   0.003250800     0.9618194   -0.0861967    -0.0015434    0.0002892    -0.0000842   -0.0003928     0.9534584   -0.1949551 
   0.003350825     0.9529593   -0.0561819    -0.0035727    0.0060957    -0.0000135    0.0001858     0.9529681   -0.1970524 
   0.003450850     0.9552743   -0.1882332    -0.0018375    0.0034395     0.0000473   -0.0000218     0.9462550   -0.2048179 
   0.003550875     0.9338930   -0.1388329    -0.0003759    0.0025593    -0.0000651    0.0000497     0.9429495   -0.2108728 
   0.003650900     0.9820731   -0.1010179    -0.0002565    0.0029270    -0.0000687    0.0008215     0.9399065   -0.2203592 
   0.003750925     0.9783843   -0.1619413    -0.0026061    0.0024822     0.0002769   -0.0002380     0.9357415   -0.2247690 
   0.003850950     0.9552754   -0.1448520    -0.0003721   -0.0008117    -0.0004213   -0.0001663     0.9421370   -0.2249391 
   0.003950975     0.9947149   -0.1273179    -0.0001951    0.0026118     0.0000391   -0.0002719     0.9328579   -0.2264136 
   0.004051001     0.9644881   -0.1737914    -0.0016984    0.0002587    -0.0006214    0.0001695     0.9272358   -0.2331466 
   0.004151026     0.9750987   -0.1521202    -0.0020593    0.0028895    -0.0003129    0.0001937     0.9244536   -0.2433556 
   0.004251051     0.9681077   -0.1529950    -0.0009545    0.0008574    -0.0001121    0.0002859     0.9230334   -0.2476381 
   0.004351076     0.9688237   -0.1198002    -0.0020630    0.0026978    -0.0002386    0.0002436     0.9204968   -0.2506731 
   0.004451101     0.9933782   -0.1535918    -0.0011825   -0.0011064     0.0007013   -0.0004289     0.9116408   -0.2512925 
   0.004551126     0.9746889   -0.1527867     0.0003046    0.0019516    -0.0004886   -0.0003773     0.9163390   -0.2569622 
   0.004651151     0.9604988   -0.1624583    -0.0022363    0.0003283     0.0001261    0.0001618     0.9114825   -0.2648062 
   0.004751176     0.9663132   -0.1810842     0.0012250    0.0023582     0.0001276    0.0002137     0.9101112   -0.2673776 
   0.004851201     0.9559585   -0.1555042    -0.0023946    0.0003672    -0.0001721   -0.0000425     0.8986655   -0.2722654 
   0.004951226     0.9421318   -0.1610747     0.0016877    0.0020639    -0.0002708   -0.0003844     0.9023326   -0.2767733 
   0.005051251     0.9836487   -0.1716551     0.0007230    0.0002648    -0.0001535   -0.0000059     0.8971007   -0.2779121 
   0.005151276     0.9352623   -0.1454168     0.0003728    0.0010591     0.0002760    0.0002482     0.8913801   -0.2881839 
   0.005251301     0.9301517   -0.1871201     0.0004809    0.0000454    -0.0000211   -0.0010298     0.8901116   -0.2882870 
   0.005351326     0.9565676   -0.1688171     0.0014928    0.0016428    -0.0005395    0.0001728     0.8881847   -0.2924933 
   0.005451351     0.9506974   -0.1397705     0.0002079   -0.0005815    -0.0001835    0.0003305     0.8821799   -0.2970868 
   0.005551376     0.9527757   -0.1977918    -0.0027221    0.0001625    -0.0003126   -0.0000091     0.8797047   -0.2957630 
   0.005651401     0.9477629   -0.1718827     0.0005014   -0.0001017    -0.0000788   -0.0004932     0.8755510   -0.3101852 
   0.005751426     0.9618518   -0.1916038     0.0008795    0.0017665     0.0003494    0.0002799     0.8667720   -0.3081417 
   0.005851451     0.9811094   -0.2075017    -0.0000468   -0.0000108    -0.0001243    0.0002639     0.8659056   -0.3122632 
   0.005951476     0.9680587   -0.1758703    -0.0009002    0.0009106     0.0003177   -0.0003594     0.8639036   -0.3185044 
   0.006051501     0.9474435   -0.1987358    -0.0002505    0.0015530     0.0001390    0.0004483     0.8575391   -0.3197682 
   0.006151526     0.9574511   -0.2051910    -0.0013450   -0.0003326     0.0004499    0.0001417     0.8552867   -0.3223591 
   0.006251551     0.9493147   -0.1906680     0.0008639    0.0002103    -0.0001530   -0.0001456     0.8526009   -0.3280821 
   0.006351576     0.9343185   -0.2010835     0.0006752    0.0004210     0.0003862    0.0002415     0.8442754   -0.3310559 
   0.006451601     0.9464216   -0.1985460    -0.0013574    0.0011012    -0.0003879    0.0002558     0.8385755   -0.3388244 
   0.006551626     0.9526964   -0.1892596     0.0005810    0.0018738    -0.0005339   -0.0000604     0.8406977   -0.3373813 
   0.006651651     0.9419201   -0.2263416    -0.0009428    0.0000254     0.0001634    0.0000435     0.8318897   -0.3455345 
   0.006751676     0.9316155   -0.2408720    -0.0001647    0.0007133    -0.0001978   -0.0003130     0.8346599   -0.3420717 
   0.006851701     0.9473332   -0.2277246     0.0006834   -0.0004939    -0.0000599    0.0002886     0.8275001   -0.3496099 
   0.006951726     0.9265096   -0.2425021    -0.0003507    0.0007306    -0.0000336   -0.0005117     0.8210152   -0.3490846 
   0.007051751     0.9470203   -0.2132868     0.0025895    0.0003045     0.0001177    0.0000893     0.8108699   -0.3540220 
   0.007151776     0.9137663   -0.2224952    -0.0009934   -0.0005226    -0.0001878    0.0000100     0.8078157   -0.3526165 
   0.007251801     0.9343534   -0.2129694     0.0022861    0.0030097     0.0003409    0.0000840     0.8092217   -0.3605946 
   0.007351826     0.9250439   -0.2448934    -0.0018232   -0.0016712     0.0000181   -0.0002493     0.8049352   -0.3632118 
   0.007451851     0.9220136   -0.2397162     0.0006658    0.0020105    -0.0001620   -0.0001490     0.7994602   -0.3641932 
   0.007551876     0.9304458   -0.2454854    -0.0025536   -0.0000912     0.0000411   -0.0003442     0.7980576   -0.3671013 
   0.007651901     0.9318205   -0.2659294    -0.0016360    0.0014682    -0.0000156   -0.0000925     0.7937979   -0.3659675 
   0.007751926     0.9207453   -0.2423711     0.0009420    0.0018238     0.0004384    0.0003442     0.7875855   -0.3714672 
   0.007851951     0.9305685   -0.2404388    -0.0002590    0.0029998     0.0001248    0.0000081     0.7848663   -0.3732155 
   0.007951976     0.9106684   -0.2643746    -0.0009757    0.0008111     0.0002402    0.0000607     0.7771630   -0.3752125 
   0.008052001     0.9177004   -0.2475901    -0.0023074   -0.0009304    -0.0000628    0.0000406     0.7734193   -0.3790646 
   0.008152026     0.9119946   -0.2524118     0.0015341   -0.0005319     0.0001847   -0.0003476     0.7737002   -0.3824753 
   0.008252051     0.9027386   -0.2540117     0.0008140   -0.0010437    -0.0000734    0.0002660     0.7630016   -0.3809601 
   0.008352076     0.9193465   -0.2656333     0.0002082   -0.0009618     0.0002971    0.0001015     0.7626860   -0.3868236 
   0.008452101     0.9126128   -0.2463654    -0.0002606    0.0015604     0.0003049    0.0001162     0.7623605   -0.3877490 
   0.008552126     0.9134890   -0.2687791     0.0004424   -0.0009235    -0.0001064    0.0002123     0.7555402   -0.3889997 
   0.008652151     0.9120336   -0.2492835     0.0006470    0.0009710    -0.0000822    0.0001053     0.7523670   -0.3914514 
   0.008752176     0.9144819   -0.2389132    -0.0007799    0.0018348    -0.0001967    0.0002551     0.7462171   -0.3976668 
   0.008852201     0.8896533   -0.2487745     0.0000399   -0.0000536    -0.0001022    0.0003319     0.7420003   -0.3955410 
   0.008952226     0.9305602   -0.2709944     0.0003480    0.0012352     0.0001069    0.0001958     0.7427115   -0.3956397 
   0.009052251     0.9277996   -0.2696162     0.0018522    0.0005974     0.0005121    0.0003028     0.7360153   -0.3978574 
   0.009152276     0.9029800   -0.2693476    -0.0004420    0.0002606    -0.0001695   -0.0000550     0.7291285   -0.4046822 
   0.009252301     0.9056013   -0.2756953     0.0000656   -0.0007809    -0.0004468    0.0002967     0.7287970   -0.4041955 
   0.009352326     0.9034228   -0.2778352    -0.0010860    0.0009016     0.0000795    0.0002339     0.7234159   -0.4027600 
   0.009452351     0.9174368   -0.2770190     0.0012723   -0.0003041     0.0002350   -0.0002249     0.7171832   -0.4037562 
   0.009552376     0.9044673   -0.2892077    -0.0008930   -0.0013178    -0.0000111   -0.0000117     0.7168329   -0.4038291 
   0.009652401     0.8955594   -0.2951795    -0.0011481   -0.0006024    -0.0003608   -0.0002053     0.7114477   -0.4087012 
   0.009752426     0.8926963   -0.2943349     0.0002223   -0.0003550     0.0000816    0.0001064     0.7078735   -0.4086955 
   0.009852451     0.8929455   -0.2941141     0.0000670    0.0013513     0.0002194    0.0001934     0.7015417   -0.4127620 
   0.009952476     0.8796667   -0.3019498     0.0001118    0.0004319    -0.0002496    0.0003692     0.6970451   -0.4101821 
   0.010052501     0.8969498   -0.2844532    -0.0010764    0.0001404     0.0002737   -0.0001400     0.6950954   -0.4110145 
   0.010152526     0.8848159   -0.2875300    -0.0003775    0.0000341    -0.0001298   -0.0000467     0.6911563   -0.4118156 
   0.010252551     0.8780848   -0.2940060    -0.0001557   -0.0006959     0.0000902    0.0001357     0.6884330   -0.4179982 
   0.010352576     0.8820662   -0.3186044     0.0001009    0.0006617     0.0002967    0.0000565     0.6835139   -0.4162281 
   0.010452601     0.8805084   -0.2938755    -0.0003289    0.0013141    -0.0000401    0.0003834     0.6782481   -0.4192460 
   0.010552626     0.8708408   -0.3120025     0.0008214    0.0012190     0.0000205    0.0002339     0.6765207   -0.4184417 
   0.010652651     0.8829102   -0.3135535    -0.0000635   -0.0006792    -0.0002433   -0.0000476     0.6721103   -0.4217626 
   0.010752676     0.8830794   -0.3349357    -0.0011573    0.0005503    -0.0003564   -0.0004762     0.6654894   -0.4211657 
   0.010852701     0.8840528   -0.2894939     0.0002727    0.0005516     0.0000029   -0.0001115     0.6653371   -0.4192052 
   0.010952726     0.8696331   -0.3091110    -0.0001174    0.0005915     0.0001858    0.0002738     0.6609946   -0.4231935 
   0.011052751     0.8748925   -0.3248530     0.0006784   -0.0001284    -0.0000068    0.0002391     0.6582908   -0.4254250 
   0.011152776     0.8739946   -0.3318574    -0.0012830    0.0006008     0.0003549    0.0002055     0.6527745   -0.4237177 
   0.011252801     0.8767544   -0.3369778     0.0006819   -0.0016966     0.0001723    0.0000457     0.6508361   -0.4261788 
   0.011352826     0.8632489   -0.3471264     0.0009640    0.0005807    -0.0003254    0.0002910     0.6492914   -0.4241869 
   0.011452851     0.8529922   -0.3362391    -0.0009194    0.0012910    -0.0000798   -0.0001279     0.6420170   -0.4272005 
   0.011552876     0.8653338   -0.3420276     0.0000399    0.0007629    -0.0000609    0.0001060     0.6384509   -0.4300746 
   0.011652901     0.8553238   -0.3451604     0.0001801    0.0010506    -0.0000642    0.0000559     0.6336598   -0.4265943 
   0.011752926     0.8459492   -0.3253334    -0.0010036    0.0002151     0.0000843    0.0001742     0.6317524   -0.4286565 
   0.011852951     0.8576749   -0.3506885    -0.0013589   -0.0016857     0.0000132   -0.0002475     0.6290709   -0.4273811 
   0.011952976     0.8479154   -0.3366804    -0.0003024   -0.0010995     0.0002888    0.0000392     0.6231112   -0.4305154 
   0.012053002     0.8468828   -0.3537768    -0.0010754   -0.0000889    -0.0001015   -0.0000452     0.6215746   -0.4289528 
   0.012153027     0.8409538   -0.3542599     0.0004225   -0.0005985     0.0000519   -0.0002065     0.6161015   -0.4295467 
   0.012253052     0.8310057   -0.3521119    -0.0009857    0.0000196     0.0000189   -0.0000349     0.6134325   -0.4288408 
   0.012353077     0.8484993   -0.3526107     0.0003670    0.0007226    -0.0000556   -0.0001472     0.6102057   -0.4298173 
   0.012453102     0.8356001   -0.3486737    -0.0007028    0.0001246    -0.0003462   -0.0000608     0.6053575   -0.4325910 
   0.012553127     0.8301432   -0.3732605    -0.0006983   -0.0000170     0.0002303   -0.0000440     0.6017187   -0.4297474 
   0.012653152     0.8455743   -0.3608655    -0.0007639   -0.0007979    -0.0002583    0.0001834     0.5987226   -0.4328289 
   0.012753177     0.8388918   -0.3542697    -0.0000409    0.0004825     0.0001704    0.0000409     0.5968073   -0.4317122 
   0.012853202     0.8328379   -0.3412181     0.0008864   -0.0011484     0.0001453   -0.0001363     0.5908781   -0.4320141 
   0.012953227     0.8323192   -0.3527289    -0.0004070   -0.0012000     0.0000912   -0.0001627     0.5920763   -0.4335641 
   0.013053252     0.8204230   -0.3687071     0.0002833   -0.0001952    -0.0001135   -0.0000667     0.5867454   -0.4327495 
   0.013153277     0.8251523   -0.3573962     0.0002063    0.0003658    -0.0003809   -0.0001274     0.5835166   -0.4356467 
   0.013253302     0.8264994   -0.3566043     0.0004999    0.0002756     0.0000696   -0.0000371     0.5814598   -0.4316741 
   0.013353327     0.8174920   -0.3614659     0.0002687    0.0004627    -0.0004570    0.0001558     0.5763904   -0.4323703 
   0.013453352     0.8301250   -0.3597819    -0.0006467    0.0006599     0.0004721    0.0004409     0.5754929   -0.4335822 
   0.013553377     0.8023778   -0.3688490     0.0002865   -0.0000860     0.0001683    0.0003018     0.5700845   -0.4341485 
   0.013653402     0.8086782   -0.3707634    -0.0008417   -0.0000634    -0.0001790    0.0001153     0.5670749   -0.4330064 
   0.013753427     0.8149809   -0.3702440     0.0004182    0.0012332    -0.0000421    0.0001794     0.5614064   -0.4313996 
   0.013853452     0.8176706   -0.3880691    -0.0006063   -0.0003125     0.0004834   -0.0000808     0.5652228   -0.4313881 
   0.013953477     0.7943005   -0.3739553     0.0001806    0.0010565     0.0000019    0.0000260     0.5581312   -0.4333822 
   0.014053502     0.8125906   -0.3891385     0.0000367   -0.0003524     0.0002035   -0.0000493     0.5556337   -0.4314360 
   0.014153527     0.8004854   -0.3875487    -0.0003555   -0.0005368     0.0001157    0.0000118     0.5525128   -0.4316590 
   0.014253552     0.8055410   -0.3753378    -0.0002451    0.0002508    -0.0001290   -0.0001515     0.5502670   -0.4324189 
   0.014353577     0.7951255   -0.3678201     0.0006598    0.0000077    -0.0000258    0.0003194     0.5425489   -0.4336786 
   0.014453602     0.7798491   -0.3856240     0.0014537   -0.0008869     0.0000608    0.0001208     0.5436028   -0.4316131 
   0.014553627     0.7972742   -0.3912877     0.0001098   -0.0002103     0.0001250    0.0000161     0.5379028   -0.4317987 
   0.014653652     0.8069558   -0.3917094    -0.0001163   -0.0007670    -0.0000191   -0.0000243     0.5357684   -0.4319664 
   0.014753677     0.7895086   -0.3940950    -0.0010395   -0.0001906     0.0002240   -0.0001124     0.5318044   -0.4301170 
   0.014853702     0.7931157   -0.3797610     0.0007938   -0.0005147    -0.0001370   -0.0001636     0.5308580   -0.4302209 
   0.014953727     0.7873918   -0.4007906    -0.0005104    0.0002585    -0.0001098   -0.0001254     0.5284898   -0.4308997 
   0.015053752     0.7878448   -0.3889409     0.0002722    0.0001720    -0.0001834   -0.0000274     0.5243099   -0.4295525 
   0.015153777     0.7904406   -0.4004665     0.0002020    0.0004234    -0.0001357    0.0001436     0.5240189   -0.4307593 
   0.015253802     0.7825776   -0.4011277    -0.0000752   -0.0000064    -0.0000465    0.0000120     0.5201615   -0.4290505 
   0.015353827     0.7810121   -0.4069724    -0.0002722   -0.0004566     0.0001057   -0.0000620     0.5167574   -0.4291941 
   0.015453852     0.7760509   -0.4041442    -0.0005204   -0.0005730    -0.0000216    0.0000536     0.5125857   -0.4278426 
   0.015553877     0.7792384   -0.4173276     0.0000947    0.0005380    -0.0001497   -0.0000721     0.5124565   -0.4274238 
   0.015653902     0.7825977   -0.4018573     0.0000836   -0.0003078     0.0000649    0.0000786     0.5090558   -0.4304049 
