! 26-Feb-26 11:20:10 AM
! E:\VNA_MEASUREMENTS\SP8T\SP8T_P1_RF1.S2P
! CHANNEL.1
! TR.MEASUREMENT
! CORRECTED.DATA
# GHZ S RI R 50.0
! FREQ.GHZ         S11RE         S11IM         S21RE         S21IM         S12RE         S12IM         S22RE         S22IM         
!; PortSelection: Port_12
   0.000050000     0.0870780   -0.0562877    -0.2041920   -0.0771251     0.0003602    0.0019710     1.0063660    0.0771596 
   0.000150025    -0.0218095    0.1440029    -0.7022641   -0.0965020     0.0007459    0.0024815     1.0055600    0.0007591 
   0.000250050     0.2016541   -0.3787954     0.0035114    0.0004425     0.0003307    0.0048394     0.9961278   -0.0030358 
   0.000350075     0.9828296   -0.0110813    -0.0023373   -0.0034369    -0.0030992    0.0090639     0.9883754   -0.0229029 
   0.000450100     1.0280260   -0.0011728     0.0000166   -0.0018451    -0.0032533    0.0099230     1.0011420   -0.0071931 
   0.000550125     0.9579620   -0.0642235    -0.0046926    0.0002281    -0.0014033    0.0136502     0.9880152   -0.0222038 
   0.000650150     1.0054500   -0.0235902    -0.0097503    0.0009294    -0.0025551    0.0172532     1.0070320   -0.0310010 
   0.000750175     0.9822738   -0.0499890    -0.0090362    0.0107478    -0.0006201    0.0191853     0.9950121   -0.0307637 
   0.000850200     0.9690066   -0.0823621    -0.0147568    0.0140683    -0.0014914    0.0224860     0.9940594   -0.0312205 
   0.000950225     1.0196820   -0.0544071    -0.0137756    0.0235785    -0.0023227    0.0263598     0.9888815   -0.0362277 
   0.001050250     0.9544781   -0.0251325    -0.0113674    0.0256421    -0.0041884    0.0277934     0.9979976   -0.0334991 
   0.001150275     1.0244440   -0.0490037    -0.0139861    0.0303276    -0.0028950    0.0306263     0.9776750   -0.0382175 
   0.001250300     0.9723877   -0.0114268    -0.0118951    0.0262843    -0.0027779    0.0343931     0.9916531   -0.0498672 
   0.001350325     1.0267910   -0.0614020    -0.0138566    0.0386205    -0.0034506    0.0378471     0.9836373   -0.0501504 
   0.001450350     0.9822647   -0.0882971    -0.0089572    0.0395988    -0.0029001    0.0413313     0.9926409   -0.0489838 
   0.001550375     0.9703776   -0.0880237    -0.0103470    0.0417286    -0.0025506    0.0440162     0.9957337   -0.0596200 
   0.001650400     0.9860603   -0.0681547    -0.0126868    0.0488144    -0.0025272    0.0469836     0.9827330   -0.0537696 
   0.001750425     1.0019140   -0.0935751    -0.0104985    0.0508865    -0.0026391    0.0502412     0.9862000   -0.0627374 
   0.001850450     0.9765660   -0.0852059    -0.0072155    0.0520841    -0.0023226    0.0533261     0.9885816   -0.0575346 
   0.001950475     0.9985074   -0.0660385    -0.0096211    0.0565708    -0.0024777    0.0569013     0.9939579   -0.0632217 
   0.002050500     0.9882784   -0.0520457    -0.0091315    0.0634255    -0.0032532    0.0600552     0.9900560   -0.0794742 
   0.002150525     0.9948253   -0.0613353    -0.0101151    0.0647129    -0.0021963    0.0624212     0.9860626   -0.0753081 
   0.002250550     0.9959763   -0.0522789    -0.0052826    0.0710797    -0.0027595    0.0673682     0.9862801   -0.0773410 
   0.002350575     0.9529908   -0.1319121    -0.0086499    0.0686949     0.0001050    0.0676056     0.9848036   -0.0818015 
   0.002450600     0.9868756   -0.0804083    -0.0057309    0.0725534    -0.0008768    0.0732448     0.9979850   -0.0913432 
   0.002550625     0.9706509   -0.0993938    -0.0057975    0.0796115    -0.0012235    0.0751211     0.9872920   -0.0880104 
   0.002650650     0.9941566   -0.0774132    -0.0059313    0.0819403    -0.0002846    0.0799709     0.9861948   -0.0980517 
   0.002750675     0.9852658   -0.0518545    -0.0066172    0.0839202     0.0001575    0.0816189     0.9813166   -0.0980726 
   0.002850700     0.9734881   -0.0745081     0.0012012    0.0859273    -0.0003853    0.0843689     0.9813727   -0.0973856 
   0.002950725     0.9335271   -0.0649381    -0.0037695    0.0837423    -0.0015209    0.0878234     0.9862131   -0.1009989 
   0.003050750     0.9377486   -0.0922578     0.0000172    0.0883914     0.0014098    0.0894606     0.9811527   -0.1038427 
   0.003150775     0.9370000   -0.1365402     0.0036810    0.0907964     0.0033110    0.0916971     0.9741440   -0.1084318 
   0.003250800     0.9745675   -0.0721256    -0.0048458    0.1004438     0.0014255    0.0966435     0.9828563   -0.1034016 
   0.003350825     0.9995877   -0.1044858     0.0021820    0.1039440     0.0034833    0.1000267     0.9747257   -0.1135854 
   0.003450850     0.9749265   -0.1399257     0.0035823    0.1069120     0.0053129    0.1026510     0.9738855   -0.1184749 
   0.003550875     0.9565399   -0.1166363     0.0053854    0.1074600     0.0046344    0.1062567     0.9798019   -0.1226841 
   0.003650900     0.9955643   -0.0966976     0.0019409    0.1112489     0.0037156    0.1109009     0.9821068   -0.1204024 
   0.003750925     0.9693416   -0.1396783     0.0052483    0.1108637     0.0070031    0.1109313     0.9660555   -0.1293737 
   0.003850950     0.9564127   -0.1279973     0.0067916    0.1129584     0.0062377    0.1144852     0.9779081   -0.1264324 
   0.003950975     0.9695866   -0.1407510     0.0076162    0.1156553     0.0078804    0.1178382     0.9741775   -0.1283979 
   0.004051001     0.9818125   -0.1665187     0.0092200    0.1243590     0.0096207    0.1209132     0.9679705   -0.1305995 
   0.004151026     0.9948344   -0.1619557     0.0085709    0.1255046     0.0106218    0.1252525     0.9711458   -0.1396908 
   0.004251051     0.9548367   -0.1203619     0.0060520    0.1259450     0.0096277    0.1274508     0.9737927   -0.1457799 
   0.004351076     0.9819692   -0.1341500     0.0137573    0.1340598     0.0116122    0.1298561     0.9631782   -0.1458612 
   0.004451101     0.9848000   -0.1720788     0.0160117    0.1314242     0.0137082    0.1341790     0.9689090   -0.1464711 
   0.004551126     0.9981903   -0.1444820     0.0133882    0.1425399     0.0124237    0.1372230     0.9670338   -0.1484376 
   0.004651151     0.9722088   -0.1675168     0.0121034    0.1404939     0.0143086    0.1408696     0.9741092   -0.1497534 
   0.004751176     0.9698907   -0.1923676     0.0184288    0.1434634     0.0175666    0.1424131     0.9674360   -0.1587167 
   0.004851201     0.9440741   -0.1416138     0.0131730    0.1473413     0.0140743    0.1441349     0.9627859   -0.1608193 
   0.004951226     0.9500396   -0.1376268     0.0128807    0.1482045     0.0140172    0.1477145     0.9639078   -0.1577428 
   0.005051251     0.9691187   -0.1751007     0.0175611    0.1511116     0.0165012    0.1508950     0.9630140   -0.1606440 
   0.005151276     0.9576613   -0.1530450     0.0143251    0.1573432     0.0172659    0.1547110     0.9622613   -0.1675364 
   0.005251301     0.9734391   -0.1481494     0.0159027    0.1615066     0.0184349    0.1590191     0.9627230   -0.1712210 
   0.005351326     0.9364530   -0.1594260     0.0206775    0.1585533     0.0190670    0.1592087     0.9619033   -0.1725426 
   0.005451351     0.9666719   -0.1599219     0.0206920    0.1627657     0.0221143    0.1640151     0.9575524   -0.1792248 
   0.005551376     0.9928102   -0.1984469     0.0268057    0.1723565     0.0236377    0.1678631     0.9546288   -0.1716508 
   0.005651401     0.9531709   -0.1834220     0.0246698    0.1673460     0.0246669    0.1680326     0.9555864   -0.1853182 
   0.005751426     0.9210944   -0.1559866     0.0212304    0.1681316     0.0216228    0.1693980     0.9520521   -0.1849311 
   0.005851451     0.9274957   -0.2268940     0.0338791    0.1693024     0.0283642    0.1723778     0.9540536   -0.1884442 
   0.005951476     0.9444042   -0.1730260     0.0244563    0.1765135     0.0261338    0.1762475     0.9497830   -0.1886592 
   0.006051501     0.9545660   -0.1886933     0.0320980    0.1832422     0.0276690    0.1807163     0.9539793   -0.1942333 
   0.006151526     0.9345143   -0.2196609     0.0349111    0.1798251     0.0325287    0.1807878     0.9525669   -0.2003687 
   0.006251551     0.9471570   -0.1764604     0.0271372    0.1836992     0.0295462    0.1855774     0.9475470   -0.2018871 
   0.006351576     0.9515169   -0.2080516     0.0318759    0.1893398     0.0333881    0.1870454     0.9434772   -0.2058973 
   0.006451601     0.9423144   -0.2097868     0.0331874    0.1893896     0.0344609    0.1906244     0.9456823   -0.2062128 
   0.006551626     0.9270573   -0.2047368     0.0337644    0.1921404     0.0328388    0.1938991     0.9465795   -0.2052007 
   0.006651651     0.9310604   -0.2064018     0.0341220    0.1919060     0.0360488    0.1955169     0.9413098   -0.2160822 
   0.006751676     0.9211949   -0.2217088     0.0369518    0.1962665     0.0381509    0.1977911     0.9454345   -0.2126565 
   0.006851701     0.9298761   -0.2473183     0.0462900    0.1999585     0.0418796    0.1999105     0.9410941   -0.2212919 
   0.006951726     0.9323945   -0.2283293     0.0416472    0.2048949     0.0402660    0.2037593     0.9374485   -0.2184841 
   0.007051751     0.9330065   -0.2075897     0.0411578    0.2064271     0.0408498    0.2068542     0.9371846   -0.2238386 
   0.007151776     0.9129872   -0.2240523     0.0406373    0.2112187     0.0422230    0.2078725     0.9339706   -0.2286665 
   0.007251801     0.9318992   -0.2185176     0.0443197    0.2130891     0.0433121    0.2133431     0.9357678   -0.2287463 
   0.007351826     0.9250997   -0.2316181     0.0456391    0.2150221     0.0472009    0.2145094     0.9348236   -0.2373275 
   0.007451851     0.9196441   -0.2249780     0.0456667    0.2144091     0.0456141    0.2162649     0.9283279   -0.2323852 
   0.007551876     0.9139122   -0.2409819     0.0510495    0.2200006     0.0482683    0.2189182     0.9284625   -0.2387668 
   0.007651901     0.9340210   -0.2844215     0.0605452    0.2243100     0.0542845    0.2202413     0.9252916   -0.2372986 
   0.007751926     0.9098791   -0.2425382     0.0519773    0.2246776     0.0512295    0.2251694     0.9297599   -0.2406855 
   0.007851951     0.9154863   -0.2443213     0.0540799    0.2261088     0.0532843    0.2273524     0.9237587   -0.2463701 
   0.007951976     0.9406732   -0.2570395     0.0530922    0.2371028     0.0551354    0.2321647     0.9208516   -0.2415188 
   0.008052001     0.9409257   -0.2420569     0.0557289    0.2387302     0.0564951    0.2358020     0.9209554   -0.2516702 
   0.008152026     0.9127814   -0.2696638     0.0598680    0.2331769     0.0599346    0.2351225     0.9274498   -0.2526284 
   0.008252051     0.9016228   -0.2301456     0.0527579    0.2363569     0.0563621    0.2368879     0.9187397   -0.2570476 
   0.008352076     0.9229307   -0.2556548     0.0603833    0.2445866     0.0608607    0.2409557     0.9158060   -0.2588873 
   0.008452101     0.9146038   -0.2483436     0.0600005    0.2452566     0.0614793    0.2440073     0.9152037   -0.2589545 
   0.008552126     0.9269058   -0.2611901     0.0670532    0.2491255     0.0658783    0.2463679     0.9111811   -0.2617056 
   0.008652151     0.9102229   -0.2596131     0.0691801    0.2466420     0.0641128    0.2479918     0.9118982   -0.2631279 
   0.008752176     0.9173096   -0.2518758     0.0660596    0.2530783     0.0667279    0.2524259     0.9138722   -0.2698820 
   0.008852201     0.9018493   -0.2549239     0.0678773    0.2499183     0.0680837    0.2527872     0.9090180   -0.2728288 
   0.008952226     0.9136794   -0.2669968     0.0727179    0.2551588     0.0707510    0.2581647     0.9121507   -0.2749695 
   0.009052251     0.9178198   -0.2703516     0.0761411    0.2596679     0.0730880    0.2596923     0.9071226   -0.2760952 
   0.009152276     0.9168943   -0.2647326     0.0722560    0.2642282     0.0741411    0.2623110     0.9034719   -0.2802828 
   0.009252301     0.9023592   -0.2652436     0.0727889    0.2617708     0.0747946    0.2629487     0.8997488   -0.2829762 
   0.009352326     0.9125291   -0.2828976     0.0759446    0.2679373     0.0788339    0.2675955     0.9037050   -0.2856304 
   0.009452351     0.9146929   -0.2798739     0.0818066    0.2711899     0.0792067    0.2694500     0.8980255   -0.2852834 
   0.009552376     0.9047499   -0.2909677     0.0799859    0.2739597     0.0814706    0.2693481     0.8951127   -0.2890397 
   0.009652401     0.8900497   -0.2879037     0.0807278    0.2687250     0.0824377    0.2719891     0.8962349   -0.2911465 
   0.009752426     0.8976830   -0.2913380     0.0864709    0.2744382     0.0850721    0.2740260     0.8942214   -0.2923696 
   0.009852451     0.8879598   -0.3025557     0.0878232    0.2736168     0.0872169    0.2759970     0.8930153   -0.2965873 
   0.009952476     0.8912016   -0.3112292     0.0927502    0.2768107     0.0900964    0.2753667     0.8857411   -0.2958229 
   0.010052501     0.8887631   -0.3104181     0.0928262    0.2806141     0.0899893    0.2812057     0.8922411   -0.2959036 
   0.010152526     0.8881809   -0.2861374     0.0887389    0.2801063     0.0898780    0.2841869     0.8837512   -0.3017335 
   0.010252551     0.8834289   -0.3041589     0.0950573    0.2849869     0.0941510    0.2856895     0.8859548   -0.3061806 
   0.010352576     0.8944886   -0.3182853     0.0961605    0.2880653     0.0978348    0.2878667     0.8831099   -0.3071008 
   0.010452601     0.9031330   -0.3033486     0.0952749    0.2947326     0.0994186    0.2908597     0.8755753   -0.3121263 
   0.010552626     0.8695957   -0.3159847     0.0991488    0.2928602     0.0993923    0.2896589     0.8772647   -0.3111523 
   0.010652651     0.8772925   -0.3051815     0.1013709    0.2928813     0.1000925    0.2940873     0.8772849   -0.3152741 
   0.010752676     0.8793400   -0.3177602     0.1020788    0.2982602     0.1032309    0.2957524     0.8740357   -0.3159902 
   0.010852701     0.8773149   -0.3151985     0.1083605    0.2964370     0.1041356    0.3002701     0.8780744   -0.3136952 
   0.010952726     0.8783204   -0.3097740     0.1041471    0.3052079     0.1054457    0.3012716     0.8662599   -0.3213730 
   0.011052751     0.8853729   -0.3137018     0.1047898    0.3086030     0.1095846    0.3057646     0.8696844   -0.3248769 
   0.011152776     0.8617059   -0.3164711     0.1065220    0.3006769     0.1093481    0.3044786     0.8666680   -0.3263768 
   0.011252801     0.8679555   -0.3252413     0.1086390    0.3011774     0.1125694    0.3067755     0.8651034   -0.3268164 
   0.011352826     0.8685710   -0.3490549     0.1188205    0.3116731     0.1171894    0.3073244     0.8660979   -0.3266194 
   0.011452851     0.8630917   -0.3325046     0.1169846    0.3093698     0.1167806    0.3099533     0.8613043   -0.3336287 
   0.011552876     0.8521208   -0.3426877     0.1219703    0.3094137     0.1192478    0.3104121     0.8613842   -0.3378485 
   0.011652901     0.8558857   -0.3413895     0.1180849    0.3121288     0.1205846    0.3136486     0.8579291   -0.3374596 
   0.011752926     0.8493186   -0.3241077     0.1143217    0.3143852     0.1190581    0.3163060     0.8573263   -0.3388146 
   0.011852951     0.8611334   -0.3484529     0.1239327    0.3213233     0.1253869    0.3196211     0.8568171   -0.3389875 
   0.011952976     0.8502822   -0.3319603     0.1255520    0.3197821     0.1233574    0.3199279     0.8503500   -0.3415684 
   0.012053002     0.8351551   -0.3507636     0.1276526    0.3154435     0.1274119    0.3186185     0.8495309   -0.3455455 
   0.012153027     0.8523074   -0.3470178     0.1281097    0.3241104     0.1312132    0.3242090     0.8473298   -0.3476506 
   0.012253052     0.8318990   -0.3396078     0.1276388    0.3239871     0.1290199    0.3260653     0.8486151   -0.3491647 
   0.012353077     0.8495282   -0.3553019     0.1362726    0.3291213     0.1332626    0.3268218     0.8456400   -0.3467109 
   0.012453102     0.8488109   -0.3534923     0.1404869    0.3312451     0.1364892    0.3287083     0.8418934   -0.3513864 
   0.012553127     0.8321704   -0.3692379     0.1383630    0.3254850     0.1386676    0.3279555     0.8380282   -0.3552734 
   0.012653152     0.8374451   -0.3417391     0.1381630    0.3307176     0.1371383    0.3339840     0.8368435   -0.3578126 
   0.012753177     0.8300102   -0.3580607     0.1422922    0.3285628     0.1408643    0.3348149     0.8375915   -0.3580399 
   0.012853202     0.8433162   -0.3399323     0.1415509    0.3395742     0.1437008    0.3400370     0.8322462   -0.3602940 
   0.012953227     0.8246775   -0.3584225     0.1462175    0.3343822     0.1433441    0.3392431     0.8369101   -0.3612872 
   0.013053252     0.8243477   -0.3753454     0.1490790    0.3347806     0.1485661    0.3396659     0.8334253   -0.3642938 
   0.013153277     0.8287086   -0.3569453     0.1498594    0.3396630     0.1510469    0.3413404     0.8265558   -0.3686638 
   0.013253302     0.8232055   -0.3569557     0.1519721    0.3400325     0.1501208    0.3457448     0.8277031   -0.3633548 
   0.013353327     0.8270676   -0.3618840     0.1530417    0.3457254     0.1541015    0.3465634     0.8228740   -0.3707383 
   0.013453352     0.8291869   -0.3541187     0.1505238    0.3464333     0.1541918    0.3495865     0.8196909   -0.3701964 
   0.013553377     0.8079466   -0.3634426     0.1557087    0.3458535     0.1552241    0.3483101     0.8200934   -0.3752408 
   0.013653402     0.8098320   -0.3694736     0.1563561    0.3455016     0.1580927    0.3485503     0.8176387   -0.3745575 
   0.013753427     0.8227850   -0.3696242     0.1589691    0.3523464     0.1620211    0.3532616     0.8137892   -0.3763818 
   0.013853452     0.8175374   -0.3830440     0.1646652    0.3528374     0.1641165    0.3526993     0.8143158   -0.3747506 
   0.013953477     0.8076774   -0.3656076     0.1624929    0.3558173     0.1642051    0.3575352     0.8132031   -0.3799691 
   0.014053502     0.8146024   -0.3849800     0.1708532    0.3564905     0.1695388    0.3552702     0.8083074   -0.3806048 
   0.014153527     0.7983199   -0.3816144     0.1697855    0.3516799     0.1677608    0.3588528     0.8106061   -0.3812865 
   0.014253552     0.8117478   -0.3758617     0.1756021    0.3641904     0.1737981    0.3626461     0.8077679   -0.3852738 
   0.014353577     0.8072879   -0.3825104     0.1737430    0.3635086     0.1741077    0.3592221     0.7991194   -0.3835976 
   0.014453602     0.7867489   -0.3827816     0.1766382    0.3554235     0.1727776    0.3611793     0.8000589   -0.3878731 
   0.014553627     0.7937657   -0.3920999     0.1808044    0.3592713     0.1767975    0.3644230     0.8041947   -0.3869947 
   0.014653652     0.7996711   -0.3926349     0.1787802    0.3669161     0.1799815    0.3651157     0.7951849   -0.3890346 
   0.014753677     0.7948961   -0.3899844     0.1836976    0.3685099     0.1806309    0.3683047     0.7941817   -0.3900373 
   0.014853702     0.7975522   -0.3835025     0.1850169    0.3624802     0.1828087    0.3730427     0.7948142   -0.3925063 
   0.014953727     0.7897264   -0.3990565     0.1875431    0.3694883     0.1858013    0.3683358     0.7898927   -0.3931504 
   0.015053752     0.7895162   -0.3884617     0.1803835    0.3664878     0.1886595    0.3729005     0.7871076   -0.3991945 
   0.015153777     0.7962377   -0.3956557     0.1919003    0.3752335     0.1927698    0.3746544     0.7872036   -0.3960333 
   0.015253802     0.7845684   -0.4034246     0.1978136    0.3735989     0.1940099    0.3735014     0.7845822   -0.4008242 
   0.015353827     0.7813689   -0.3989988     0.2007074    0.3749928     0.1945690    0.3756217     0.7826261   -0.4009170 
   0.015453852     0.7953742   -0.3991490     0.1978233    0.3839680     0.1994008    0.3788120     0.7785661   -0.3998463 
   0.015553877     0.7802668   -0.4046218     0.2029077    0.3765438     0.2005100    0.3783903     0.7771603   -0.4046025 
   0.015653902     0.7689850   -0.4065506     0.2028871    0.3737798     0.2015448    0.3790019     0.7772732   -0.4081081 
