! 26-Feb-26 11:26:44 AM
! E:\VNA_MEASUREMENTS\SP8T\SP8T_P1_RF7.S2P
! CHANNEL.1
! TR.MEASUREMENT
! CORRECTED.DATA
# GHZ S RI R 50.0
! FREQ.GHZ         S11RE         S11IM         S21RE         S21IM         S12RE         S12IM         S22RE         S22IM         
!; PortSelection: Port_12
   0.000050000     0.1124604    0.2329698    -0.0027418   -0.0960677     0.0023251   -0.0044344     1.0007390    0.0280427 
   0.000150025    -0.1190107    0.1730243    -0.1054200   -0.3708698    -0.0010341    0.0005011     0.9909325   -0.0008301 
   0.000250050     0.2302478   -2.2227100     0.0275133   -0.0099851     0.0007406   -0.0006070     0.9991449   -0.0183562 
   0.000350075     0.9853160   -0.0736442    -0.0013222   -0.0133890     0.0005126   -0.0000028     0.9944655   -0.0372049 
   0.000450100     1.0272430   -0.0570465    -0.0008705   -0.0096293     0.0006435   -0.0005985     0.9888736   -0.0149577 
   0.000550125     0.9752579   -0.0361676    -0.0062652   -0.0100841    -0.0006984   -0.0009834     0.9825087   -0.0306613 
   0.000650150     1.0657480   -0.0155792    -0.0050104   -0.0095247    -0.0006802    0.0001488     1.0066570   -0.0432781 
   0.000750175     1.0004080   -0.0437809    -0.0103818   -0.0071057     0.0005040    0.0002074     0.9920235   -0.0534270 
   0.000850200     1.0043550   -0.0785858    -0.0118438   -0.0113227     0.0006453   -0.0005919     1.0067460   -0.0500404 
   0.000950225     0.9905449   -0.1080409    -0.0067191   -0.0061301    -0.0001436    0.0002958     0.9922320   -0.0596778 
   0.001050250     1.0099500   -0.0490483    -0.0087942   -0.0055874     0.0006777   -0.0002376     0.9922851   -0.0642518 
   0.001150275     0.9679012   -0.0712669    -0.0087791    0.0000052     0.0004143   -0.0002863     0.9875277   -0.0689311 
   0.001250300     0.9826387   -0.0385980    -0.0149405   -0.0022548    -0.0003700   -0.0003997     0.9909381   -0.0808432 
   0.001350325     1.0191480   -0.0829802    -0.0094627   -0.0038537    -0.0002710    0.0011372     0.9864341   -0.0817987 
   0.001450350     0.9908636   -0.0579485    -0.0088223   -0.0031288    -0.0001373    0.0003979     0.9849243   -0.0964873 
   0.001550375     0.9929568   -0.0782746    -0.0105040   -0.0033475     0.0007813   -0.0001354     0.9960117   -0.0928209 
   0.001650400     0.9877145   -0.0431266    -0.0081726   -0.0019038     0.0003912    0.0001381     0.9865911   -0.0994111 
   0.001750425     0.9796266   -0.0459079    -0.0095645    0.0021343     0.0004547   -0.0000802     0.9854611   -0.1027699 
   0.001850450     0.9610114   -0.0893673    -0.0053167    0.0052207     0.0001929    0.0010622     0.9902083   -0.1135790 
   0.001950475     1.0215200   -0.0146107    -0.0062280   -0.0016560     0.0000717    0.0000013     0.9849911   -0.1214724 
   0.002050500     0.9794297   -0.0497216    -0.0044147    0.0004417    -0.0000016    0.0002997     0.9811564   -0.1294962 
   0.002150525     0.9915747   -0.0363487    -0.0093076    0.0016884    -0.0002341    0.0000027     0.9786925   -0.1327226 
   0.002250550     0.9629001   -0.0463703    -0.0048533    0.0067352    -0.0002993    0.0004027     0.9723100   -0.1442784 
   0.002350575     0.9931555   -0.1181548    -0.0078333    0.0066320     0.0003714   -0.0005526     0.9705465   -0.1431432 
   0.002450600     0.9660711   -0.0803455    -0.0054893    0.0036686    -0.0005782   -0.0000758     0.9853393   -0.1515532 
   0.002550625     0.9745563   -0.0741494    -0.0010779    0.0018682     0.0006083   -0.0002446     0.9729214   -0.1570996 
   0.002650650     1.0066700   -0.0497368    -0.0028984   -0.0000697     0.0001085    0.0004943     0.9753535   -0.1646585 
   0.002750675     0.9760727   -0.0643992    -0.0070645    0.0032760    -0.0007025   -0.0003731     0.9691448   -0.1773389 
   0.002850700     1.0077850   -0.1207359     0.0004845    0.0015415    -0.0007609   -0.0000113     0.9602128   -0.1706546 
   0.002950725     0.9580373   -0.0911817    -0.0024495    0.0038282    -0.0006726   -0.0002280     0.9610830   -0.1722115 
   0.003050750     0.9648089   -0.0986144    -0.0015386    0.0013226    -0.0000330   -0.0000846     0.9590159   -0.1844263 
   0.003150775     0.9731559   -0.1253704    -0.0053264    0.0025128     0.0005947   -0.0002044     0.9567348   -0.1921399 
   0.003250800     0.9904670   -0.0933546    -0.0025396    0.0023434    -0.0006297   -0.0001056     0.9530594   -0.1989373 
   0.003350825     0.9745491   -0.1104900    -0.0017472    0.0028863     0.0003750    0.0002246     0.9464436   -0.2012005 
   0.003450850     0.9301561   -0.1384785    -0.0022830    0.0019366     0.0002184   -0.0006838     0.9458706   -0.2075244 
   0.003550875     0.9324089   -0.0881335    -0.0012445    0.0043415     0.0004571   -0.0000410     0.9447258   -0.2122619 
   0.003650900     0.9782587   -0.1194866    -0.0021572    0.0017708    -0.0003140   -0.0012301     0.9371186   -0.2184293 
   0.003750925     0.9636304   -0.1273091    -0.0018259    0.0037806    -0.0001794    0.0002128     0.9314289   -0.2217956 
   0.003850950     0.9803190   -0.1290944    -0.0010004    0.0014136     0.0001006    0.0001803     0.9360819   -0.2290281 
   0.003950975     0.9801929   -0.1192955     0.0002603    0.0020959     0.0001374    0.0001009     0.9293267   -0.2353553 
   0.004051001     0.9514234   -0.1623381    -0.0025148    0.0007841    -0.0002108    0.0002065     0.9273506   -0.2350753 
   0.004151026     1.0065100   -0.1405274     0.0014343    0.0015818     0.0005291    0.0002242     0.9246428   -0.2405105 
   0.004251051     0.9752092   -0.1478986     0.0000527    0.0032271     0.0000551   -0.0003290     0.9228418   -0.2470721 
   0.004351076     0.9948776   -0.1286372    -0.0003352    0.0029562    -0.0000486    0.0000386     0.9159383   -0.2528499 
   0.004451101     0.9938694   -0.1727506     0.0009383   -0.0000737     0.0006444    0.0001920     0.9147316   -0.2552511 
   0.004551126     0.9885927   -0.1595477    -0.0014147   -0.0000070     0.0003079   -0.0005575     0.9136555   -0.2547136 
   0.004651151     0.9532521   -0.1433924    -0.0029775    0.0097470     0.0000651    0.0002556     0.9178700   -0.2650579 
   0.004751176     0.9539474   -0.1773610     0.0007908   -0.0003971     0.0000890   -0.0000599     0.9081715   -0.2737028 
   0.004851201     0.9449779   -0.1530730     0.0015489    0.0010542     0.0001837    0.0005584     0.9000454   -0.2751039 
   0.004951226     0.9597729   -0.1159314    -0.0003568    0.0005647     0.0001348    0.0000421     0.8996248   -0.2788799 
   0.005051251     0.9797080   -0.1568276     0.0010090    0.0006000     0.0003637   -0.0000916     0.8953192   -0.2782729 
   0.005151276     0.9307016   -0.1625452    -0.0001917    0.0001097     0.0001398   -0.0000297     0.8910224   -0.2823036 
   0.005251301     0.9350466   -0.1597599     0.0000555    0.0001498    -0.0002992   -0.0008487     0.8815562   -0.2888940 
   0.005351326     0.9746981   -0.1633959    -0.0016469    0.0013204    -0.0004982    0.0001067     0.8902045   -0.2916960 
   0.005451351     0.9480650   -0.1453777    -0.0011109   -0.0025353    -0.0000345   -0.0003249     0.8802589   -0.3030462 
   0.005551376     0.9681191   -0.1987567     0.0010957   -0.0009512     0.0002582   -0.0000306     0.8718443   -0.3017092 
   0.005651401     0.9571061   -0.1604307     0.0008174    0.0014271     0.0002058    0.0001556     0.8738754   -0.3139698 
   0.005751426     0.9297662   -0.1782831    -0.0009228    0.0003170     0.0001117    0.0007155     0.8641496   -0.3096552 
   0.005851451     0.9836352   -0.1978913     0.0015268    0.0016661    -0.0003510    0.0000208     0.8654392   -0.3149923 
   0.005951476     0.9432956   -0.1985200    -0.0001368    0.0013138    -0.0004312   -0.0003721     0.8662207   -0.3174603 
   0.006051501     0.9502875   -0.1983925     0.0001341    0.0015978     0.0001222    0.0003084     0.8608695   -0.3263596 
   0.006151526     0.9362870   -0.2056747    -0.0027878    0.0019478    -0.0001995   -0.0001692     0.8545080   -0.3234898 
   0.006251551     0.9505583   -0.1868630    -0.0017251    0.0008031    -0.0001141   -0.0003098     0.8516471   -0.3309253 
   0.006351576     0.9381914   -0.1998355     0.0011466    0.0004116     0.0001035    0.0000334     0.8432240   -0.3320319 
   0.006451601     0.9316715   -0.2163478     0.0002884   -0.0001280     0.0000466    0.0003965     0.8361040   -0.3374529 
   0.006551626     0.9259012   -0.2163282    -0.0021460   -0.0007585     0.0001936    0.0003995     0.8357540   -0.3367906 
   0.006651651     0.9350960   -0.2115772    -0.0011550    0.0010623    -0.0002072   -0.0001968     0.8327069   -0.3463440 
   0.006751676     0.9324031   -0.2338024    -0.0005440    0.0011966    -0.0000836    0.0001174     0.8315196   -0.3439008 
   0.006851701     0.9378678   -0.2376023    -0.0011241   -0.0022851     0.0001479    0.0004820     0.8229386   -0.3503836 
   0.006951726     0.9151459   -0.2333141     0.0006797    0.0000593     0.0000079    0.0000309     0.8264307   -0.3509271 
   0.007051751     0.9472169   -0.2062304    -0.0010073   -0.0005279     0.0002505   -0.0000862     0.8143539   -0.3564138 
   0.007151776     0.9151610   -0.2447639    -0.0005665    0.0026221     0.0004460   -0.0000007     0.8073185   -0.3568129 
   0.007251801     0.9383376   -0.2118564    -0.0006642   -0.0000146    -0.0000899    0.0000788     0.8060789   -0.3600434 
   0.007351826     0.9247991   -0.2532242     0.0008097    0.0014178    -0.0003562   -0.0001569     0.8026250   -0.3640627 
   0.007451851     0.9283572   -0.2421764     0.0014003    0.0010348    -0.0002031   -0.0001362     0.7972614   -0.3627638 
   0.007551876     0.9456389   -0.2250678    -0.0010717   -0.0014142     0.0002313    0.0005176     0.7954056   -0.3663748 
   0.007651901     0.9264362   -0.2617031    -0.0001884    0.0007529     0.0003897   -0.0001596     0.7947542   -0.3703752 
   0.007751926     0.9137369   -0.2387034    -0.0011449    0.0006677     0.0000717    0.0001703     0.7869616   -0.3724973 
   0.007851951     0.9222866   -0.2304155    -0.0004026    0.0018614    -0.0002810   -0.0003153     0.7848567   -0.3762383 
   0.007951976     0.9195343   -0.2790023    -0.0002382   -0.0020751    -0.0000160   -0.0005425     0.7775187   -0.3775355 
   0.008052001     0.9159170   -0.2573001    -0.0007788   -0.0004339     0.0001925    0.0001532     0.7746985   -0.3805491 
   0.008152026     0.9132363   -0.2680444    -0.0004772    0.0000317    -0.0005250    0.0002033     0.7726343   -0.3839491 
   0.008252051     0.9116494   -0.2439475     0.0002663   -0.0016355     0.0000132   -0.0001937     0.7648095   -0.3821995 
   0.008352076     0.9149057   -0.2668757    -0.0007883    0.0009676    -0.0002682    0.0004082     0.7608743   -0.3898955 
   0.008452101     0.9133052   -0.2443754    -0.0003564   -0.0006321    -0.0002502   -0.0002631     0.7594501   -0.3893575 
   0.008552126     0.9129896   -0.2524285    -0.0003978    0.0006420    -0.0002075   -0.0000537     0.7563528   -0.3894638 
   0.008652151     0.9139394   -0.2546112    -0.0006950   -0.0002685     0.0002846    0.0003127     0.7503078   -0.3950631 
   0.008752176     0.9099727   -0.2592976     0.0004248   -0.0008358     0.0001921    0.0005242     0.7488869   -0.3990895 
   0.008852201     0.8939272   -0.2500224    -0.0004369    0.0005573     0.0005024    0.0000979     0.7420722   -0.3956069 
   0.008952226     0.9192634   -0.2812986    -0.0011520    0.0003659     0.0000818   -0.0007006     0.7398285   -0.3969508 
   0.009052251     0.8994657   -0.2616472     0.0007184   -0.0005583     0.0003479   -0.0000671     0.7336336   -0.4014366 
   0.009152276     0.9069515   -0.2809518    -0.0002924    0.0000542     0.0002088    0.0002029     0.7306834   -0.4040393 
   0.009252301     0.8898034   -0.2654077     0.0018654    0.0019913     0.0000422    0.0001763     0.7267945   -0.4060961 
   0.009352326     0.8956252   -0.2827012     0.0005409    0.0008867    -0.0003120    0.0000464     0.7213698   -0.4046410 
   0.009452351     0.9085736   -0.2807588    -0.0001587    0.0009455    -0.0001766   -0.0001510     0.7155988   -0.4062685 
   0.009552376     0.9106636   -0.2920354     0.0005055   -0.0003707     0.0002501    0.0002530     0.7093238   -0.4042851 
   0.009652401     0.8891076   -0.2825905     0.0002716    0.0003410     0.0000712    0.0001693     0.7077795   -0.4095982 
   0.009752426     0.8907273   -0.2931510    -0.0002960    0.0009179     0.0000267    0.0000009     0.7059960   -0.4107993 
   0.009852451     0.8751671   -0.3006889    -0.0004226    0.0005137    -0.0002634   -0.0001466     0.7003371   -0.4133044 
   0.009952476     0.8940539   -0.3086452    -0.0003234    0.0003746     0.0001296    0.0000202     0.6940835   -0.4092051 
   0.010052501     0.8729269   -0.2867709    -0.0008320    0.0014189    -0.0003276    0.0000006     0.6935006   -0.4111978 
   0.010152526     0.8785402   -0.2909864     0.0012368    0.0008452     0.0000085   -0.0002092     0.6907387   -0.4134229 
   0.010252551     0.8772830   -0.3035817     0.0000927    0.0005627    -0.0002459    0.0000322     0.6871822   -0.4193721 
   0.010352576     0.8851588   -0.3175818     0.0011532    0.0003491    -0.0001129    0.0002373     0.6802504   -0.4172671 
   0.010452601     0.8809186   -0.2857178     0.0004179    0.0002426    -0.0000039   -0.0004124     0.6753528   -0.4211742 
   0.010552626     0.8714583   -0.3028044     0.0000877   -0.0002674    -0.0000489   -0.0002635     0.6735322   -0.4221410 
   0.010652651     0.8679469   -0.3198028    -0.0004191   -0.0000448     0.0003577    0.0001507     0.6691383   -0.4216948 
   0.010752676     0.8835481   -0.3257966    -0.0012264   -0.0000242    -0.0001165    0.0001308     0.6652768   -0.4232107 
   0.010852701     0.8750597   -0.3186821    -0.0002585   -0.0007597     0.0000711    0.0001317     0.6655501   -0.4195519 
   0.010952726     0.8656482   -0.3122437     0.0002799   -0.0004705    -0.0000524    0.0001407     0.6577581   -0.4220620 
   0.011052751     0.8607458   -0.3316151    -0.0007770   -0.0000802    -0.0005337    0.0001373     0.6533853   -0.4242990 
   0.011152776     0.8560607   -0.3188502    -0.0003604    0.0002565    -0.0004635    0.0001798     0.6498497   -0.4258120 
   0.011252801     0.8695694   -0.3307935    -0.0008355    0.0002254    -0.0001704   -0.0001973     0.6474635   -0.4260568 
   0.011352826     0.8648121   -0.3518998     0.0007997   -0.0013948    -0.0001237    0.0000488     0.6451399   -0.4266046 
   0.011452851     0.8552394   -0.3253515     0.0005050   -0.0007055    -0.0001442   -0.0000210     0.6375853   -0.4280357 
   0.011552876     0.8459947   -0.3409990     0.0003258   -0.0002770     0.0003855    0.0001576     0.6355173   -0.4310133 
   0.011652901     0.8472295   -0.3507753    -0.0007557    0.0008011    -0.0004263   -0.0000067     0.6284401   -0.4276606 
   0.011752926     0.8443862   -0.3327123     0.0007260    0.0001383     0.0001681    0.0000712     0.6316283   -0.4298752 
   0.011852951     0.8562936   -0.3544466    -0.0010210   -0.0019805    -0.0000876    0.0001431     0.6275352   -0.4294856 
   0.011952976     0.8406866   -0.3456591    -0.0002658    0.0012214    -0.0004255   -0.0000363     0.6220946   -0.4303471 
   0.012053002     0.8566827   -0.3557621     0.0016981   -0.0012047    -0.0002075   -0.0000399     0.6205324   -0.4282557 
   0.012153027     0.8387399   -0.3530878    -0.0009581   -0.0007067     0.0000668    0.0000371     0.6130750   -0.4332632 
   0.012253052     0.8313780   -0.3480586     0.0002337    0.0002385     0.0001765   -0.0002951     0.6116789   -0.4321842 
   0.012353077     0.8485302   -0.3558200    -0.0003504    0.0001472     0.0000429    0.0000755     0.6072778   -0.4319250 
   0.012453102     0.8465125   -0.3579763     0.0002050    0.0002231     0.0001090    0.0000074     0.6017984   -0.4331501 
   0.012553127     0.8248879   -0.3643181    -0.0001477    0.0005160     0.0000458   -0.0000836     0.5994612   -0.4316894 
   0.012653152     0.8412312   -0.3467874    -0.0001631   -0.0003621    -0.0001811    0.0000980     0.5969893   -0.4339651 
   0.012753177     0.8252969   -0.3591007     0.0006361   -0.0003489    -0.0000904   -0.0001991     0.5924626   -0.4324979 
   0.012853202     0.8281356   -0.3511470     0.0005765    0.0001063     0.0000893    0.0003659     0.5892786   -0.4330293 
   0.012953227     0.8365498   -0.3509081    -0.0010333    0.0001186    -0.0002190   -0.0002771     0.5886735   -0.4329067 
   0.013053252     0.8134413   -0.3699626    -0.0001927    0.0009784    -0.0001987   -0.0001724     0.5844678   -0.4331882 
   0.013153277     0.8218570   -0.3612911    -0.0005358   -0.0002149    -0.0000171    0.0001247     0.5810211   -0.4361638 
   0.013253302     0.8175305   -0.3644320    -0.0001364    0.0000648    -0.0001046   -0.0000742     0.5771137   -0.4334306 
   0.013353327     0.8193551   -0.3629361     0.0001443   -0.0000626    -0.0001925   -0.0001811     0.5733792   -0.4344803 
   0.013453352     0.8293419   -0.3607558     0.0006228    0.0004335     0.0000072    0.0004316     0.5702273   -0.4339629 
   0.013553377     0.8081567   -0.3685206     0.0002146    0.0006882    -0.0001295   -0.0000154     0.5665282   -0.4340026 
   0.013653402     0.8158497   -0.3672566    -0.0010324    0.0006834    -0.0001816    0.0001142     0.5661998   -0.4323749 
   0.013753427     0.8027567   -0.3764960    -0.0002109   -0.0009831    -0.0000354    0.0000483     0.5597783   -0.4341448 
   0.013853452     0.8224646   -0.3847667    -0.0004921   -0.0007179    -0.0000786   -0.0000451     0.5595075   -0.4324315 
   0.013953477     0.7912499   -0.3657485     0.0005908    0.0004306    -0.0000772   -0.0001000     0.5556511   -0.4334783 
   0.014053502     0.8148553   -0.3914967     0.0005925    0.0000232     0.0000032   -0.0002935     0.5514128   -0.4319498 
   0.014153527     0.8061112   -0.3725653    -0.0009825    0.0006528    -0.0003612    0.0000891     0.5517968   -0.4328215 
   0.014253552     0.8037293   -0.3808252     0.0002084    0.0013306    -0.0003435    0.0000816     0.5473100   -0.4329538 
   0.014353577     0.7911174   -0.3789430    -0.0008451    0.0001018     0.0001541    0.0000808     0.5411176   -0.4317934 
   0.014453602     0.7894332   -0.3861499    -0.0002774   -0.0002773     0.0002233    0.0001081     0.5407194   -0.4310960 
   0.014553627     0.7838618   -0.3885499     0.0002204   -0.0001957    -0.0002949   -0.0000139     0.5379932   -0.4313094 
   0.014653652     0.7934870   -0.3948538    -0.0000924    0.0006623    -0.0000537    0.0000328     0.5333601   -0.4315168 
   0.014753677     0.7818993   -0.3915626    -0.0006312    0.0000289    -0.0001411   -0.0001717     0.5302395   -0.4299361 
   0.014853702     0.7870319   -0.3859212    -0.0011381    0.0004077     0.0000831    0.0000833     0.5279576   -0.4307288 
   0.014953727     0.7779884   -0.4047545    -0.0002035   -0.0003243    -0.0002755    0.0001983     0.5261769   -0.4304297 
   0.015053752     0.7799020   -0.3908021     0.0003707   -0.0009133    -0.0001725   -0.0000215     0.5214288   -0.4293038 
   0.015153777     0.7907136   -0.4066063     0.0002357   -0.0004621    -0.0002067    0.0002238     0.5214813   -0.4307197 
   0.015253802     0.7799057   -0.3974142     0.0001633   -0.0000081    -0.0001027   -0.0000456     0.5177217   -0.4298958 
   0.015353827     0.7708254   -0.4078197     0.0003040   -0.0000902    -0.0001112   -0.0002394     0.5157191   -0.4306485 
   0.015453852     0.7803686   -0.4014507    -0.0008442    0.0005935    -0.0000674    0.0000639     0.5109526   -0.4287811 
   0.015553877     0.7698945   -0.4130355    -0.0006921    0.0003835    -0.0002640    0.0000386     0.5085490   -0.4289086 
   0.015653902     0.7723622   -0.4012977     0.0005416    0.0006418    -0.0002322    0.0002903     0.5061787   -0.4305676 
