! 26-Feb-26 11:50:10 AM
! E:\VNA_MEASUREMENTS\SP8T\SP8T_P4_RF1.S2P
! CHANNEL.1
! TR.MEASUREMENT
! CORRECTED.DATA
# GHZ S RI R 50.0
! FREQ.GHZ         S11RE         S11IM         S21RE         S21IM         S12RE         S12IM         S22RE         S22IM         
!; PortSelection: Port_12
   0.000050000     0.9424323   -0.2702973    -0.1436553   -0.5113157     0.0019286   -0.0104266     0.9931328    0.0193489 
   0.000150025     0.0491810   -0.0792829    -0.3274206    0.4211928     0.0007773    0.0012109     0.9924825   -0.0090548 
   0.000250050     0.4093327   -0.2083247    -0.0067244   -0.0018401     0.0005713    0.0010040     1.0032510   -0.0117900 
   0.000350075     1.0092300   -0.0698180    -0.0000739   -0.0143234     0.0008316    0.0006829     0.9940481   -0.0297297 
   0.000450100     0.9547141   -0.0611326    -0.0036501   -0.0091288    -0.0004977    0.0018208     0.9938329   -0.0162571 
   0.000550125     1.0067420   -0.0460426    -0.0071136   -0.0096705    -0.0001644   -0.0004052     0.9920486   -0.0312205 
   0.000650150     1.0096650   -0.0075878    -0.0023822   -0.0173697     0.0012556   -0.0002258     1.0030290   -0.0408495 
   0.000750175     1.0089300   -0.0391256    -0.0083640   -0.0014189     0.0002783    0.0015132     0.9928151   -0.0522271 
   0.000850200     0.9799626   -0.0648327    -0.0146615   -0.0077315     0.0003191    0.0002844     1.0007430   -0.0418664 
   0.000950225     1.0283160   -0.0013351    -0.0034139   -0.0013377     0.0002744   -0.0001752     0.9880230   -0.0696001 
   0.001050250     1.0179820   -0.0443809    -0.0113441   -0.0082908     0.0011750    0.0001649     0.9962287   -0.0624633 
   0.001150275     0.9664416   -0.0709889    -0.0137955   -0.0025163     0.0006919    0.0007681     0.9833955   -0.0757439 
   0.001250300     0.9847827   -0.0497668    -0.0097663   -0.0022516    -0.0009901   -0.0002248     0.9916567   -0.0840616 
   0.001350325     0.9762324   -0.0840557    -0.0089196   -0.0016938    -0.0001364   -0.0007337     0.9818060   -0.0924160 
   0.001450350     0.9984719   -0.0543734    -0.0112207   -0.0026304     0.0007741   -0.0005566     0.9913912   -0.0777951 
   0.001550375     0.9775880   -0.0547247    -0.0085410   -0.0002737    -0.0007891    0.0003026     0.9927055   -0.0882995 
   0.001650400     0.9710709   -0.0403010    -0.0132923   -0.0045425    -0.0000608   -0.0011361     0.9836757   -0.0971898 
   0.001750425     1.0322090   -0.0370098    -0.0084921   -0.0004726     0.0004372    0.0010457     0.9887673   -0.1082272 
   0.001850450     1.0029090   -0.0806021    -0.0073983    0.0044963     0.0003727   -0.0008331     0.9835240   -0.1092180 
   0.001950475     1.0099280   -0.0538484    -0.0080970   -0.0015014     0.0005407    0.0001551     0.9809250   -0.1181274 
   0.002050500     1.0147090   -0.0662507    -0.0081079    0.0004014    -0.0010279   -0.0002013     0.9768719   -0.1266024 
   0.002150525     1.0107370   -0.0485613    -0.0054523    0.0020948     0.0003392   -0.0000696     0.9757802   -0.1362794 
   0.002250550     0.9886352   -0.0271794    -0.0072552    0.0018858     0.0001536   -0.0003858     0.9751794   -0.1379372 
   0.002350575     0.9579754   -0.1397416    -0.0088823    0.0020415     0.0002120   -0.0005882     0.9712322   -0.1451111 
   0.002450600     0.9737380   -0.0790262    -0.0055245    0.0004131     0.0001595   -0.0003385     0.9704633   -0.1485412 
   0.002550625     0.9727142   -0.0865149    -0.0041116    0.0030638     0.0002224    0.0002461     0.9712623   -0.1603317 
   0.002650650     0.9984432   -0.0294603    -0.0024034    0.0016592     0.0000151    0.0005042     0.9687921   -0.1648351 
   0.002750675     0.9783128   -0.0428545    -0.0020936    0.0049959     0.0003953   -0.0002028     0.9605093   -0.1670692 
   0.002850700     0.9624528   -0.1353264    -0.0035003    0.0068547    -0.0004883    0.0003011     0.9620929   -0.1769635 
   0.002950725     0.9476249   -0.1113567    -0.0021593    0.0001903    -0.0003464   -0.0000961     0.9644008   -0.1739795 
   0.003050750     0.9602869   -0.1079635    -0.0038367    0.0042589    -0.0004257   -0.0007042     0.9641439   -0.1821997 
   0.003150775     0.9434301   -0.1152356    -0.0021197    0.0015088    -0.0004411    0.0003032     0.9524032   -0.1903357 
   0.003250800     0.9664358   -0.1367050    -0.0049165    0.0052634     0.0013992    0.0002850     0.9479215   -0.1920771 
   0.003350825     0.9354832   -0.0879342    -0.0026733    0.0046559     0.0004905    0.0003894     0.9482556   -0.1997631 
   0.003450850     0.9520524   -0.1271879    -0.0019872    0.0054061     0.0002627    0.0001074     0.9488764   -0.2026462 
   0.003550875     0.9518619   -0.1286786    -0.0018721   -0.0000116    -0.0003463    0.0002296     0.9436792   -0.2166639 
   0.003650900     0.9701005   -0.1091837    -0.0003608    0.0020559     0.0000624    0.0001055     0.9427865   -0.2177971 
   0.003750925     0.9565196   -0.1521037    -0.0008908    0.0009319     0.0000624   -0.0002536     0.9343953   -0.2257524 
   0.003850950     0.9862805   -0.1483683    -0.0007979    0.0031763     0.0008054    0.0002196     0.9384058   -0.2245498 
   0.003950975     0.9911367   -0.1057598    -0.0036539    0.0014993    -0.0001444   -0.0003411     0.9308538   -0.2311231 
   0.004051001     0.9693043   -0.1656897    -0.0011194    0.0027310    -0.0000847    0.0001137     0.9245752   -0.2311867 
   0.004151026     0.9492176   -0.1297823    -0.0004625    0.0010083     0.0005350   -0.0005636     0.9268542   -0.2438839 
   0.004251051     0.9762108   -0.1505972    -0.0007219   -0.0007835    -0.0001916   -0.0006001     0.9242984   -0.2442740 
   0.004351076     0.9702881   -0.1309208    -0.0011100    0.0011257    -0.0005878    0.0003268     0.9151116   -0.2502294 
   0.004451101     0.9693601   -0.1790529    -0.0040686    0.0027645    -0.0004145   -0.0001201     0.9128963   -0.2517613 
   0.004551126     0.9733642   -0.1580669    -0.0013320    0.0008617    -0.0003922   -0.0000287     0.9132287   -0.2530247 
   0.004651151     0.9484661   -0.1560474    -0.0048695    0.0059315     0.0003800   -0.0006839     0.9128239   -0.2622662 
   0.004751176     0.9789786   -0.1862689    -0.0003906    0.0013138    -0.0001164    0.0000984     0.9061384   -0.2734190 
   0.004851201     0.9312335   -0.1558689    -0.0018754    0.0018024    -0.0002937   -0.0001115     0.9039249   -0.2728716 
   0.004951226     0.9519704   -0.1392887     0.0003153   -0.0004062     0.0004688   -0.0000157     0.9023831   -0.2788312 
   0.005051251     0.9713067   -0.1629564    -0.0004732    0.0021987     0.0001416   -0.0005628     0.8930367   -0.2816359 
   0.005151276     0.9348868   -0.1511238     0.0004072   -0.0008623     0.0002354    0.0000397     0.8894495   -0.2861413 
   0.005251301     0.9515085   -0.1784054    -0.0026794    0.0023946     0.0001193    0.0004763     0.8882711   -0.2822446 
   0.005351326     0.9688457   -0.1323027    -0.0015896    0.0027596    -0.0005541    0.0000792     0.8861266   -0.2973931 
   0.005451351     0.9561975   -0.1704987     0.0020000    0.0009289     0.0004052    0.0003971     0.8823051   -0.3007839 
   0.005551376     1.0079230   -0.1907479     0.0003197   -0.0004054     0.0001272    0.0001195     0.8737832   -0.2962175 
   0.005651401     0.9633064   -0.1807800    -0.0000305    0.0014450    -0.0005585    0.0004312     0.8758776   -0.3099684 
   0.005751426     0.9270620   -0.1840185    -0.0014351    0.0010960    -0.0001676   -0.0002823     0.8658974   -0.3093850 
   0.005851451     0.9308510   -0.1981202    -0.0020421    0.0023718    -0.0002201    0.0004459     0.8658159   -0.3099065 
   0.005951476     0.9478073   -0.1786591    -0.0019615   -0.0019801     0.0003162    0.0006397     0.8666796   -0.3171174 
   0.006051501     0.9531835   -0.1901988     0.0005882    0.0008131    -0.0000574    0.0004880     0.8589272   -0.3225083 
   0.006151526     0.9394668   -0.1960023     0.0004714    0.0010345    -0.0000128   -0.0001167     0.8541043   -0.3259793 
   0.006251551     0.9594582   -0.1910007    -0.0006993   -0.0000048    -0.0000320    0.0004799     0.8498651   -0.3293124 
   0.006351576     0.9370739   -0.2210973     0.0022645    0.0003494    -0.0000585    0.0004440     0.8453227   -0.3276024 
   0.006451601     0.9484183   -0.2135533     0.0011290    0.0018069     0.0000134    0.0002787     0.8403044   -0.3358102 
   0.006551626     0.9365559   -0.2017866    -0.0001141   -0.0008615    -0.0003629   -0.0002441     0.8357252   -0.3333852 
   0.006651651     0.9322117   -0.1890259     0.0003306   -0.0006826     0.0002837   -0.0005762     0.8333421   -0.3450687 
   0.006751676     0.9188191   -0.2374150    -0.0000650   -0.0012817     0.0001762    0.0005153     0.8332025   -0.3437774 
   0.006851701     0.9464965   -0.2258533    -0.0010970   -0.0018580    -0.0001857    0.0002201     0.8245109   -0.3494275 
   0.006951726     0.9110815   -0.2259474     0.0010470    0.0015651     0.0002271    0.0003251     0.8223549   -0.3463410 
   0.007051751     0.9084085   -0.2032223    -0.0023166   -0.0006617    -0.0002883   -0.0002886     0.8185546   -0.3504273 
   0.007151776     0.9182899   -0.2241996    -0.0004995   -0.0001140    -0.0004935   -0.0003257     0.8115807   -0.3601424 
   0.007251801     0.9470180   -0.2171834     0.0014747   -0.0006809    -0.0002912   -0.0004814     0.8090845   -0.3593199 
   0.007351826     0.9203547   -0.2204788    -0.0002404   -0.0000915    -0.0001147    0.0001544     0.8038378   -0.3611256 
   0.007451851     0.9194884   -0.2213837    -0.0001756    0.0007449     0.0002294   -0.0001658     0.8002674   -0.3623102 
   0.007551876     0.9213037   -0.2393026     0.0003643    0.0021747    -0.0001274    0.0001365     0.7997968   -0.3704952 
   0.007651901     0.9414771   -0.2399569    -0.0002227    0.0002972    -0.0002412    0.0002974     0.7944885   -0.3686624 
   0.007751926     0.8996804   -0.2394749     0.0004553    0.0014075     0.0001881    0.0001934     0.7876489   -0.3752310 
   0.007851951     0.9147051   -0.2371814     0.0006602   -0.0001396     0.0004619   -0.0000790     0.7850060   -0.3719366 
   0.007951976     0.9282803   -0.2706804    -0.0003941    0.0005282    -0.0001833    0.0001441     0.7802027   -0.3783562 
   0.008052001     0.9137748   -0.2385018    -0.0001839   -0.0002477     0.0005061   -0.0001840     0.7760143   -0.3771749 
   0.008152026     0.9097121   -0.2516758    -0.0008952    0.0007529     0.0000207    0.0001411     0.7727773   -0.3835244 
   0.008252051     0.9120021   -0.2495013    -0.0003716   -0.0005258    -0.0001039    0.0001416     0.7671512   -0.3834619 
   0.008352076     0.9101651   -0.2568266    -0.0015902    0.0007971    -0.0001261   -0.0002313     0.7632065   -0.3860762 
   0.008452101     0.9024917   -0.2586474    -0.0008330    0.0000678    -0.0003913   -0.0001188     0.7570594   -0.3881945 
   0.008552126     0.9044374   -0.2566499    -0.0002211   -0.0004709     0.0001968   -0.0003340     0.7565305   -0.3869979 
   0.008652151     0.9121842   -0.2486717     0.0000442    0.0002810     0.0005771    0.0000276     0.7519851   -0.3907172 
   0.008752176     0.9086791   -0.2464291    -0.0000066    0.0004336    -0.0001066   -0.0001446     0.7518011   -0.3947924 
   0.008852201     0.9001945   -0.2494362     0.0003031   -0.0010359     0.0003793   -0.0000024     0.7445726   -0.3922780 
   0.008952226     0.9226688   -0.2773439     0.0006758   -0.0005643    -0.0000556    0.0001908     0.7401421   -0.3962384 
   0.009052251     0.9092413   -0.2683668     0.0003967   -0.0007805     0.0000093    0.0001840     0.7363551   -0.3984029 
   0.009152276     0.8981726   -0.2653133    -0.0011402    0.0002629    -0.0000596    0.0000176     0.7273641   -0.4043811 
   0.009252301     0.9117905   -0.2800157    -0.0006426   -0.0000619    -0.0001023   -0.0001595     0.7274836   -0.4060040 
   0.009352326     0.9069230   -0.2854184    -0.0002542   -0.0003887    -0.0001419    0.0000592     0.7244620   -0.4017518 
   0.009452351     0.9111406   -0.2851798    -0.0002620   -0.0000456     0.0000328    0.0002026     0.7193880   -0.4054564 
   0.009552376     0.9084501   -0.2953497     0.0008052   -0.0008236    -0.0000086    0.0001167     0.7133150   -0.4043258 
   0.009652401     0.8768548   -0.2670646    -0.0001190   -0.0001396    -0.0000532    0.0000470     0.7084541   -0.4081918 
   0.009752426     0.8865923   -0.2943470     0.0007534    0.0003634    -0.0000008   -0.0004803     0.7055319   -0.4093038 
   0.009852451     0.8897004   -0.3017928     0.0001847    0.0010323    -0.0002280    0.0000648     0.7053288   -0.4113539 
   0.009952476     0.8986436   -0.3121428    -0.0000420   -0.0000170    -0.0004616   -0.0000731     0.6972011   -0.4104436 
   0.010052501     0.8878695   -0.2929291     0.0017074   -0.0003611     0.0001060    0.0000074     0.6968855   -0.4106716 
   0.010152526     0.8820179   -0.2855096     0.0007312   -0.0000928     0.0001991    0.0002485     0.6904545   -0.4099731 
   0.010252551     0.8772568   -0.2871237     0.0003064   -0.0001036    -0.0001615    0.0000683     0.6880868   -0.4208120 
   0.010352576     0.9011242   -0.3085410    -0.0000578   -0.0002177     0.0000951    0.0000711     0.6798581   -0.4160419 
   0.010452601     0.8952314   -0.3059767     0.0001795   -0.0008128     0.0003369   -0.0000626     0.6775540   -0.4163970 
   0.010552626     0.8676570   -0.3027066     0.0001113    0.0007951    -0.0000134    0.0002043     0.6764703   -0.4191344 
   0.010652651     0.8921151   -0.3172268    -0.0015876    0.0009045     0.0000876    0.0001221     0.6728396   -0.4202699 
   0.010752676     0.8788725   -0.3181534     0.0004794   -0.0005422     0.0003358   -0.0002335     0.6676919   -0.4208572 
   0.010852701     0.8847036   -0.3055891    -0.0000904    0.0004233     0.0002260    0.0000557     0.6674401   -0.4208570 
   0.010952726     0.8851914   -0.3118244    -0.0011597   -0.0003245    -0.0000672    0.0003695     0.6613204   -0.4249907 
   0.011052751     0.8666972   -0.3278327     0.0005362   -0.0004948     0.0000772    0.0006902     0.6555545   -0.4224524 
   0.011152776     0.8691633   -0.3112837    -0.0001933   -0.0010227    -0.0000702    0.0003569     0.6519217   -0.4241783 
   0.011252801     0.8843543   -0.3330357    -0.0004370    0.0005970     0.0000249   -0.0001329     0.6501586   -0.4249855 
   0.011352826     0.8672118   -0.3309198     0.0007358   -0.0003780    -0.0000420   -0.0000529     0.6476770   -0.4226680 
   0.011452851     0.8565477   -0.3234659     0.0006176    0.0019909    -0.0001119   -0.0003592     0.6417490   -0.4270265 
   0.011552876     0.8632266   -0.3305811    -0.0015860   -0.0005932    -0.0001553    0.0001411     0.6379249   -0.4295850 
   0.011652901     0.8536658   -0.3384345     0.0003060    0.0002665     0.0000876   -0.0001545     0.6344815   -0.4270345 
   0.011752926     0.8498778   -0.3329830     0.0004682   -0.0010869    -0.0000541   -0.0001659     0.6326239   -0.4259824 
   0.011852951     0.8441527   -0.3554423    -0.0001564   -0.0002984     0.0000319   -0.0001709     0.6285196   -0.4297891 
   0.011952976     0.8588504   -0.3322120     0.0003373   -0.0002136     0.0000342   -0.0000595     0.6231821   -0.4275445 
   0.012053002     0.8409784   -0.3467889     0.0003260   -0.0011048     0.0004301   -0.0001363     0.6180460   -0.4301088 
   0.012153027     0.8442677   -0.3463012     0.0003968    0.0003385     0.0002101   -0.0002506     0.6165815   -0.4316382 
   0.012253052     0.8259948   -0.3518399    -0.0006845   -0.0008401     0.0000154    0.0000742     0.6141567   -0.4298949 
   0.012353077     0.8461608   -0.3438041    -0.0000910    0.0003244     0.0001012    0.0001853     0.6144151   -0.4296520 
   0.012453102     0.8588317   -0.3400482     0.0002561   -0.0002038    -0.0002997   -0.0003382     0.6040578   -0.4324445 
   0.012553127     0.8166016   -0.3724457     0.0008811   -0.0002897     0.0001324    0.0002564     0.6025563   -0.4319092 
   0.012653152     0.8436143   -0.3388609     0.0008435    0.0002601    -0.0000405    0.0001039     0.5982303   -0.4333127 
   0.012753177     0.8259697   -0.3598326    -0.0002758    0.0011847     0.0001871    0.0001921     0.5953095   -0.4312609 
   0.012853202     0.8276032   -0.3468061     0.0001808   -0.0004180    -0.0001097   -0.0001523     0.5913623   -0.4306519 
   0.012953227     0.8287211   -0.3395701    -0.0003143   -0.0000528    -0.0000250    0.0001523     0.5912430   -0.4317511 
   0.013053252     0.8305255   -0.3701029     0.0002021    0.0007457     0.0000212    0.0000033     0.5886130   -0.4339525 
   0.013153277     0.8285812   -0.3548803    -0.0009488    0.0006653    -0.0000426    0.0000052     0.5831844   -0.4344090 
   0.013253302     0.8231305   -0.3492221     0.0010494    0.0006802     0.0000068   -0.0001758     0.5812295   -0.4310432 
   0.013353327     0.8257568   -0.3677443    -0.0000520   -0.0006290    -0.0000426    0.0001534     0.5772777   -0.4330406 
   0.013453352     0.8217925   -0.3639801     0.0000699   -0.0004024     0.0000579   -0.0001063     0.5753239   -0.4329578 
   0.013553377     0.8076093   -0.3551723    -0.0007302   -0.0004335     0.0000191    0.0000957     0.5700911   -0.4305949 
   0.013653402     0.8118429   -0.3723109     0.0007881    0.0003990     0.0003520   -0.0000632     0.5665084   -0.4340883 
   0.013753427     0.8258822   -0.3758120    -0.0009670   -0.0002450    -0.0000124   -0.0003120     0.5642530   -0.4312026 
   0.013853452     0.8168322   -0.3752660     0.0003659    0.0003295    -0.0001014    0.0001381     0.5636605   -0.4316396 
   0.013953477     0.8050889   -0.3645525    -0.0004857    0.0006187    -0.0002427   -0.0002855     0.5584283   -0.4335709 
   0.014053502     0.8229986   -0.3791896    -0.0002770    0.0007550    -0.0000776    0.0002947     0.5528590   -0.4314827 
   0.014153527     0.8048586   -0.3766260     0.0008269   -0.0004710     0.0000022   -0.0001401     0.5533465   -0.4319954 
   0.014253552     0.8067647   -0.3758648    -0.0004780   -0.0000072    -0.0000694    0.0002744     0.5507582   -0.4332175 
   0.014353577     0.7961413   -0.3798364     0.0004516    0.0000403    -0.0000333   -0.0001821     0.5444227   -0.4309886 
   0.014453602     0.7875307   -0.3826057     0.0007536   -0.0005402    -0.0001197   -0.0001155     0.5438643   -0.4305413 
   0.014553627     0.7982455   -0.3821482     0.0005363    0.0000151     0.0001258   -0.0001298     0.5409533   -0.4326948 
   0.014653652     0.7958418   -0.3867815     0.0002152    0.0001060     0.0002935    0.0001554     0.5363290   -0.4324453 
   0.014753677     0.7919052   -0.3933867    -0.0007801    0.0008705     0.0003911    0.0000233     0.5343531   -0.4294386 
   0.014853702     0.7958267   -0.3872765     0.0007627    0.0003660    -0.0001079    0.0002125     0.5325053   -0.4317119 
   0.014953727     0.7858673   -0.4060370    -0.0007108   -0.0011803    -0.0001170   -0.0000362     0.5278581   -0.4310612 
   0.015053752     0.7831215   -0.3915391    -0.0003822    0.0002300     0.0000584    0.0000736     0.5237388   -0.4297725 
   0.015153777     0.7808371   -0.3946831     0.0005169    0.0002547    -0.0001712    0.0000915     0.5239760   -0.4295224 
   0.015253802     0.7867656   -0.3957548     0.0001021    0.0000101    -0.0000838    0.0000303     0.5180591   -0.4301313 
   0.015353827     0.7830394   -0.3905161    -0.0000769   -0.0007161     0.0000821   -0.0001288     0.5161628   -0.4287098 
   0.015453852     0.7818220   -0.4021006    -0.0010857    0.0007202     0.0000618    0.0002449     0.5134293   -0.4270082 
   0.015553877     0.7809271   -0.4116985    -0.0000632   -0.0000528     0.0002487   -0.0001201     0.5132110   -0.4284981 
   0.015653902     0.7803112   -0.4025455     0.0010941   -0.0002331     0.0000245   -0.0000396     0.5079038   -0.4310844 
