! 26-Feb-26 11:31:26 AM
! E:\VNA_MEASUREMENTS\SP8T\SP8T_P2_RF2.S2P
! CHANNEL.1
! TR.MEASUREMENT
! CORRECTED.DATA
# GHZ S RI R 50.0
! FREQ.GHZ         S11RE         S11IM         S21RE         S21IM         S12RE         S12IM         S22RE         S22IM         
!; PortSelection: Port_12
   0.000050000    -0.0652590    0.1267151    -0.1231370   -0.1833036     0.0038580   -0.0078062     1.0450220   -0.0112245 
   0.000150025     0.0983231   -0.0873423    -1.0917400   -0.4983476     0.0014971    0.0005757     1.0009790   -0.0021359 
   0.000250050     0.0116998    1.9327250     0.0246071    0.0143307    -0.0048799    0.0033023     1.0007270   -0.0215628 
   0.000350075     0.9593865   -0.0687928    -0.0066844   -0.0048312    -0.0008861    0.0082573     0.9924529   -0.0245925 
   0.000450100     0.9550585   -0.0800423     0.0000991   -0.0062815    -0.0017468    0.0106469     0.9846154   -0.0028976 
   0.000550125     1.0232810   -0.0911756    -0.0084999    0.0019688    -0.0010725    0.0129093     0.9917376   -0.0139507 
   0.000650150     0.9804683   -0.0207994    -0.0057804    0.0070682    -0.0013894    0.0175744     1.0015240   -0.0322318 
   0.000750175     0.9922013   -0.0622548    -0.0060426    0.0119223    -0.0022561    0.0199446     0.9911803   -0.0322837 
   0.000850200     1.0090640   -0.0973962    -0.0079160    0.0132157    -0.0027769    0.0219575     1.0015260   -0.0181958 
   0.000950225     0.9842270   -0.0716226    -0.0139400    0.0159005    -0.0012634    0.0257931     0.9866811   -0.0353490 
   0.001050250     0.9728702   -0.0885542    -0.0115156    0.0199105    -0.0025658    0.0272022     0.9903142   -0.0314202 
   0.001150275     1.0292460   -0.0277739    -0.0139231    0.0270581    -0.0035957    0.0321069     0.9875108   -0.0352115 
   0.001250300     0.9583855   -0.0577747    -0.0149075    0.0283240    -0.0037996    0.0334092     0.9886175   -0.0465294 
   0.001350325     1.0151230   -0.0603621    -0.0152596    0.0359243    -0.0024664    0.0393953     0.9921432   -0.0480363 
   0.001450350     1.0063300   -0.1079078    -0.0136583    0.0423416    -0.0025220    0.0404359     0.9952715   -0.0489072 
   0.001550375     0.9556637   -0.0650800    -0.0134471    0.0410465    -0.0020374    0.0431328     0.9969288   -0.0507513 
   0.001650400     1.0167280   -0.0339204    -0.0135988    0.0479122    -0.0028093    0.0474271     0.9840363   -0.0549450 
   0.001750425     0.9708400   -0.0683365    -0.0101457    0.0509968    -0.0017195    0.0503226     0.9963515   -0.0659300 
   0.001850450     0.9754288   -0.0630499    -0.0075980    0.0540709    -0.0020163    0.0531347     0.9856057   -0.0617585 
   0.001950475     1.0286080   -0.0388126    -0.0087781    0.0601836    -0.0029683    0.0576575     0.9917401   -0.0633659 
   0.002050500     0.9779781   -0.0330131    -0.0105974    0.0619933    -0.0032577    0.0593235     0.9858580   -0.0831514 
   0.002150525     0.9974514   -0.0360921    -0.0082187    0.0673397    -0.0028624    0.0631474     0.9786648   -0.0760630 
   0.002250550     0.9480263   -0.0477824    -0.0080483    0.0648147    -0.0030126    0.0648415     0.9815546   -0.0734446 
   0.002350575     0.9613785   -0.0994687    -0.0065525    0.0697638    -0.0012584    0.0677875     0.9869030   -0.0819465 
   0.002450600     0.9654409   -0.0535035    -0.0088352    0.0760172    -0.0012843    0.0719725     0.9913014   -0.0925072 
   0.002550625     0.9855618   -0.1020330    -0.0034622    0.0798492    -0.0005122    0.0746903     0.9844184   -0.0919590 
   0.002650650     1.0111680   -0.0863038    -0.0039078    0.0818626     0.0012085    0.0800378     0.9872819   -0.1024409 
   0.002750675     1.0041360   -0.0849764    -0.0000371    0.0862525     0.0006729    0.0824288     0.9796609   -0.0964013 
   0.002850700     0.9811150   -0.0867720    -0.0040844    0.0881826     0.0007645    0.0848577     0.9823287   -0.1045125 
   0.002950725     0.9381197   -0.0852234    -0.0002400    0.0910650    -0.0003785    0.0875935     0.9913250   -0.0999973 
   0.003050750     0.9852684   -0.1320542     0.0029588    0.0895814     0.0025848    0.0903660     0.9823334   -0.1066548 
   0.003150775     0.9565246   -0.1417774     0.0042980    0.0955771     0.0035016    0.0923401     0.9770167   -0.1109808 
   0.003250800     0.9720814   -0.0882364     0.0019746    0.0995142     0.0034876    0.0964126     0.9790655   -0.1141203 
   0.003350825     0.9911636   -0.0951911    -0.0011323    0.1035826     0.0028431    0.1017979     0.9781022   -0.1123639 
   0.003450850     0.9546002   -0.1238960     0.0043624    0.1053974     0.0041276    0.1022994     0.9781005   -0.1156871 
   0.003550875     0.9468641   -0.1346017     0.0073869    0.1074983     0.0059799    0.1054265     0.9777753   -0.1237521 
   0.003650900     1.0345810   -0.1248720     0.0055707    0.1184894     0.0061996    0.1121691     0.9762057   -0.1242218 
   0.003750925     0.9841797   -0.1461431     0.0058688    0.1147128     0.0075644    0.1130497     0.9735035   -0.1324584 
   0.003850950     0.9677086   -0.1537510     0.0075531    0.1186386     0.0086151    0.1157384     0.9806206   -0.1321681 
   0.003950975     0.9902798   -0.1276151     0.0080428    0.1198339     0.0079090    0.1190120     0.9758123   -0.1334429 
   0.004051001     0.9806338   -0.1476290     0.0092543    0.1250392     0.0093270    0.1213633     0.9692305   -0.1374572 
   0.004151026     1.0047760   -0.1249867     0.0066189    0.1289999     0.0090462    0.1266573     0.9693437   -0.1385645 
   0.004251051     0.9412845   -0.1468176     0.0072519    0.1279409     0.0101320    0.1246020     0.9666022   -0.1462769 
   0.004351076     0.9544063   -0.1230678     0.0135954    0.1301234     0.0104714    0.1294897     0.9658921   -0.1466136 
   0.004451101     0.9753643   -0.1654615     0.0117708    0.1358123     0.0128886    0.1333690     0.9690846   -0.1495244 
   0.004551126     0.9768906   -0.1789086     0.0136701    0.1384905     0.0148625    0.1367269     0.9698144   -0.1475361 
   0.004651151     0.9530528   -0.1430803     0.0147289    0.1407814     0.0138466    0.1403227     0.9713510   -0.1552206 
   0.004751176     0.9534947   -0.1704237     0.0169499    0.1425239     0.0170846    0.1421234     0.9670681   -0.1609085 
   0.004851201     0.9284297   -0.1672103     0.0172840    0.1438897     0.0160574    0.1430449     0.9653415   -0.1620070 
   0.004951226     0.9652975   -0.1462588     0.0148075    0.1485974     0.0158067    0.1486776     0.9600936   -0.1649539 
   0.005051251     0.9754717   -0.1769010     0.0192009    0.1522014     0.0179652    0.1517124     0.9635680   -0.1640804 
   0.005151276     0.9352605   -0.1509004     0.0152497    0.1530419     0.0177244    0.1527825     0.9591019   -0.1716720 
   0.005251301     0.9448724   -0.1651758     0.0171864    0.1567556     0.0189441    0.1562479     0.9628805   -0.1717217 
   0.005351326     0.9377206   -0.1495074     0.0200015    0.1618196     0.0180872    0.1589498     0.9646402   -0.1727075 
   0.005451351     0.9600489   -0.1331432     0.0137125    0.1631072     0.0201085    0.1644523     0.9586751   -0.1826933 
   0.005551376     0.9764450   -0.1762092     0.0241629    0.1672812     0.0228084    0.1678118     0.9557911   -0.1809008 
   0.005651401     0.9385292   -0.1603561     0.0230076    0.1666036     0.0224301    0.1692894     0.9629946   -0.1894002 
   0.005751426     0.9152114   -0.1783850     0.0276789    0.1641587     0.0240943    0.1696608     0.9571348   -0.1848134 
   0.005851451     0.9821029   -0.2146776     0.0324486    0.1794228     0.0285088    0.1759556     0.9519751   -0.1908998 
   0.005951476     0.9304937   -0.1809901     0.0265212    0.1746285     0.0272729    0.1753330     0.9495628   -0.1937983 
   0.006051501     0.9557416   -0.2107062     0.0358193    0.1807465     0.0300845    0.1798858     0.9511117   -0.1947023 
   0.006151526     0.9110547   -0.2082898     0.0330006    0.1783052     0.0307747    0.1792742     0.9500785   -0.2007173 
   0.006251551     0.9302951   -0.1716190     0.0263020    0.1802910     0.0299076    0.1848873     0.9515319   -0.2034126 
   0.006351576     0.9628636   -0.2011878     0.0297365    0.1905329     0.0338026    0.1892612     0.9477894   -0.2074101 
   0.006451601     0.9389629   -0.2061207     0.0344675    0.1901641     0.0350238    0.1916495     0.9452444   -0.2110419 
   0.006551626     0.9421384   -0.2229313     0.0365295    0.1932347     0.0370026    0.1948337     0.9477339   -0.2125961 
   0.006651651     0.9290090   -0.2168971     0.0374443    0.1923872     0.0378466    0.1954780     0.9428127   -0.2186676 
   0.006751676     0.9473228   -0.2296631     0.0395739    0.2028554     0.0406040    0.1992404     0.9438190   -0.2178858 
   0.006851701     0.9428119   -0.2360446     0.0433491    0.2008964     0.0412970    0.2028920     0.9405158   -0.2189518 
   0.006951726     0.9287021   -0.2294135     0.0436729    0.2041316     0.0415104    0.2035308     0.9357615   -0.2209192 
   0.007051751     0.9237176   -0.2121611     0.0425249    0.2050412     0.0409615    0.2066204     0.9345866   -0.2269170 
   0.007151776     0.9219831   -0.2378108     0.0453157    0.2122131     0.0444548    0.2082386     0.9298374   -0.2301508 
   0.007251801     0.9382755   -0.2112171     0.0439349    0.2135603     0.0442401    0.2136675     0.9356664   -0.2311169 
   0.007351826     0.9245799   -0.2445157     0.0484985    0.2152241     0.0483577    0.2141344     0.9321746   -0.2378636 
   0.007451851     0.9212405   -0.2367415     0.0494583    0.2152288     0.0475833    0.2167345     0.9304470   -0.2352300 
   0.007551876     0.9275598   -0.2354940     0.0513092    0.2234526     0.0496649    0.2214245     0.9304729   -0.2406611 
   0.007651901     0.9401073   -0.2629203     0.0531278    0.2274410     0.0536590    0.2225080     0.9268795   -0.2413508 
   0.007751926     0.9192103   -0.2432300     0.0531872    0.2262990     0.0530940    0.2245737     0.9220615   -0.2448774 
   0.007851951     0.9307090   -0.2424398     0.0547921    0.2283840     0.0543891    0.2286630     0.9221314   -0.2488265 
   0.007951976     0.9231464   -0.2669887     0.0544447    0.2317390     0.0579984    0.2297435     0.9208788   -0.2520669 
   0.008052001     0.9320381   -0.2332264     0.0538527    0.2374478     0.0566051    0.2360691     0.9205886   -0.2526151 
   0.008152026     0.9101317   -0.2783530     0.0608062    0.2311830     0.0615192    0.2329719     0.9190934   -0.2586590 
   0.008252051     0.8928840   -0.2554559     0.0613028    0.2355820     0.0598698    0.2349781     0.9170805   -0.2625719 
   0.008352076     0.9211335   -0.2618289     0.0620880    0.2434299     0.0624016    0.2406769     0.9133693   -0.2611091 
   0.008452101     0.9000745   -0.2596347     0.0646583    0.2394397     0.0632613    0.2422414     0.9151524   -0.2631663 
   0.008552126     0.9334841   -0.2627097     0.0678127    0.2494926     0.0694684    0.2475713     0.9129230   -0.2711593 
   0.008652151     0.9317037   -0.2628919     0.0718421    0.2496411     0.0688852    0.2497899     0.9076096   -0.2710812 
   0.008752176     0.9188492   -0.2557738     0.0687263    0.2517939     0.0684628    0.2515806     0.9087726   -0.2716590 
   0.008852201     0.8985249   -0.2650866     0.0720859    0.2495719     0.0691731    0.2530011     0.9098023   -0.2727923 
   0.008952226     0.9273841   -0.2780934     0.0754383    0.2585613     0.0743654    0.2584390     0.9073557   -0.2763731 
   0.009052251     0.9224533   -0.2608200     0.0737954    0.2627730     0.0738844    0.2603376     0.9020450   -0.2789780 
   0.009152276     0.9098248   -0.2659500     0.0756932    0.2619337     0.0755298    0.2611957     0.8994331   -0.2845111 
   0.009252301     0.8930899   -0.2713214     0.0751430    0.2615077     0.0762091    0.2620367     0.9017713   -0.2874090 
   0.009352326     0.9071630   -0.2699071     0.0753560    0.2662441     0.0770065    0.2673520     0.9000524   -0.2846797 
   0.009452351     0.8914658   -0.2811328     0.0831225    0.2649555     0.0795103    0.2662390     0.8936848   -0.2904745 
   0.009552376     0.9121055   -0.3027632     0.0839490    0.2747238     0.0844342    0.2691834     0.8915105   -0.2904538 
   0.009652401     0.8931655   -0.2941372     0.0841267    0.2698011     0.0856212    0.2711293     0.8926836   -0.2966306 
   0.009752426     0.8984579   -0.2852599     0.0851641    0.2759465     0.0855046    0.2742176     0.8890418   -0.2943037 
   0.009852451     0.8960590   -0.3022127     0.0897599    0.2758712     0.0902383    0.2764161     0.8896741   -0.3019795 
   0.009952476     0.8936839   -0.2949029     0.0893271    0.2803687     0.0903196    0.2771953     0.8842928   -0.3008687 
   0.010052501     0.8826278   -0.2959587     0.0894283    0.2781104     0.0887249    0.2805918     0.8849225   -0.2993050 
   0.010152526     0.8838340   -0.2907402     0.0924821    0.2797836     0.0923090    0.2833670     0.8828594   -0.3063536 
   0.010252551     0.8674700   -0.3014634     0.0960574    0.2820956     0.0946936    0.2836809     0.8844868   -0.3100300 
   0.010352576     0.9019341   -0.3165595     0.0970166    0.2904764     0.0999088    0.2887399     0.8789514   -0.3091084 
   0.010452601     0.8884659   -0.2952163     0.0946254    0.2918426     0.0986747    0.2899198     0.8734146   -0.3159550 
   0.010552626     0.8737360   -0.3065521     0.0978180    0.2944659     0.1007021    0.2918780     0.8785277   -0.3160941 
   0.010652651     0.8903103   -0.3076282     0.1037834    0.2958057     0.1046476    0.2942218     0.8715717   -0.3186846 
   0.010752676     0.8919946   -0.3256764     0.1061191    0.3000432     0.1082910    0.2966420     0.8721409   -0.3225837 
   0.010852701     0.8733833   -0.2955159     0.1045336    0.2957310     0.1037101    0.3009348     0.8724749   -0.3194177 
   0.010952726     0.8829738   -0.3174239     0.1086697    0.3055919     0.1083130    0.3020725     0.8678457   -0.3222680 
   0.011052751     0.8670201   -0.3232081     0.1091245    0.3015669     0.1115347    0.3015830     0.8663840   -0.3303951 
   0.011152776     0.8843364   -0.3216832     0.1110204    0.3098521     0.1141655    0.3067820     0.8639113   -0.3294584 
   0.011252801     0.8705143   -0.3313953     0.1132518    0.3019923     0.1164755    0.3067113     0.8635184   -0.3335030 
   0.011352826     0.8630401   -0.3452796     0.1191018    0.3084683     0.1175629    0.3070211     0.8614833   -0.3306166 
   0.011452851     0.8580838   -0.3354155     0.1203049    0.3087277     0.1184264    0.3092099     0.8585436   -0.3358853 
   0.011552876     0.8531253   -0.3339045     0.1206139    0.3094583     0.1213569    0.3117096     0.8595638   -0.3413586 
   0.011652901     0.8577386   -0.3432618     0.1213877    0.3121037     0.1229911    0.3133487     0.8540844   -0.3418786 
   0.011752926     0.8525346   -0.3282501     0.1195767    0.3166577     0.1221390    0.3157694     0.8517306   -0.3417343 
   0.011852951     0.8608676   -0.3446750     0.1246030    0.3211019     0.1286515    0.3203905     0.8565637   -0.3443823 
   0.011952976     0.8525380   -0.3353328     0.1280618    0.3191119     0.1273550    0.3190963     0.8467028   -0.3476587 
   0.012053002     0.8485372   -0.3493130     0.1290527    0.3208839     0.1307549    0.3200267     0.8452194   -0.3480267 
   0.012153027     0.8441748   -0.3539058     0.1318314    0.3208700     0.1327679    0.3212421     0.8433070   -0.3506518 
   0.012253052     0.8325105   -0.3539179     0.1354380    0.3228010     0.1324548    0.3226255     0.8424053   -0.3495077 
   0.012353077     0.8386066   -0.3404366     0.1325479    0.3227832     0.1326652    0.3265790     0.8396671   -0.3528080 
   0.012453102     0.8459045   -0.3441313     0.1407549    0.3290547     0.1388641    0.3283799     0.8352861   -0.3596683 
   0.012553127     0.8323157   -0.3724335     0.1411312    0.3240052     0.1406996    0.3276400     0.8360818   -0.3568994 
   0.012653152     0.8302977   -0.3513802     0.1428957    0.3276730     0.1399426    0.3312510     0.8340859   -0.3613702 
   0.012753177     0.8382524   -0.3517627     0.1421982    0.3332838     0.1425826    0.3362322     0.8332407   -0.3585010 
   0.012853202     0.8273299   -0.3352357     0.1413702    0.3350610     0.1439258    0.3373929     0.8258873   -0.3672158 
   0.012953227     0.8343910   -0.3532196     0.1472052    0.3381148     0.1469424    0.3394495     0.8292788   -0.3636371 
   0.013053252     0.8237094   -0.3829481     0.1539673    0.3350034     0.1537532    0.3376001     0.8304993   -0.3707871 
   0.013153277     0.8145347   -0.3726084     0.1575621    0.3327248     0.1531467    0.3372530     0.8247476   -0.3723425 
   0.013253302     0.8268606   -0.3641607     0.1578539    0.3420913     0.1555652    0.3435955     0.8208514   -0.3699621 
   0.013353327     0.8159995   -0.3556221     0.1525685    0.3416434     0.1541376    0.3461277     0.8197838   -0.3728773 
   0.013453352     0.8203627   -0.3564195     0.1538077    0.3429463     0.1563313    0.3486349     0.8188881   -0.3768359 
   0.013553377     0.8038746   -0.3689164     0.1610695    0.3433821     0.1584829    0.3453946     0.8138968   -0.3793369 
   0.013653402     0.8095087   -0.3758671     0.1614603    0.3440348     0.1622926    0.3471784     0.8142921   -0.3793239 
   0.013753427     0.8152705   -0.3678066     0.1610050    0.3507854     0.1633402    0.3515734     0.8090860   -0.3805013 
   0.013853452     0.8213226   -0.3908066     0.1698205    0.3547110     0.1701399    0.3518875     0.8132089   -0.3807459 
   0.013953477     0.8017053   -0.3748178     0.1695204    0.3537551     0.1686848    0.3545539     0.8103876   -0.3867588 
   0.014053502     0.8052453   -0.3803674     0.1711622    0.3524981     0.1700720    0.3550701     0.8055756   -0.3848626 
   0.014153527     0.8022516   -0.3806499     0.1735822    0.3527447     0.1720641    0.3583921     0.8053259   -0.3864602 
   0.014253552     0.8045364   -0.3757111     0.1771998    0.3613483     0.1750452    0.3607038     0.8028291   -0.3880726 
   0.014353577     0.8005088   -0.3824293     0.1766372    0.3604984     0.1767280    0.3570725     0.7954177   -0.3893832 
   0.014453602     0.7757047   -0.3831711     0.1781452    0.3498857     0.1745847    0.3607031     0.7995262   -0.3934638 
   0.014553627     0.7932715   -0.3960195     0.1852537    0.3589351     0.1828089    0.3615507     0.7976524   -0.3956492 
   0.014653652     0.7974615   -0.3961475     0.1839351    0.3641980     0.1845779    0.3620957     0.7890885   -0.3962992 
   0.014753677     0.7803349   -0.3894769     0.1875812    0.3611506     0.1823547    0.3666545     0.7928578   -0.3969554 
   0.014853702     0.7888324   -0.3894746     0.1903600    0.3576751     0.1871748    0.3689587     0.7902920   -0.4009339 
   0.014953727     0.7762161   -0.4032338     0.1932159    0.3634999     0.1886686    0.3656634     0.7879206   -0.4003346 
   0.015053752     0.7939810   -0.3970057     0.1876560    0.3676785     0.1939414    0.3710997     0.7834911   -0.4012665 
   0.015153777     0.7837188   -0.3972470     0.1951832    0.3695774     0.1948414    0.3726115     0.7853795   -0.4027256 
   0.015253802     0.7805285   -0.3960122     0.1969924    0.3721459     0.1952020    0.3734452     0.7785703   -0.4033483 
   0.015353827     0.7764112   -0.4024724     0.2045917    0.3715948     0.1982713    0.3731503     0.7780058   -0.4067565 
   0.015453852     0.7862778   -0.3966582     0.1993930    0.3781289     0.2010968    0.3772096     0.7738792   -0.4060729 
   0.015553877     0.7819639   -0.4107168     0.2094748    0.3756748     0.2043628    0.3778529     0.7765109   -0.4054436 
   0.015653902     0.7739250   -0.4088911     0.2071341    0.3751393     0.2075473    0.3767478     0.7708721   -0.4129455 
