! 26-Feb-26 1:16:53 PM
! E:\VNA_MEASUREMENTS\SP8T\SP8T_P8_RF8.S2P
! CHANNEL.1
! TR.MEASUREMENT
! CORRECTED.DATA
# GHZ S RI R 50.0
! FREQ.GHZ         S11RE         S11IM         S21RE         S21IM         S12RE         S12IM         S22RE         S22IM         
!; PortSelection: Port_12
   0.000050000     0.1982753    0.1894174    -0.0719557   -0.1785748     0.0065722   -0.0128278     0.9979451   -0.0060617 
   0.000150025    -0.2118624   -0.1735388     0.4764735    0.9416899    -0.0002006    0.0009235     0.9866478   -0.0018295 
   0.000250050     0.1261634   -0.1725697    -0.0027951   -0.0005521    -0.0005029    0.0030151     0.9959824   -0.0095812 
   0.000350075     0.9519874   -0.0774654    -0.0013142   -0.0024645    -0.0006644    0.0097365     0.9959186   -0.0215891 
   0.000450100     1.0124740   -0.0378670    -0.0060132    0.0006249    -0.0015031    0.0116602     0.9890167   -0.0153178 
   0.000550125     1.0345200   -0.0314582    -0.0071791    0.0038154    -0.0018110    0.0131783     0.9909998   -0.0207045 
   0.000650150     1.0500140    0.0204128    -0.0109639    0.0066955    -0.0009412    0.0183909     1.0107640   -0.0292939 
   0.000750175     0.9569045   -0.0071960    -0.0059166    0.0133588    -0.0030855    0.0183568     0.9851597   -0.0354938 
   0.000850200     0.9901891   -0.1217129    -0.0098708    0.0134396    -0.0012701    0.0226771     0.9933932   -0.0310854 
   0.000950225     0.9865544   -0.0613252    -0.0137651    0.0204872    -0.0026601    0.0260494     0.9970257   -0.0341314 
   0.001050250     0.9793964   -0.0517034    -0.0136215    0.0227755    -0.0027946    0.0288878     0.9913670   -0.0305864 
   0.001150275     0.9822865   -0.0540255    -0.0141961    0.0280500    -0.0040281    0.0320406     0.9864266   -0.0357586 
   0.001250300     0.9596187   -0.0299452    -0.0147002    0.0274178    -0.0024989    0.0339937     0.9953632   -0.0502382 
   0.001350325     1.0134990   -0.0822972    -0.0135085    0.0341953    -0.0009880    0.0380005     0.9900137   -0.0520208 
   0.001450350     0.9667258   -0.0610142    -0.0116084    0.0353777    -0.0023820    0.0390400     0.9870374   -0.0515459 
   0.001550375     0.9616308   -0.0879957    -0.0107132    0.0413199    -0.0029362    0.0425407     0.9921854   -0.0521805 
   0.001650400     1.0358410    0.0171208    -0.0121257    0.0473038    -0.0039130    0.0490162     0.9806148   -0.0489339 
   0.001750425     0.9610433   -0.0599841    -0.0130429    0.0485052    -0.0022482    0.0490938     0.9848061   -0.0711003 
   0.001850450     0.9848108   -0.1001754    -0.0060951    0.0537710    -0.0026821    0.0541328     0.9840253   -0.0586451 
   0.001950475     0.9922400   -0.0341759    -0.0132874    0.0606070    -0.0041535    0.0562800     0.9884919   -0.0659882 
   0.002050500     0.9586937   -0.0496202    -0.0087710    0.0577438    -0.0022325    0.0590788     0.9861362   -0.0745743 
   0.002150525     0.9846714   -0.0802736    -0.0080616    0.0659582    -0.0017750    0.0619635     0.9827617   -0.0773546 
   0.002250550     0.9482322   -0.0102729    -0.0093607    0.0657276    -0.0037393    0.0655333     0.9909956   -0.0784194 
   0.002350575     0.9436008   -0.0835628    -0.0071587    0.0693586    -0.0016100    0.0674164     0.9805376   -0.0801005 
   0.002450600     0.9822838   -0.1020953    -0.0118037    0.0729340    -0.0004470    0.0725494     0.9877935   -0.0903546 
   0.002550625     1.0119100   -0.0936676    -0.0055527    0.0808129    -0.0000620    0.0766810     0.9868948   -0.0910002 
   0.002650650     1.0166580   -0.0940818    -0.0010188    0.0831592     0.0010585    0.0803182     0.9837967   -0.0967588 
   0.002750675     0.9875663   -0.0369954    -0.0053959    0.0845881    -0.0012596    0.0827155     0.9859876   -0.0974096 
   0.002850700     1.0075100   -0.1166519    -0.0025162    0.0903905     0.0013015    0.0870326     0.9829849   -0.0966449 
   0.002950725     0.9633163   -0.0798432    -0.0041380    0.0894438    -0.0001938    0.0875879     0.9805179   -0.0973802 
   0.003050750     0.9663327   -0.0737025    -0.0022719    0.0907323     0.0019200    0.0913976     0.9848047   -0.1085793 
   0.003150775     0.9902105   -0.1490816     0.0028737    0.0974436     0.0046149    0.0935474     0.9723273   -0.1095910 
   0.003250800     0.9648747   -0.0985906     0.0027943    0.0996935     0.0018846    0.0966922     0.9817113   -0.1068824 
   0.003350825     0.9873282   -0.0799316    -0.0039911    0.1049616     0.0023299    0.1015913     0.9790757   -0.1166172 
   0.003450850     0.9723734   -0.1446269     0.0067287    0.1085358     0.0049404    0.1031528     0.9772394   -0.1157314 
   0.003550875     0.9134245   -0.1240732     0.0030831    0.1059587     0.0044998    0.1035873     0.9765417   -0.1224725 
   0.003650900     0.9761174   -0.0806307    -0.0017743    0.1149294     0.0042561    0.1110658     0.9778101   -0.1258584 
   0.003750925     0.9636224   -0.1131293     0.0045577    0.1131214     0.0061798    0.1114553     0.9718542   -0.1332292 
   0.003850950     0.9846175   -0.1470727     0.0106248    0.1177232     0.0078411    0.1158436     0.9720337   -0.1254209 
   0.003950975     0.9945944   -0.1105927     0.0067759    0.1179172     0.0066610    0.1208105     0.9741974   -0.1328728 
   0.004051001     0.9575397   -0.1562927     0.0101143    0.1244487     0.0095372    0.1215955     0.9737235   -0.1331549 
   0.004151026     0.9855508   -0.1382865     0.0118583    0.1268076     0.0094614    0.1261971     0.9746854   -0.1423252 
   0.004251051     0.9657863   -0.1442683     0.0088667    0.1284483     0.0101933    0.1276048     0.9729552   -0.1434143 
   0.004351076     0.9639142   -0.1150155     0.0107083    0.1360234     0.0101309    0.1304679     0.9711739   -0.1445539 
   0.004451101     0.9845757   -0.1592558     0.0137710    0.1348116     0.0128177    0.1343563     0.9676720   -0.1487032 
   0.004551126     0.9731854   -0.1734985     0.0140858    0.1396800     0.0149918    0.1372390     0.9696496   -0.1495360 
   0.004651151     0.9464313   -0.1474869     0.0082409    0.1397047     0.0128925    0.1397050     0.9714806   -0.1522561 
   0.004751176     0.9764216   -0.1862889     0.0177179    0.1463017     0.0177944    0.1430600     0.9677869   -0.1585943 
   0.004851201     0.9384804   -0.1597786     0.0129596    0.1432848     0.0155160    0.1437104     0.9620381   -0.1594889 
   0.004951226     0.9455959   -0.1633016     0.0187339    0.1455342     0.0164369    0.1481611     0.9671040   -0.1614894 
   0.005051251     1.0101380   -0.1746514     0.0201739    0.1571583     0.0177757    0.1552943     0.9688830   -0.1614720 
   0.005151276     0.9307080   -0.1597632     0.0148480    0.1542457     0.0184940    0.1528223     0.9607344   -0.1693839 
   0.005251301     0.9156316   -0.1477731     0.0163730    0.1531503     0.0179568    0.1555004     0.9602491   -0.1754519 
   0.005351326     0.9351830   -0.1547658     0.0187812    0.1617494     0.0190499    0.1597955     0.9619054   -0.1742820 
   0.005451351     0.9777483   -0.1303460     0.0137471    0.1686313     0.0200373    0.1655841     0.9588064   -0.1783527 
   0.005551376     0.9956344   -0.1838091     0.0260794    0.1724909     0.0231755    0.1692013     0.9551093   -0.1766800 
   0.005651401     0.9654085   -0.1738632     0.0237507    0.1728028     0.0246310    0.1703704     0.9559668   -0.1883690 
   0.005751426     0.9448583   -0.1675100     0.0274059    0.1697210     0.0235352    0.1723494     0.9573132   -0.1851848 
   0.005851451     0.9396626   -0.2021697     0.0291882    0.1719833     0.0272306    0.1732350     0.9517913   -0.1919887 
   0.005951476     0.9374197   -0.1909565     0.0252066    0.1772404     0.0264559    0.1770879     0.9537818   -0.1847060 
   0.006051501     0.9328966   -0.2111016     0.0363064    0.1788102     0.0299996    0.1791215     0.9568695   -0.1941198 
   0.006151526     0.9362759   -0.2132073     0.0347882    0.1786526     0.0324867    0.1813466     0.9476032   -0.2005853 
   0.006251551     0.9466204   -0.1959959     0.0303826    0.1818094     0.0317040    0.1854644     0.9491276   -0.2032270 
   0.006351576     0.9514045   -0.2193151     0.0305846    0.1883854     0.0337225    0.1880067     0.9457448   -0.2014392 
   0.006451601     0.9529236   -0.1987054     0.0313114    0.1936921     0.0345912    0.1930010     0.9435903   -0.2095053 
   0.006551626     0.9325359   -0.2067676     0.0337016    0.1925660     0.0346715    0.1946078     0.9446450   -0.2089538 
   0.006651651     0.9310601   -0.2041454     0.0354821    0.1930127     0.0363303    0.1965024     0.9407012   -0.2136996 
   0.006751676     0.9363436   -0.2258160     0.0396192    0.2020304     0.0388965    0.1996450     0.9441696   -0.2127997 
   0.006851701     0.9279070   -0.2429620     0.0461192    0.2015445     0.0417735    0.2000753     0.9363137   -0.2214161 
   0.006951726     0.9088663   -0.2392347     0.0437119    0.2022762     0.0404238    0.2029596     0.9414488   -0.2175675 
   0.007051751     0.9311572   -0.2138960     0.0421024    0.2061784     0.0413410    0.2073763     0.9343979   -0.2275320 
   0.007151776     0.9087128   -0.2306843     0.0422798    0.2109541     0.0437993    0.2084041     0.9335914   -0.2335782 
   0.007251801     0.9364672   -0.2147347     0.0436654    0.2137356     0.0442901    0.2144921     0.9333727   -0.2300663 
   0.007351826     0.9349727   -0.2261985     0.0424613    0.2204676     0.0472160    0.2164901     0.9325985   -0.2350882 
   0.007451851     0.9286382   -0.2401474     0.0482259    0.2164724     0.0478028    0.2177207     0.9300959   -0.2334073 
   0.007551876     0.9194901   -0.2376756     0.0497537    0.2224613     0.0478024    0.2212602     0.9307519   -0.2331866 
   0.007651901     0.9302968   -0.2534917     0.0534263    0.2259756     0.0518711    0.2231379     0.9277401   -0.2392258 
   0.007751926     0.9146464   -0.2415824     0.0498685    0.2256577     0.0519034    0.2258841     0.9270710   -0.2435881 
   0.007851951     0.9227732   -0.2354655     0.0529523    0.2270327     0.0521832    0.2299615     0.9265365   -0.2445967 
   0.007951976     0.9210130   -0.2704428     0.0575041    0.2320309     0.0568374    0.2307844     0.9237887   -0.2462888 
   0.008052001     0.9289354   -0.2416587     0.0542938    0.2375528     0.0571108    0.2363205     0.9216157   -0.2518722 
   0.008152026     0.9271427   -0.2725068     0.0594896    0.2380740     0.0615620    0.2367978     0.9231770   -0.2547937 
   0.008252051     0.9014575   -0.2432066     0.0557748    0.2381772     0.0580312    0.2372560     0.9150735   -0.2574854 
   0.008352076     0.9184582   -0.2524442     0.0596119    0.2412994     0.0612563    0.2425627     0.9184850   -0.2599367 
   0.008452101     0.9341944   -0.2471926     0.0636414    0.2498841     0.0629769    0.2470220     0.9153939   -0.2601736 
   0.008552126     0.9117191   -0.2596953     0.0658250    0.2447220     0.0647325    0.2468223     0.9148052   -0.2600150 
   0.008652151     0.9245240   -0.2545427     0.0685354    0.2511452     0.0660128    0.2509376     0.9116221   -0.2672102 
   0.008752176     0.9208764   -0.2596754     0.0682846    0.2557455     0.0682175    0.2526292     0.9124799   -0.2697642 
   0.008852201     0.9131687   -0.2559015     0.0682513    0.2554094     0.0677527    0.2554135     0.9094909   -0.2691360 
   0.008952226     0.9295108   -0.2810981     0.0760584    0.2585609     0.0731742    0.2601317     0.9113657   -0.2721033 
   0.009052251     0.9165507   -0.2782688     0.0787106    0.2614660     0.0734087    0.2593752     0.9042581   -0.2751078 
   0.009152276     0.9024597   -0.2697400     0.0737550    0.2617880     0.0745799    0.2615790     0.9012123   -0.2819443 
   0.009252301     0.9222183   -0.2628185     0.0721474    0.2704390     0.0755519    0.2660599     0.8997078   -0.2829264 
   0.009352326     0.9065555   -0.2721595     0.0735747    0.2678389     0.0770839    0.2680919     0.8999562   -0.2836497 
   0.009452351     0.8945628   -0.2873314     0.0855681    0.2665161     0.0791452    0.2685536     0.9006959   -0.2841485 
   0.009552376     0.9007860   -0.2955079     0.0820400    0.2715016     0.0821257    0.2687151     0.8924815   -0.2887372 
   0.009652401     0.8907300   -0.2817548     0.0789217    0.2684078     0.0825733    0.2727865     0.8938682   -0.2922551 
   0.009752426     0.8997929   -0.2902617     0.0865372    0.2755746     0.0859260    0.2749319     0.8900824   -0.2929606 
   0.009852451     0.8861472   -0.2991644     0.0866897    0.2757919     0.0869904    0.2764563     0.8893372   -0.2965644 
   0.009952476     0.8851401   -0.3066708     0.0922500    0.2788171     0.0893954    0.2773401     0.8877977   -0.2971111 
   0.010052501     0.8897550   -0.2940352     0.0884918    0.2830268     0.0887676    0.2824419     0.8855822   -0.2967214 
   0.010152526     0.8900622   -0.2930048     0.0905554    0.2812109     0.0901895    0.2843668     0.8824374   -0.2993400 
   0.010252551     0.8835584   -0.3017958     0.0962501    0.2888378     0.0945150    0.2877599     0.8864087   -0.3057101 
   0.010352576     0.8904478   -0.3015226     0.0911113    0.2879359     0.0959210    0.2894506     0.8792534   -0.3076589 
   0.010452601     0.8909051   -0.2982400     0.0946782    0.2932597     0.0983387    0.2931314     0.8801596   -0.3139140 
   0.010552626     0.8737742   -0.3159381     0.0993397    0.2965450     0.1011570    0.2919040     0.8786192   -0.3125038 
   0.010652651     0.8926035   -0.3143589     0.1066873    0.2984961     0.1035744    0.2960356     0.8769089   -0.3139646 
   0.010752676     0.8805653   -0.3253846     0.1036390    0.2984017     0.1045875    0.2966642     0.8741122   -0.3147765 
   0.010852701     0.8777677   -0.2982709     0.1042209    0.2994321     0.1027774    0.3035709     0.8771366   -0.3150210 
   0.010952726     0.8819650   -0.3059330     0.1035015    0.3059864     0.1065557    0.3031484     0.8670955   -0.3225627 
   0.011052751     0.8738082   -0.3206517     0.1063851    0.3051360     0.1101802    0.3035747     0.8669578   -0.3259620 
   0.011152776     0.8800113   -0.3258071     0.1110412    0.3080881     0.1127512    0.3074627     0.8669807   -0.3253416 
   0.011252801     0.8614361   -0.3316894     0.1124964    0.3006250     0.1130178    0.3063733     0.8638485   -0.3266224 
   0.011352826     0.8598880   -0.3427756     0.1144134    0.3085093     0.1157653    0.3081174     0.8648303   -0.3280745 
   0.011452851     0.8555360   -0.3341808     0.1164872    0.3083055     0.1169466    0.3108497     0.8619125   -0.3338631 
   0.011552876     0.8463512   -0.3333709     0.1187969    0.3084510     0.1168709    0.3124147     0.8612511   -0.3333049 
   0.011652901     0.8697679   -0.3554583     0.1249398    0.3172892     0.1241415    0.3143095     0.8557978   -0.3351917 
   0.011752926     0.8456743   -0.3240160     0.1152462    0.3142877     0.1190323    0.3177567     0.8558947   -0.3379768 
   0.011852951     0.8514965   -0.3391691     0.1210129    0.3175726     0.1234745    0.3213291     0.8566069   -0.3382047 
   0.011952976     0.8507324   -0.3353562     0.1262154    0.3212678     0.1249691    0.3207729     0.8515065   -0.3420785 
   0.012053002     0.8413169   -0.3522689     0.1275129    0.3202013     0.1294135    0.3209552     0.8492543   -0.3447919 
   0.012153027     0.8514964   -0.3531851     0.1308331    0.3236801     0.1337385    0.3241495     0.8461481   -0.3488391 
   0.012253052     0.8380606   -0.3553818     0.1323101    0.3276425     0.1324591    0.3246451     0.8446233   -0.3489243 
   0.012353077     0.8536720   -0.3417422     0.1322852    0.3330078     0.1336724    0.3314269     0.8452944   -0.3479338 
   0.012453102     0.8447121   -0.3538867     0.1409975    0.3295633     0.1373512    0.3302543     0.8435423   -0.3534362 
   0.012553127     0.8316723   -0.3795095     0.1429831    0.3271645     0.1387012    0.3280465     0.8382793   -0.3497881 
   0.012653152     0.8436889   -0.3499827     0.1432997    0.3348219     0.1398823    0.3344046     0.8352482   -0.3552959 
   0.012753177     0.8369323   -0.3599985     0.1434656    0.3338458     0.1429585    0.3365997     0.8363145   -0.3573018 
   0.012853202     0.8359116   -0.3429212     0.1425267    0.3405126     0.1426728    0.3385991     0.8281391   -0.3577024 
   0.012953227     0.8393353   -0.3518300     0.1450014    0.3402873     0.1472382    0.3426009     0.8337052   -0.3636245 
   0.013053252     0.8279783   -0.3693855     0.1472538    0.3387714     0.1495539    0.3416037     0.8293298   -0.3650619 
   0.013153277     0.8248318   -0.3667245     0.1529095    0.3408140     0.1516755    0.3413606     0.8268102   -0.3670406 
   0.013253302     0.8270262   -0.3654987     0.1551191    0.3428727     0.1526244    0.3463382     0.8266450   -0.3628098 
   0.013353327     0.8256737   -0.3571481     0.1527184    0.3469311     0.1546290    0.3486843     0.8211953   -0.3710870 
   0.013453352     0.8217461   -0.3540387     0.1522381    0.3447076     0.1540047    0.3501514     0.8190455   -0.3716016 
   0.013553377     0.8084273   -0.3576639     0.1549237    0.3491421     0.1553388    0.3511304     0.8179984   -0.3745362 
   0.013653402     0.8093623   -0.3750347     0.1586571    0.3461994     0.1609763    0.3484868     0.8152903   -0.3778237 
   0.013753427     0.8060827   -0.3782678     0.1616862    0.3458861     0.1625103    0.3507416     0.8142799   -0.3801422 
   0.013853452     0.8129528   -0.3821135     0.1644771    0.3535528     0.1642577    0.3550121     0.8165078   -0.3744875 
   0.013953477     0.7969769   -0.3665045     0.1630074    0.3545667     0.1636105    0.3575165     0.8119155   -0.3799689 
   0.014053502     0.8038632   -0.3937890     0.1740875    0.3533317     0.1699773    0.3544567     0.8096007   -0.3815199 
   0.014153527     0.7966101   -0.3834864     0.1716560    0.3520612     0.1688792    0.3586490     0.8070761   -0.3829929 
   0.014253552     0.8113440   -0.3809347     0.1781385    0.3669676     0.1746534    0.3630604     0.8061292   -0.3821410 
   0.014353577     0.8041227   -0.3877047     0.1758985    0.3627903     0.1763580    0.3594464     0.7996006   -0.3865508 
   0.014453602     0.7965282   -0.3834075     0.1765762    0.3618189     0.1754265    0.3653669     0.8006476   -0.3851597 
   0.014553627     0.7935526   -0.3845578     0.1792404    0.3613507     0.1775157    0.3667073     0.8003116   -0.3881941 
   0.014653652     0.7953501   -0.3934078     0.1793355    0.3662415     0.1815957    0.3658881     0.7943000   -0.3917042 
   0.014753677     0.7979952   -0.3840337     0.1840372    0.3715838     0.1819052    0.3702435     0.7903113   -0.3902309 
   0.014853702     0.8051459   -0.3831370     0.1857346    0.3685235     0.1865677    0.3741392     0.7912782   -0.3941098 
   0.014953727     0.7890855   -0.4089285     0.1943244    0.3694254     0.1888845    0.3683686     0.7909226   -0.3942190 
   0.015053752     0.7836491   -0.3978500     0.1857170    0.3667669     0.1897392    0.3715625     0.7865801   -0.3988557 
   0.015153777     0.7997816   -0.3987077     0.1947177    0.3780286     0.1965669    0.3758363     0.7860538   -0.3984259 
   0.015253802     0.7828950   -0.3952138     0.1944885    0.3757830     0.1932379    0.3765854     0.7831218   -0.3986764 
   0.015353827     0.7773005   -0.4115565     0.2072555    0.3746165     0.1952620    0.3732297     0.7822648   -0.3981264 
   0.015453852     0.7814781   -0.4077945     0.2021524    0.3774735     0.1989974    0.3762097     0.7780316   -0.4027420 
   0.015553877     0.7741739   -0.4098426     0.2067286    0.3759185     0.2010553    0.3785233     0.7782599   -0.4049200 
   0.015653902     0.7679527   -0.4058214     0.2031346    0.3738223     0.2035642    0.3810290     0.7768539   -0.4109468 
