! 26-Feb-26 1:01:26 PM
! E:\VNA_MEASUREMENTS\SP8T\SP8T_P7_RF3.S2P
! CHANNEL.1
! TR.MEASUREMENT
! CORRECTED.DATA
# GHZ S RI R 50.0
! FREQ.GHZ         S11RE         S11IM         S21RE         S21IM         S12RE         S12IM         S22RE         S22IM         
!; PortSelection: Port_12
   0.000050000     0.2070284    0.4714149    -0.6606395    0.5541124    -0.0041779    0.0017798     0.9808182    0.0332637 
   0.000150025    -0.0571126    0.0052664    -0.2437961   -0.3643739     0.0005272    0.0010301     1.0107900   -0.0084394 
   0.000250050     0.1929638    0.1842505     0.0102317    0.0049523     0.0009767    0.0008704     0.9975281   -0.0181168 
   0.000350075     1.0250360   -0.0543595     0.0000935   -0.0157404     0.0000779    0.0001715     0.9920245   -0.0302575 
   0.000450100     0.9680690   -0.0633549    -0.0014536   -0.0081395    -0.0001226    0.0003481     0.9897360   -0.0163755 
   0.000550125     1.0519440   -0.0514179    -0.0011784   -0.0089087    -0.0004668   -0.0003184     0.9852169   -0.0321289 
   0.000650150     0.9470029    0.0211967    -0.0054974   -0.0119808    -0.0003496    0.0004845     1.0077610   -0.0459116 
   0.000750175     1.0247970   -0.0344218    -0.0058707   -0.0138460    -0.0002683   -0.0002459     0.9911674   -0.0506726 
   0.000850200     1.0048010   -0.0446110    -0.0120183   -0.0074501    -0.0003336    0.0000026     0.9978821   -0.0480757 
   0.000950225     0.9673756    0.0023907    -0.0073588   -0.0023416    -0.0003473   -0.0004761     0.9924281   -0.0675087 
   0.001050250     0.9848381   -0.0058659    -0.0067535   -0.0056157    -0.0011753    0.0010743     0.9891622   -0.0670253 
   0.001150275     1.0172490   -0.0436453    -0.0051224   -0.0046156     0.0003273   -0.0004679     0.9839804   -0.0720352 
   0.001250300     0.9833862   -0.0208512    -0.0075339   -0.0060641     0.0003838    0.0002630     0.9853091   -0.0858805 
   0.001350325     0.9391786   -0.0535028    -0.0124929   -0.0019019    -0.0000949   -0.0008555     0.9873672   -0.0944811 
   0.001450350     1.0134930    0.0057241    -0.0115470   -0.0023299    -0.0000960    0.0003323     0.9889304   -0.0888126 
   0.001550375     0.9626064   -0.0505462    -0.0084346   -0.0000243    -0.0001234   -0.0002906     0.9896353   -0.0979408 
   0.001650400     1.0209370    0.0398246    -0.0100559    0.0010808     0.0004308    0.0002508     0.9765745   -0.1036903 
   0.001750425     0.9526019   -0.0485795    -0.0037719    0.0020958    -0.0000852   -0.0002469     0.9851790   -0.1102267 
   0.001850450     0.9514465    0.0086766    -0.0082506    0.0001981     0.0002221   -0.0000756     0.9888448   -0.1158480 
   0.001950475     0.9943920    0.0183496    -0.0099899    0.0013570     0.0003346    0.0001214     0.9806844   -0.1184851 
   0.002050500     0.9801663    0.0183424    -0.0097584    0.0033841     0.0003312    0.0007558     0.9834079   -0.1343705 
   0.002150525     1.0098180   -0.0345880    -0.0055704    0.0049746    -0.0003331    0.0003495     0.9784538   -0.1412022 
   0.002250550     0.9574391    0.0115738    -0.0062581    0.0038854     0.0001691   -0.0001413     0.9746542   -0.1451541 
   0.002350575     0.9322544   -0.0834432    -0.0055900    0.0005740    -0.0004789    0.0001597     0.9674839   -0.1502220 
   0.002450600     0.9477854   -0.0493196    -0.0054838    0.0027149     0.0000097   -0.0004709     0.9763259   -0.1606536 
   0.002550625     0.9738280   -0.0298397    -0.0038413    0.0081761     0.0003240    0.0004061     0.9703921   -0.1587512 
   0.002650650     0.9702246   -0.0012761    -0.0043881    0.0015094    -0.0001504   -0.0009866     0.9662231   -0.1705078 
   0.002750675     1.0101310    0.0148920    -0.0021578    0.0029436    -0.0004643   -0.0001559     0.9572576   -0.1778524 
   0.002850700     1.0003830   -0.0495205    -0.0047960    0.0043070     0.0003381    0.0002546     0.9651651   -0.1822103 
   0.002950725     0.9497887    0.0025336    -0.0012741    0.0031991     0.0004875    0.0009371     0.9619070   -0.1794422 
   0.003050750     0.9784338   -0.0170190    -0.0050888    0.0027792    -0.0001643   -0.0006737     0.9565614   -0.1914737 
   0.003150775     0.9487858   -0.0926746    -0.0017318    0.0018600     0.0002832   -0.0001587     0.9490750   -0.1939567 
   0.003250800     0.9689420    0.0007538     0.0009466    0.0016192    -0.0009540   -0.0000620     0.9491411   -0.1974322 
   0.003350825     0.9745597   -0.0030719    -0.0011309    0.0045949     0.0004985   -0.0004139     0.9455812   -0.2070423 
   0.003450850     0.9794586   -0.0547224    -0.0005432    0.0027278    -0.0006072   -0.0003975     0.9404728   -0.2094090 
   0.003550875     0.9575422   -0.0273864    -0.0058712    0.0019272    -0.0005009   -0.0004396     0.9404709   -0.2217267 
   0.003650900     0.9484059    0.0000073    -0.0016724    0.0003756    -0.0001413    0.0004782     0.9384054   -0.2267421 
   0.003750925     0.9418961   -0.0401667    -0.0029437    0.0020964     0.0004314    0.0001177     0.9318367   -0.2338379 
   0.003850950     0.9726944   -0.0672616     0.0017440    0.0026569    -0.0000159   -0.0000733     0.9284996   -0.2385851 
   0.003950975     1.0008690   -0.0179980    -0.0012360    0.0001346    -0.0000425    0.0004105     0.9237108   -0.2402598 
   0.004051001     0.9588705   -0.0648191    -0.0009320    0.0004130     0.0001244    0.0002758     0.9215516   -0.2399226 
   0.004151026     0.9773403   -0.0198318     0.0002425    0.0030303     0.0006927    0.0005937     0.9205256   -0.2446458 
   0.004251051     0.9679549   -0.0562563    -0.0006633    0.0019446     0.0002173    0.0002319     0.9162186   -0.2545641 
   0.004351076     0.9609891    0.0030285    -0.0047307    0.0028751     0.0002498    0.0000192     0.9099159   -0.2554403 
   0.004451101     0.9822354   -0.0294390     0.0000335    0.0013347     0.0005462    0.0003141     0.9114725   -0.2602417 
   0.004551126     1.0004040   -0.0552150    -0.0005914   -0.0013270    -0.0004922    0.0002292     0.9087271   -0.2639947 
   0.004651151     0.9672621   -0.0244056    -0.0017339    0.0024442     0.0004243   -0.0007784     0.9093460   -0.2774702 
   0.004751176     0.9537732   -0.0520613    -0.0003641    0.0007907     0.0001346   -0.0000208     0.9020224   -0.2794389 
   0.004851201     0.9507411   -0.0422470     0.0001137    0.0014979    -0.0000848   -0.0001138     0.8935457   -0.2839243 
   0.004951226     0.9519744   -0.0103191     0.0008877    0.0007047    -0.0000266    0.0003277     0.8960409   -0.2848104 
   0.005051251     0.9808013   -0.0520189    -0.0016101    0.0021868     0.0000120   -0.0000341     0.8902897   -0.2880409 
   0.005151276     0.9516918   -0.0188201    -0.0001388   -0.0004461    -0.0000243   -0.0001201     0.8835319   -0.2906561 
   0.005251301     0.9427533   -0.0384539    -0.0000337    0.0012131    -0.0006340    0.0005496     0.8823678   -0.2945941 
   0.005351326     0.9541428   -0.0046404     0.0013895    0.0000464     0.0009666   -0.0004093     0.8807588   -0.3013100 
   0.005451351     0.9709320   -0.0142179     0.0001838   -0.0001581    -0.0004409   -0.0000115     0.8752042   -0.3060530 
   0.005551376     0.9872219   -0.0683994     0.0022925    0.0023222     0.0006076   -0.0006446     0.8708950   -0.3080691 
   0.005651401     0.9662039   -0.0253278    -0.0008098   -0.0013513    -0.0004088    0.0005175     0.8641886   -0.3203491 
   0.005751426     0.9287601   -0.0422580     0.0001250    0.0008779     0.0006353   -0.0000975     0.8614703   -0.3192606 
   0.005851451     0.9550955   -0.0594358     0.0008693   -0.0012275    -0.0004524    0.0004444     0.8589065   -0.3210740 
   0.005951476     0.9459583   -0.0297634     0.0015991    0.0014077    -0.0004315   -0.0002651     0.8568414   -0.3241238 
   0.006051501     0.9495023   -0.0052649    -0.0000930    0.0024498     0.0006150    0.0003308     0.8480048   -0.3271694 
   0.006151526     0.9544692   -0.0639754     0.0003172    0.0025622    -0.0000881    0.0000231     0.8436957   -0.3341731 
   0.006251551     0.9398959   -0.0025779    -0.0013480    0.0017200    -0.0002729    0.0001924     0.8423445   -0.3403676 
   0.006351576     0.9452770   -0.0317674     0.0021076    0.0018745     0.0000219    0.0002449     0.8324702   -0.3394359 
   0.006451601     0.9589860   -0.0381521    -0.0002636    0.0001326     0.0000967   -0.0004218     0.8292516   -0.3486560 
   0.006551626     0.9499023   -0.0504046    -0.0007829    0.0017533    -0.0002849   -0.0001067     0.8299970   -0.3435951 
   0.006651651     0.9645027   -0.0475678    -0.0008464   -0.0007749    -0.0000537    0.0004223     0.8205711   -0.3490777 
   0.006751676     0.9422598   -0.0434085    -0.0000591    0.0005826    -0.0002557   -0.0001562     0.8226942   -0.3499914 
   0.006851701     0.9755590   -0.0542723     0.0009382   -0.0023518    -0.0004231   -0.0002855     0.8169348   -0.3555549 
   0.006951726     0.9523844   -0.0742674    -0.0007785    0.0004394    -0.0000478    0.0000954     0.8145732   -0.3602194 
   0.007051751     0.9565979   -0.0246035     0.0006542   -0.0006741    -0.0000465   -0.0008793     0.8067054   -0.3587726 
   0.007151776     0.9511594   -0.0331550     0.0004530   -0.0013471     0.0001806    0.0000728     0.7986301   -0.3631269 
   0.007251801     0.9639824   -0.0031745    -0.0006040   -0.0003028     0.0000129   -0.0001226     0.7990479   -0.3704346 
   0.007351826     0.9668953   -0.0478845    -0.0006191   -0.0014608    -0.0001092   -0.0002335     0.7950253   -0.3711701 
   0.007451851     0.9485762   -0.0346920     0.0013890   -0.0013405    -0.0003747    0.0001398     0.7891346   -0.3694682 
   0.007551876     0.9649969   -0.0370554    -0.0021457    0.0020854     0.0001353   -0.0000765     0.7919017   -0.3768217 
   0.007651901     0.9650500   -0.0650518    -0.0002812   -0.0010195     0.0003650   -0.0002221     0.7811410   -0.3774311 
   0.007751926     0.9430574   -0.0264014     0.0005302    0.0008792     0.0000955   -0.0002207     0.7736138   -0.3810585 
   0.007851951     0.9741658   -0.0321323     0.0003020    0.0012049     0.0000222   -0.0000112     0.7757975   -0.3813798 
   0.007951976     1.0006560   -0.0267008     0.0000089    0.0010243    -0.0002996    0.0000393     0.7677702   -0.3812770 
   0.008052001     0.9724315   -0.0385371     0.0006145   -0.0015658    -0.0001812   -0.0001245     0.7648298   -0.3874956 
   0.008152026     0.9775571   -0.0557542    -0.0000635    0.0006800    -0.0007693    0.0002934     0.7598969   -0.3923697 
   0.008252051     0.9283767   -0.0367803     0.0006544   -0.0009854     0.0000568   -0.0000799     0.7514036   -0.3923245 
   0.008352076     0.9577652   -0.0293408     0.0005180   -0.0000615    -0.0003275    0.0001863     0.7501492   -0.3942443 
   0.008452101     0.9580699   -0.0110653    -0.0003869    0.0009192     0.0000122    0.0000072     0.7465364   -0.3929731 
   0.008552126     0.9556682   -0.0445694    -0.0005139   -0.0003425    -0.0004225    0.0000664     0.7435279   -0.3958296 
   0.008652151     0.9454877   -0.0392512     0.0008381    0.0005941     0.0002593   -0.0002201     0.7383074   -0.4000633 
   0.008752176     0.9517418   -0.0246222     0.0014150    0.0005524    -0.0000325    0.0000557     0.7382223   -0.4025279 
   0.008852201     0.9592358   -0.0350873    -0.0007159   -0.0010698    -0.0004493    0.0000653     0.7291356   -0.4001346 
   0.008952226     0.9646080   -0.0308225     0.0005473   -0.0002461     0.0006568    0.0000983     0.7301272   -0.4014873 
   0.009052251     0.9682357   -0.0522983    -0.0009005    0.0011133     0.0001523    0.0004570     0.7241178   -0.4082153 
   0.009152276     0.9765518   -0.0439488    -0.0013716    0.0002818    -0.0000505   -0.0001012     0.7136540   -0.4106016 
   0.009252301     0.9649298   -0.0416824     0.0001116    0.0017234     0.0003172    0.0000016     0.7153084   -0.4123514 
   0.009352326     0.9767523   -0.0386528    -0.0009417   -0.0004228     0.0000477    0.0000087     0.7084845   -0.4088731 
   0.009452351     0.9801906   -0.0382004    -0.0003225    0.0002396    -0.0002309   -0.0000336     0.7050382   -0.4097699 
   0.009552376     0.9704237   -0.0400996     0.0000563   -0.0005854    -0.0000407   -0.0000623     0.7007455   -0.4123414 
   0.009652401     0.9546682   -0.0444670    -0.0002761    0.0007667    -0.0003819    0.0001632     0.6955665   -0.4139390 
   0.009752426     0.9581415   -0.0338271    -0.0003078   -0.0003610    -0.0001554   -0.0002814     0.6944206   -0.4135036 
   0.009852451     0.9610577   -0.0562403     0.0007738   -0.0001993    -0.0001443   -0.0002037     0.6882088   -0.4162940 
   0.009952476     0.9683273   -0.0546948    -0.0005598    0.0002860     0.0000571    0.0000040     0.6851667   -0.4143925 
   0.010052501     0.9599977   -0.0487843     0.0007551    0.0004235    -0.0001531    0.0001729     0.6823828   -0.4153096 
   0.010152526     0.9496629   -0.0342859    -0.0007590    0.0009728     0.0000696    0.0000457     0.6775884   -0.4207931 
   0.010252551     0.9652089   -0.0445308    -0.0007926   -0.0001970    -0.0000274   -0.0001022     0.6715502   -0.4242241 
   0.010352576     0.9765929   -0.0468048    -0.0004944   -0.0008784    -0.0000771    0.0000078     0.6694316   -0.4232362 
   0.010452601     0.9760719   -0.0198881    -0.0002449   -0.0006773     0.0001709    0.0000911     0.6658393   -0.4241278 
   0.010552626     0.9513688   -0.0444343    -0.0008572    0.0003505     0.0003367    0.0000608     0.6611106   -0.4254706 
   0.010652651     0.9710148   -0.0338269     0.0005779   -0.0001648    -0.0000945    0.0001099     0.6578270   -0.4274735 
   0.010752676     0.9677747   -0.0568500    -0.0002578    0.0006694     0.0002766   -0.0000637     0.6539925   -0.4250084 
   0.010852701     0.9583592   -0.0212755     0.0003670    0.0007078    -0.0003056    0.0002059     0.6488932   -0.4260642 
   0.010952726     0.9690094   -0.0417151     0.0001468    0.0007877    -0.0002492    0.0000643     0.6453621   -0.4274606 
   0.011052751     0.9674943   -0.0331339    -0.0014251    0.0005783     0.0001348    0.0000894     0.6413479   -0.4305386 
   0.011152776     0.9634147   -0.0413999     0.0000645    0.0010047    -0.0000706    0.0003514     0.6372585   -0.4309239 
   0.011252801     0.9759138   -0.0521703    -0.0008995    0.0020897    -0.0001582   -0.0003215     0.6352852   -0.4288315 
   0.011352826     0.9763665   -0.0678554     0.0013090   -0.0006268    -0.0000275    0.0004582     0.6313003   -0.4283722 
   0.011452851     0.9530289   -0.0516171     0.0005852    0.0004057    -0.0001374    0.0000011     0.6257759   -0.4319302 
   0.011552876     0.9619393   -0.0600248    -0.0004560   -0.0011510     0.0001267    0.0002049     0.6234988   -0.4323744 
   0.011652901     0.9570631   -0.0586734     0.0008165    0.0007608     0.0002050   -0.0000702     0.6199219   -0.4327795 
   0.011752926     0.9509273   -0.0432103     0.0006705   -0.0011082     0.0000153   -0.0000262     0.6156406   -0.4341245 
   0.011852951     0.9643577   -0.0612670     0.0010164   -0.0002731    -0.0003280   -0.0000881     0.6140429   -0.4316601 
   0.011952976     0.9549046   -0.0542434    -0.0015330   -0.0008758    -0.0002704   -0.0001148     0.6085414   -0.4324401 
   0.012053002     0.9628827   -0.0544477     0.0002942    0.0002622    -0.0000064    0.0000444     0.6050919   -0.4331514 
   0.012153027     0.9675310   -0.0664585    -0.0008740   -0.0013407     0.0003816   -0.0002203     0.6004139   -0.4342580 
   0.012253052     0.9640129   -0.0634934     0.0008424    0.0000047    -0.0000321    0.0000511     0.5997064   -0.4325718 
   0.012353077     0.9572294   -0.0482943    -0.0011142   -0.0007304    -0.0001170   -0.0002442     0.5957907   -0.4329012 
   0.012453102     0.9522147   -0.0439848    -0.0015373    0.0005972     0.0002682    0.0003227     0.5899057   -0.4363854 
   0.012553127     0.9518508   -0.0684167     0.0000385   -0.0002480    -0.0004862    0.0003160     0.5867672   -0.4344987 
   0.012653152     0.9692581   -0.0309654    -0.0000825   -0.0000957    -0.0004148    0.0000043     0.5832133   -0.4338804 
   0.012753177     0.9509741   -0.0538547    -0.0004900    0.0009926     0.0000022    0.0000637     0.5817947   -0.4346363 
   0.012853202     0.9593463   -0.0451324    -0.0001967    0.0008745    -0.0002404   -0.0000337     0.5744012   -0.4330074 
   0.012953227     0.9538735   -0.0455568    -0.0000701    0.0009067     0.0000292    0.0001434     0.5761972   -0.4362222 
   0.013053252     0.9466663   -0.0678465     0.0011278    0.0002988     0.0001878    0.0002926     0.5708227   -0.4376792 
   0.013153277     0.9580449   -0.0451326    -0.0002618    0.0004620    -0.0002483    0.0000472     0.5658466   -0.4365201 
   0.013253302     0.9578556   -0.0505851    -0.0000774    0.0005434    -0.0000332   -0.0002624     0.5648739   -0.4321717 
   0.013353327     0.9446952   -0.0446588     0.0000171    0.0007574    -0.0001385   -0.0004157     0.5599466   -0.4352153 
   0.013453352     0.9424341   -0.0463417     0.0005853   -0.0001072    -0.0001369   -0.0002428     0.5586792   -0.4361151 
   0.013553377     0.9593214   -0.0665438    -0.0005378    0.0002748     0.0001513   -0.0003168     0.5529487   -0.4348421 
   0.013653402     0.9423922   -0.0676968     0.0003602   -0.0005619     0.0001260    0.0000695     0.5510052   -0.4362941 
   0.013753427     0.9579072   -0.0565917    -0.0006496   -0.0001343    -0.0001538   -0.0002921     0.5463141   -0.4333576 
   0.013853452     0.9777856   -0.0637857    -0.0005704   -0.0008079     0.0000393    0.0000736     0.5480989   -0.4316872 
   0.013953477     0.9506803   -0.0521124     0.0004273    0.0016873     0.0000719    0.0000878     0.5430873   -0.4350586 
   0.014053502     0.9725454   -0.0719380    -0.0008257    0.0002932     0.0002750    0.0001173     0.5392876   -0.4303222 
   0.014153527     0.9640084   -0.0629138     0.0007622   -0.0003659     0.0001199    0.0002723     0.5380270   -0.4341702 
   0.014253552     0.9550428   -0.0468607     0.0000375   -0.0012145     0.0000024   -0.0002639     0.5347741   -0.4347186 
   0.014353577     0.9480193   -0.0642603    -0.0000061   -0.0006367     0.0000677    0.0001249     0.5282099   -0.4317581 
   0.014453602     0.9451676   -0.0672493    -0.0013304   -0.0009509    -0.0000568   -0.0004775     0.5257839   -0.4319840 
   0.014553627     0.9489197   -0.0620955     0.0003913    0.0004558     0.0002092   -0.0000512     0.5234864   -0.4338484 
   0.014653652     0.9456139   -0.0622063     0.0001635   -0.0001297    -0.0004775    0.0000795     0.5190695   -0.4327851 
   0.014753677     0.9572642   -0.0630600     0.0011105    0.0004169    -0.0001991    0.0002334     0.5186478   -0.4311778 
   0.014853702     0.9592442   -0.0444797    -0.0003004    0.0000869    -0.0002373   -0.0000835     0.5150483   -0.4320652 
   0.014953727     0.9581901   -0.0843155     0.0002379    0.0004907    -0.0000486   -0.0002774     0.5110331   -0.4316329 
   0.015053752     0.9571220   -0.0541867    -0.0001118   -0.0017387    -0.0000332   -0.0000482     0.5098651   -0.4285461 
   0.015153777     0.9694980   -0.0471209     0.0001763    0.0013809     0.0000139   -0.0003789     0.5091840   -0.4311691 
   0.015253802     0.9565653   -0.0629148     0.0007767   -0.0018544    -0.0000808   -0.0001303     0.5048518   -0.4316779 
   0.015353827     0.9511265   -0.0616647    -0.0003953   -0.0005872    -0.0001033    0.0003221     0.5016516   -0.4306208 
   0.015453852     0.9636315   -0.0579355     0.0002922   -0.0008937    -0.0001106   -0.0003807     0.4981297   -0.4291801 
   0.015553877     0.9666481   -0.0731962    -0.0012439   -0.0003273    -0.0001356    0.0000048     0.4957544   -0.4265671 
   0.015653902     0.9613021   -0.0631891    -0.0010368    0.0001098    -0.0000449   -0.0000802     0.4925119   -0.4288598 
