! 26-Feb-26 11:25:37 AM
! E:\VNA_MEASUREMENTS\SP8T\SP8T_P1_RF6.S2P
! CHANNEL.1
! TR.MEASUREMENT
! CORRECTED.DATA
# GHZ S RI R 50.0
! FREQ.GHZ         S11RE         S11IM         S21RE         S21IM         S12RE         S12IM         S22RE         S22IM         
!; PortSelection: Port_12
   0.000050000    -0.4923053   -1.0527530    -0.1247155    0.2224598    -0.0071777    0.0084368     0.9670598    0.0282667 
   0.000150025    -0.0326027    0.0028613    -0.3669167    0.4838114     0.0007751    0.0016688     1.0085190   -0.0119252 
   0.000250050    -0.1075690    0.1223007    -0.0015711   -0.0048910     0.0000332   -0.0000648     1.0021690   -0.0214155 
   0.000350075     1.0373770   -0.0175214     0.0012638   -0.0107420     0.0000498   -0.0002763     0.9927996   -0.0254423 
   0.000450100     0.9920794   -0.1004466    -0.0002353   -0.0088390    -0.0003119    0.0006452     0.9956426   -0.0192302 
   0.000550125     1.0034450   -0.0436184    -0.0077615   -0.0079623    -0.0002245    0.0004585     0.9900689   -0.0344187 
   0.000650150     1.0162990    0.0064519    -0.0046667   -0.0108207    -0.0002293    0.0005894     1.0029720   -0.0501043 
   0.000750175     0.9789384   -0.0327308    -0.0043617   -0.0073064    -0.0003246   -0.0001215     1.0022450   -0.0530513 
   0.000850200     1.0091990   -0.0689335    -0.0052417   -0.0084556    -0.0001093    0.0005961     1.0008420   -0.0471237 
   0.000950225     0.9933506   -0.0499385    -0.0091871   -0.0047391     0.0000644    0.0002871     0.9842474   -0.0600892 
   0.001050250     0.9978436   -0.0450783    -0.0068875   -0.0018057    -0.0010513   -0.0005657     0.9936542   -0.0710810 
   0.001150275     1.0510770   -0.0484967    -0.0099408   -0.0103808     0.0004896    0.0002164     0.9831073   -0.0601645 
   0.001250300     0.9405268   -0.0485708    -0.0100779   -0.0018551     0.0002852   -0.0007479     0.9910326   -0.0824661 
   0.001350325     0.9559458   -0.0697431    -0.0102781   -0.0029144     0.0001927   -0.0003682     0.9921997   -0.0894413 
   0.001450350     0.9793901   -0.0854731    -0.0068201   -0.0031832     0.0011755   -0.0001465     0.9846641   -0.0912120 
   0.001550375     0.9676304   -0.1251286    -0.0115203    0.0009228    -0.0002291    0.0003305     0.9902939   -0.0964938 
   0.001650400     0.9952487   -0.0034294    -0.0075856   -0.0003580     0.0002916    0.0003309     0.9794148   -0.0960948 
   0.001750425     0.9864892   -0.0884762    -0.0057860   -0.0047648     0.0000902   -0.0006800     0.9880658   -0.1044349 
   0.001850450     0.9481147   -0.1185417    -0.0097471    0.0018629     0.0002698   -0.0002650     0.9849836   -0.1134073 
   0.001950475     1.0035010   -0.0277150    -0.0092966    0.0018763    -0.0000289   -0.0002033     0.9801262   -0.1153027 
   0.002050500     0.9687727   -0.0763329    -0.0057804    0.0032068     0.0008129   -0.0012387     0.9793563   -0.1334804 
   0.002150525     0.9855398   -0.0620375    -0.0068208    0.0012649     0.0002346    0.0001921     0.9701126   -0.1362843 
   0.002250550     0.9788055   -0.0846777    -0.0076110    0.0016519    -0.0001348   -0.0002307     0.9789464   -0.1367952 
   0.002350575     0.9379385   -0.1175030    -0.0034503    0.0025378    -0.0003476    0.0001113     0.9766660   -0.1388186 
   0.002450600     0.9775334   -0.0719530    -0.0078221    0.0010145    -0.0001140   -0.0005358     0.9711378   -0.1580406 
   0.002550625     1.0492010   -0.0829361    -0.0043183    0.0043635    -0.0003710    0.0005905     0.9726138   -0.1512899 
   0.002650650     1.0236820   -0.0380998    -0.0052699    0.0020017     0.0001321   -0.0002048     0.9786195   -0.1690329 
   0.002750675     1.0069600   -0.0344786    -0.0037177    0.0043629     0.0003537    0.0007543     0.9658110   -0.1734724 
   0.002850700     1.0133550   -0.1107761    -0.0004216    0.0055020    -0.0009134    0.0001869     0.9591165   -0.1776211 
   0.002950725     0.9625942   -0.1015221    -0.0019340    0.0052224     0.0008406    0.0005556     0.9656152   -0.1749678 
   0.003050750     0.9803433   -0.0950046    -0.0010886    0.0031769     0.0006717   -0.0005760     0.9573646   -0.1902434 
   0.003150775     0.9906161   -0.1590637    -0.0009861    0.0048927     0.0003119   -0.0002630     0.9479479   -0.1954258 
   0.003250800     0.9576479   -0.0866578    -0.0002857    0.0016125    -0.0003240    0.0001667     0.9518440   -0.1939769 
   0.003350825     0.9816219   -0.1037726    -0.0010518    0.0036489     0.0003351   -0.0001350     0.9512768   -0.2031128 
   0.003450850     0.9316149   -0.1435836     0.0017834    0.0025437     0.0002516   -0.0003934     0.9507210   -0.2057631 
   0.003550875     0.9570135   -0.1472223     0.0000755    0.0014572    -0.0003509   -0.0009099     0.9396413   -0.2187408 
   0.003650900     1.0075040   -0.1373811    -0.0002776    0.0033732    -0.0003085   -0.0001992     0.9395656   -0.2196120 
   0.003750925     0.9678822   -0.1233544     0.0002591    0.0016107    -0.0003303    0.0001570     0.9347882   -0.2233519 
   0.003850950     0.9742255   -0.1260877     0.0000585    0.0021662    -0.0001230    0.0005066     0.9348631   -0.2327141 
   0.003950975     1.0242830   -0.1242116    -0.0008926    0.0014015     0.0000278   -0.0003784     0.9361700   -0.2302779 
   0.004051001     0.9708145   -0.1323949    -0.0007492    0.0008635    -0.0002721   -0.0001373     0.9304636   -0.2390800 
   0.004151026     0.9890275   -0.1467659    -0.0007302    0.0033378     0.0001432    0.0002480     0.9230966   -0.2468149 
   0.004251051     0.9933574   -0.1535723    -0.0013390   -0.0001181     0.0003572   -0.0003016     0.9241182   -0.2472015 
   0.004351076     0.9719746   -0.1069929    -0.0024916    0.0014465     0.0002306   -0.0007437     0.9149482   -0.2525364 
   0.004451101     0.9971861   -0.1409951    -0.0011006    0.0001700    -0.0007729   -0.0000859     0.9130938   -0.2555773 
   0.004551126     0.9777003   -0.1659002     0.0002860    0.0042650    -0.0007524    0.0002107     0.9120521   -0.2527637 
   0.004651151     0.9532527   -0.1514161     0.0022589    0.0027160    -0.0004499    0.0004332     0.9115726   -0.2661321 
   0.004751176     0.9686891   -0.1720132    -0.0029994    0.0025976     0.0001020    0.0007235     0.9092822   -0.2705558 
   0.004851201     0.9418995   -0.1622073     0.0012058    0.0007992     0.0002280    0.0001888     0.9010251   -0.2783189 
   0.004951226     0.9645498   -0.1379541     0.0007374    0.0024903     0.0002861    0.0000071     0.9011350   -0.2740493 
   0.005051251     1.0180500   -0.1789316    -0.0017168    0.0015548     0.0009252    0.0004240     0.8939872   -0.2801530 
   0.005151276     0.9467803   -0.1639791    -0.0007301    0.0001668     0.0006087   -0.0002635     0.8901666   -0.2885612 
   0.005251301     0.9491913   -0.1794577    -0.0012781    0.0019451     0.0000421    0.0000516     0.8878753   -0.2889600 
   0.005351326     0.9420552   -0.1514661    -0.0003227   -0.0010290     0.0001849   -0.0006213     0.8846651   -0.2982806 
   0.005451351     0.9546330   -0.1641027     0.0009946    0.0003717     0.0001129   -0.0005237     0.8827602   -0.2969517 
   0.005551376     0.9717517   -0.2048989     0.0005092    0.0015663    -0.0001239    0.0000647     0.8776975   -0.2995744 
   0.005651401     0.9343338   -0.1692479     0.0014004    0.0003559    -0.0009004    0.0001972     0.8733480   -0.3154909 
   0.005751426     0.9471794   -0.2065616    -0.0006227   -0.0003252     0.0002543   -0.0000195     0.8660884   -0.3120666 
   0.005851451     0.9331706   -0.1973950    -0.0007873    0.0027704     0.0008005    0.0002417     0.8661265   -0.3138726 
   0.005951476     0.9487480   -0.1832563    -0.0010632    0.0002088    -0.0001490   -0.0004556     0.8628381   -0.3197223 
   0.006051501     0.9460602   -0.2039409    -0.0005366    0.0013597     0.0001763    0.0000561     0.8600624   -0.3245406 
   0.006151526     0.9509928   -0.1875012     0.0005019    0.0002631    -0.0000063   -0.0003404     0.8515368   -0.3257915 
   0.006251551     0.9513737   -0.1744981    -0.0000250    0.0008223    -0.0003784    0.0001432     0.8522561   -0.3320176 
   0.006351576     0.9430491   -0.2294114     0.0001163    0.0005828     0.0003285    0.0000528     0.8456910   -0.3313473 
   0.006451601     0.9346081   -0.1943813     0.0005224   -0.0002663     0.0001171    0.0001754     0.8380514   -0.3352709 
   0.006551626     0.9301076   -0.2224892     0.0012068    0.0010353    -0.0000414   -0.0000327     0.8381050   -0.3381027 
   0.006651651     0.9376564   -0.1967002    -0.0015317    0.0003403    -0.0004297   -0.0002364     0.8300230   -0.3425538 
   0.006751676     0.9313338   -0.2361510    -0.0018571    0.0008433    -0.0003059   -0.0003020     0.8282523   -0.3442535 
   0.006851701     0.9536424   -0.2284266    -0.0012192   -0.0000750     0.0006849    0.0004727     0.8237423   -0.3546933 
   0.006951726     0.9187896   -0.2249278     0.0005927    0.0011932    -0.0006170   -0.0002765     0.8247980   -0.3482554 
   0.007051751     0.9345474   -0.2125310    -0.0016028   -0.0006228     0.0000436    0.0003106     0.8107915   -0.3541402 
   0.007151776     0.9167382   -0.2288899     0.0012418    0.0024114    -0.0000865   -0.0002456     0.8075989   -0.3603612 
   0.007251801     0.9425048   -0.2163274     0.0018201    0.0004179    -0.0000732    0.0004704     0.8041778   -0.3633242 
   0.007351826     0.9327223   -0.2255871    -0.0012051    0.0003861    -0.0003972    0.0001234     0.8004971   -0.3639221 
   0.007451851     0.9110088   -0.2314550    -0.0009907    0.0010258     0.0002531   -0.0001591     0.7984353   -0.3614960 
   0.007551876     0.9331471   -0.2643828     0.0001773    0.0019953     0.0002141   -0.0004793     0.7992234   -0.3661814 
   0.007651901     0.9253367   -0.2402263    -0.0003733   -0.0001229     0.0000374   -0.0000891     0.7941774   -0.3721505 
   0.007751926     0.9179623   -0.2336970    -0.0018208    0.0000799    -0.0001626   -0.0002341     0.7874198   -0.3777147 
   0.007851951     0.9305476   -0.2574062    -0.0002544    0.0002072     0.0001011   -0.0007185     0.7851741   -0.3723045 
   0.007951976     0.9163120   -0.2710614    -0.0018412   -0.0002696     0.0002791    0.0000289     0.7754021   -0.3767513 
   0.008052001     0.9343903   -0.2348209    -0.0000151    0.0008673    -0.0001522   -0.0000802     0.7732717   -0.3825672 
   0.008152026     0.9092017   -0.2579488    -0.0001426    0.0010230     0.0000502   -0.0004654     0.7716103   -0.3836836 
   0.008252051     0.9101829   -0.2385609    -0.0014350   -0.0015502     0.0000650   -0.0000886     0.7645386   -0.3847832 
   0.008352076     0.9232184   -0.2577960     0.0012045   -0.0010754    -0.0002726    0.0000182     0.7623283   -0.3866088 
   0.008452101     0.9103622   -0.2578076    -0.0007062   -0.0017566     0.0001259   -0.0000223     0.7592933   -0.3867918 
   0.008552126     0.9204596   -0.2667598    -0.0012813    0.0002142    -0.0003460   -0.0000134     0.7540497   -0.3923461 
   0.008652151     0.8955250   -0.2599018    -0.0004165    0.0025060    -0.0002547   -0.0002455     0.7490142   -0.3947690 
   0.008752176     0.9229435   -0.2524731     0.0002052   -0.0002630     0.0003086   -0.0000782     0.7471949   -0.3981538 
   0.008852201     0.9110658   -0.2521062    -0.0012021    0.0006971    -0.0002641    0.0001719     0.7406276   -0.3945348 
   0.008952226     0.9150614   -0.2710161    -0.0001641   -0.0003857    -0.0001185   -0.0002053     0.7386386   -0.3982332 
   0.009052251     0.9150985   -0.2791032    -0.0016923   -0.0012833    -0.0002425    0.0000961     0.7306968   -0.4002276 
   0.009152276     0.9065701   -0.2699553     0.0000171   -0.0010612     0.0002794   -0.0003539     0.7278991   -0.4021479 
   0.009252301     0.9027449   -0.2705617     0.0007264   -0.0005384    -0.0000888   -0.0001064     0.7250420   -0.4086225 
   0.009352326     0.9032064   -0.2799596    -0.0010297    0.0007741    -0.0001111    0.0004544     0.7214155   -0.4005327 
   0.009452351     0.8994363   -0.2849129     0.0006611    0.0001299     0.0002651    0.0001959     0.7149203   -0.4073073 
   0.009552376     0.9108150   -0.2896341    -0.0006244    0.0010852    -0.0004117    0.0000297     0.7118777   -0.4055178 
   0.009652401     0.8924080   -0.2731665     0.0007794    0.0008025    -0.0002646    0.0000518     0.7084312   -0.4076139 
   0.009752426     0.8893780   -0.3057160    -0.0004975   -0.0008025     0.0002290   -0.0000654     0.7044443   -0.4090446 
   0.009852451     0.9016032   -0.2984514    -0.0005102   -0.0003737    -0.0000473    0.0005823     0.7014576   -0.4123897 
   0.009952476     0.8779208   -0.3000178    -0.0004448   -0.0010348    -0.0001719   -0.0000545     0.6972412   -0.4115073 
   0.010052501     0.8768958   -0.2954153    -0.0004790    0.0006333     0.0000106    0.0000787     0.6968128   -0.4116867 
   0.010152526     0.8800531   -0.2862803     0.0005587    0.0000815    -0.0000706    0.0000472     0.6872327   -0.4136224 
   0.010252551     0.8761629   -0.2974475    -0.0007118    0.0006486     0.0001933   -0.0000481     0.6866518   -0.4200483 
   0.010352576     0.8804696   -0.3147431    -0.0005306    0.0002414    -0.0000152    0.0002358     0.6818491   -0.4160066 
   0.010452601     0.8816199   -0.2914367     0.0004610   -0.0000531    -0.0004094    0.0001639     0.6756019   -0.4202262 
   0.010552626     0.8772353   -0.3089181    -0.0005493   -0.0006697     0.0000485    0.0000294     0.6748351   -0.4220472 
   0.010652651     0.8829440   -0.3155580    -0.0002718   -0.0005370    -0.0000103    0.0003779     0.6734614   -0.4229477 
   0.010752676     0.8883996   -0.3104628     0.0002213    0.0008702     0.0001571    0.0004080     0.6655367   -0.4207486 
   0.010852701     0.8884333   -0.2987686     0.0007617   -0.0003284    -0.0004519    0.0002044     0.6641664   -0.4198623 
   0.010952726     0.8740521   -0.3166580    -0.0003968    0.0004833     0.0002843    0.0004792     0.6577185   -0.4234695 
   0.011052751     0.8731984   -0.3226064     0.0001619    0.0003552    -0.0000687    0.0000440     0.6526139   -0.4257486 
   0.011152776     0.8677910   -0.3189594    -0.0009720    0.0006032     0.0002833   -0.0002608     0.6493911   -0.4246794 
   0.011252801     0.8743434   -0.3351030     0.0001422   -0.0005960     0.0000064   -0.0001019     0.6465437   -0.4261828 
   0.011352826     0.8629898   -0.3334822    -0.0000412   -0.0004373     0.0000515   -0.0000911     0.6447355   -0.4270196 
   0.011452851     0.8550765   -0.3178751    -0.0005395   -0.0001011    -0.0004768    0.0001994     0.6385397   -0.4304713 
   0.011552876     0.8506629   -0.3293861     0.0007248   -0.0000304    -0.0002232    0.0002224     0.6341271   -0.4293194 
   0.011652901     0.8575960   -0.3482581     0.0006606   -0.0019166    -0.0001989    0.0002268     0.6306753   -0.4278437 
   0.011752926     0.8414362   -0.3232945    -0.0001584    0.0012248     0.0000776    0.0000406     0.6300934   -0.4278244 
   0.011852951     0.8583055   -0.3516757     0.0001429   -0.0008111    -0.0000525   -0.0000702     0.6254263   -0.4292790 
   0.011952976     0.8406631   -0.3464051     0.0002041   -0.0009517    -0.0000911    0.0000880     0.6190791   -0.4293921 
   0.012053002     0.8473437   -0.3646371     0.0001739   -0.0003091     0.0002329   -0.0000209     0.6178377   -0.4293217 
   0.012153027     0.8595822   -0.3468428    -0.0002152   -0.0002832     0.0000839    0.0000820     0.6140299   -0.4315979 
   0.012253052     0.8315098   -0.3473211     0.0003342    0.0006190    -0.0004306    0.0000368     0.6117733   -0.4298188 
   0.012353077     0.8434271   -0.3412118    -0.0006063    0.0003574    -0.0000642   -0.0003883     0.6110576   -0.4327682 
   0.012453102     0.8476875   -0.3514734    -0.0002224   -0.0003364    -0.0000109    0.0000292     0.6029626   -0.4334834 
   0.012553127     0.8367687   -0.3743311    -0.0005261   -0.0010712     0.0001523   -0.0002183     0.5991505   -0.4333985 
   0.012653152     0.8376726   -0.3406639     0.0010555    0.0001850     0.0001731    0.0000173     0.5980147   -0.4322701 
   0.012753177     0.8280190   -0.3574587    -0.0007252    0.0004671    -0.0001597    0.0000453     0.5935875   -0.4308634 
   0.012853202     0.8266454   -0.3429095     0.0003179   -0.0008503    -0.0001948   -0.0001357     0.5904053   -0.4312148 
   0.012953227     0.8246253   -0.3589699    -0.0005917    0.0001392    -0.0000652    0.0000388     0.5895519   -0.4339427 
   0.013053252     0.8242401   -0.3693678    -0.0003024   -0.0004148     0.0001681    0.0003487     0.5852285   -0.4330724 
   0.013153277     0.8400019   -0.3614132     0.0005739    0.0007896     0.0001387    0.0003659     0.5814523   -0.4357795 
   0.013253302     0.8233673   -0.3584346     0.0002466    0.0016688    -0.0004129    0.0001208     0.5785871   -0.4324828 
   0.013353327     0.8290788   -0.3595725    -0.0004153    0.0012194    -0.0001227    0.0001858     0.5739142   -0.4339806 
   0.013453352     0.8281345   -0.3492627    -0.0006680    0.0005025    -0.0002850    0.0000325     0.5714270   -0.4331765 
   0.013553377     0.8036709   -0.3651509     0.0000610    0.0001924     0.0000764    0.0002147     0.5663974   -0.4343062 
   0.013653402     0.7995567   -0.3688860    -0.0007764    0.0001034    -0.0001173    0.0000994     0.5643110   -0.4351595 
   0.013753427     0.8205622   -0.3846250    -0.0005771    0.0000660     0.0000065   -0.0000659     0.5604555   -0.4337064 
   0.013853452     0.8155086   -0.3916669    -0.0001336   -0.0006666     0.0000244   -0.0000623     0.5604094   -0.4321242 
   0.013953477     0.8026815   -0.3778142     0.0009313   -0.0010069     0.0001035   -0.0001713     0.5551861   -0.4337516 
   0.014053502     0.8098961   -0.3828976     0.0003214   -0.0006012    -0.0002772   -0.0000821     0.5519052   -0.4329292 
   0.014153527     0.8002669   -0.3884685     0.0006395   -0.0013254     0.0000503    0.0002191     0.5497448   -0.4324657 
   0.014253552     0.8093004   -0.3715773     0.0004574    0.0000167    -0.0001025    0.0002312     0.5472551   -0.4346401 
   0.014353577     0.7925264   -0.3944650    -0.0011572    0.0009004    -0.0002701   -0.0002484     0.5413678   -0.4323564 
   0.014453602     0.7901738   -0.3814445    -0.0004967   -0.0003771    -0.0003018    0.0001029     0.5406491   -0.4308572 
   0.014553627     0.7979978   -0.3823949    -0.0011378    0.0006630    -0.0001856    0.0000620     0.5372104   -0.4311976 
   0.014653652     0.7933218   -0.3988208     0.0003773   -0.0001309    -0.0000697    0.0003002     0.5345204   -0.4323111 
   0.014753677     0.7926785   -0.3907297     0.0004655   -0.0003926    -0.0004641    0.0003744     0.5305102   -0.4304550 
   0.014853702     0.7930269   -0.3843757     0.0001862   -0.0003849    -0.0002315    0.0000080     0.5281587   -0.4298632 
   0.014953727     0.7781587   -0.4041885     0.0002727   -0.0011612    -0.0003480   -0.0001701     0.5248620   -0.4295637 
   0.015053752     0.7869355   -0.3945502    -0.0001741    0.0007481     0.0001764   -0.0001528     0.5222746   -0.4308229 
   0.015153777     0.7844871   -0.4038748     0.0003830    0.0000448    -0.0003946    0.0002120     0.5225796   -0.4335382 
   0.015253802     0.7782767   -0.4072500    -0.0007376    0.0003359    -0.0001367   -0.0000146     0.5172603   -0.4301518 
   0.015353827     0.7732064   -0.4069693     0.0007359    0.0005500     0.0000960    0.0001921     0.5158983   -0.4290621 
   0.015453852     0.7844563   -0.4020570     0.0001329   -0.0002962    -0.0002923   -0.0000429     0.5101457   -0.4292707 
   0.015553877     0.7721797   -0.4046348    -0.0009391    0.0003065    -0.0001148   -0.0000076     0.5105416   -0.4296670 
   0.015653902     0.7750774   -0.4031763    -0.0000302   -0.0000186    -0.0001311    0.0000053     0.5064496   -0.4307907 
