! 26-Feb-26 1:09:24 PM
! E:\VNA_MEASUREMENTS\SP8T\SP8T_P8_RF1.S2P
! CHANNEL.1
! TR.MEASUREMENT
! CORRECTED.DATA
# GHZ S RI R 50.0
! FREQ.GHZ         S11RE         S11IM         S21RE         S21IM         S12RE         S12IM         S22RE         S22IM         
!; PortSelection: Port_12
   0.000050000    -0.0818120    0.2673713     0.1628590    0.0101917     0.0002400   -0.0033304     1.0113450    0.0944328 
   0.000150025     0.0063029   -0.0667900    -1.1847600    0.4922726    -0.0003612   -0.0002315     0.9971005   -0.0007608 
   0.000250050    -0.1775244    0.1822937    -0.0113306    0.0086623     0.0014799    0.0001427     0.9964142   -0.0192928 
   0.000350075     0.9892850   -0.0932047    -0.0008107   -0.0070160    -0.0017332   -0.0010637     0.9932604   -0.0386958 
   0.000450100     1.0039620   -0.0790764    -0.0041994   -0.0076866     0.0003904   -0.0008014     0.9992099   -0.0204088 
   0.000550125     0.9915875   -0.0149187    -0.0039195   -0.0079033     0.0008524   -0.0001263     0.9882620   -0.0400865 
   0.000650150     0.9585523    0.0057492    -0.0102410   -0.0107093    -0.0007360    0.0000575     1.0015610   -0.0487309 
   0.000750175     0.9978131   -0.0265730    -0.0044938   -0.0138110    -0.0011367   -0.0002574     0.9975860   -0.0477166 
   0.000850200     1.0167450   -0.0333987    -0.0038701   -0.0082289    -0.0001200   -0.0007287     0.9958330   -0.0509819 
   0.000950225     1.0004530   -0.0588088    -0.0053967   -0.0077330     0.0002418    0.0003315     0.9956418   -0.0692403 
   0.001050250     0.9991412   -0.0115964    -0.0070248   -0.0065107    -0.0000715   -0.0001989     0.9922022   -0.0631640 
   0.001150275     0.9763282   -0.0417691    -0.0094784   -0.0065856    -0.0000448    0.0004731     0.9843847   -0.0715156 
   0.001250300     0.9898046   -0.0558841    -0.0150077   -0.0029910     0.0001438    0.0010538     0.9992968   -0.0805625 
   0.001350325     1.0114580   -0.0965726    -0.0119587   -0.0036403    -0.0004413    0.0011512     0.9860064   -0.0891345 
   0.001450350     0.9548113   -0.1070591    -0.0096466    0.0019884    -0.0002864   -0.0001832     0.9910138   -0.0859828 
   0.001550375     0.9606541   -0.0762757    -0.0144423   -0.0045599    -0.0001054   -0.0001153     0.9972977   -0.0873341 
   0.001650400     1.0391270   -0.0736097    -0.0117930    0.0012982    -0.0002494   -0.0008830     0.9848967   -0.0962501 
   0.001750425     0.9433669   -0.0479927    -0.0060285    0.0027024     0.0008052    0.0005144     0.9843371   -0.1053956 
   0.001850450     0.9361696   -0.0425674    -0.0088267    0.0013716     0.0000347   -0.0003849     0.9743964   -0.1189892 
   0.001950475     0.9786060   -0.0120656    -0.0049175    0.0034728    -0.0002823    0.0003156     0.9835220   -0.1199990 
   0.002050500     0.9626639   -0.0738356    -0.0028428    0.0038494     0.0002018   -0.0005544     0.9846918   -0.1325551 
   0.002150525     0.9927558   -0.0565659    -0.0053532    0.0031620     0.0001520   -0.0005463     0.9644696   -0.1386126 
   0.002250550     0.9698927   -0.0474261    -0.0066217    0.0005250     0.0003946   -0.0002003     0.9834275   -0.1368103 
   0.002350575     0.9524823   -0.1239165    -0.0056062    0.0020465    -0.0004406   -0.0000237     0.9809479   -0.1468735 
   0.002450600     1.0168950   -0.0923177    -0.0043679   -0.0015661    -0.0003513    0.0000128     0.9799225   -0.1577926 
   0.002550625     0.9848449   -0.0752393    -0.0012168    0.0000515     0.0000434   -0.0000110     0.9705399   -0.1581679 
   0.002650650     0.9720097   -0.0788020    -0.0042758    0.0037357    -0.0001885    0.0005678     0.9726439   -0.1687978 
   0.002750675     0.9873205   -0.0619286    -0.0015411    0.0021377    -0.0002774   -0.0002336     0.9660553   -0.1776744 
   0.002850700     1.0025120   -0.1006665    -0.0015806    0.0053792     0.0007020    0.0003406     0.9620901   -0.1769325 
   0.002950725     0.9448196   -0.0944460    -0.0044833    0.0003561     0.0000115    0.0000275     0.9641170   -0.1796397 
   0.003050750     0.9897969   -0.0728453    -0.0035895    0.0040588     0.0006277   -0.0001582     0.9575706   -0.1827369 
   0.003150775     0.9956583   -0.1124739    -0.0027948    0.0035941     0.0005251    0.0003205     0.9515945   -0.1910668 
   0.003250800     0.9637693   -0.0983860     0.0000000    0.0044933    -0.0005967   -0.0000278     0.9506585   -0.1976552 
   0.003350825     0.9779249   -0.0756383    -0.0032760    0.0010969     0.0004170   -0.0006085     0.9493549   -0.2067094 
   0.003450850     0.9505644   -0.1694503    -0.0020737    0.0023791     0.0007643    0.0000545     0.9472076   -0.2073771 
   0.003550875     0.9655560   -0.1301499    -0.0022358    0.0016149     0.0000918    0.0005325     0.9431384   -0.2187935 
   0.003650900     1.0031370   -0.0899570    -0.0017472    0.0052100    -0.0006086    0.0002678     0.9390146   -0.2246176 
   0.003750925     0.9510034   -0.1102499     0.0016644    0.0029363     0.0005981   -0.0004654     0.9291945   -0.2275063 
   0.003850950     0.9676198   -0.1421880    -0.0012269    0.0002366     0.0003798    0.0006508     0.9365692   -0.2296183 
   0.003950975     0.9818177   -0.1259863    -0.0004257    0.0038693    -0.0004362    0.0001887     0.9331867   -0.2315139 
   0.004051001     0.9727214   -0.1718704    -0.0019123    0.0013230    -0.0002082   -0.0001822     0.9261264   -0.2358807 
   0.004151026     0.9871103   -0.1421741    -0.0007355    0.0020606    -0.0001062    0.0001378     0.9223344   -0.2456408 
   0.004251051     0.9707560   -0.1343680     0.0002533    0.0024832    -0.0000621    0.0000371     0.9241095   -0.2482252 
   0.004351076     0.9731439   -0.1443131     0.0005684    0.0028487    -0.0002142   -0.0004871     0.9109224   -0.2519473 
   0.004451101     0.9727559   -0.1639353    -0.0004538   -0.0013963    -0.0001866    0.0000686     0.9086762   -0.2569907 
   0.004551126     1.0145290   -0.1601513     0.0002339    0.0008995     0.0001637    0.0001559     0.9131475   -0.2596337 
   0.004651151     0.9657979   -0.1717151     0.0020359   -0.0025459    -0.0003655   -0.0007129     0.9121429   -0.2666045 
   0.004751176     0.9914222   -0.1738226     0.0008647   -0.0000846    -0.0005938   -0.0005821     0.9078399   -0.2727574 
   0.004851201     0.9408072   -0.1622051    -0.0001818    0.0011120    -0.0006302    0.0000613     0.8933652   -0.2758228 
   0.004951226     0.9601649   -0.1453123    -0.0004159    0.0003177     0.0000726    0.0002742     0.9023814   -0.2815435 
   0.005051251     0.9655353   -0.1830223    -0.0003089   -0.0009472     0.0003894    0.0002028     0.8913332   -0.2813694 
   0.005151276     0.9403236   -0.1532578    -0.0002679   -0.0011169    -0.0004299   -0.0000084     0.8876428   -0.2865859 
   0.005251301     0.9487166   -0.1592303     0.0008841    0.0023644    -0.0000089    0.0002398     0.8912842   -0.2907949 
   0.005351326     0.9287760   -0.1440436     0.0008499    0.0006187    -0.0000599    0.0001787     0.8821580   -0.2998164 
   0.005451351     0.9748386   -0.1697397     0.0009439   -0.0001269    -0.0005610    0.0005805     0.8794201   -0.3009375 
   0.005551376     0.9420434   -0.1995144    -0.0006151    0.0005383    -0.0005366    0.0004399     0.8748301   -0.2994360 
   0.005651401     0.9569603   -0.1680653     0.0003066   -0.0016251     0.0004143   -0.0005759     0.8703797   -0.3121400 
   0.005751426     0.9289755   -0.1588811    -0.0004027   -0.0014434    -0.0003320    0.0004647     0.8640131   -0.3094085 
   0.005851451     0.9662405   -0.1986224     0.0001619    0.0010344     0.0003331    0.0007245     0.8645642   -0.3152545 
   0.005951476     0.9402049   -0.1895744     0.0014214    0.0009829     0.0000293   -0.0000215     0.8611531   -0.3166150 
   0.006051501     0.9375501   -0.1922832    -0.0034619    0.0021741     0.0001925    0.0003248     0.8581654   -0.3244003 
   0.006151526     0.9335918   -0.2022261    -0.0012152   -0.0004460     0.0001339    0.0008477     0.8482881   -0.3295735 
   0.006251551     0.9425114   -0.1791414    -0.0005660    0.0006250     0.0001046    0.0006868     0.8467070   -0.3304632 
   0.006351576     0.9477351   -0.2199392     0.0020733    0.0009456     0.0001081    0.0005480     0.8478350   -0.3313770 
   0.006451601     0.9554294   -0.1963777    -0.0004259    0.0013620    -0.0003092   -0.0003094     0.8379382   -0.3390098 
   0.006551626     0.9294186   -0.1813862    -0.0013365   -0.0001649     0.0001257    0.0003428     0.8360627   -0.3444622 
   0.006651651     0.9505368   -0.2146214     0.0016541   -0.0025216    -0.0000106    0.0002683     0.8282202   -0.3450187 
   0.006751676     0.9132990   -0.2293441     0.0019615   -0.0005089    -0.0003401    0.0000026     0.8269793   -0.3433912 
   0.006851701     0.9494052   -0.2454560     0.0005816   -0.0003278    -0.0002557   -0.0003157     0.8227172   -0.3537633 
   0.006951726     0.9185275   -0.2179965    -0.0019297    0.0022642    -0.0000158   -0.0001479     0.8147917   -0.3527846 
   0.007051751     0.9433948   -0.2227651    -0.0006572    0.0016944    -0.0002489    0.0002415     0.8107695   -0.3549009 
   0.007151776     0.8990206   -0.2167701    -0.0003169   -0.0013093    -0.0003520   -0.0002124     0.8062564   -0.3567157 
   0.007251801     0.9438717   -0.2056667     0.0008064   -0.0007130     0.0000666   -0.0002224     0.8011308   -0.3601787 
   0.007351826     0.9096383   -0.2335342    -0.0008746   -0.0002253    -0.0000525   -0.0000146     0.7976036   -0.3659519 
   0.007451851     0.9241956   -0.2539624     0.0004326    0.0004469    -0.0004049    0.0001442     0.7951696   -0.3652245 
   0.007551876     0.9056740   -0.2326070     0.0003789   -0.0003086     0.0000993    0.0001688     0.7951119   -0.3673000 
   0.007651901     0.9527882   -0.2467850    -0.0006026    0.0004494     0.0003543   -0.0000899     0.7912157   -0.3713312 
   0.007751926     0.9318961   -0.2424643    -0.0003066    0.0009286    -0.0002095   -0.0000107     0.7817679   -0.3764286 
   0.007851951     0.9266084   -0.2365204    -0.0006940    0.0013926    -0.0000914   -0.0005237     0.7802335   -0.3744500 
   0.007951976     0.9213549   -0.2594725    -0.0012513   -0.0005981    -0.0001559    0.0000670     0.7736993   -0.3777416 
   0.008052001     0.9256337   -0.2519352     0.0010223   -0.0004973     0.0001794    0.0002508     0.7709548   -0.3801130 
   0.008152026     0.9177999   -0.2442488    -0.0012939    0.0013395    -0.0002653   -0.0000976     0.7676120   -0.3864796 
   0.008252051     0.9053852   -0.2294035     0.0003336   -0.0003789     0.0001864    0.0002209     0.7632471   -0.3880534 
   0.008352076     0.9265035   -0.2699421     0.0006401    0.0004607    -0.0001314   -0.0000303     0.7621295   -0.3908955 
   0.008452101     0.9167604   -0.2509916    -0.0003209    0.0004303    -0.0002867    0.0000605     0.7573503   -0.3880834 
   0.008552126     0.9061664   -0.2660924    -0.0006391    0.0002157    -0.0003132    0.0002292     0.7532210   -0.3923168 
   0.008652151     0.9132827   -0.2475400    -0.0012413   -0.0003028     0.0003222    0.0001370     0.7460622   -0.3919694 
   0.008752176     0.8932862   -0.2589044     0.0005997   -0.0007008    -0.0004835    0.0001467     0.7441294   -0.3993460 
   0.008852201     0.9029854   -0.2432657     0.0002998   -0.0004510     0.0001801    0.0006155     0.7380404   -0.3971886 
   0.008952226     0.9094626   -0.2570742     0.0004119   -0.0010285    -0.0000138    0.0001271     0.7378004   -0.3993004 
   0.009052251     0.9218444   -0.2737714     0.0008422    0.0011669     0.0001002    0.0004223     0.7309025   -0.4020149 
   0.009152276     0.9153596   -0.2761235     0.0000820   -0.0001940    -0.0001029   -0.0002069     0.7245362   -0.4023067 
   0.009252301     0.9006561   -0.2758562    -0.0011155   -0.0000823     0.0001959   -0.0004492     0.7235506   -0.4086296 
   0.009352326     0.9204786   -0.2841821    -0.0003734    0.0012371    -0.0001920   -0.0001925     0.7159206   -0.4043872 
   0.009452351     0.9007494   -0.2838374    -0.0004280   -0.0000008     0.0001819   -0.0000021     0.7140872   -0.4080696 
   0.009552376     0.9106317   -0.2885073     0.0001502    0.0007451    -0.0000689    0.0003015     0.7090484   -0.4058426 
   0.009652401     0.8936776   -0.2829209     0.0000350    0.0006737     0.0000168    0.0000207     0.7048141   -0.4095821 
   0.009752426     0.8958123   -0.2800031     0.0002525    0.0002418    -0.0001839   -0.0000429     0.7047712   -0.4121856 
   0.009852451     0.9022811   -0.3105063     0.0004882   -0.0002183     0.0003368    0.0003056     0.6971453   -0.4128174 
   0.009952476     0.8886262   -0.3084870     0.0013305    0.0007190     0.0002142   -0.0000358     0.6939196   -0.4121454 
   0.010052501     0.8764441   -0.2935751     0.0001492   -0.0002303    -0.0002604    0.0000155     0.6889398   -0.4123610 
   0.010152526     0.8851122   -0.2911554    -0.0004636   -0.0001936     0.0001758   -0.0002248     0.6848744   -0.4135393 
   0.010252551     0.8761630   -0.2962955     0.0001005   -0.0007221    -0.0001851   -0.0002795     0.6837239   -0.4197755 
   0.010352576     0.9001662   -0.3151452    -0.0005115    0.0012184    -0.0001090    0.0000729     0.6767535   -0.4183073 
   0.010452601     0.8857005   -0.2913522    -0.0001885   -0.0000979    -0.0001733    0.0000441     0.6745871   -0.4205167 
   0.010552626     0.8634707   -0.3161988    -0.0007555   -0.0002918    -0.0000713   -0.0006506     0.6699746   -0.4223074 
   0.010652651     0.8794429   -0.3101179    -0.0003621   -0.0009465    -0.0002452   -0.0000949     0.6674457   -0.4243159 
   0.010752676     0.8849661   -0.3207957    -0.0005572   -0.0003531     0.0004301   -0.0000846     0.6620657   -0.4220237 
   0.010852701     0.8825291   -0.3081504    -0.0002338   -0.0008316     0.0001647    0.0002669     0.6618938   -0.4207412 
   0.010952726     0.8800353   -0.3205525    -0.0003875   -0.0002226     0.0000009    0.0000633     0.6551260   -0.4247347 
   0.011052751     0.8756223   -0.3372170    -0.0000527    0.0011456     0.0000348    0.0002534     0.6510996   -0.4256338 
   0.011152776     0.8665240   -0.3308239    -0.0003200   -0.0009510    -0.0001047   -0.0002764     0.6462549   -0.4267863 
   0.011252801     0.8727778   -0.3209695    -0.0004008    0.0011212    -0.0004194   -0.0003299     0.6434584   -0.4251897 
   0.011352826     0.8533737   -0.3447396     0.0014247    0.0000429    -0.0001468    0.0003100     0.6398801   -0.4233823 
   0.011452851     0.8620406   -0.3301881    -0.0000884    0.0003113    -0.0004540    0.0000336     0.6346850   -0.4262130 
   0.011552876     0.8453451   -0.3372338    -0.0008915   -0.0013017     0.0000020    0.0001209     0.6339778   -0.4308358 
   0.011652901     0.8579416   -0.3419667    -0.0003545   -0.0002292     0.0000156    0.0001373     0.6277368   -0.4287677 
   0.011752926     0.8333021   -0.3291995    -0.0003984   -0.0004277     0.0001242    0.0002531     0.6246380   -0.4273714 
   0.011852951     0.8573505   -0.3480040    -0.0009431   -0.0004996     0.0001172   -0.0002872     0.6235417   -0.4290800 
   0.011952976     0.8602817   -0.3378018     0.0000045   -0.0012686    -0.0000901   -0.0003462     0.6171371   -0.4286203 
   0.012053002     0.8413143   -0.3533443     0.0009223   -0.0000134    -0.0001853    0.0002612     0.6126319   -0.4289955 
   0.012153027     0.8490258   -0.3508897    -0.0001344   -0.0013489    -0.0000197   -0.0001425     0.6111384   -0.4314857 
   0.012253052     0.8353361   -0.3486382     0.0001207   -0.0001152    -0.0003940   -0.0001016     0.6077994   -0.4320583 
   0.012353077     0.8618994   -0.3488239     0.0000493   -0.0016781    -0.0002881   -0.0000849     0.6071477   -0.4324260 
   0.012453102     0.8424464   -0.3539166     0.0001708    0.0003487     0.0001037   -0.0003525     0.5997375   -0.4321694 
   0.012553127     0.8203607   -0.3598798    -0.0011485   -0.0010158    -0.0001048    0.0002919     0.5958213   -0.4326161 
   0.012653152     0.8443643   -0.3526284     0.0005354    0.0012503    -0.0001092   -0.0001979     0.5929526   -0.4325355 
   0.012753177     0.8255275   -0.3459953     0.0009261    0.0003913     0.0000961   -0.0002653     0.5920394   -0.4314089 
   0.012853202     0.8351350   -0.3494408    -0.0005746    0.0004444    -0.0000257   -0.0000287     0.5860789   -0.4334390 
   0.012953227     0.8335441   -0.3471037    -0.0013109   -0.0000614    -0.0001067   -0.0000004     0.5842472   -0.4315575 
   0.013053252     0.8303334   -0.3706331     0.0006602    0.0000701     0.0000898   -0.0002400     0.5811387   -0.4328182 
   0.013153277     0.8321344   -0.3609889    -0.0011410    0.0002072    -0.0000812   -0.0001796     0.5791010   -0.4350268 
   0.013253302     0.8212366   -0.3538319    -0.0006586    0.0006727    -0.0001573    0.0001542     0.5759320   -0.4312450 
   0.013353327     0.8261923   -0.3632773     0.0000943    0.0007350    -0.0002982   -0.0001259     0.5706151   -0.4324550 
   0.013453352     0.8219833   -0.3522535    -0.0004038   -0.0003317    -0.0001379   -0.0003269     0.5672988   -0.4349878 
   0.013553377     0.8038717   -0.3652355    -0.0004064    0.0001222    -0.0002213   -0.0000928     0.5621296   -0.4336708 
   0.013653402     0.8175159   -0.3748468     0.0003533   -0.0008689    -0.0002552   -0.0001426     0.5607675   -0.4333128 
   0.013753427     0.8136390   -0.3685417    -0.0005611   -0.0002298    -0.0002856    0.0000627     0.5557085   -0.4338047 
   0.013853452     0.8147089   -0.3725547     0.0014978   -0.0003916    -0.0001472    0.0002849     0.5567920   -0.4310760 
   0.013953477     0.7992969   -0.3596003     0.0007061    0.0004777    -0.0000037   -0.0001450     0.5513061   -0.4327501 
   0.014053502     0.8092599   -0.3738125     0.0001094    0.0006374     0.0002442   -0.0000511     0.5483947   -0.4319871 
   0.014153527     0.8073530   -0.3784437     0.0011140    0.0009296    -0.0002388   -0.0001287     0.5489402   -0.4298407 
   0.014253552     0.8104031   -0.3795027    -0.0004147   -0.0014080     0.0001673   -0.0001146     0.5446995   -0.4321449 
   0.014353577     0.8083105   -0.3762983    -0.0001946    0.0005951    -0.0005456   -0.0002122     0.5403578   -0.4313335 
   0.014453602     0.7999654   -0.3831665     0.0000038    0.0012832    -0.0005147    0.0000806     0.5374574   -0.4310574 
   0.014553627     0.7919318   -0.3844207     0.0002898   -0.0000770     0.0002464    0.0000629     0.5355467   -0.4325371 
   0.014653652     0.8020003   -0.3886814     0.0001121    0.0009493    -0.0000960   -0.0000656     0.5303327   -0.4299584 
   0.014753677     0.7932156   -0.3850095    -0.0001267    0.0006123    -0.0001417    0.0001674     0.5295767   -0.4294708 
   0.014853702     0.8078828   -0.3853691     0.0002318   -0.0011236    -0.0004539   -0.0001349     0.5272761   -0.4287469 
   0.014953727     0.7779135   -0.3988110    -0.0001520   -0.0000702     0.0000445    0.0000270     0.5219559   -0.4302239 
   0.015053752     0.7950140   -0.3938505    -0.0001944    0.0001442     0.0000291   -0.0000724     0.5180734   -0.4298101 
   0.015153777     0.7870480   -0.3933102     0.0005900   -0.0007512    -0.0003483    0.0002110     0.5177913   -0.4319832 
   0.015253802     0.7769459   -0.4002242    -0.0003751    0.0003092    -0.0001691    0.0000779     0.5126589   -0.4290773 
   0.015353827     0.7817506   -0.4054285     0.0003406    0.0003516     0.0001483    0.0000213     0.5101572   -0.4289095 
   0.015453852     0.7851509   -0.3995670    -0.0003086    0.0004667    -0.0001969    0.0002138     0.5074739   -0.4284529 
   0.015553877     0.7810165   -0.4070272    -0.0003921   -0.0002116     0.0000914    0.0001260     0.5057053   -0.4278252 
   0.015653902     0.7765552   -0.3964099    -0.0000774    0.0004701    -0.0002639    0.0000448     0.5034032   -0.4281164 
