! 26-Feb-26 11:36:23 AM
! E:\VNA_MEASUREMENTS\SP8T\SP8T_P2_RF7.S2P
! CHANNEL.1
! TR.MEASUREMENT
! CORRECTED.DATA
# GHZ S RI R 50.0
! FREQ.GHZ         S11RE         S11IM         S21RE         S21IM         S12RE         S12IM         S22RE         S22IM         
!; PortSelection: Port_12
   0.000050000     0.2219765   -0.1797270    -0.3686744   -0.3119677    -0.0130168   -0.0004688     1.0436850    0.0506340 
   0.000150025     0.2257674   -0.3882549     0.2657320    1.2223790     0.0032560    0.0011433     1.0053790    0.0026888 
   0.000250050    -0.2304919   -0.3266452     0.0063686    0.0038792    -0.0000257   -0.0002482     0.9995028   -0.0110183 
   0.000350075     1.0216630   -0.0362198     0.0011944   -0.0064509     0.0006988   -0.0003582     0.9952287   -0.0336993 
   0.000450100     0.9746127   -0.0145146     0.0002068   -0.0084786    -0.0009754   -0.0005743     0.9958178   -0.0174907 
   0.000550125     1.0172780   -0.0418594    -0.0034072   -0.0110952     0.0003285    0.0001802     0.9910069   -0.0386799 
   0.000650150     0.9813563   -0.0306226    -0.0067239   -0.0149376    -0.0004772   -0.0005360     1.0106040   -0.0459398 
   0.000750175     0.9830332   -0.0279369    -0.0123298   -0.0084589    -0.0009144    0.0001138     0.9893419   -0.0482612 
   0.000850200     1.0071690   -0.0715497    -0.0087239   -0.0070833    -0.0009938    0.0002207     0.9999968   -0.0449372 
   0.000950225     1.0094440   -0.0584311    -0.0075322   -0.0052096     0.0003148   -0.0000666     0.9941930   -0.0610007 
   0.001050250     1.0188180   -0.0708388    -0.0090518   -0.0007364     0.0002773   -0.0001281     0.9936464   -0.0680422 
   0.001150275     1.0304610   -0.0940597    -0.0110343   -0.0049207     0.0000715   -0.0005647     0.9850209   -0.0724826 
   0.001250300     0.9814742   -0.0225801    -0.0101893   -0.0006733     0.0008237    0.0007038     0.9938208   -0.0855363 
   0.001350325     0.9854906   -0.0655784    -0.0122476   -0.0026317     0.0016972    0.0000733     0.9875752   -0.0918508 
   0.001450350     1.0205930   -0.0357727    -0.0106114    0.0000672     0.0006523    0.0002590     0.9869859   -0.0893830 
   0.001550375     0.9304906   -0.0520505    -0.0101848   -0.0014809     0.0002263   -0.0004677     0.9877924   -0.0971335 
   0.001650400     1.0124600   -0.0228405    -0.0096742    0.0018933    -0.0006806    0.0004208     0.9848916   -0.1008313 
   0.001750425     0.9635364   -0.0839536    -0.0081793   -0.0004701    -0.0006188   -0.0002516     0.9870809   -0.1100172 
   0.001850450     0.9769496   -0.0467165    -0.0082256   -0.0002772    -0.0004145    0.0000204     0.9845708   -0.1166225 
   0.001950475     0.9934785   -0.0086067    -0.0103433    0.0008309    -0.0000901    0.0007115     0.9803889   -0.1266584 
   0.002050500     0.9516773   -0.0518483    -0.0092918   -0.0021014    -0.0000868   -0.0006292     0.9788586   -0.1376782 
   0.002150525     1.0381510   -0.0676521    -0.0067104    0.0016870     0.0003144    0.0003602     0.9742841   -0.1380504 
   0.002250550     0.9706387   -0.0917082    -0.0064309    0.0032231     0.0002602    0.0004420     0.9806988   -0.1468544 
   0.002350575     0.9651271   -0.1209983    -0.0053076    0.0025729     0.0003669   -0.0000259     0.9782435   -0.1427329 
   0.002450600     0.9946994   -0.0970298    -0.0043178    0.0044484    -0.0002612   -0.0011516     0.9750195   -0.1538291 
   0.002550625     0.9507347   -0.0841074    -0.0035499    0.0027401    -0.0005653    0.0002344     0.9730495   -0.1617798 
   0.002650650     0.9882522   -0.0453975    -0.0017983    0.0015439     0.0004759   -0.0006421     0.9665045   -0.1717460 
   0.002750675     1.0163350   -0.0201806    -0.0038702    0.0056833    -0.0001085    0.0005485     0.9640208   -0.1697945 
   0.002850700     1.0085950   -0.0746143    -0.0027886    0.0026127    -0.0005768    0.0001798     0.9590787   -0.1770910 
   0.002950725     0.9546438   -0.0896176    -0.0005047    0.0007245     0.0006728   -0.0003542     0.9636912   -0.1729089 
   0.003050750     0.9557182   -0.0977656    -0.0007107    0.0025434     0.0003467    0.0000200     0.9540796   -0.1841769 
   0.003150775     0.9614840   -0.1649275    -0.0006448    0.0041339     0.0004193   -0.0001510     0.9521315   -0.1980479 
   0.003250800     0.9829939   -0.0983319    -0.0020229    0.0043525    -0.0006321    0.0000111     0.9520491   -0.1926219 
   0.003350825     0.9985467   -0.0958011    -0.0027132    0.0020961    -0.0001105   -0.0003593     0.9496985   -0.2058420 
   0.003450850     0.9656857   -0.1319048    -0.0045784    0.0053843     0.0005842    0.0001977     0.9453062   -0.2099706 
   0.003550875     0.9312881   -0.1377868     0.0011766    0.0045746    -0.0001633    0.0003267     0.9445185   -0.2141668 
   0.003650900     0.9841669   -0.1188653     0.0005839    0.0018111    -0.0004131    0.0008119     0.9370934   -0.2189199 
   0.003750925     0.9471339   -0.1436853     0.0003305    0.0015184     0.0000403   -0.0001366     0.9328550   -0.2255585 
   0.003850950     0.9801047   -0.1470683    -0.0003430    0.0003132    -0.0004653   -0.0000719     0.9366038   -0.2312853 
   0.003950975     1.0070320   -0.1185545     0.0013585    0.0019038    -0.0009766    0.0006847     0.9394818   -0.2323594 
   0.004051001     0.9426884   -0.1320780     0.0031109    0.0024858    -0.0005957    0.0002593     0.9305311   -0.2376058 
   0.004151026     0.9841679   -0.1468086    -0.0021948    0.0001541     0.0003828    0.0004129     0.9257978   -0.2485182 
   0.004251051     0.9771523   -0.1567240    -0.0014367    0.0005903    -0.0004244    0.0001287     0.9216656   -0.2494998 
   0.004351076     0.9691938   -0.1121187    -0.0016556    0.0012725     0.0001567   -0.0005715     0.9214985   -0.2558326 
   0.004451101     0.9896119   -0.1801541    -0.0009627    0.0015707    -0.0002584    0.0001931     0.9122021   -0.2583017 
   0.004551126     0.9968483   -0.1534408     0.0003852    0.0018083     0.0000707   -0.0003142     0.9192173   -0.2593009 
   0.004651151     0.9412917   -0.1509329    -0.0027430    0.0055849    -0.0003314   -0.0007023     0.9072460   -0.2712905 
   0.004751176     0.9814126   -0.1639493    -0.0010051    0.0017630    -0.0003534    0.0000508     0.9050419   -0.2738284 
   0.004851201     0.9417502   -0.1693984    -0.0025607    0.0021172    -0.0003487    0.0001879     0.9001809   -0.2776510 
   0.004951226     0.9434596   -0.1869927    -0.0008749    0.0000885     0.0000859   -0.0001273     0.8980920   -0.2779143 
   0.005051251     0.9761186   -0.1879039    -0.0030294   -0.0007192    -0.0000107    0.0000349     0.8964626   -0.2792774 
   0.005151276     0.9608063   -0.1428508    -0.0010541    0.0007178    -0.0003062   -0.0000364     0.8861397   -0.2870721 
   0.005251301     0.9393123   -0.1565608    -0.0010897   -0.0004167     0.0000065   -0.0001398     0.8839829   -0.2902073 
   0.005351326     0.9332826   -0.1598970     0.0011975    0.0024811    -0.0004367   -0.0000459     0.8845938   -0.2945460 
   0.005451351     0.9680800   -0.1743978    -0.0032340   -0.0001560    -0.0000483   -0.0000479     0.8783318   -0.3048753 
   0.005551376     0.9517327   -0.2022333     0.0010678   -0.0002024     0.0002539   -0.0003993     0.8795255   -0.3015184 
   0.005651401     0.9271721   -0.1774036    -0.0012460    0.0009996     0.0004815   -0.0006989     0.8703029   -0.3165903 
   0.005751426     0.9252755   -0.1906843    -0.0007806    0.0008240     0.0003269   -0.0003228     0.8633469   -0.3163713 
   0.005851451     0.9572857   -0.2146357     0.0025295    0.0002268    -0.0003357   -0.0002284     0.8631274   -0.3173369 
   0.005951476     0.9382079   -0.1896233     0.0012523    0.0007249    -0.0003963    0.0002067     0.8596289   -0.3237130 
   0.006051501     0.9364377   -0.2108364    -0.0022949   -0.0003592    -0.0001088    0.0002995     0.8552620   -0.3295768 
   0.006151526     0.9534507   -0.2252081     0.0010855    0.0000822     0.0001236   -0.0005365     0.8490249   -0.3307660 
   0.006251551     0.9517986   -0.1748714     0.0004458    0.0007955     0.0001844    0.0002186     0.8473197   -0.3335258 
   0.006351576     0.9492262   -0.2199440     0.0004897   -0.0009080    -0.0000269    0.0003937     0.8414928   -0.3363580 
   0.006451601     0.9428135   -0.2066359    -0.0009037    0.0015446     0.0003657    0.0000436     0.8395627   -0.3426071 
   0.006551626     0.9317929   -0.2189214    -0.0008712    0.0002094    -0.0001798   -0.0001082     0.8365676   -0.3397896 
   0.006651651     0.9242378   -0.2122627     0.0000523   -0.0006929     0.0000419   -0.0006751     0.8272386   -0.3487848 
   0.006751676     0.9229014   -0.2183803    -0.0008517    0.0009331     0.0002718    0.0001661     0.8281593   -0.3456932 
   0.006851701     0.9402649   -0.2438304    -0.0012234   -0.0012249     0.0004776    0.0004131     0.8175880   -0.3516057 
   0.006951726     0.9065825   -0.2237933    -0.0017815   -0.0003553     0.0000398   -0.0002348     0.8168401   -0.3526085 
   0.007051751     0.9219519   -0.2202856    -0.0015404   -0.0004114    -0.0003726   -0.0005831     0.8117148   -0.3588590 
   0.007151776     0.9048948   -0.2273778    -0.0006015    0.0000768     0.0003038    0.0000609     0.8061233   -0.3629661 
   0.007251801     0.9372373   -0.2196873    -0.0006403    0.0001079    -0.0001128   -0.0001202     0.8043441   -0.3621920 
   0.007351826     0.9397249   -0.2468997     0.0001560    0.0005019     0.0003075    0.0001109     0.8017883   -0.3694918 
   0.007451851     0.9109101   -0.2285577    -0.0008038    0.0011445    -0.0000668    0.0005293     0.7942632   -0.3678901 
   0.007551876     0.9389656   -0.2458546     0.0009419   -0.0007943     0.0003302   -0.0003117     0.7942375   -0.3716635 
   0.007651901     0.9306703   -0.2533612     0.0007741   -0.0007278     0.0002066   -0.0001220     0.7891203   -0.3724476 
   0.007751926     0.9265627   -0.2504136     0.0008027   -0.0001500     0.0004502    0.0001338     0.7811185   -0.3790207 
   0.007851951     0.9108209   -0.2447758    -0.0001848    0.0000588    -0.0004435    0.0000050     0.7784485   -0.3801087 
   0.007951976     0.9284840   -0.2778843     0.0007372   -0.0008744    -0.0001650   -0.0001977     0.7747121   -0.3786460 
   0.008052001     0.9132947   -0.2392541    -0.0011530    0.0002007     0.0003127    0.0000467     0.7706696   -0.3852284 
   0.008152026     0.9348950   -0.2680504    -0.0009129    0.0008089     0.0001207   -0.0000353     0.7703872   -0.3869976 
   0.008252051     0.8901032   -0.2430992     0.0005157   -0.0001078     0.0004790   -0.0000707     0.7613783   -0.3899407 
   0.008352076     0.9133189   -0.2837199     0.0003371    0.0016085    -0.0000183    0.0004312     0.7604869   -0.3920463 
   0.008452101     0.9119945   -0.2582261    -0.0011790   -0.0010771     0.0000224    0.0002724     0.7506671   -0.3911750 
   0.008552126     0.9233674   -0.2631204     0.0013695   -0.0009772     0.0000277   -0.0000057     0.7481138   -0.3921015 
   0.008652151     0.9080735   -0.2763445    -0.0008555    0.0005567    -0.0002091   -0.0001441     0.7483643   -0.3956994 
   0.008752176     0.9002829   -0.2638872    -0.0005534   -0.0001974     0.0000102   -0.0003136     0.7430634   -0.3973996 
   0.008852201     0.9224964   -0.2600547    -0.0006045    0.0005704    -0.0001826    0.0002909     0.7384873   -0.3983795 
   0.008952226     0.9202559   -0.2771882    -0.0006898   -0.0008391     0.0003680    0.0003781     0.7345778   -0.4009756 
   0.009052251     0.9206753   -0.2592595    -0.0007966   -0.0005035     0.0001443   -0.0002847     0.7295430   -0.4063486 
   0.009152276     0.9034070   -0.2795831    -0.0006542   -0.0004263     0.0000141    0.0002905     0.7255877   -0.4081046 
   0.009252301     0.9013097   -0.2827669     0.0002978   -0.0003651     0.0002435   -0.0000716     0.7202094   -0.4084513 
   0.009352326     0.8994964   -0.2880601    -0.0002612    0.0009630    -0.0002588    0.0001639     0.7174604   -0.4062617 
   0.009452351     0.9058775   -0.2809605    -0.0001158   -0.0010391     0.0000264   -0.0001018     0.7103084   -0.4085937 
   0.009552376     0.8957279   -0.2981002    -0.0010057   -0.0000185     0.0002404    0.0000757     0.7072021   -0.4106200 
   0.009652401     0.8854432   -0.3007399    -0.0013874    0.0020312    -0.0002300   -0.0000943     0.7020628   -0.4128392 
   0.009752426     0.8830066   -0.2886157     0.0006964   -0.0000002     0.0002257   -0.0002014     0.7013651   -0.4128405 
   0.009852451     0.8802366   -0.2980298     0.0005432    0.0003166     0.0001017   -0.0000621     0.6974383   -0.4143362 
   0.009952476     0.8928354   -0.3147307    -0.0007024    0.0006256     0.0001478   -0.0001707     0.6934946   -0.4150489 
   0.010052501     0.8868396   -0.3011157     0.0002227    0.0006371    -0.0000242    0.0000946     0.6914678   -0.4168219 
   0.010152526     0.8842471   -0.2891182    -0.0002376   -0.0004263     0.0001263    0.0001203     0.6844243   -0.4180216 
   0.010252551     0.8687159   -0.3058924     0.0001799   -0.0000670    -0.0001059    0.0003938     0.6823806   -0.4213335 
   0.010352576     0.8977786   -0.2955545     0.0009187    0.0005108    -0.0000499   -0.0000451     0.6750727   -0.4224042 
   0.010452601     0.8890253   -0.3024604    -0.0000523    0.0006013     0.0003028    0.0002944     0.6688905   -0.4234155 
   0.010552626     0.8629324   -0.3254853    -0.0007626   -0.0009087    -0.0001384    0.0000487     0.6704482   -0.4245788 
   0.010652651     0.8771396   -0.3080448    -0.0008082   -0.0007013    -0.0000633    0.0000640     0.6650858   -0.4241804 
   0.010752676     0.8716015   -0.3282873     0.0007623    0.0009581     0.0003986    0.0000779     0.6609173   -0.4232848 
   0.010852701     0.8792981   -0.3050844    -0.0001309   -0.0000832     0.0000465   -0.0004332     0.6597667   -0.4226173 
   0.010952726     0.8719147   -0.3119824    -0.0003426   -0.0008345     0.0000143   -0.0001124     0.6525698   -0.4270632 
   0.011052751     0.8750640   -0.3384126     0.0009117   -0.0008956    -0.0004056    0.0001316     0.6497930   -0.4292431 
   0.011152776     0.8759205   -0.3194921     0.0005749    0.0006818     0.0000239    0.0000972     0.6448873   -0.4280994 
   0.011252801     0.8661462   -0.3294792     0.0005863   -0.0006668    -0.0003330    0.0004060     0.6417895   -0.4280674 
   0.011352826     0.8559085   -0.3460690     0.0003518    0.0010960    -0.0001210    0.0003336     0.6397761   -0.4287412 
   0.011452851     0.8501695   -0.3350787     0.0006412   -0.0003679     0.0000882   -0.0000320     0.6349053   -0.4335926 
   0.011552876     0.8531107   -0.3329406    -0.0012175   -0.0002009    -0.0000699   -0.0002505     0.6318223   -0.4328650 
   0.011652901     0.8576073   -0.3417654     0.0000067    0.0008773     0.0002617   -0.0000137     0.6271577   -0.4304104 
   0.011752926     0.8432867   -0.3312894    -0.0002383    0.0000151    -0.0004320    0.0000396     0.6227449   -0.4302417 
   0.011852951     0.8670443   -0.3548890    -0.0008093    0.0006975     0.0000934    0.0001510     0.6210779   -0.4326136 
   0.011952976     0.8456563   -0.3474433    -0.0002993   -0.0002266     0.0002032    0.0000110     0.6169523   -0.4317054 
   0.012053002     0.8375896   -0.3554440    -0.0003555   -0.0004640    -0.0002060   -0.0000931     0.6119163   -0.4333613 
   0.012153027     0.8370618   -0.3550707    -0.0008895    0.0000522    -0.0002525   -0.0001876     0.6080925   -0.4361872 
   0.012253052     0.8301694   -0.3543697    -0.0002295    0.0002079     0.0001461    0.0000779     0.6065814   -0.4334846 
   0.012353077     0.8391985   -0.3532124     0.0003310    0.0000241    -0.0000800    0.0001939     0.6031293   -0.4343779 
   0.012453102     0.8388039   -0.3426983     0.0003041    0.0001378     0.0003743   -0.0003106     0.5992895   -0.4361145 
   0.012553127     0.8295900   -0.3684963     0.0006524   -0.0012144     0.0000867   -0.0001128     0.5932704   -0.4352513 
   0.012653152     0.8466520   -0.3366542     0.0006632    0.0001778    -0.0000958   -0.0002789     0.5916032   -0.4358979 
   0.012753177     0.8303071   -0.3499845    -0.0005253    0.0013325     0.0001484    0.0000927     0.5900809   -0.4354419 
   0.012853202     0.8277691   -0.3396308     0.0000247   -0.0001123    -0.0003315    0.0000330     0.5820068   -0.4353755 
   0.012953227     0.8440264   -0.3489917    -0.0010575   -0.0004634    -0.0001467   -0.0000466     0.5833932   -0.4348969 
   0.013053252     0.8089650   -0.3740351     0.0001351   -0.0011418     0.0000385   -0.0001495     0.5810192   -0.4340160 
   0.013153277     0.8222556   -0.3598647    -0.0001717    0.0000035    -0.0002217    0.0001907     0.5746592   -0.4374894 
   0.013253302     0.8201016   -0.3521249     0.0003450    0.0001261    -0.0001746    0.0000551     0.5725673   -0.4341454 
   0.013353327     0.8124760   -0.3647296     0.0000703   -0.0004602     0.0001206   -0.0001435     0.5695382   -0.4360896 
   0.013453352     0.8296046   -0.3577089    -0.0001286   -0.0003014     0.0000679   -0.0000166     0.5647072   -0.4355204 
   0.013553377     0.8101037   -0.3753911    -0.0003306    0.0008937    -0.0001014    0.0000478     0.5615380   -0.4372947 
   0.013653402     0.8104485   -0.3665805    -0.0000008    0.0010667     0.0000231    0.0000036     0.5576681   -0.4362650 
   0.013753427     0.8132613   -0.3789185    -0.0005084   -0.0007639    -0.0000249    0.0000398     0.5550259   -0.4340099 
   0.013853452     0.8088993   -0.3750119     0.0005269   -0.0010297     0.0002291    0.0001913     0.5552255   -0.4351808 
   0.013953477     0.7870138   -0.3694070    -0.0003376   -0.0002199     0.0002169    0.0003574     0.5482540   -0.4375231 
   0.014053502     0.8017270   -0.3935440     0.0003161   -0.0001583    -0.0000637    0.0004449     0.5465742   -0.4358609 
   0.014153527     0.7887626   -0.3854741    -0.0002765   -0.0004751    -0.0000548    0.0001037     0.5456148   -0.4344618 
   0.014253552     0.7989494   -0.3755406     0.0007481   -0.0003950    -0.0000045   -0.0000586     0.5435597   -0.4342488 
   0.014353577     0.7925562   -0.3848582     0.0000906    0.0002270    -0.0001429    0.0001662     0.5351311   -0.4328933 
   0.014453602     0.7769611   -0.3930262    -0.0002108   -0.0004949    -0.0002262   -0.0001033     0.5361360   -0.4339074 
   0.014553627     0.7974461   -0.3812422     0.0004641    0.0005226    -0.0000314   -0.0001216     0.5337067   -0.4333812 
   0.014653652     0.7908556   -0.3878858    -0.0000273   -0.0000955     0.0003601   -0.0003069     0.5286793   -0.4345664 
   0.014753677     0.7881884   -0.3884885    -0.0005925   -0.0002941     0.0001033   -0.0000568     0.5270528   -0.4320266 
   0.014853702     0.7954917   -0.3924007    -0.0000532    0.0004784     0.0002293    0.0002096     0.5233397   -0.4330285 
   0.014953727     0.7818561   -0.3931414    -0.0010231    0.0001335    -0.0000259    0.0001715     0.5191378   -0.4331567 
   0.015053752     0.7810608   -0.3981786     0.0001298    0.0002265     0.0001571   -0.0002141     0.5177760   -0.4330093 
   0.015153777     0.7854722   -0.3906463    -0.0002976    0.0005131    -0.0003077    0.0001055     0.5141731   -0.4329622 
   0.015253802     0.7694907   -0.4009161    -0.0000267    0.0003707    -0.0001288    0.0001674     0.5106758   -0.4332920 
   0.015353827     0.7640957   -0.3991890    -0.0004451    0.0006994    -0.0000050   -0.0003933     0.5081859   -0.4336182 
   0.015453852     0.7854845   -0.4092153    -0.0006816    0.0002770    -0.0000381    0.0001111     0.5053855   -0.4319727 
   0.015553877     0.7732484   -0.4066670     0.0004221   -0.0000928     0.0002428    0.0000408     0.5034894   -0.4313771 
   0.015653902     0.7733251   -0.4057477    -0.0001782   -0.0010176    -0.0000601    0.0000116     0.4981847   -0.4332584 
