! 26-Feb-26 11:53:06 AM
! E:\VNA_MEASUREMENTS\SP8T\SP8T_P4_RF4.S2P
! CHANNEL.1
! TR.MEASUREMENT
! CORRECTED.DATA
# GHZ S RI R 50.0
! FREQ.GHZ         S11RE         S11IM         S21RE         S21IM         S12RE         S12IM         S22RE         S22IM         
!; PortSelection: Port_12
   0.000050000     0.1584769    0.2895758    -0.1337710   -0.3468613    -0.0068737    0.0022961     0.9937442    0.0642400 
   0.000150025    -0.1979818    0.2201840    -0.2457092   -0.6334584     0.0015958    0.0017260     0.9995490    0.0001537 
   0.000250050    -0.5630178    0.2279149     0.0018256    0.0009077    -0.0007200    0.0013499     1.0053840   -0.0055494 
   0.000350075     0.9691337   -0.0503082     0.0036341   -0.0028512    -0.0018076    0.0088559     0.9934849   -0.0167922 
   0.000450100     0.9887546   -0.0371812    -0.0022054    0.0030730    -0.0012670    0.0090779     0.9910418   -0.0103884 
   0.000550125     1.0103760   -0.0234742    -0.0031967    0.0019670    -0.0008764    0.0140472     0.9908878   -0.0274625 
   0.000650150     1.0197690   -0.0469202    -0.0063631    0.0053055    -0.0022219    0.0162976     1.0070480   -0.0410697 
   0.000750175     0.9675878   -0.0693719    -0.0079992    0.0078805    -0.0029757    0.0188080     1.0028940   -0.0236677 
   0.000850200     0.9862068   -0.0655372    -0.0141584    0.0123396    -0.0017441    0.0216397     0.9970568   -0.0266859 
   0.000950225     1.0621720   -0.0976410    -0.0127916    0.0197131    -0.0028521    0.0243209     0.9938512   -0.0426657 
   0.001050250     1.0006880   -0.0150106    -0.0160674    0.0228185    -0.0035887    0.0268759     0.9966020   -0.0391762 
   0.001150275     0.9965644   -0.0074330    -0.0144566    0.0236332    -0.0047925    0.0291800     0.9845554   -0.0450668 
   0.001250300     0.9720916   -0.0494106    -0.0140303    0.0270473    -0.0032495    0.0312886     0.9929008   -0.0582141 
   0.001350325     1.0055490   -0.0693717    -0.0145217    0.0333349    -0.0035510    0.0359807     0.9948680   -0.0584094 
   0.001450350     1.0315400   -0.0737583    -0.0120274    0.0406005    -0.0042710    0.0387716     0.9897755   -0.0543723 
   0.001550375     0.9748937   -0.0703882    -0.0174508    0.0431306    -0.0046176    0.0420386     0.9928915   -0.0526571 
   0.001650400     0.9976401   -0.0082559    -0.0149750    0.0428565    -0.0046769    0.0442846     0.9867297   -0.0580087 
   0.001750425     0.9893683   -0.0521668    -0.0134125    0.0497219    -0.0045311    0.0478629     0.9902836   -0.0637385 
   0.001850450     0.9529200   -0.0810362    -0.0107743    0.0476314    -0.0044273    0.0499575     0.9870617   -0.0709257 
   0.001950475     1.0082840   -0.0007464    -0.0127810    0.0546222    -0.0059801    0.0546644     0.9891309   -0.0676825 
   0.002050500     0.9564044   -0.0615223    -0.0103808    0.0592603    -0.0042945    0.0569943     0.9869013   -0.0768176 
   0.002150525     0.9883810   -0.0695189    -0.0127150    0.0622555    -0.0053874    0.0614438     0.9872379   -0.0776922 
   0.002250550     0.9742376   -0.0864286    -0.0100969    0.0648003    -0.0040905    0.0629951     0.9795933   -0.0808847 
   0.002350575     0.9609953   -0.0961130    -0.0112112    0.0682525    -0.0033042    0.0650823     0.9810086   -0.0828796 
   0.002450600     1.0152260   -0.0683865    -0.0139809    0.0750584    -0.0043031    0.0710250     0.9869806   -0.0880438 
   0.002550625     0.9649454   -0.0671255    -0.0091185    0.0772085    -0.0041188    0.0726944     0.9914486   -0.0863508 
   0.002650650     0.9582151   -0.0690428    -0.0072370    0.0776918    -0.0019030    0.0744057     0.9861214   -0.0986079 
   0.002750675     0.9592703   -0.0440940    -0.0130871    0.0815330    -0.0045932    0.0787220     0.9820979   -0.0994071 
   0.002850700     0.9920408   -0.0737715    -0.0104594    0.0846882    -0.0023487    0.0825703     0.9796060   -0.0998511 
   0.002950725     0.9465622   -0.0799106    -0.0037292    0.0840053    -0.0020168    0.0837843     0.9827192   -0.1030723 
   0.003050750     0.9820740   -0.0792862    -0.0067577    0.0902567    -0.0021697    0.0880340     0.9765511   -0.1043108 
   0.003150775     0.9615756   -0.1144879    -0.0014814    0.0916757    -0.0011275    0.0911275     0.9776675   -0.1080333 
   0.003250800     0.9692496   -0.1187632    -0.0005493    0.0959020    -0.0003233    0.0930798     0.9734089   -0.1124469 
   0.003350825     0.9931435   -0.0959972    -0.0056919    0.1035118    -0.0000266    0.0966782     0.9712406   -0.1184914 
   0.003450850     0.9231271   -0.1265214     0.0015903    0.1012527     0.0012348    0.0982184     0.9744790   -0.1225578 
   0.003550875     0.9448649   -0.1203173     0.0013142    0.1086011     0.0011492    0.1020843     0.9735727   -0.1198838 
   0.003650900     0.9788511   -0.0965803    -0.0010802    0.1088794     0.0018582    0.1067846     0.9695565   -0.1274651 
   0.003750925     0.9323567   -0.1225637     0.0012062    0.1075897     0.0030368    0.1075501     0.9681795   -0.1351076 
   0.003850950     0.9603291   -0.1492233     0.0060735    0.1135349     0.0039434    0.1126149     0.9758950   -0.1296715 
   0.003950975     0.9936644   -0.1309469     0.0048589    0.1149269     0.0052296    0.1168002     0.9701751   -0.1368254 
   0.004051001     0.9493348   -0.1928975     0.0089894    0.1188871     0.0070770    0.1174038     0.9694372   -0.1323860 
   0.004151026     1.0066160   -0.1523979     0.0073465    0.1265455     0.0070834    0.1235986     0.9689791   -0.1391638 
   0.004251051     0.9584219   -0.1353835     0.0057492    0.1226989     0.0057854    0.1237276     0.9628295   -0.1431955 
   0.004351076     0.9874079   -0.1230441     0.0049033    0.1330948     0.0065292    0.1287609     0.9648225   -0.1437170 
   0.004451101     0.9796486   -0.1213391     0.0027513    0.1307260     0.0061765    0.1311815     0.9597755   -0.1426212 
   0.004551126     0.9703205   -0.1670278     0.0093442    0.1371751     0.0100416    0.1332282     0.9600334   -0.1477021 
   0.004651151     0.9516504   -0.1499788     0.0108876    0.1345454     0.0102859    0.1365871     0.9637591   -0.1561595 
   0.004751176     0.9796382   -0.1634229     0.0117296    0.1418909     0.0114871    0.1409898     0.9634084   -0.1576464 
   0.004851201     0.9277681   -0.1427128     0.0065918    0.1407750     0.0103433    0.1407387     0.9599327   -0.1585449 
   0.004951226     0.9509072   -0.1374715     0.0101381    0.1472217     0.0102671    0.1465965     0.9658900   -0.1604296 
   0.005051251     0.9730511   -0.1836186     0.0183185    0.1481138     0.0143288    0.1495570     0.9616826   -0.1608755 
   0.005151276     0.9357418   -0.1525738     0.0127774    0.1504343     0.0137973    0.1502691     0.9526592   -0.1698067 
   0.005251301     0.9608879   -0.1730202     0.0177078    0.1583903     0.0153277    0.1537320     0.9555001   -0.1684126 
   0.005351326     0.9470416   -0.1701889     0.0179711    0.1595061     0.0172035    0.1568431     0.9589325   -0.1747339 
   0.005451351     0.9558497   -0.1573068     0.0140846    0.1607893     0.0174490    0.1609186     0.9565462   -0.1815661 
   0.005551376     0.9690285   -0.1806772     0.0179134    0.1661409     0.0180801    0.1638737     0.9510760   -0.1767725 
   0.005651401     0.9497954   -0.1767912     0.0200586    0.1677200     0.0200976    0.1665268     0.9540849   -0.1908203 
   0.005751426     0.9289561   -0.1737266     0.0209281    0.1638585     0.0206870    0.1665573     0.9472485   -0.1891832 
   0.005851451     0.9769803   -0.1728413     0.0227795    0.1768087     0.0217114    0.1750308     0.9530868   -0.1882063 
   0.005951476     0.9284760   -0.1559283     0.0168530    0.1705294     0.0206050    0.1743929     0.9515070   -0.1905223 
   0.006051501     0.9413610   -0.1866569     0.0260953    0.1771951     0.0236275    0.1775410     0.9501799   -0.1907434 
   0.006151526     0.9139554   -0.2061056     0.0280071    0.1764211     0.0267020    0.1774699     0.9452632   -0.1996878 
   0.006251551     0.9368075   -0.1806264     0.0246681    0.1770085     0.0266043    0.1826500     0.9434571   -0.2055011 
   0.006351576     0.9328648   -0.2044997     0.0267604    0.1844121     0.0289133    0.1838001     0.9399941   -0.2065752 
   0.006451601     0.9509243   -0.2022088     0.0277906    0.1919779     0.0299209    0.1903418     0.9426137   -0.2074281 
   0.006551626     0.9078427   -0.2029416     0.0271807    0.1870973     0.0291758    0.1889269     0.9388723   -0.2098904 
   0.006651651     0.9320765   -0.2071975     0.0326255    0.1898083     0.0328444    0.1926667     0.9356782   -0.2176254 
   0.006751676     0.9300917   -0.2330218     0.0369560    0.1983079     0.0358613    0.1959608     0.9411224   -0.2138992 
   0.006851701     0.9331030   -0.2411140     0.0400392    0.1987736     0.0372964    0.1983594     0.9347761   -0.2176399 
   0.006951726     0.9218860   -0.2140419     0.0342694    0.2010912     0.0357968    0.2013721     0.9343769   -0.2203445 
   0.007051751     0.9588191   -0.2183440     0.0399110    0.2101980     0.0379174    0.2068300     0.9289497   -0.2220272 
   0.007151776     0.9078451   -0.2278744     0.0385928    0.2067008     0.0387656    0.2037725     0.9240418   -0.2285342 
   0.007251801     0.9520658   -0.2202188     0.0399924    0.2147750     0.0408943    0.2119530     0.9276648   -0.2293819 
   0.007351826     0.9264698   -0.2458267     0.0435164    0.2145898     0.0443347    0.2112290     0.9270126   -0.2354631 
   0.007451851     0.9094673   -0.2508936     0.0470186    0.2097286     0.0433928    0.2133151     0.9277496   -0.2330616 
   0.007551876     0.9099255   -0.2365151     0.0456728    0.2175959     0.0433586    0.2168877     0.9261049   -0.2355438 
   0.007651901     0.9296471   -0.2658288     0.0511807    0.2231104     0.0492274    0.2191311     0.9223810   -0.2392946 
   0.007751926     0.9289665   -0.2453919     0.0510179    0.2264696     0.0494526    0.2231389     0.9189690   -0.2441399 
   0.007851951     0.9191537   -0.2416921     0.0494777    0.2257836     0.0488596    0.2247746     0.9189366   -0.2439047 
   0.007951976     0.9164048   -0.2733907     0.0525675    0.2272738     0.0529820    0.2263028     0.9179047   -0.2484743 
   0.008052001     0.9179797   -0.2579459     0.0542030    0.2311245     0.0530497    0.2311814     0.9200649   -0.2491280 
   0.008152026     0.8934162   -0.2508671     0.0515115    0.2262208     0.0538165    0.2303826     0.9168448   -0.2546152 
   0.008252051     0.9067332   -0.2284028     0.0479272    0.2361159     0.0525461    0.2354621     0.9120826   -0.2559403 
   0.008352076     0.9147525   -0.2719272     0.0595320    0.2389596     0.0583821    0.2376615     0.9120950   -0.2571703 
   0.008452101     0.9277390   -0.2517841     0.0599717    0.2462346     0.0591881    0.2425829     0.9108107   -0.2605740 
   0.008552126     0.9160932   -0.2452839     0.0589856    0.2427982     0.0598029    0.2440591     0.9076722   -0.2607893 
   0.008652151     0.9216896   -0.2641863     0.0659139    0.2480120     0.0626897    0.2464049     0.9075295   -0.2668416 
   0.008752176     0.9092741   -0.2609856     0.0636913    0.2480526     0.0637967    0.2482767     0.9091849   -0.2700827 
   0.008852201     0.8916125   -0.2597267     0.0672299    0.2471572     0.0639959    0.2492925     0.9039734   -0.2702909 
   0.008952226     0.9123946   -0.2771466     0.0708022    0.2523476     0.0673982    0.2542062     0.9044559   -0.2716854 
   0.009052251     0.8972104   -0.2680384     0.0697959    0.2545665     0.0679110    0.2556050     0.9030877   -0.2759351 
   0.009152276     0.8922508   -0.2626101     0.0680286    0.2568100     0.0684937    0.2570209     0.8957201   -0.2808433 
   0.009252301     0.8957301   -0.2754206     0.0726387    0.2590277     0.0716987    0.2597618     0.8985569   -0.2826482 
   0.009352326     0.8973798   -0.2779594     0.0702533    0.2639261     0.0716228    0.2631594     0.8959481   -0.2792676 
   0.009452351     0.8975682   -0.2774430     0.0776468    0.2650782     0.0747257    0.2648852     0.8926350   -0.2849118 
   0.009552376     0.9009019   -0.2956631     0.0776279    0.2700067     0.0779203    0.2662346     0.8902900   -0.2875017 
   0.009652401     0.8820860   -0.2811725     0.0748198    0.2658533     0.0772473    0.2686543     0.8888147   -0.2890956 
   0.009752426     0.8764822   -0.2876742     0.0823542    0.2669160     0.0791206    0.2695563     0.8886245   -0.2922111 
   0.009852451     0.8788298   -0.2878244     0.0802029    0.2697891     0.0820046    0.2733294     0.8865893   -0.2974896 
   0.009952476     0.8988776   -0.3095921     0.0877564    0.2792816     0.0866721    0.2749940     0.8828835   -0.2946790 
   0.010052501     0.8980792   -0.2883369     0.0817633    0.2803550     0.0840520    0.2816367     0.8853168   -0.2929050 
   0.010152526     0.8678853   -0.2910456     0.0868112    0.2729670     0.0848752    0.2785673     0.8776925   -0.2997998 
   0.010252551     0.8751480   -0.2953644     0.0893590    0.2823206     0.0889542    0.2844951     0.8826972   -0.3053200 
   0.010352576     0.8846387   -0.3100437     0.0916876    0.2834408     0.0927733    0.2852586     0.8765613   -0.3064558 
   0.010452601     0.8861773   -0.2922550     0.0885273    0.2906763     0.0923008    0.2882160     0.8724082   -0.3093204 
   0.010552626     0.8688144   -0.3080385     0.0915396    0.2913769     0.0954829    0.2876484     0.8719274   -0.3137514 
   0.010652651     0.8836252   -0.3037022     0.0972107    0.2953889     0.0985142    0.2926552     0.8728350   -0.3161108 
   0.010752676     0.8793882   -0.3262591     0.0990675    0.2969530     0.1010887    0.2924507     0.8676175   -0.3152903 
   0.010852701     0.8785869   -0.2945858     0.0978373    0.2970157     0.0986138    0.2997173     0.8704839   -0.3124218 
   0.010952726     0.8602864   -0.3112514     0.1014100    0.2969385     0.1011748    0.2963283     0.8625578   -0.3208932 
   0.011052751     0.8615687   -0.3282283     0.1067664    0.2990056     0.1054585    0.2979885     0.8643528   -0.3233250 
   0.011152776     0.8649140   -0.3185825     0.1032379    0.3014087     0.1065767    0.3011972     0.8590810   -0.3271585 
   0.011252801     0.8518834   -0.3270309     0.1065096    0.2944080     0.1075681    0.3014329     0.8589350   -0.3256741 
   0.011352826     0.8564106   -0.3422173     0.1121542    0.3053620     0.1118554    0.3033231     0.8581147   -0.3268124 
   0.011452851     0.8504787   -0.3307141     0.1118477    0.3047046     0.1117770    0.3066244     0.8565934   -0.3309490 
   0.011552876     0.8572641   -0.3385673     0.1174749    0.3104421     0.1154446    0.3084196     0.8550043   -0.3324279 
   0.011652901     0.8522038   -0.3577375     0.1217253    0.3073286     0.1175731    0.3081679     0.8526455   -0.3312219 
   0.011752926     0.8388613   -0.3288009     0.1125024    0.3115847     0.1148172    0.3115118     0.8496425   -0.3353500 
   0.011852951     0.8656649   -0.3449923     0.1191469    0.3214469     0.1226785    0.3174177     0.8501654   -0.3353296 
   0.011952976     0.8415650   -0.3317114     0.1213018    0.3145364     0.1193030    0.3159750     0.8453678   -0.3409259 
   0.012053002     0.8409645   -0.3660296     0.1286590    0.3166703     0.1276093    0.3153384     0.8463514   -0.3442031 
   0.012153027     0.8378009   -0.3539383     0.1273578    0.3164542     0.1268591    0.3184428     0.8444272   -0.3451391 
   0.012253052     0.8324517   -0.3514318     0.1294840    0.3220868     0.1282348    0.3212249     0.8435232   -0.3479870 
   0.012353077     0.8533717   -0.3560584     0.1331135    0.3295721     0.1311054    0.3242114     0.8401483   -0.3440326 
   0.012453102     0.8449930   -0.3384039     0.1317040    0.3269149     0.1328990    0.3272038     0.8354930   -0.3556103 
   0.012553127     0.8227857   -0.3674406     0.1325750    0.3208847     0.1338325    0.3237838     0.8316443   -0.3525833 
   0.012653152     0.8474356   -0.3496155     0.1389265    0.3343602     0.1368166    0.3310727     0.8320662   -0.3536820 
   0.012753177     0.8223335   -0.3404565     0.1325797    0.3272098     0.1346617    0.3337223     0.8322604   -0.3566134 
   0.012853202     0.8298032   -0.3480518     0.1400365    0.3329969     0.1392286    0.3326292     0.8246949   -0.3579498 
   0.012953227     0.8267615   -0.3573973     0.1425676    0.3339391     0.1412934    0.3357615     0.8282906   -0.3591868 
   0.013053252     0.8210733   -0.3693418     0.1432047    0.3330271     0.1438433    0.3361301     0.8251299   -0.3595208 
   0.013153277     0.8211142   -0.3548681     0.1455564    0.3360457     0.1465708    0.3386160     0.8229619   -0.3669367 
   0.013253302     0.8229531   -0.3580368     0.1496277    0.3385298     0.1475533    0.3410333     0.8192826   -0.3602116 
   0.013353327     0.8121017   -0.3595249     0.1477608    0.3372259     0.1493728    0.3423218     0.8188149   -0.3701036 
   0.013453352     0.8244081   -0.3507440     0.1477347    0.3432680     0.1500141    0.3463457     0.8153245   -0.3686293 
   0.013553377     0.8042043   -0.3685650     0.1556158    0.3437710     0.1514076    0.3436958     0.8136742   -0.3693414 
   0.013653402     0.8097708   -0.3684448     0.1526257    0.3445957     0.1564968    0.3455300     0.8111544   -0.3738488 
   0.013753427     0.8141704   -0.3743218     0.1565507    0.3472410     0.1580012    0.3472686     0.8069770   -0.3734809 
   0.013853452     0.8185049   -0.3829542     0.1624352    0.3518076     0.1635377    0.3490424     0.8093068   -0.3754031 
   0.013953477     0.7979178   -0.3665413     0.1599742    0.3507002     0.1604320    0.3527613     0.8084673   -0.3795260 
   0.014053502     0.8018026   -0.3917469     0.1702504    0.3493645     0.1651889    0.3488191     0.8029121   -0.3776101 
   0.014153527     0.7974361   -0.3804871     0.1671834    0.3492291     0.1659915    0.3545335     0.8034100   -0.3814251 
   0.014253552     0.8052931   -0.3778403     0.1729307    0.3606659     0.1692734    0.3572755     0.8014683   -0.3798915 
   0.014353577     0.7992173   -0.3810117     0.1689529    0.3590880     0.1706353    0.3544779     0.7941100   -0.3832923 
   0.014453602     0.7883818   -0.3823045     0.1725005    0.3544150     0.1702389    0.3586780     0.7962052   -0.3834286 
   0.014553627     0.7914724   -0.3868785     0.1758330    0.3575415     0.1745750    0.3604294     0.7959465   -0.3873157 
   0.014653652     0.8015172   -0.3821625     0.1711333    0.3657891     0.1769381    0.3638487     0.7897301   -0.3866678 
   0.014753677     0.7859038   -0.3886141     0.1805792    0.3640258     0.1764567    0.3638062     0.7901402   -0.3869507 
   0.014853702     0.7912481   -0.3859141     0.1836849    0.3577410     0.1806200    0.3674597     0.7889609   -0.3919388 
   0.014953727     0.7767258   -0.4041362     0.1875864    0.3601867     0.1831594    0.3617083     0.7855135   -0.3938839 
   0.015053752     0.7826761   -0.3946334     0.1812834    0.3621146     0.1867143    0.3657742     0.7806675   -0.3980785 
   0.015153777     0.7859100   -0.3997502     0.1903655    0.3690753     0.1900295    0.3691147     0.7844353   -0.3953438 
   0.015253802     0.7862053   -0.3949933     0.1911141    0.3735580     0.1913431    0.3717891     0.7789853   -0.3969057 
   0.015353827     0.7793751   -0.3980335     0.1972781    0.3729253     0.1925183    0.3716716     0.7778685   -0.3981971 
   0.015453852     0.7826997   -0.3935623     0.1914976    0.3751109     0.1940777    0.3728760     0.7703754   -0.3992175 
   0.015553877     0.7750988   -0.3995830     0.1976921    0.3715014     0.1972966    0.3750196     0.7729651   -0.4030647 
   0.015653902     0.7695668   -0.3923722     0.1946698    0.3734978     0.2001586    0.3774337     0.7698194   -0.4090227 
