! 26-Feb-26 12:26:17 PM
! E:\VNA_MEASUREMENTS\SP8T\SP8T_P6_RF2.S2P
! CHANNEL.1
! TR.MEASUREMENT
! CORRECTED.DATA
# GHZ S RI R 50.0
! FREQ.GHZ         S11RE         S11IM         S21RE         S21IM         S12RE         S12IM         S22RE         S22IM         
!; PortSelection: Port_12
   0.000050000     0.0146820    0.0434169     0.0083513   -0.0368056    -0.0073991    0.0036624     0.9413644    0.0541632 
   0.000150025     0.1803142    0.4460530    -1.3088630   -0.7768304    -0.0000570    0.0009824     1.0065640    0.0036333 
   0.000250050    -0.2315914    0.1921237    -0.0042128    0.0050924     0.0004023    0.0011056     1.0098880   -0.0206460 
   0.000350075     0.9806803    0.0051726    -0.0037736   -0.0090397     0.0007579    0.0009237     0.9975849   -0.0247314 
   0.000450100     1.0025640   -0.0653370    -0.0020760   -0.0064415     0.0008178   -0.0005850     0.9886321   -0.0196710 
   0.000550125     0.9881502   -0.0108269    -0.0081968   -0.0059012     0.0000713    0.0002722     0.9863664   -0.0380000 
   0.000650150     0.9360011   -0.0427134    -0.0030255   -0.0117112     0.0004914    0.0004860     0.9964678   -0.0567482 
   0.000750175     0.9987386   -0.0394112    -0.0081068   -0.0078860    -0.0013643    0.0003274     0.9913725   -0.0524342 
   0.000850200     0.9831532   -0.0375832    -0.0083859   -0.0095354     0.0003753    0.0002353     1.0036930   -0.0524119 
   0.000950225     1.0056950   -0.0013483    -0.0097469   -0.0071146     0.0005292   -0.0003645     0.9919059   -0.0662257 
   0.001050250     0.9992940   -0.0327054    -0.0061536   -0.0088460     0.0001358   -0.0002939     0.9883921   -0.0670495 
   0.001150275     1.0091510   -0.0617060    -0.0090743   -0.0004859     0.0005485    0.0003443     0.9845527   -0.0670507 
   0.001250300     0.9665230   -0.0206698    -0.0144885   -0.0031512     0.0003715    0.0002247     0.9961018   -0.0835666 
   0.001350325     1.0033580   -0.0640814    -0.0104088   -0.0025853     0.0014873    0.0001696     0.9869148   -0.0859485 
   0.001450350     0.9886545   -0.0302544    -0.0131456   -0.0027971    -0.0001003   -0.0005808     0.9884499   -0.0885241 
   0.001550375     0.9729052   -0.0551715    -0.0137574   -0.0021872     0.0002556   -0.0002371     0.9921576   -0.0961172 
   0.001650400     1.0097720   -0.0488293    -0.0071630    0.0004203    -0.0012991    0.0005715     0.9818372   -0.0942596 
   0.001750425     0.9820763   -0.0801356    -0.0107057   -0.0022369    -0.0002565   -0.0008200     0.9799187   -0.1055964 
   0.001850450     0.9893633   -0.0420986    -0.0075323    0.0025905     0.0006380   -0.0001569     0.9725870   -0.1145090 
   0.001950475     1.0096920   -0.0561690    -0.0102695    0.0025087     0.0002442   -0.0006379     0.9842968   -0.1185575 
   0.002050500     0.9900849   -0.0268615    -0.0075832    0.0014725    -0.0013209    0.0007065     0.9830170   -0.1348087 
   0.002150525     1.0072490   -0.0787164    -0.0059050   -0.0004437    -0.0000153    0.0000422     0.9715713   -0.1362611 
   0.002250550     0.9911577   -0.0815338    -0.0074711   -0.0018158    -0.0003466    0.0001763     0.9773018   -0.1420585 
   0.002350575     0.9741723   -0.1158618    -0.0032765    0.0029335    -0.0006991    0.0003428     0.9756360   -0.1398008 
   0.002450600     0.9878733   -0.1115194    -0.0056167    0.0011339    -0.0002145    0.0006655     0.9763319   -0.1553200 
   0.002550625     0.9877855   -0.0825455    -0.0076326    0.0033390     0.0000003   -0.0001175     0.9776028   -0.1593905 
   0.002650650     0.9938962   -0.0446463    -0.0057311    0.0007936     0.0004983   -0.0003976     0.9696280   -0.1685039 
   0.002750675     1.0308060   -0.0517958    -0.0031331    0.0055463    -0.0011533    0.0003427     0.9629108   -0.1736592 
   0.002850700     0.9872725   -0.0868716    -0.0026714    0.0037375    -0.0005459    0.0004664     0.9620932   -0.1802746 
   0.002950725     0.9491802   -0.0922098    -0.0012260    0.0001085     0.0004401   -0.0000060     0.9667043   -0.1786187 
   0.003050750     0.9742982   -0.1286073    -0.0010070    0.0034274    -0.0006206   -0.0000094     0.9565778   -0.1855309 
   0.003150775     0.9525388   -0.1016717    -0.0020227    0.0044004    -0.0000752    0.0004576     0.9556214   -0.1869677 
   0.003250800     0.9751651   -0.0739632    -0.0031945    0.0038097    -0.0002933    0.0002398     0.9531880   -0.1954541 
   0.003350825     0.9654781   -0.1121117    -0.0036740    0.0007443     0.0000191   -0.0000373     0.9449135   -0.2044566 
   0.003450850     0.9559582   -0.1444095    -0.0008201    0.0028057     0.0001482   -0.0001219     0.9505844   -0.2164387 
   0.003550875     0.9452006   -0.1295605    -0.0014970    0.0034763     0.0006750   -0.0003934     0.9464766   -0.2158706 
   0.003650900     0.9842407   -0.1018929    -0.0014084    0.0025554    -0.0001189   -0.0003548     0.9418895   -0.2232216 
   0.003750925     0.9717406   -0.1245156    -0.0020050    0.0028230     0.0000030    0.0001320     0.9325680   -0.2294896 
   0.003850950     0.9805943   -0.1324645     0.0018832    0.0020148    -0.0003415    0.0002601     0.9355584   -0.2332299 
   0.003950975     1.0094640   -0.1185353    -0.0009949    0.0032455    -0.0003674    0.0003693     0.9291385   -0.2346558 
   0.004051001     0.9813017   -0.1473028    -0.0005637    0.0009149    -0.0002983   -0.0001849     0.9259645   -0.2349864 
   0.004151026     0.9913897   -0.1761903     0.0000884    0.0017769    -0.0001641    0.0004021     0.9201903   -0.2453883 
   0.004251051     0.9793386   -0.1429001    -0.0034941    0.0014486    -0.0002004   -0.0002850     0.9222358   -0.2530553 
   0.004351076     0.9743220   -0.1473739    -0.0002254    0.0033742    -0.0003928   -0.0002093     0.9162064   -0.2545485 
   0.004451101     0.9780563   -0.1626327    -0.0040267   -0.0004323     0.0000164   -0.0002500     0.9168472   -0.2558649 
   0.004551126     0.9852643   -0.1312992    -0.0026332    0.0026098     0.0000283    0.0002088     0.9090307   -0.2584401 
   0.004651151     0.9633446   -0.1548858     0.0004319   -0.0000159    -0.0007607   -0.0002378     0.9072309   -0.2678482 
   0.004751176     0.9610406   -0.1859997     0.0010241   -0.0003059    -0.0001166   -0.0000953     0.9063354   -0.2748798 
   0.004851201     0.9502581   -0.1565827    -0.0009157    0.0019598    -0.0000886    0.0000609     0.8997344   -0.2786937 
   0.004951226     0.9355481   -0.1501287     0.0015430    0.0007881    -0.0000396   -0.0001031     0.8980109   -0.2770298 
   0.005051251     0.9684291   -0.1807684    -0.0003916   -0.0010441     0.0000120   -0.0001079     0.8919840   -0.2850856 
   0.005151276     0.9600214   -0.1664826    -0.0002033    0.0026615     0.0000813   -0.0003452     0.8888862   -0.2906578 
   0.005251301     0.9534767   -0.1738889    -0.0002748   -0.0001194     0.0002125    0.0002753     0.8855203   -0.2934691 
   0.005351326     0.9373830   -0.1376520     0.0002632    0.0016922     0.0005063   -0.0002125     0.8814575   -0.2951468 
   0.005451351     0.9591237   -0.1697137    -0.0007623   -0.0002703     0.0000536   -0.0002218     0.8788419   -0.3044172 
   0.005551376     0.9685413   -0.2001043     0.0006354    0.0001089     0.0000847    0.0001821     0.8690576   -0.3032438 
   0.005651401     0.9337716   -0.1780140    -0.0002242   -0.0005865     0.0005075    0.0002871     0.8675498   -0.3125918 
   0.005751426     0.9196159   -0.1735383    -0.0001423    0.0032193    -0.0001529    0.0001902     0.8670492   -0.3140890 
   0.005851451     0.9701254   -0.1928627     0.0007147   -0.0009661    -0.0001325    0.0000322     0.8651316   -0.3208158 
   0.005951476     0.9355010   -0.1787693     0.0002025    0.0006016     0.0001459    0.0004194     0.8599956   -0.3184882 
   0.006051501     0.9475943   -0.1766130    -0.0010906    0.0024679    -0.0003929    0.0004378     0.8543137   -0.3220326 
   0.006151526     0.9294860   -0.2212655     0.0016760   -0.0013886     0.0006043    0.0001506     0.8513019   -0.3303933 
   0.006251551     0.9396315   -0.1638008     0.0021881    0.0011479    -0.0000213   -0.0002328     0.8463503   -0.3365603 
   0.006351576     0.9387937   -0.2145754    -0.0007317    0.0000595    -0.0000917    0.0000112     0.8420168   -0.3351231 
   0.006451601     0.9514822   -0.1946046    -0.0000122    0.0010166     0.0001344   -0.0004648     0.8368272   -0.3414503 
   0.006551626     0.9401872   -0.2148072     0.0008070    0.0003104     0.0000199   -0.0001918     0.8348243   -0.3394240 
   0.006651651     0.9564752   -0.1893917    -0.0003056    0.0019353     0.0000912    0.0006206     0.8289920   -0.3485081 
   0.006751676     0.9220253   -0.2310587     0.0001522    0.0006389     0.0000666   -0.0001250     0.8277977   -0.3471781 
   0.006851701     0.9322658   -0.2285115    -0.0008616    0.0008150     0.0005382   -0.0000769     0.8249090   -0.3550639 
   0.006951726     0.9245079   -0.2251114    -0.0016020    0.0010466     0.0003625    0.0002767     0.8168837   -0.3532674 
   0.007051751     0.9502519   -0.2072729     0.0003956    0.0004620     0.0000676   -0.0003376     0.8159887   -0.3587695 
   0.007151776     0.9183150   -0.2172814    -0.0002551    0.0001413    -0.0001551    0.0001852     0.8077639   -0.3611684 
   0.007251801     0.9402226   -0.1956280    -0.0002504    0.0002251     0.0000939    0.0001569     0.8045887   -0.3648088 
   0.007351826     0.9342661   -0.2485996    -0.0016180    0.0002760     0.0001601    0.0001056     0.7973550   -0.3681483 
   0.007451851     0.9032731   -0.2162665     0.0023763    0.0015862     0.0000891   -0.0004649     0.7943351   -0.3703122 
   0.007551876     0.9148050   -0.2332659    -0.0009717    0.0015591    -0.0002331   -0.0001779     0.7944014   -0.3694471 
   0.007651901     0.9176117   -0.2548531    -0.0002472    0.0002215    -0.0000988    0.0001836     0.7880467   -0.3756275 
   0.007751926     0.9164401   -0.2486587     0.0011347   -0.0007424     0.0003049    0.0000654     0.7822953   -0.3745190 
   0.007851951     0.9355425   -0.2466265    -0.0001771    0.0017997     0.0003095   -0.0000710     0.7803732   -0.3788770 
   0.007951976     0.9259290   -0.2725523    -0.0008556   -0.0003651     0.0002626    0.0002306     0.7720373   -0.3805715 
   0.008052001     0.9226819   -0.2580839    -0.0000377   -0.0012468    -0.0002322    0.0003981     0.7685074   -0.3848929 
   0.008152026     0.9258524   -0.2679673    -0.0000926    0.0006265     0.0002504   -0.0001546     0.7691130   -0.3873632 
   0.008252051     0.8948080   -0.2308690     0.0004149   -0.0008789    -0.0000193    0.0000971     0.7587326   -0.3860024 
   0.008352076     0.9240801   -0.2644709    -0.0006854   -0.0005298    -0.0001090   -0.0001304     0.7565057   -0.3886721 
   0.008452101     0.9125082   -0.2480969    -0.0026668    0.0014753     0.0000798    0.0001166     0.7551656   -0.3916215 
   0.008552126     0.9193009   -0.2608276     0.0003525    0.0007730     0.0002365   -0.0002453     0.7499711   -0.3944530 
   0.008652151     0.9145310   -0.2745011     0.0000860   -0.0004704    -0.0001814   -0.0000018     0.7457482   -0.3976072 
   0.008752176     0.9078019   -0.2496945    -0.0009785   -0.0008177     0.0000999    0.0000357     0.7425581   -0.3992651 
   0.008852201     0.8878250   -0.2500757     0.0000545   -0.0001420     0.0002872    0.0001122     0.7357677   -0.4015954 
   0.008952226     0.9143399   -0.2640929     0.0002096   -0.0006626    -0.0001341    0.0001735     0.7318205   -0.4006788 
   0.009052251     0.9098876   -0.2698214    -0.0018658   -0.0016232     0.0001329    0.0001548     0.7308242   -0.4036889 
   0.009152276     0.8943530   -0.2604810    -0.0010618    0.0001915    -0.0002275   -0.0003299     0.7234082   -0.4061175 
   0.009252301     0.9051910   -0.2727126    -0.0020179   -0.0008183    -0.0001844    0.0002146     0.7182290   -0.4084111 
   0.009352326     0.9029573   -0.2764732    -0.0001173   -0.0008595    -0.0002575   -0.0000134     0.7150895   -0.4072662 
   0.009452351     0.8999397   -0.2910356    -0.0006384    0.0002728    -0.0002484   -0.0002911     0.7106993   -0.4060622 
   0.009552376     0.8860299   -0.2945772    -0.0000527   -0.0012294    -0.0001686    0.0003150     0.7080672   -0.4085167 
   0.009652401     0.8925650   -0.2806395    -0.0001618    0.0002369    -0.0000801    0.0001102     0.7032343   -0.4121455 
   0.009752426     0.8861051   -0.2910057     0.0002030   -0.0002840     0.0001832    0.0002499     0.7013811   -0.4131679 
   0.009852451     0.9032162   -0.2996292    -0.0001954    0.0002375    -0.0000311   -0.0001811     0.6956016   -0.4126467 
   0.009952476     0.8891315   -0.3070593    -0.0000738    0.0003587     0.0005236   -0.0001587     0.6903999   -0.4134525 
   0.010052501     0.8739049   -0.2799949    -0.0008191   -0.0005969    -0.0005269    0.0004505     0.6872893   -0.4150442 
   0.010152526     0.8924757   -0.2873271    -0.0006774    0.0000370    -0.0000616    0.0001429     0.6821511   -0.4156789 
   0.010252551     0.8723150   -0.2955100    -0.0008906   -0.0005384     0.0002436    0.0001151     0.6812732   -0.4217709 
   0.010352576     0.8971581   -0.3040437     0.0002864   -0.0005775     0.0002418    0.0003692     0.6747150   -0.4202480 
   0.010452601     0.8800393   -0.2962289    -0.0006978    0.0009549    -0.0001515   -0.0001214     0.6728461   -0.4238801 
   0.010552626     0.8660805   -0.3075261     0.0003932   -0.0004753    -0.0001748    0.0000861     0.6680132   -0.4234045 
   0.010652651     0.8906340   -0.3063256     0.0005967   -0.0001101    -0.0001621   -0.0001208     0.6630037   -0.4236893 
   0.010752676     0.8841457   -0.3212061     0.0008395    0.0002648    -0.0000288    0.0003455     0.6596531   -0.4232327 
   0.010852701     0.8719872   -0.2967834     0.0011685    0.0004765    -0.0000369   -0.0001622     0.6610095   -0.4239598 
   0.010952726     0.8632481   -0.3230557    -0.0003827    0.0005965     0.0000666    0.0000593     0.6521726   -0.4262506 
   0.011052751     0.8723683   -0.3372070    -0.0001833    0.0011951    -0.0002279    0.0000610     0.6491008   -0.4261960 
   0.011152776     0.8742348   -0.3210816     0.0000326    0.0000140    -0.0004210   -0.0002883     0.6448137   -0.4272779 
   0.011252801     0.8678231   -0.3260676     0.0003353    0.0002482     0.0000190    0.0003828     0.6415198   -0.4299974 
   0.011352826     0.8682219   -0.3344242    -0.0008061    0.0005063    -0.0001679   -0.0000824     0.6381940   -0.4256584 
   0.011452851     0.8666523   -0.3254870     0.0010912    0.0005924    -0.0002554    0.0004666     0.6319388   -0.4302446 
   0.011552876     0.8609067   -0.3254210     0.0000870   -0.0002472     0.0001747    0.0000754     0.6336331   -0.4324442 
   0.011652901     0.8549541   -0.3451419    -0.0007628    0.0007725    -0.0003340   -0.0000243     0.6276628   -0.4308807 
   0.011752926     0.8456097   -0.3271596     0.0008910   -0.0010139     0.0003376    0.0000617     0.6242186   -0.4334219 
   0.011852951     0.8477525   -0.3483914    -0.0002124   -0.0006216     0.0000982   -0.0000677     0.6224582   -0.4307897 
   0.011952976     0.8609899   -0.3359500    -0.0008180   -0.0003301    -0.0000060   -0.0004029     0.6165608   -0.4315104 
   0.012053002     0.8474525   -0.3449986     0.0001469   -0.0004018    -0.0000424    0.0000239     0.6139168   -0.4327487 
   0.012153027     0.8315634   -0.3434758     0.0016573   -0.0015678     0.0000559    0.0001610     0.6089796   -0.4325168 
   0.012253052     0.8363388   -0.3524761     0.0002109    0.0001624    -0.0001009   -0.0000265     0.6063842   -0.4313731 
   0.012353077     0.8397802   -0.3416962    -0.0009502    0.0000737    -0.0002663    0.0000883     0.6028321   -0.4320493 
   0.012453102     0.8447696   -0.3443414    -0.0002250   -0.0003320     0.0001834   -0.0001242     0.5960762   -0.4354044 
   0.012553127     0.8308740   -0.3583089    -0.0013299   -0.0006367    -0.0000501    0.0000262     0.5939395   -0.4325287 
   0.012653152     0.8309366   -0.3407449     0.0009656   -0.0003454     0.0000579   -0.0000145     0.5910108   -0.4340335 
   0.012753177     0.8177583   -0.3538316    -0.0003903   -0.0000500    -0.0001319   -0.0002163     0.5887480   -0.4341688 
   0.012853202     0.8278047   -0.3503942    -0.0008198   -0.0001562     0.0000328   -0.0000387     0.5818112   -0.4345330 
   0.012953227     0.8340822   -0.3467620     0.0009199   -0.0001440    -0.0002136    0.0001849     0.5828652   -0.4361769 
   0.013053252     0.8291392   -0.3728621     0.0004120    0.0002814    -0.0003330    0.0002914     0.5809780   -0.4346519 
   0.013153277     0.8303368   -0.3545946    -0.0008545    0.0002102     0.0001885   -0.0000446     0.5753552   -0.4367296 
   0.013253302     0.8198720   -0.3528704    -0.0015154   -0.0005102     0.0000547   -0.0001959     0.5719628   -0.4316225 
   0.013353327     0.8218214   -0.3654334     0.0010386   -0.0004700     0.0001160   -0.0001299     0.5693250   -0.4348680 
   0.013453352     0.8206466   -0.3558360     0.0006500   -0.0002070     0.0000077   -0.0000916     0.5653759   -0.4345637 
   0.013553377     0.8016647   -0.3627349    -0.0005278    0.0003774    -0.0000649    0.0000850     0.5618708   -0.4346725 
   0.013653402     0.8126944   -0.3694765    -0.0007823    0.0003422    -0.0000417    0.0000073     0.5595502   -0.4341385 
   0.013753427     0.8090837   -0.3769479     0.0004715   -0.0006296     0.0000310   -0.0000823     0.5560457   -0.4340858 
   0.013853452     0.8190337   -0.3863700    -0.0003666    0.0005059     0.0000246   -0.0000874     0.5549572   -0.4356843 
   0.013953477     0.7889311   -0.3650733     0.0003900   -0.0001709    -0.0002565   -0.0001502     0.5483541   -0.4355607 
   0.014053502     0.8180974   -0.3980434    -0.0006389    0.0003367    -0.0000122   -0.0000872     0.5447022   -0.4327469 
   0.014153527     0.8000950   -0.3891007     0.0009967   -0.0005063    -0.0001241   -0.0000705     0.5443007   -0.4340218 
   0.014253552     0.8203266   -0.3869927     0.0001459   -0.0001253     0.0001319   -0.0000247     0.5404003   -0.4342786 
   0.014353577     0.7868236   -0.3852240     0.0014519    0.0004315    -0.0000240    0.0000891     0.5361590   -0.4338828 
   0.014453602     0.7827045   -0.3849402     0.0002306   -0.0000703    -0.0002251    0.0000139     0.5372215   -0.4312682 
   0.014553627     0.7854164   -0.3824545     0.0002066    0.0005524     0.0000970    0.0000210     0.5320663   -0.4329235 
   0.014653652     0.7993980   -0.3910211     0.0002087   -0.0002778    -0.0001805    0.0002017     0.5278359   -0.4338395 
   0.014753677     0.7854666   -0.3902640    -0.0004415    0.0004082    -0.0000664    0.0000363     0.5257941   -0.4310037 
   0.014853702     0.8007143   -0.3921108     0.0005541    0.0003701     0.0002262   -0.0001367     0.5235996   -0.4325688 
   0.014953727     0.7788732   -0.4032012    -0.0002753    0.0005936    -0.0000637    0.0001263     0.5203673   -0.4301613 
   0.015053752     0.7833858   -0.4020322    -0.0004625   -0.0005244    -0.0000456    0.0001671     0.5178397   -0.4320455 
   0.015153777     0.7830498   -0.4006995     0.0003091   -0.0007449     0.0002744    0.0000827     0.5153465   -0.4333172 
   0.015253802     0.7789997   -0.3902152    -0.0001983    0.0009959     0.0000775   -0.0000230     0.5117788   -0.4321149 
   0.015353827     0.7757484   -0.3916712     0.0005157    0.0002466     0.0001568   -0.0001658     0.5079839   -0.4290611 
   0.015453852     0.7703209   -0.3945416    -0.0003018    0.0008080    -0.0001872   -0.0000030     0.5062087   -0.4291611 
   0.015553877     0.7781428   -0.4031916     0.0006849    0.0000212    -0.0001491    0.0001788     0.5023870   -0.4309737 
   0.015653902     0.7744117   -0.4013389     0.0001591   -0.0002700    -0.0001080    0.0000866     0.5013698   -0.4315764 
