! 26-Feb-26 11:41:02 AM
! E:\VNA_MEASUREMENTS\SP8T\SP8T_P3_RF2.S2P
! CHANNEL.1
! TR.MEASUREMENT
! CORRECTED.DATA
# GHZ S RI R 50.0
! FREQ.GHZ         S11RE         S11IM         S21RE         S21IM         S12RE         S12IM         S22RE         S22IM         
!; PortSelection: Port_12
   0.000050000     0.0343005    0.0093765    -0.3024683   -0.0910610    -0.0013243    0.0039920     1.0230930   -0.0146487 
   0.000150025     0.3871864    0.1849778    -0.1305993    0.2271739     0.0010728   -0.0000999     1.0009800   -0.0045065 
   0.000250050    -0.3298066   -0.8022161     0.0028743   -0.0028443    -0.0011252   -0.0003552     0.9964003   -0.0130223 
   0.000350075     1.0420240   -0.0002121    -0.0032586   -0.0112960    -0.0005845   -0.0010162     0.9916477   -0.0373439 
   0.000450100     0.9940769   -0.0342354    -0.0047046   -0.0088214    -0.0008556    0.0005243     0.9932986   -0.0090837 
   0.000550125     0.9897121   -0.0067620    -0.0044580   -0.0104600    -0.0011372   -0.0000872     0.9905905   -0.0383232 
   0.000650150     1.0128480   -0.0162481    -0.0052428   -0.0127239     0.0006675    0.0002736     1.0015890   -0.0428802 
   0.000750175     0.9744472   -0.0273508    -0.0073613   -0.0109221    -0.0005200    0.0007544     0.9920515   -0.0488412 
   0.000850200     0.9918762   -0.0619547    -0.0117815   -0.0055784    -0.0004732    0.0013038     1.0013890   -0.0501849 
   0.000950225     1.0144270   -0.0329823    -0.0090009   -0.0097455     0.0001275    0.0002750     0.9924949   -0.0658912 
   0.001050250     0.9834481   -0.0704823    -0.0128991   -0.0027722     0.0001567   -0.0004976     0.9933566   -0.0589907 
   0.001150275     1.0121710   -0.0458702    -0.0114089   -0.0075160     0.0008477   -0.0001748     0.9900103   -0.0645919 
   0.001250300     0.9713832   -0.0635349    -0.0078869   -0.0055184     0.0004213    0.0001758     0.9938152   -0.0788495 
   0.001350325     0.9805994   -0.1083286    -0.0097985   -0.0039730     0.0009728   -0.0007880     0.9910190   -0.0918446 
   0.001450350     1.0007100   -0.0327024    -0.0080284   -0.0021367    -0.0006026   -0.0005259     0.9877423   -0.0914357 
   0.001550375     0.9534177   -0.0524346    -0.0089696    0.0019717     0.0002618    0.0006300     0.9870068   -0.1000286 
   0.001650400     1.0102880   -0.0464499    -0.0065465    0.0016093    -0.0002706    0.0002923     0.9819743   -0.1014443 
   0.001750425     0.9690323   -0.0887647    -0.0078727    0.0007178     0.0008580    0.0009135     0.9865852   -0.1074978 
   0.001850450     0.9610773   -0.0914184    -0.0122491    0.0023122    -0.0002183   -0.0012964     0.9873931   -0.1182389 
   0.001950475     1.0232520   -0.0450535    -0.0060661   -0.0001538     0.0002790   -0.0001627     0.9835270   -0.1203567 
   0.002050500     0.9777681   -0.0552418    -0.0073300    0.0028253    -0.0006014    0.0008847     0.9859562   -0.1333469 
   0.002150525     1.0071050   -0.0994318    -0.0064510    0.0015393     0.0010160    0.0002500     0.9741817   -0.1385121 
   0.002250550     0.9786609   -0.0764393    -0.0059858    0.0007837     0.0005785   -0.0004350     0.9838204   -0.1352318 
   0.002350575     0.9923280   -0.0948565    -0.0048402    0.0063777    -0.0007512    0.0010691     0.9798766   -0.1397243 
   0.002450600     0.9825820   -0.1123017    -0.0047623    0.0019628     0.0004393    0.0001142     0.9737989   -0.1446217 
   0.002550625     0.9674492   -0.0948651    -0.0065709    0.0006504    -0.0004478   -0.0005206     0.9717813   -0.1573182 
   0.002650650     1.0089550   -0.0754792    -0.0059533    0.0034821    -0.0002705   -0.0009619     0.9737258   -0.1649810 
   0.002750675     1.0053030   -0.0529697    -0.0047962    0.0024219    -0.0001974   -0.0002724     0.9674028   -0.1691160 
   0.002850700     0.9896748   -0.0870698    -0.0014427    0.0035486     0.0011039   -0.0003281     0.9665746   -0.1750506 
   0.002950725     0.9248240   -0.0743823    -0.0042687   -0.0001120     0.0002824   -0.0000013     0.9661292   -0.1761718 
   0.003050750     0.9590796   -0.0910710    -0.0026457    0.0055869     0.0002810   -0.0001752     0.9571678   -0.1885196 
   0.003150775     0.9663062   -0.1400487    -0.0027508   -0.0014011    -0.0000888   -0.0007673     0.9502842   -0.2002974 
   0.003250800     0.9469102   -0.0661676    -0.0035027    0.0026164     0.0008293   -0.0001240     0.9563109   -0.1951133 
   0.003350825     0.9900796   -0.1175185    -0.0039500    0.0020148     0.0001709   -0.0000871     0.9474645   -0.2038202 
   0.003450850     0.9534795   -0.1624595     0.0013852    0.0033448     0.0000622    0.0003887     0.9420680   -0.2029538 
   0.003550875     0.9540419   -0.1278286    -0.0017778    0.0002516     0.0000093   -0.0001538     0.9452748   -0.2155000 
   0.003650900     0.9673452   -0.0885936    -0.0012927    0.0009694    -0.0004249    0.0004815     0.9414797   -0.2192110 
   0.003750925     0.9465816   -0.1448935    -0.0039880    0.0007034     0.0001080    0.0003085     0.9317021   -0.2231021 
   0.003850950     0.9635416   -0.1412540    -0.0043319    0.0014047    -0.0000631    0.0004614     0.9388039   -0.2286839 
   0.003950975     0.9752951   -0.0878709    -0.0014159    0.0018956    -0.0001983    0.0004974     0.9342601   -0.2292551 
   0.004051001     0.9667998   -0.1744077    -0.0013236    0.0025410    -0.0003185   -0.0000154     0.9254083   -0.2324058 
   0.004151026     0.9652998   -0.1719839    -0.0005471   -0.0014493    -0.0002577   -0.0001943     0.9264571   -0.2458902 
   0.004251051     0.9951525   -0.1663765     0.0009094    0.0028423    -0.0005914    0.0002910     0.9227436   -0.2499720 
   0.004351076     0.9507014   -0.1371694    -0.0016108    0.0006392     0.0005084    0.0000930     0.9201743   -0.2464290 
   0.004451101     0.9901759   -0.1610454     0.0000875    0.0019815    -0.0003131   -0.0002800     0.9161958   -0.2541989 
   0.004551126     0.9926252   -0.1398441     0.0009531    0.0011858     0.0002924    0.0003987     0.9132525   -0.2587880 
   0.004651151     0.9367718   -0.1559100     0.0024923   -0.0027805     0.0000233    0.0003315     0.9134908   -0.2666109 
   0.004751176     0.9605384   -0.1914376     0.0009469    0.0017917    -0.0003358   -0.0002434     0.9058606   -0.2673851 
   0.004851201     0.9278181   -0.1552182     0.0007674    0.0017517     0.0001914    0.0003787     0.8972766   -0.2738799 
   0.004951226     0.9592870   -0.1333188     0.0014609    0.0015943     0.0001126    0.0003898     0.8998935   -0.2730983 
   0.005051251     0.9763348   -0.1729017    -0.0002008    0.0027891    -0.0003182   -0.0003364     0.8934591   -0.2809578 
   0.005151276     0.9192283   -0.1509437    -0.0007654   -0.0011728    -0.0001928    0.0003726     0.8913231   -0.2873890 
   0.005251301     0.9719276   -0.1724013    -0.0000174   -0.0004796     0.0002153   -0.0000358     0.8909278   -0.2871012 
   0.005351326     0.9425705   -0.1820207    -0.0002903    0.0013556    -0.0002791    0.0002657     0.8880525   -0.2943518 
   0.005451351     0.9784525   -0.1563545    -0.0016869    0.0014449     0.0001726    0.0000325     0.8859032   -0.3043489 
   0.005551376     0.9689996   -0.1894844     0.0023078    0.0006872     0.0002421   -0.0000952     0.8750768   -0.2977043 
   0.005651401     0.9449654   -0.1684211     0.0025692    0.0005719    -0.0000842    0.0002997     0.8741276   -0.3101695 
   0.005751426     0.9475000   -0.1932622     0.0008531    0.0000467     0.0003522   -0.0001787     0.8673294   -0.3080347 
   0.005851451     0.9402819   -0.2135292    -0.0002719    0.0009235     0.0000270    0.0002761     0.8631861   -0.3177713 
   0.005951476     0.9387140   -0.1800169    -0.0003907    0.0007122     0.0002543    0.0000975     0.8609612   -0.3165255 
   0.006051501     0.9356990   -0.1838870    -0.0015101    0.0001011    -0.0004001    0.0005741     0.8581505   -0.3235509 
   0.006151526     0.9213812   -0.1991450     0.0004806   -0.0005107     0.0004785   -0.0003394     0.8520945   -0.3270632 
   0.006251551     0.9441996   -0.2030952     0.0006374    0.0005427     0.0004485    0.0000681     0.8512055   -0.3321916 
   0.006351576     0.9390599   -0.2007952    -0.0007893    0.0010105    -0.0008326   -0.0004050     0.8434207   -0.3326119 
   0.006451601     0.9483311   -0.2084798     0.0001269    0.0010147     0.0001521   -0.0001271     0.8399368   -0.3401105 
   0.006551626     0.9352520   -0.2064650    -0.0002041   -0.0000557     0.0005062   -0.0002652     0.8370596   -0.3384510 
   0.006651651     0.9365522   -0.1940924    -0.0003092    0.0012963    -0.0000402   -0.0000456     0.8304169   -0.3451185 
   0.006751676     0.9271019   -0.2460082    -0.0022737    0.0005469     0.0000160    0.0001958     0.8337063   -0.3429393 
   0.006851701     0.9353342   -0.2274466     0.0001607    0.0021458     0.0000138    0.0001946     0.8250592   -0.3527362 
   0.006951726     0.9216504   -0.2269208     0.0004987    0.0002893    -0.0003529   -0.0001201     0.8219672   -0.3503293 
   0.007051751     0.9407293   -0.2414761     0.0000286   -0.0004420     0.0006165    0.0001336     0.8151335   -0.3562409 
   0.007151776     0.9143571   -0.2189773    -0.0004283   -0.0003185     0.0001298    0.0001351     0.8090401   -0.3593215 
   0.007251801     0.9494935   -0.2199668    -0.0002080    0.0004354    -0.0005788    0.0001780     0.8089594   -0.3626408 
   0.007351826     0.9405305   -0.2341841    -0.0008519    0.0009340     0.0001739    0.0000858     0.8022380   -0.3651514 
   0.007451851     0.9152866   -0.2452431     0.0022182    0.0018160     0.0004193   -0.0003296     0.8005372   -0.3643517 
   0.007551876     0.9302268   -0.2431169    -0.0003252    0.0010121     0.0002862   -0.0001203     0.7974160   -0.3681091 
   0.007651901     0.9334232   -0.2468849     0.0002954    0.0005014    -0.0000967    0.0001240     0.7928937   -0.3700182 
   0.007751926     0.9213135   -0.2483935     0.0019660   -0.0006017    -0.0003910   -0.0003755     0.7838655   -0.3732484 
   0.007851951     0.9238434   -0.2449724    -0.0002035   -0.0002089    -0.0001692    0.0005346     0.7825975   -0.3754713 
   0.007951976     0.9301713   -0.2681562     0.0005516    0.0019444    -0.0001083   -0.0004494     0.7787153   -0.3777117 
   0.008052001     0.9202061   -0.2434537    -0.0001634    0.0025970     0.0001194   -0.0001966     0.7748296   -0.3807072 
   0.008152026     0.9107067   -0.2542236     0.0004860    0.0005465    -0.0000071    0.0006804     0.7697923   -0.3854170 
   0.008252051     0.9045135   -0.2453908    -0.0017356    0.0019408     0.0002051   -0.0001288     0.7655165   -0.3869955 
   0.008352076     0.9241942   -0.2503811     0.0010678   -0.0004152    -0.0000627    0.0005570     0.7629843   -0.3880279 
   0.008452101     0.9204481   -0.2554591     0.0004784   -0.0002740    -0.0000157    0.0000338     0.7609082   -0.3898279 
   0.008552126     0.9103844   -0.2690858     0.0008904    0.0008759    -0.0001201    0.0003778     0.7550036   -0.3903349 
   0.008652151     0.9042485   -0.2380455    -0.0008233   -0.0010280    -0.0002600    0.0003657     0.7487879   -0.3901458 
   0.008752176     0.9075531   -0.2599325    -0.0005346    0.0003927     0.0001190    0.0004624     0.7458064   -0.3981577 
   0.008852201     0.9044839   -0.2569388    -0.0003379   -0.0000010     0.0003111    0.0003446     0.7418305   -0.3956958 
   0.008952226     0.9227293   -0.2691260    -0.0011887   -0.0008952    -0.0001555    0.0002129     0.7413982   -0.3993316 
   0.009052251     0.9143267   -0.2597765     0.0003383    0.0013552     0.0000686    0.0007639     0.7360963   -0.4001023 
   0.009152276     0.9176233   -0.2614317     0.0000192    0.0009038     0.0002067    0.0004932     0.7279512   -0.4073745 
   0.009252301     0.9091652   -0.2760575     0.0004860    0.0002169    -0.0001601   -0.0001840     0.7259998   -0.4065716 
   0.009352326     0.9098077   -0.2832186     0.0005603   -0.0010017     0.0001547    0.0002464     0.7222718   -0.4081917 
   0.009452351     0.9109258   -0.2935103     0.0006619    0.0004888     0.0002604    0.0000026     0.7160046   -0.4066493 
   0.009552376     0.9152860   -0.3051340    -0.0001118   -0.0005552    -0.0001526    0.0001037     0.7141281   -0.4064785 
   0.009652401     0.8940439   -0.2891183    -0.0017231    0.0004017     0.0000155    0.0003764     0.7113024   -0.4085216 
   0.009752426     0.8967265   -0.2865233    -0.0003380   -0.0002180     0.0000129    0.0003038     0.7042636   -0.4096790 
   0.009852451     0.8930520   -0.2988953     0.0001062   -0.0000851     0.0001518    0.0003652     0.7023076   -0.4125960 
   0.009952476     0.8881271   -0.3007785    -0.0009795    0.0005427    -0.0001395    0.0001217     0.6983240   -0.4099727 
   0.010052501     0.9002721   -0.2979798    -0.0011334    0.0002155     0.0001639    0.0000363     0.6965014   -0.4118252 
   0.010152526     0.8780505   -0.2925296    -0.0001269    0.0003608    -0.0000559    0.0005602     0.6896308   -0.4148819 
   0.010252551     0.8879589   -0.3029174     0.0003041    0.0010213    -0.0000925    0.0003294     0.6849565   -0.4213402 
   0.010352576     0.8872094   -0.2969736    -0.0005690   -0.0001812    -0.0001450    0.0001902     0.6808219   -0.4170502 
   0.010452601     0.8893736   -0.2869835    -0.0001037    0.0005236    -0.0000792    0.0000091     0.6775260   -0.4205347 
   0.010552626     0.8742948   -0.3133062     0.0005498    0.0003617    -0.0001363    0.0002006     0.6759235   -0.4216133 
   0.010652651     0.8849337   -0.3069434    -0.0000675    0.0006537     0.0002603    0.0002677     0.6687105   -0.4204772 
   0.010752676     0.8878235   -0.3339966    -0.0001596    0.0013103    -0.0001847    0.0002232     0.6670913   -0.4231890 
   0.010852701     0.8725114   -0.2890071    -0.0001356   -0.0006327     0.0001832    0.0001340     0.6643664   -0.4235413 
   0.010952726     0.8721122   -0.3290316     0.0003637   -0.0002714    -0.0001406    0.0002759     0.6573902   -0.4257152 
   0.011052751     0.8642827   -0.3297116    -0.0007325    0.0020552     0.0003441    0.0002705     0.6554841   -0.4268081 
   0.011152776     0.8704438   -0.3293729     0.0014170    0.0004460    -0.0003225    0.0002191     0.6510704   -0.4272049 
   0.011252801     0.8623508   -0.3318985     0.0004243    0.0000951     0.0002291    0.0004074     0.6449078   -0.4268388 
   0.011352826     0.8687162   -0.3474765     0.0004018    0.0007214    -0.0001377    0.0002075     0.6461820   -0.4269292 
   0.011452851     0.8598627   -0.3385294    -0.0007148    0.0002759    -0.0001521    0.0003757     0.6372855   -0.4294836 
   0.011552876     0.8409544   -0.3215018     0.0008678   -0.0004404     0.0002952    0.0000244     0.6367768   -0.4317064 
   0.011652901     0.8546469   -0.3399218    -0.0004018    0.0003297    -0.0000879   -0.0000362     0.6331663   -0.4288866 
   0.011752926     0.8458438   -0.3332981     0.0005215    0.0004672     0.0000341    0.0001924     0.6284938   -0.4302735 
   0.011852951     0.8611701   -0.3459643     0.0000074   -0.0002784     0.0002524   -0.0000435     0.6271309   -0.4291253 
   0.011952976     0.8490840   -0.3330423     0.0002613    0.0001659    -0.0002747    0.0002037     0.6200721   -0.4298216 
   0.012053002     0.8410158   -0.3535261    -0.0005742   -0.0000609    -0.0001081    0.0001948     0.6196704   -0.4306724 
   0.012153027     0.8408062   -0.3487838     0.0001019   -0.0000544     0.0002421    0.0001773     0.6142730   -0.4331047 
   0.012253052     0.8314828   -0.3480679     0.0004931   -0.0004338     0.0000779    0.0001417     0.6127467   -0.4327069 
   0.012353077     0.8418816   -0.3503860    -0.0002874   -0.0002373     0.0002062    0.0001166     0.6083585   -0.4321996 
   0.012453102     0.8463620   -0.3473018    -0.0000742    0.0002909    -0.0001420    0.0004131     0.6035929   -0.4374368 
   0.012553127     0.8288044   -0.3680348     0.0003554   -0.0005480    -0.0000377    0.0000632     0.5961041   -0.4332592 
   0.012653152     0.8493499   -0.3530413     0.0001347    0.0004775     0.0003233    0.0003528     0.5959932   -0.4347509 
   0.012753177     0.8245778   -0.3619625     0.0009797   -0.0001709     0.0000197    0.0002851     0.5944151   -0.4337614 
   0.012853202     0.8290291   -0.3547736     0.0000496   -0.0005381     0.0004119    0.0000123     0.5871030   -0.4331412 
   0.012953227     0.8319308   -0.3569289    -0.0004947   -0.0001097    -0.0000610    0.0001653     0.5870208   -0.4360554 
   0.013053252     0.8175799   -0.3727261     0.0003803    0.0003358    -0.0002558    0.0003033     0.5864998   -0.4334395 
   0.013153277     0.8216391   -0.3592315     0.0000206    0.0013485     0.0000269    0.0004614     0.5811856   -0.4361788 
   0.013253302     0.8147386   -0.3558992     0.0009704    0.0004791     0.0002271    0.0003833     0.5792060   -0.4328397 
   0.013353327     0.8189418   -0.3558618     0.0002139   -0.0003161     0.0000998    0.0003553     0.5762305   -0.4347838 
   0.013453352     0.8228514   -0.3512356    -0.0000456   -0.0008596    -0.0000090    0.0001480     0.5714496   -0.4348255 
   0.013553377     0.8103817   -0.3692399    -0.0001624   -0.0001323    -0.0000791    0.0003829     0.5660746   -0.4340846 
   0.013653402     0.8097519   -0.3719383     0.0006138    0.0006215     0.0002453    0.0003706     0.5662611   -0.4340299 
   0.013753427     0.8202716   -0.3789817     0.0004181   -0.0001259     0.0003354    0.0000777     0.5596197   -0.4341084 
   0.013853452     0.8156664   -0.3898017     0.0001455   -0.0006309     0.0000131    0.0000965     0.5601841   -0.4326444 
   0.013953477     0.8116111   -0.3617256    -0.0002713    0.0003518    -0.0001144    0.0000125     0.5555238   -0.4356790 
   0.014053502     0.8199230   -0.3978942     0.0004230    0.0004437     0.0000163    0.0002041     0.5529569   -0.4323243 
   0.014153527     0.8070700   -0.3863916     0.0008317   -0.0006078    -0.0001030    0.0002512     0.5519336   -0.4351108 
   0.014253552     0.8028249   -0.3871135     0.0006577   -0.0005899    -0.0001574    0.0002741     0.5491499   -0.4336415 
   0.014353577     0.8000672   -0.3892739     0.0005214    0.0008774    -0.0000486   -0.0001090     0.5416272   -0.4340556 
   0.014453602     0.7932486   -0.3770024     0.0000657    0.0001208     0.0000068    0.0002990     0.5421274   -0.4330217 
   0.014553627     0.7842428   -0.3820830     0.0008664    0.0000221     0.0003782    0.0004405     0.5385670   -0.4339149 
   0.014653652     0.8000425   -0.4057705     0.0000866    0.0001613    -0.0001027    0.0003079     0.5322992   -0.4353053 
   0.014753677     0.7894599   -0.3933259    -0.0000988    0.0002965    -0.0002120    0.0001226     0.5309027   -0.4324357 
   0.014853702     0.7972791   -0.3886457     0.0002096    0.0002872     0.0001123    0.0005557     0.5300269   -0.4320699 
   0.014953727     0.7790306   -0.4016313     0.0003524    0.0003318     0.0000899    0.0003099     0.5265915   -0.4337143 
   0.015053752     0.7817491   -0.3847928     0.0006655    0.0008830     0.0000936    0.0000886     0.5245314   -0.4307936 
   0.015153777     0.7889605   -0.3968429     0.0008968    0.0006072    -0.0001216    0.0002183     0.5217314   -0.4355756 
   0.015253802     0.7727823   -0.4035007    -0.0001940    0.0008806     0.0000288    0.0003108     0.5175171   -0.4328021 
   0.015353827     0.7843072   -0.4011693    -0.0003942   -0.0001635    -0.0002490    0.0002796     0.5154131   -0.4298013 
   0.015453852     0.7815757   -0.3997484     0.0002343   -0.0007537     0.0002970    0.0003717     0.5116364   -0.4286427 
   0.015553877     0.7752445   -0.4069545     0.0000440   -0.0011163     0.0001258    0.0004612     0.5089746   -0.4295843 
   0.015653902     0.7670907   -0.3979752    -0.0001478    0.0004680     0.0002566    0.0002656     0.5071063   -0.4327595 
