! 26-Feb-26 11:56:52 AM
! E:\VNA_MEASUREMENTS\SP8T\SP8T_P4_RF7.S2P
! CHANNEL.1
! TR.MEASUREMENT
! CORRECTED.DATA
# GHZ S RI R 50.0
! FREQ.GHZ         S11RE         S11IM         S21RE         S21IM         S12RE         S12IM         S22RE         S22IM         
!; PortSelection: Port_12
   0.000050000    -0.0178018   -0.0295285     0.0413245    0.0859221    -0.0060776   -0.0059773     1.0137390    0.0726019 
   0.000150025    -0.8129199    0.3272765     2.7354740   -1.8220060     0.0001709    0.0001318     1.0068320   -0.0085270 
   0.000250050     0.5275229    0.8605176     0.0134115   -0.0006546    -0.0003298    0.0002788     1.0031050   -0.0160800 
   0.000350075     0.9674996   -0.0310182     0.0000009   -0.0100017     0.0003287    0.0013129     0.9937969   -0.0262852 
   0.000450100     0.9146304   -0.0279837    -0.0046342   -0.0085127     0.0000531    0.0006599     0.9954312   -0.0223016 
   0.000550125     1.0090400    0.0158870    -0.0076390   -0.0104485    -0.0000039   -0.0000170     0.9961721   -0.0391924 
   0.000650150     1.0308970    0.0242127    -0.0051213   -0.0103073    -0.0001257    0.0004059     1.0039480   -0.0498642 
   0.000750175     1.0234940   -0.0611859    -0.0088025   -0.0096898    -0.0006588   -0.0004140     0.9929900   -0.0493583 
   0.000850200     0.9846057   -0.0701778    -0.0162314   -0.0066935     0.0010246   -0.0001225     0.9999785   -0.0457910 
   0.000950225     1.0246820   -0.0410541    -0.0082909   -0.0058756    -0.0005169   -0.0004725     0.9915067   -0.0587066 
   0.001050250     0.9836581   -0.0720060    -0.0109732   -0.0033770     0.0000304    0.0000125     0.9949924   -0.0584605 
   0.001150275     0.9756379   -0.0287696    -0.0090769   -0.0048993     0.0008478    0.0008919     0.9866505   -0.0643077 
   0.001250300     0.9630206   -0.0231521    -0.0038396    0.0006126    -0.0000832   -0.0002808     0.9968911   -0.0870126 
   0.001350325     0.9785175   -0.0253809    -0.0066018   -0.0024463     0.0000838   -0.0001101     0.9885401   -0.0906800 
   0.001450350     0.9625419   -0.0136261    -0.0065776   -0.0023602    -0.0001766   -0.0005664     0.9814002   -0.0906090 
   0.001550375     0.9188146   -0.0616563    -0.0061029   -0.0039719     0.0000829    0.0003711     0.9849074   -0.0924972 
   0.001650400     1.0078230    0.0318894    -0.0075808    0.0002235     0.0002843   -0.0002646     0.9825336   -0.1005314 
   0.001750425     0.9447966   -0.0742440    -0.0082140    0.0044445     0.0000535   -0.0004407     0.9873719   -0.1123278 
   0.001850450     0.9657021   -0.0349093    -0.0099479   -0.0014809    -0.0004715    0.0001672     0.9820797   -0.1116243 
   0.001950475     1.0013030    0.0080026    -0.0068955   -0.0002376    -0.0003514    0.0001542     0.9870706   -0.1188175 
   0.002050500     0.9697949   -0.0247471    -0.0057531    0.0044755     0.0009437    0.0004158     0.9789625   -0.1292899 
   0.002150525     0.9761017   -0.0345713    -0.0070934    0.0031096     0.0002707   -0.0000644     0.9799010   -0.1307365 
   0.002250550     0.9887157   -0.0388821    -0.0099530    0.0036231     0.0004941   -0.0003147     0.9785458   -0.1378029 
   0.002350575     0.9557804   -0.0303907    -0.0046554    0.0027078    -0.0003848   -0.0005742     0.9786934   -0.1416730 
   0.002450600     0.9977269   -0.0397618    -0.0044823    0.0050714    -0.0004481   -0.0001325     0.9791169   -0.1561384 
   0.002550625     0.9491507   -0.0397576    -0.0046642    0.0017926    -0.0001992    0.0002195     0.9760763   -0.1549708 
   0.002650650     0.9918614   -0.0044857    -0.0019422    0.0017514    -0.0003754   -0.0008253     0.9716511   -0.1693158 
   0.002750675     0.9696113    0.0324919    -0.0048107    0.0039225     0.0003654    0.0001166     0.9614387   -0.1693512 
   0.002850700     0.9577540   -0.0107766    -0.0018265    0.0011833     0.0003950   -0.0005786     0.9694121   -0.1732444 
   0.002950725     0.9287785    0.0061492    -0.0028103    0.0021434     0.0000897    0.0010486     0.9590812   -0.1781354 
   0.003050750     0.9772371   -0.0420676    -0.0018835    0.0035591     0.0000771   -0.0005298     0.9609458   -0.1868459 
   0.003150775     0.9528638   -0.0696735    -0.0042552    0.0024978    -0.0000154   -0.0000362     0.9471095   -0.1885588 
   0.003250800     0.9240275   -0.0339472    -0.0035101    0.0017027    -0.0003017    0.0000934     0.9564586   -0.1942018 
   0.003350825     0.9641920    0.0109083    -0.0009417    0.0022033     0.0003919   -0.0001252     0.9469345   -0.2020863 
   0.003450850     0.9245439   -0.0304307    -0.0018906    0.0021298     0.0000726    0.0003499     0.9491345   -0.2056164 
   0.003550875     0.9868492   -0.0408309    -0.0012093   -0.0003356     0.0000175   -0.0000673     0.9421936   -0.2147466 
   0.003650900     0.9706173   -0.0149548    -0.0029539    0.0019561    -0.0001349    0.0008271     0.9379421   -0.2209326 
   0.003750925     0.9687687   -0.0324924     0.0003744    0.0028776     0.0010749   -0.0004334     0.9357653   -0.2195790 
   0.003850950     0.9581788   -0.0511604     0.0011637   -0.0006765    -0.0001103    0.0000288     0.9367129   -0.2279866 
   0.003950975     0.9740338   -0.0205876     0.0002786   -0.0001345     0.0002319   -0.0000159     0.9308904   -0.2260455 
   0.004051001     0.9314625   -0.0447178    -0.0005251    0.0002979     0.0001150   -0.0004978     0.9303656   -0.2370799 
   0.004151026     1.0004660   -0.0210684    -0.0000898    0.0028252     0.0000104    0.0003358     0.9280956   -0.2390493 
   0.004251051     0.9749771   -0.0342251    -0.0022553   -0.0000247     0.0002959    0.0001882     0.9259953   -0.2508629 
   0.004351076     0.9861977   -0.0277670     0.0013706    0.0016271     0.0006212    0.0005108     0.9178516   -0.2493431 
   0.004451101     0.9759322   -0.0474045    -0.0009845    0.0033848    -0.0003499   -0.0004860     0.9159851   -0.2542517 
   0.004551126     0.9984070   -0.0228070    -0.0022385    0.0026126    -0.0002616    0.0003379     0.9149705   -0.2572724 
   0.004651151     0.9261744   -0.0471570    -0.0073608    0.0014213    -0.0001900   -0.0000293     0.9124810   -0.2632192 
   0.004751176     0.9479675   -0.0390773    -0.0005634    0.0025855    -0.0004143    0.0003568     0.9079218   -0.2700595 
   0.004851201     0.9305930   -0.0546051     0.0008387    0.0002212     0.0001205   -0.0003132     0.9040958   -0.2727471 
   0.004951226     0.9457126   -0.0146163    -0.0003688    0.0027328     0.0002582    0.0000477     0.8970951   -0.2720123 
   0.005051251     0.9727896   -0.0513500     0.0014993    0.0009333     0.0002657   -0.0009139     0.8947715   -0.2779256 
   0.005151276     0.9356425   -0.0348253     0.0010813    0.0018521     0.0002713    0.0001162     0.8898073   -0.2872843 
   0.005251301     0.9813029   -0.0194290    -0.0006986    0.0024520    -0.0000485    0.0008236     0.8883719   -0.2877286 
   0.005351326     0.9451863   -0.0170650    -0.0005344    0.0048410    -0.0006750   -0.0002349     0.8902568   -0.2916227 
   0.005451351     0.9594698   -0.0094736     0.0012125    0.0000073    -0.0000051   -0.0003387     0.8838670   -0.2989431 
   0.005551376     0.9831624   -0.0440182     0.0005652   -0.0017128    -0.0002544   -0.0002678     0.8748117   -0.2953584 
   0.005651401     0.9463409   -0.0215513     0.0000892   -0.0008465    -0.0002847    0.0001257     0.8744931   -0.3062854 
   0.005751426     0.9297023   -0.0416350    -0.0000622   -0.0002655    -0.0004061    0.0004652     0.8668792   -0.3109122 
   0.005851451     0.9649467   -0.0584238    -0.0029703    0.0022727    -0.0001916    0.0005686     0.8665101   -0.3088090 
   0.005951476     0.9530154   -0.0290106    -0.0012243    0.0019056     0.0001405    0.0003406     0.8643722   -0.3158484 
   0.006051501     0.9730296   -0.0541507     0.0024737   -0.0001955    -0.0003985   -0.0002246     0.8589629   -0.3179996 
   0.006151526     0.9564033   -0.0379404    -0.0001611   -0.0002620    -0.0000781   -0.0000852     0.8585090   -0.3247927 
   0.006251551     0.9775298   -0.0306438     0.0002413   -0.0005891     0.0002174    0.0002864     0.8529303   -0.3294021 
   0.006351576     0.9784721   -0.0516565    -0.0003293   -0.0007661     0.0001530    0.0003752     0.8454232   -0.3324338 
   0.006451601     0.9791827   -0.0273773     0.0004499   -0.0006540     0.0000243   -0.0002068     0.8436521   -0.3362882 
   0.006551626     0.9484766   -0.0278143    -0.0009959    0.0013324    -0.0004109   -0.0000176     0.8403550   -0.3366159 
   0.006651651     0.9481610   -0.0319916     0.0016793    0.0006861     0.0005368    0.0000377     0.8340604   -0.3404109 
   0.006751676     0.9334695   -0.0484873    -0.0009471    0.0015886     0.0000082   -0.0000871     0.8318076   -0.3426563 
   0.006851701     0.9733212   -0.0413346     0.0006448   -0.0007365    -0.0000308    0.0003234     0.8224083   -0.3481631 
   0.006951726     0.9235219   -0.0644936    -0.0010240    0.0013863    -0.0008915    0.0005547     0.8251988   -0.3506353 
   0.007051751     0.9590250   -0.0257024    -0.0015771    0.0007759     0.0004566   -0.0002959     0.8184587   -0.3519150 
   0.007151776     0.9410149   -0.0262785     0.0005369    0.0008889    -0.0005339   -0.0000500     0.8114876   -0.3543985 
   0.007251801     0.9511956   -0.0094952    -0.0010893   -0.0002744    -0.0000152    0.0001319     0.8096910   -0.3575142 
   0.007351826     0.9516550   -0.0459586     0.0002223    0.0002019    -0.0005992    0.0005563     0.8025379   -0.3635976 
   0.007451851     0.9353434   -0.0408960     0.0012138   -0.0002311     0.0003861    0.0001190     0.8006783   -0.3665716 
   0.007551876     0.9568287   -0.0412492    -0.0000147    0.0001950    -0.0000070    0.0000889     0.7986254   -0.3685436 
   0.007651901     0.9715919   -0.0608003    -0.0009839   -0.0006319     0.0002147    0.0004273     0.7936706   -0.3669780 
   0.007751926     0.9570140   -0.0459969    -0.0002349   -0.0006596     0.0000223    0.0003606     0.7880493   -0.3711251 
   0.007851951     0.9669839   -0.0363525    -0.0002390    0.0003836     0.0001221    0.0000438     0.7845533   -0.3742280 
   0.007951976     0.9655502   -0.0582498    -0.0021732    0.0014433     0.0000517   -0.0000264     0.7773542   -0.3754695 
   0.008052001     0.9668595   -0.0270446    -0.0014818    0.0008641     0.0003450    0.0004542     0.7756763   -0.3777682 
   0.008152026     0.9537506   -0.0435746     0.0002678   -0.0003152    -0.0004867   -0.0004022     0.7752987   -0.3830470 
   0.008252051     0.9471293   -0.0402272    -0.0003947   -0.0009551     0.0000822    0.0002817     0.7656273   -0.3816432 
   0.008352076     0.9718186   -0.0298460     0.0001820    0.0010211     0.0003399    0.0000195     0.7637782   -0.3851874 
   0.008452101     0.9514228   -0.0320194     0.0007390   -0.0000137    -0.0001133    0.0001725     0.7622022   -0.3865758 
   0.008552126     0.9803869   -0.0250742    -0.0001529    0.0007206    -0.0003787    0.0000343     0.7572137   -0.3904032 
   0.008652151     0.9530310   -0.0147837     0.0008006    0.0003102    -0.0001916   -0.0000450     0.7527670   -0.3899679 
   0.008752176     0.9471833   -0.0320178     0.0010515   -0.0010288    -0.0001024    0.0004097     0.7498999   -0.3941233 
   0.008852201     0.9477487   -0.0235962    -0.0007516    0.0002109    -0.0003665    0.0000418     0.7434215   -0.3953219 
   0.008952226     0.9717652   -0.0244012    -0.0002378    0.0002461    -0.0002808   -0.0000692     0.7411214   -0.3933201 
   0.009052251     0.9640118   -0.0377144     0.0004001    0.0002768     0.0003020   -0.0001519     0.7351588   -0.3979768 
   0.009152276     0.9816141   -0.0455280    -0.0008932    0.0002103    -0.0000034    0.0002143     0.7268905   -0.4022963 
   0.009252301     0.9516101   -0.0373884     0.0000119    0.0011702    -0.0002469    0.0004249     0.7265223   -0.4058111 
   0.009352326     0.9597287   -0.0449716     0.0005467   -0.0007874     0.0000436   -0.0003416     0.7227451   -0.4035306 
   0.009452351     0.9719326   -0.0230184     0.0002459    0.0003696     0.0001119    0.0001063     0.7183769   -0.4057746 
   0.009552376     0.9782069   -0.0470734    -0.0010303    0.0011925    -0.0000739    0.0003070     0.7149819   -0.4062786 
   0.009652401     0.9477197   -0.0456825    -0.0004560    0.0005763    -0.0001202    0.0001048     0.7100527   -0.4065273 
   0.009752426     0.9356159   -0.0411890    -0.0003301   -0.0008343     0.0000673    0.0001368     0.7054881   -0.4086024 
   0.009852451     0.9567271   -0.0628119     0.0006286    0.0000114     0.0000249    0.0000186     0.7027271   -0.4130055 
   0.009952476     0.9567934   -0.0596865    -0.0005161   -0.0000848    -0.0000423    0.0000172     0.6938621   -0.4097993 
   0.010052501     0.9558028   -0.0407643     0.0007387    0.0014922    -0.0000897    0.0003099     0.6965125   -0.4100541 
   0.010152526     0.9554488   -0.0332526    -0.0013120   -0.0004318    -0.0002108   -0.0001344     0.6908807   -0.4133669 
   0.010252551     0.9444604   -0.0482923    -0.0001292    0.0007863    -0.0001395    0.0002929     0.6877089   -0.4180998 
   0.010352576     0.9778665   -0.0511091     0.0002160    0.0003878    -0.0005551    0.0005612     0.6829375   -0.4179557 
   0.010452601     0.9769701   -0.0302493    -0.0002488    0.0001455    -0.0002232   -0.0003260     0.6778954   -0.4206565 
   0.010552626     0.9537375   -0.0495900    -0.0007682    0.0002165     0.0000769   -0.0000773     0.6763515   -0.4190926 
   0.010652651     0.9615742   -0.0529044     0.0003818    0.0002829    -0.0002126    0.0003777     0.6738818   -0.4195470 
   0.010752676     0.9660978   -0.0486026     0.0006942    0.0005293    -0.0004953    0.0004130     0.6665193   -0.4196922 
   0.010852701     0.9703600   -0.0354151    -0.0006382   -0.0002837    -0.0002321    0.0001073     0.6681452   -0.4227117 
   0.010952726     0.9552809   -0.0509949    -0.0011321   -0.0006502     0.0002161    0.0003273     0.6597638   -0.4230737 
   0.011052751     0.9584479   -0.0502306    -0.0000910   -0.0005392    -0.0000510    0.0002721     0.6580037   -0.4233321 
   0.011152776     0.9596220   -0.0421561    -0.0004962    0.0002686    -0.0003437    0.0003368     0.6535971   -0.4264369 
   0.011252801     0.9525723   -0.0611856    -0.0001614    0.0006510    -0.0004986    0.0003455     0.6465341   -0.4267637 
   0.011352826     0.9624562   -0.0647053    -0.0002885   -0.0002633    -0.0002255    0.0003345     0.6474504   -0.4255476 
   0.011452851     0.9547332   -0.0506871    -0.0007050   -0.0013535     0.0004085    0.0002611     0.6391545   -0.4272423 
   0.011552876     0.9383312   -0.0512441     0.0006232    0.0009453    -0.0001280    0.0003541     0.6387147   -0.4288811 
   0.011652901     0.9749029   -0.0592970    -0.0001970    0.0014603     0.0002299    0.0001623     0.6334713   -0.4299453 
   0.011752926     0.9554351   -0.0450344    -0.0011223   -0.0008802     0.0004205    0.0003204     0.6324465   -0.4287445 
   0.011852951     0.9743548   -0.0509377    -0.0010177    0.0007415    -0.0002178   -0.0001260     0.6276384   -0.4290296 
   0.011952976     0.9572784   -0.0394314     0.0004253    0.0001261    -0.0001298    0.0003798     0.6253169   -0.4271455 
   0.012053002     0.9660403   -0.0650696     0.0006951    0.0003339    -0.0002179    0.0005208     0.6204487   -0.4312492 
   0.012153027     0.9646845   -0.0689174     0.0002973    0.0000433    -0.0000660    0.0001273     0.6169606   -0.4313868 
   0.012253052     0.9520537   -0.0615275    -0.0000703    0.0004502    -0.0000808    0.0003846     0.6185264   -0.4306577 
   0.012353077     0.9558710   -0.0499812    -0.0000971   -0.0001381    -0.0000358    0.0002559     0.6131959   -0.4311171 
   0.012453102     0.9590490   -0.0360686    -0.0002503   -0.0011684    -0.0000341   -0.0000852     0.6059965   -0.4317590 
   0.012553127     0.9753676   -0.0758542     0.0000216    0.0000178    -0.0001551    0.0002433     0.6005507   -0.4307434 
   0.012653152     0.9740201   -0.0482880    -0.0005043    0.0003013    -0.0000694    0.0002477     0.5987250   -0.4323176 
   0.012753177     0.9523850   -0.0627157     0.0009694    0.0001526    -0.0000700    0.0000902     0.5980503   -0.4308279 
   0.012853202     0.9514748   -0.0461915     0.0004822    0.0002352     0.0000149    0.0000680     0.5908892   -0.4331630 
   0.012953227     0.9601166   -0.0378465     0.0004972    0.0005271    -0.0002425    0.0001457     0.5924513   -0.4302017 
   0.013053252     0.9474029   -0.0740802    -0.0004502    0.0003643    -0.0000149    0.0002776     0.5863206   -0.4322387 
   0.013153277     0.9517207   -0.0612414    -0.0001096    0.0006924    -0.0002681    0.0002048     0.5822423   -0.4340627 
   0.013253302     0.9648186   -0.0556291     0.0007039    0.0009045    -0.0000822    0.0001255     0.5818030   -0.4315113 
   0.013353327     0.9561858   -0.0497268    -0.0018366    0.0016171     0.0000914    0.0001827     0.5763363   -0.4333669 
   0.013453352     0.9696300   -0.0448349    -0.0000180   -0.0007597    -0.0001890    0.0000280     0.5727550   -0.4352846 
   0.013553377     0.9441771   -0.0542725    -0.0011274    0.0002344     0.0001948    0.0000983     0.5699279   -0.4322820 
   0.013653402     0.9584640   -0.0602081    -0.0008659    0.0003134     0.0000517    0.0002657     0.5675209   -0.4317583 
   0.013753427     0.9548693   -0.0543698     0.0002825   -0.0000656     0.0002556   -0.0001454     0.5615441   -0.4329121 
   0.013853452     0.9697239   -0.0636822    -0.0001930    0.0011503    -0.0002732    0.0003858     0.5625681   -0.4310350 
   0.013953477     0.9503093   -0.0469722    -0.0020619    0.0011178     0.0004298   -0.0001317     0.5578046   -0.4340524 
   0.014053502     0.9620301   -0.0645661     0.0004733    0.0002894    -0.0000290   -0.0001155     0.5548540   -0.4322730 
   0.014153527     0.9705305   -0.0707562    -0.0006829    0.0015623     0.0001216    0.0001510     0.5532175   -0.4310110 
   0.014253552     0.9555087   -0.0450447     0.0003935   -0.0004852    -0.0000375    0.0001409     0.5511767   -0.4334143 
   0.014353577     0.9541925   -0.0615634     0.0006897    0.0010504    -0.0001487    0.0003123     0.5444112   -0.4314382 
   0.014453602     0.9313499   -0.0638179     0.0014308    0.0000223    -0.0001942   -0.0000373     0.5441557   -0.4310490 
   0.014553627     0.9449853   -0.0594337     0.0000867    0.0003508    -0.0002541    0.0002967     0.5406802   -0.4303753 
   0.014653652     0.9677401   -0.0657260    -0.0003857    0.0006139    -0.0001427    0.0000480     0.5354976   -0.4323767 
   0.014753677     0.9377704   -0.0587898     0.0007527   -0.0008713     0.0002293    0.0000590     0.5339549   -0.4302931 
   0.014853702     0.9581264   -0.0392261    -0.0000381    0.0005875    -0.0006243    0.0001275     0.5327482   -0.4299622 
   0.014953727     0.9603737   -0.0857176    -0.0004830   -0.0006063     0.0002011    0.0000645     0.5276971   -0.4295285 
   0.015053752     0.9570449   -0.0672074     0.0002898    0.0000545     0.0001986    0.0004563     0.5248728   -0.4311446 
   0.015153777     0.9633567   -0.0599324     0.0004645   -0.0002050    -0.0000867    0.0003207     0.5245121   -0.4309715 
   0.015253802     0.9457245   -0.0575361    -0.0002448   -0.0001301    -0.0002009   -0.0001044     0.5190382   -0.4307134 
   0.015353827     0.9518178   -0.0627806    -0.0002204   -0.0008073    -0.0000680    0.0004337     0.5168135   -0.4289680 
   0.015453852     0.9600554   -0.0643948    -0.0005482    0.0000650    -0.0000297    0.0006136     0.5145547   -0.4268229 
   0.015553877     0.9660665   -0.0603756     0.0009012    0.0005455    -0.0004375    0.0002464     0.5114661   -0.4279417 
   0.015653902     0.9621599   -0.0711777    -0.0003450    0.0001770    -0.0001780    0.0003730     0.5100667   -0.4312174 
