! 26-Feb-26 1:04:28 PM
! E:\VNA_MEASUREMENTS\SP8T\SP8T_P7_RF6.S2P
! CHANNEL.1
! TR.MEASUREMENT
! CORRECTED.DATA
# GHZ S RI R 50.0
! FREQ.GHZ         S11RE         S11IM         S21RE         S21IM         S12RE         S12IM         S22RE         S22IM         
!; PortSelection: Port_12
   0.000050000     0.6138113    0.2636476    -0.1289529   -0.2204957     0.0041170   -0.0115124     0.9725429   -0.0301896 
   0.000150025    -0.1253498    0.0584843     0.8433496   -0.1737400     0.0007870    0.0005537     1.0032580   -0.0141477 
   0.000250050     0.0134082    0.1961831    -0.0026467   -0.0021143    -0.0014096    0.0003121     0.9973726   -0.0108300 
   0.000350075     0.9672604   -0.0953530    -0.0035016   -0.0101333     0.0003476   -0.0003923     0.9925982   -0.0344481 
   0.000450100     1.0318290   -0.0450803    -0.0042534   -0.0092673     0.0002402   -0.0000049     0.9962979   -0.0162246 
   0.000550125     1.0229130    0.0054426    -0.0079270   -0.0122965     0.0004780   -0.0002206     0.9908552   -0.0285666 
   0.000650150     0.9821226   -0.0191538    -0.0073062   -0.0109097    -0.0002923   -0.0005493     1.0055930   -0.0477048 
   0.000750175     0.9759637   -0.0630427    -0.0080397   -0.0050459     0.0008860   -0.0003874     0.9937322   -0.0504875 
   0.000850200     1.0122380   -0.0763729    -0.0075988   -0.0056348     0.0001122   -0.0009628     0.9973459   -0.0501499 
   0.000950225     1.0154210   -0.0757771    -0.0079296   -0.0052020    -0.0005412    0.0006223     0.9965537   -0.0671734 
   0.001050250     1.0251880   -0.0459770    -0.0124432   -0.0060127    -0.0000796    0.0003015     0.9878626   -0.0633622 
   0.001150275     1.0657630   -0.0336543    -0.0124956   -0.0062732     0.0000803   -0.0009032     0.9855998   -0.0711498 
   0.001250300     0.9476336   -0.0365581    -0.0093780   -0.0038496    -0.0003171   -0.0003586     0.9929739   -0.0848543 
   0.001350325     0.9736176   -0.0586798    -0.0150357   -0.0000681    -0.0002233    0.0003252     0.9870172   -0.0934596 
   0.001450350     1.0035260   -0.0495605    -0.0069444    0.0002998    -0.0001528   -0.0004977     0.9899774   -0.0871882 
   0.001550375     0.9448872   -0.0676842    -0.0096179   -0.0009868     0.0004305    0.0005553     0.9989842   -0.0991247 
   0.001650400     0.9992388   -0.0675981    -0.0072574   -0.0029320    -0.0001511    0.0000380     0.9804117   -0.0970292 
   0.001750425     0.9919079   -0.0787984    -0.0110610   -0.0018282     0.0000532   -0.0007806     0.9862407   -0.1073893 
   0.001850450     0.9608234   -0.0779743    -0.0104841   -0.0025955     0.0000809   -0.0006352     0.9826098   -0.1131950 
   0.001950475     1.0394690   -0.0225864    -0.0058174    0.0015346     0.0003112    0.0006824     0.9898068   -0.1252328 
   0.002050500     0.9988982   -0.0466809    -0.0082193    0.0016156    -0.0003032    0.0004377     0.9822354   -0.1369977 
   0.002150525     1.0042040   -0.0364369    -0.0077548    0.0059867    -0.0002316   -0.0001413     0.9771388   -0.1448319 
   0.002250550     0.9201383   -0.0529385    -0.0052408    0.0026129    -0.0000632    0.0010524     0.9722661   -0.1446728 
   0.002350575     0.9727932   -0.1232227    -0.0036575    0.0012607    -0.0004917    0.0004064     0.9762208   -0.1453060 
   0.002450600     1.0053060   -0.0805954    -0.0095734    0.0017738     0.0004840   -0.0004746     0.9773207   -0.1597746 
   0.002550625     0.9833689   -0.0991535    -0.0052526    0.0056016    -0.0004207    0.0004472     0.9715017   -0.1543832 
   0.002650650     0.9684842   -0.0775340    -0.0047434    0.0049674    -0.0000149    0.0001017     0.9728950   -0.1730929 
   0.002750675     0.9704196   -0.0233256    -0.0010291    0.0058899     0.0001260   -0.0004256     0.9625382   -0.1784319 
   0.002850700     1.0372200   -0.1101826    -0.0036403    0.0056252     0.0005585   -0.0002200     0.9638467   -0.1794864 
   0.002950725     0.9720840   -0.0965902    -0.0039854    0.0030657    -0.0000029    0.0003530     0.9673084   -0.1845675 
   0.003050750     0.9818733   -0.1104477    -0.0029466    0.0055826     0.0001701   -0.0000098     0.9556991   -0.1949291 
   0.003150775     0.9746544   -0.1789674    -0.0027004    0.0043889    -0.0001473    0.0009254     0.9485610   -0.1995397 
   0.003250800     0.9641549   -0.0945763    -0.0038777    0.0038482     0.0004944   -0.0002643     0.9501820   -0.1998129 
   0.003350825     0.9919371   -0.0723759    -0.0025077    0.0011881     0.0004501    0.0004129     0.9484708   -0.2108249 
   0.003450850     0.9524760   -0.1588379    -0.0032863    0.0013188     0.0004320   -0.0001765     0.9456860   -0.2121198 
   0.003550875     0.9413221   -0.1047884    -0.0004179    0.0009300     0.0004682   -0.0006920     0.9426173   -0.2179900 
   0.003650900     0.9638146   -0.1021958    -0.0004644    0.0024196     0.0000994   -0.0001652     0.9373404   -0.2263946 
   0.003750925     0.9657484   -0.1414477    -0.0039101   -0.0004425    -0.0002967   -0.0000034     0.9302610   -0.2292702 
   0.003850950     0.9614428   -0.1216434    -0.0018542    0.0013770    -0.0000488    0.0006343     0.9327953   -0.2315365 
   0.003950975     0.9701369   -0.1057668     0.0006826   -0.0003653     0.0000701   -0.0006147     0.9265269   -0.2351492 
   0.004051001     0.9736098   -0.1548814     0.0005036    0.0012678     0.0004908    0.0001867     0.9274690   -0.2432812 
   0.004151026     0.9832482   -0.1397944    -0.0015671    0.0016144     0.0001559    0.0001264     0.9241233   -0.2447989 
   0.004251051     0.9423095   -0.1365586    -0.0000407    0.0012210     0.0001484   -0.0003293     0.9155025   -0.2575145 
   0.004351076     0.9888583   -0.1202518    -0.0001026    0.0004540     0.0001619    0.0006238     0.9110855   -0.2603909 
   0.004451101     0.9794587   -0.1262777    -0.0009303    0.0012439    -0.0009832    0.0003988     0.9102800   -0.2598391 
   0.004551126     0.9800183   -0.1435648    -0.0015937    0.0027610    -0.0000676   -0.0001252     0.9127824   -0.2656756 
   0.004651151     0.9603441   -0.1583479    -0.0030745    0.0030053    -0.0001559    0.0011863     0.9076598   -0.2701328 
   0.004751176     0.9745657   -0.1628273    -0.0026498    0.0027801     0.0005921   -0.0001454     0.9067730   -0.2797047 
   0.004851201     0.9401343   -0.1641005     0.0009009    0.0022335    -0.0004864   -0.0003186     0.8941032   -0.2837378 
   0.004951226     0.9492979   -0.1439750    -0.0009751    0.0004759    -0.0001199    0.0006850     0.8921362   -0.2820710 
   0.005051251     0.9908947   -0.1719301     0.0014018   -0.0005980     0.0002617    0.0002201     0.8925267   -0.2860973 
   0.005151276     0.9544703   -0.1651859     0.0009922    0.0011790     0.0001397    0.0001319     0.8822137   -0.2932234 
   0.005251301     0.9539137   -0.1753354     0.0003617    0.0020358    -0.0003019   -0.0003963     0.8775689   -0.2970400 
   0.005351326     0.9592105   -0.1445762     0.0014744    0.0001972     0.0005696    0.0000250     0.8781107   -0.3010471 
   0.005451351     0.9740961   -0.1618162    -0.0000608   -0.0009469    -0.0001368   -0.0005475     0.8700460   -0.3110687 
   0.005551376     0.9724717   -0.1827690    -0.0011407    0.0000342    -0.0004318   -0.0000394     0.8737540   -0.3081183 
   0.005651401     0.9327030   -0.1722728     0.0003721    0.0003571     0.0000882    0.0001180     0.8635334   -0.3179125 
   0.005751426     0.9381235   -0.1670656    -0.0000558   -0.0000370    -0.0001883    0.0005852     0.8628339   -0.3168648 
   0.005851451     0.9508753   -0.1755841    -0.0002750    0.0002320     0.0000190    0.0002752     0.8564449   -0.3252435 
   0.005951476     0.9512909   -0.1889598    -0.0009315   -0.0000736     0.0000575   -0.0003640     0.8525441   -0.3224188 
   0.006051501     0.9671895   -0.2103162     0.0008083   -0.0000077     0.0004607    0.0001277     0.8495311   -0.3301187 
   0.006151526     0.9192959   -0.2054484    -0.0001073   -0.0004483     0.0000268    0.0001470     0.8466151   -0.3350050 
   0.006251551     0.9507140   -0.1738094     0.0002599   -0.0005214    -0.0000713   -0.0000702     0.8435054   -0.3388270 
   0.006351576     0.9363106   -0.2070105    -0.0013465    0.0007630    -0.0005153   -0.0003218     0.8365268   -0.3410208 
   0.006451601     0.9277159   -0.2035230    -0.0007308    0.0009587     0.0004160    0.0002418     0.8326511   -0.3460912 
   0.006551626     0.9416791   -0.2228538     0.0006525   -0.0005021    -0.0005079   -0.0003831     0.8308858   -0.3452579 
   0.006651651     0.9243512   -0.2005580     0.0001625    0.0012430     0.0002820   -0.0001916     0.8236433   -0.3514597 
   0.006751676     0.9319152   -0.2349916    -0.0005337   -0.0002013    -0.0004091   -0.0001472     0.8228692   -0.3513385 
   0.006851701     0.9620761   -0.2517608     0.0008549    0.0006712    -0.0000614    0.0000692     0.8159733   -0.3558960 
   0.006951726     0.8986758   -0.2311287     0.0002103    0.0001143    -0.0000881   -0.0000201     0.8110329   -0.3543302 
   0.007051751     0.9365439   -0.2041666    -0.0006652    0.0014721    -0.0002009    0.0001542     0.8085285   -0.3609982 
   0.007151776     0.9008715   -0.2361050    -0.0006402   -0.0010886    -0.0002480    0.0001890     0.7991011   -0.3636937 
   0.007251801     0.9468768   -0.2243935    -0.0007249    0.0004191     0.0000983   -0.0000656     0.7965418   -0.3689457 
   0.007351826     0.9260981   -0.2352702    -0.0001367    0.0025476    -0.0002979    0.0001952     0.7929320   -0.3724805 
   0.007451851     0.9114649   -0.2598045    -0.0014077    0.0001134     0.0003329   -0.0000692     0.7883409   -0.3669968 
   0.007551876     0.9343954   -0.2319693     0.0009879    0.0004243    -0.0001847    0.0003033     0.7863570   -0.3746679 
   0.007651901     0.9309608   -0.2592842    -0.0015158    0.0008383     0.0000542    0.0000061     0.7831578   -0.3744670 
   0.007751926     0.9162730   -0.2205364     0.0002702    0.0002769    -0.0003361    0.0002763     0.7740232   -0.3800439 
   0.007851951     0.9192873   -0.2462261    -0.0002767    0.0000940     0.0001426    0.0001613     0.7731657   -0.3796749 
   0.007951976     0.9117168   -0.2640843    -0.0015609   -0.0016400     0.0002882   -0.0004509     0.7681290   -0.3826201 
   0.008052001     0.9189789   -0.2466156    -0.0002266    0.0003898    -0.0001873    0.0004935     0.7625986   -0.3888776 
   0.008152026     0.9190828   -0.2606722     0.0003907    0.0006997     0.0000681    0.0002335     0.7637741   -0.3917923 
   0.008252051     0.9101373   -0.2467599     0.0003226    0.0010504     0.0005718   -0.0000434     0.7545982   -0.3924740 
   0.008352076     0.9222769   -0.2765531     0.0002373    0.0001190    -0.0004338    0.0000245     0.7520452   -0.3943855 
   0.008452101     0.9092788   -0.2554686    -0.0005021   -0.0008120     0.0002170    0.0000820     0.7488868   -0.3942790 
   0.008552126     0.9187332   -0.2427797     0.0001009   -0.0012806    -0.0001768   -0.0003943     0.7444493   -0.3981221 
   0.008652151     0.9087838   -0.2499871    -0.0011644    0.0005574     0.0004086    0.0004243     0.7387583   -0.4015419 
   0.008752176     0.9105161   -0.2512549     0.0001759    0.0030178    -0.0001065    0.0002046     0.7359481   -0.4047489 
   0.008852201     0.9133189   -0.2538804     0.0003418    0.0001973    -0.0002707    0.0001732     0.7309237   -0.4011901 
   0.008952226     0.9159518   -0.2844679    -0.0005976    0.0002634    -0.0003665   -0.0001074     0.7284780   -0.4031292 
   0.009052251     0.9185544   -0.2610298    -0.0001134    0.0006364     0.0003493    0.0004010     0.7242023   -0.4074661 
   0.009152276     0.9152095   -0.2807161     0.0005865    0.0002442    -0.0001447   -0.0000601     0.7167768   -0.4076224 
   0.009252301     0.9006019   -0.2742268     0.0012583    0.0013682     0.0002283    0.0003391     0.7162322   -0.4120856 
   0.009352326     0.9074271   -0.2915914    -0.0002348    0.0005105    -0.0000643    0.0001813     0.7089590   -0.4091164 
   0.009452351     0.9064545   -0.2700462    -0.0015656    0.0002189     0.0002135    0.0000627     0.7037135   -0.4103896 
   0.009552376     0.9067222   -0.2932985    -0.0005735    0.0005963     0.0000608    0.0000385     0.7009241   -0.4120800 
   0.009652401     0.8845610   -0.2787144    -0.0005377    0.0022267     0.0000710    0.0002722     0.6965212   -0.4146954 
   0.009752426     0.8920996   -0.2936103    -0.0005034    0.0005539     0.0003403    0.0005655     0.6937849   -0.4144808 
   0.009852451     0.8929579   -0.3036176     0.0007221   -0.0003233    -0.0000325    0.0003415     0.6872107   -0.4177388 
   0.009952476     0.8881058   -0.3219879     0.0005822    0.0011666    -0.0001721   -0.0000347     0.6821628   -0.4139271 
   0.010052501     0.8897610   -0.3083510    -0.0005079   -0.0003264    -0.0003448   -0.0002348     0.6824157   -0.4188819 
   0.010152526     0.8788191   -0.2954419    -0.0000439   -0.0003322    -0.0001652    0.0000619     0.6764265   -0.4198475 
   0.010252551     0.8760040   -0.2977247    -0.0007119    0.0003879     0.0000539    0.0004244     0.6724963   -0.4245494 
   0.010352576     0.8919464   -0.3176806    -0.0008987    0.0007401    -0.0000023    0.0002137     0.6679931   -0.4244899 
   0.010452601     0.8854308   -0.2999693     0.0000598   -0.0007387     0.0001210   -0.0001359     0.6636569   -0.4223653 
   0.010552626     0.8726362   -0.3100915     0.0002599   -0.0002259    -0.0002249    0.0000189     0.6613339   -0.4258800 
   0.010652651     0.8709932   -0.3081933    -0.0007314   -0.0000651    -0.0001176    0.0000482     0.6584978   -0.4266557 
   0.010752676     0.8775573   -0.3341858    -0.0008543   -0.0004948    -0.0004698    0.0005179     0.6543677   -0.4240700 
   0.010852701     0.8844182   -0.3052700     0.0001483   -0.0004683     0.0001598   -0.0000390     0.6525595   -0.4240924 
   0.010952726     0.8907307   -0.3134645    -0.0004268    0.0002264     0.0002158    0.0004166     0.6452278   -0.4274032 
   0.011052751     0.8769521   -0.3337586     0.0003667   -0.0011466     0.0001393    0.0000745     0.6429085   -0.4284624 
   0.011152776     0.8807873   -0.3191398     0.0005704    0.0009336     0.0001259    0.0004335     0.6364179   -0.4287098 
   0.011252801     0.8592471   -0.3311710    -0.0002653   -0.0002031    -0.0000668    0.0003285     0.6327962   -0.4295120 
   0.011352826     0.8571368   -0.3435532     0.0002480    0.0000849    -0.0004725    0.0003044     0.6319718   -0.4285541 
   0.011452851     0.8523299   -0.3335692     0.0001823    0.0007280     0.0000870    0.0003481     0.6285024   -0.4332572 
   0.011552876     0.8459402   -0.3387277    -0.0011428    0.0007950     0.0006123    0.0002585     0.6237817   -0.4339644 
   0.011652901     0.8471735   -0.3379643     0.0011942    0.0004658     0.0002119    0.0001369     0.6187786   -0.4314835 
   0.011752926     0.8438478   -0.3299513    -0.0002073   -0.0008840     0.0002569    0.0001099     0.6164784   -0.4324126 
   0.011852951     0.8590571   -0.3380651    -0.0002219   -0.0009101    -0.0000544    0.0001109     0.6153944   -0.4348038 
   0.011952976     0.8433186   -0.3328752     0.0001738    0.0002759     0.0001303    0.0004944     0.6091235   -0.4320906 
   0.012053002     0.8387096   -0.3612694    -0.0003206   -0.0001439     0.0001440    0.0001582     0.6061854   -0.4335611 
   0.012153027     0.8604645   -0.3555134    -0.0010282    0.0006301     0.0001530    0.0001698     0.6008976   -0.4346122 
   0.012253052     0.8344625   -0.3445740     0.0004518   -0.0006911    -0.0000909    0.0005127     0.5989212   -0.4355640 
   0.012353077     0.8402864   -0.3466635     0.0003551    0.0005067    -0.0000365    0.0002692     0.5961083   -0.4339767 
   0.012453102     0.8464767   -0.3635370     0.0002579    0.0000964     0.0002068    0.0002677     0.5912784   -0.4353617 
   0.012553127     0.8403791   -0.3647473    -0.0017542   -0.0000182     0.0002403    0.0001151     0.5863768   -0.4338606 
   0.012653152     0.8454834   -0.3494015     0.0001968    0.0003376    -0.0002602    0.0000684     0.5842367   -0.4354078 
   0.012753177     0.8317963   -0.3519454     0.0000403    0.0013175     0.0001457    0.0004197     0.5818248   -0.4357724 
   0.012853202     0.8330514   -0.3379151     0.0003070    0.0009305     0.0001016    0.0004328     0.5739359   -0.4333107 
   0.012953227     0.8269052   -0.3557774     0.0000097    0.0006922     0.0002344    0.0002261     0.5765081   -0.4344060 
   0.013053252     0.8185236   -0.3743939    -0.0006071   -0.0004449     0.0000600    0.0005268     0.5738133   -0.4362613 
   0.013153277     0.8240944   -0.3630353    -0.0004082   -0.0001524     0.0002719    0.0001609     0.5662907   -0.4361818 
   0.013253302     0.8284804   -0.3599979     0.0001377    0.0003803     0.0001007    0.0004448     0.5638791   -0.4325778 
   0.013353327     0.8110002   -0.3596503     0.0003226    0.0004955     0.0000286    0.0002890     0.5619522   -0.4367150 
   0.013453352     0.8252480   -0.3576354     0.0005806   -0.0007257     0.0000145    0.0000661     0.5590100   -0.4349186 
   0.013553377     0.8073183   -0.3669085     0.0003264    0.0002739     0.0001582    0.0005597     0.5534583   -0.4353397 
   0.013653402     0.8182014   -0.3766865     0.0005958    0.0008405     0.0002189    0.0002960     0.5522621   -0.4356731 
   0.013753427     0.8160651   -0.3655458    -0.0001616    0.0001279    -0.0000024    0.0004644     0.5491621   -0.4323308 
   0.013853452     0.8185313   -0.3780931    -0.0004879   -0.0003786     0.0001445    0.0002772     0.5479774   -0.4347678 
   0.013953477     0.7981287   -0.3576784    -0.0006062    0.0004617     0.0003510    0.0002650     0.5424758   -0.4342265 
   0.014053502     0.8193359   -0.3896405     0.0006945    0.0007444     0.0000071    0.0003426     0.5392482   -0.4336204 
   0.014153527     0.8038022   -0.3716766    -0.0000071   -0.0000628     0.0001758    0.0003094     0.5368469   -0.4344675 
   0.014253552     0.8072073   -0.3860312    -0.0004180    0.0005654     0.0000489    0.0003726     0.5335934   -0.4340148 
   0.014353577     0.7981818   -0.3772740    -0.0000862    0.0006319     0.0003348   -0.0000231     0.5275474   -0.4336415 
   0.014453602     0.7866284   -0.3835267     0.0001626   -0.0003268     0.0000762    0.0002325     0.5268343   -0.4321112 
   0.014553627     0.7885525   -0.3831481     0.0003657   -0.0007218     0.0004078    0.0002035     0.5244588   -0.4317519 
   0.014653652     0.7958516   -0.3878049    -0.0004605    0.0002779     0.0001212    0.0005842     0.5196384   -0.4322601 
   0.014753677     0.7941191   -0.3929018    -0.0003188   -0.0004812    -0.0001129    0.0000947     0.5190459   -0.4303805 
   0.014853702     0.7978842   -0.3833560    -0.0003114   -0.0005164    -0.0000430   -0.0001460     0.5136547   -0.4329641 
   0.014953727     0.7787426   -0.4030371     0.0008860    0.0013279    -0.0000332    0.0000292     0.5121514   -0.4310886 
   0.015053752     0.7825669   -0.3903981     0.0002984    0.0003661     0.0001123    0.0002955     0.5085309   -0.4311611 
   0.015153777     0.7840778   -0.4072898    -0.0003527   -0.0000959     0.0002236    0.0001262     0.5082966   -0.4336203 
   0.015253802     0.7763350   -0.3941005    -0.0009545   -0.0001468     0.0001624    0.0001561     0.5043550   -0.4295428 
   0.015353827     0.7726838   -0.3921684    -0.0001168   -0.0000498     0.0002886    0.0002169     0.5017438   -0.4290026 
   0.015453852     0.7778606   -0.3942044    -0.0003185    0.0004476     0.0000050    0.0001319     0.4971310   -0.4298591 
   0.015553877     0.7774033   -0.4115437     0.0005404   -0.0009415     0.0001556    0.0004175     0.4958554   -0.4290453 
   0.015653902     0.7699130   -0.3997612    -0.0002198    0.0003912     0.0003398    0.0006654     0.4924841   -0.4296932 
