! 26-Feb-26 12:21:20 PM
! E:\VNA_MEASUREMENTS\SP8T\SP8T_P5_RF6.S2P
! CHANNEL.1
! TR.MEASUREMENT
! CORRECTED.DATA
# GHZ S RI R 50.0
! FREQ.GHZ         S11RE         S11IM         S21RE         S21IM         S12RE         S12IM         S22RE         S22IM         
!; PortSelection: Port_12
   0.000050000    -0.1300319    0.1153649    -0.1750458   -0.0373174     0.0028254   -0.0020416     1.0250670    0.0344736 
   0.000150025     0.0607828    0.3990794    -0.2082046   -0.6425627    -0.0017226    0.0008371     0.9946831   -0.0070830 
   0.000250050    -0.5835446   -0.3572451    -0.0060654   -0.0073852     0.0004317    0.0002828     1.0016320   -0.0072866 
   0.000350075     0.9995689   -0.0166084    -0.0073128   -0.0142893    -0.0004710    0.0014792     0.9956179   -0.0350901 
   0.000450100     1.0422040   -0.0463981    -0.0030810   -0.0104571     0.0001490    0.0004565     0.9942862   -0.0246413 
   0.000550125     0.9846032   -0.0497453    -0.0029442   -0.0117635    -0.0011580    0.0001402     0.9967115   -0.0361035 
   0.000650150     0.9228866    0.0380055    -0.0059146   -0.0092068     0.0008125    0.0002077     1.0031470   -0.0440338 
   0.000750175     0.9812756   -0.0365115    -0.0038911   -0.0086768    -0.0015144    0.0008374     0.9926991   -0.0490569 
   0.000850200     1.0351240   -0.1269078    -0.0121841   -0.0098075     0.0002161   -0.0007686     0.9956927   -0.0506725 
   0.000950225     0.9884070   -0.0632211    -0.0126527   -0.0122072     0.0003656    0.0012544     0.9912071   -0.0665536 
   0.001050250     0.9625158   -0.0506521    -0.0065203   -0.0078939    -0.0000328    0.0006865     0.9849011   -0.0603101 
   0.001150275     1.0447970   -0.0544257    -0.0084164   -0.0060934    -0.0001257    0.0010284     0.9868815   -0.0694341 
   0.001250300     0.9563138   -0.0534976    -0.0088105   -0.0032797    -0.0006884   -0.0006110     0.9915757   -0.0910325 
   0.001350325     0.9884756   -0.0613838    -0.0130789   -0.0001293     0.0003928   -0.0001900     0.9885266   -0.0876272 
   0.001450350     0.9948873   -0.0442901    -0.0081472   -0.0006082    -0.0000903   -0.0001957     0.9879789   -0.0962126 
   0.001550375     0.9414734   -0.0819189    -0.0099515    0.0002689     0.0001695   -0.0004146     0.9937284   -0.1010628 
   0.001650400     1.0200090   -0.0600219    -0.0105131   -0.0026553     0.0005836   -0.0005228     0.9859744   -0.1096135 
   0.001750425     0.9707944   -0.0577436    -0.0074115   -0.0017962    -0.0010900    0.0003996     0.9877509   -0.1094760 
   0.001850450     0.9563399   -0.0455085    -0.0104239    0.0000143    -0.0002446   -0.0004472     0.9773708   -0.1139321 
   0.001950475     0.9995521   -0.0041563    -0.0091832    0.0032523     0.0000439   -0.0003192     0.9820698   -0.1250472 
   0.002050500     0.9985682   -0.0185491    -0.0056490    0.0032363    -0.0000216   -0.0001719     0.9750431   -0.1371420 
   0.002150525     0.9906798   -0.1034022    -0.0093338    0.0045757     0.0000958    0.0003611     0.9752819   -0.1347501 
   0.002250550     0.9620022   -0.0719784    -0.0063127    0.0004874    -0.0007829   -0.0006135     0.9791694   -0.1412298 
   0.002350575     0.9505206   -0.1243440    -0.0043755    0.0069416    -0.0004278   -0.0007225     0.9697081   -0.1483667 
   0.002450600     1.0077820   -0.0721166    -0.0048745    0.0049273     0.0000406   -0.0001397     0.9776222   -0.1554245 
   0.002550625     1.0074110   -0.0804450    -0.0064171    0.0038434    -0.0008737    0.0010350     0.9785830   -0.1602962 
   0.002650650     0.9780284   -0.0405011    -0.0068906    0.0007152     0.0001513    0.0009435     0.9674501   -0.1697330 
   0.002750675     0.9732926   -0.0487433    -0.0051094   -0.0001502    -0.0001471   -0.0000986     0.9600167   -0.1775448 
   0.002850700     1.0218960   -0.1140198    -0.0007872    0.0006384    -0.0000438   -0.0004101     0.9585680   -0.1779452 
   0.002950725     0.9301972   -0.0799635    -0.0022278    0.0040992    -0.0003756   -0.0005307     0.9620728   -0.1809007 
   0.003050750     0.9573491   -0.1280055    -0.0032255    0.0027380     0.0005296   -0.0001540     0.9573892   -0.1909874 
   0.003150775     0.9811112   -0.1683816     0.0000678    0.0006695     0.0000119    0.0005728     0.9488723   -0.1948600 
   0.003250800     0.9746627   -0.0704049    -0.0030201    0.0046090     0.0001614    0.0005436     0.9504883   -0.1943621 
   0.003350825     0.9980808   -0.1190749    -0.0019110    0.0012296    -0.0000629    0.0005428     0.9454722   -0.2109765 
   0.003450850     0.9890435   -0.1488671    -0.0006911    0.0004928    -0.0004406   -0.0009824     0.9487296   -0.2154782 
   0.003550875     0.9700643   -0.0980279    -0.0018263    0.0037564     0.0002755    0.0006063     0.9423339   -0.2204311 
   0.003650900     0.9749138   -0.1095022    -0.0016929   -0.0006465     0.0001092    0.0003805     0.9409021   -0.2274026 
   0.003750925     0.9648847   -0.1429840    -0.0019352    0.0032162    -0.0004403   -0.0003732     0.9286680   -0.2308038 
   0.003850950     0.9928303   -0.1535362     0.0002090    0.0001515     0.0000420   -0.0006415     0.9327308   -0.2349553 
   0.003950975     0.9904481   -0.0942252    -0.0014120    0.0003985    -0.0003636   -0.0000582     0.9312164   -0.2343999 
   0.004051001     0.9502159   -0.1618643     0.0007782    0.0014011    -0.0004666    0.0002384     0.9218821   -0.2441062 
   0.004151026     0.9882762   -0.1598207    -0.0032658    0.0016673    -0.0001182    0.0001910     0.9197673   -0.2485691 
   0.004251051     0.9653956   -0.1474728    -0.0007930    0.0023424     0.0005458    0.0003171     0.9161110   -0.2559552 
   0.004351076     0.9316266   -0.1369847    -0.0008204    0.0010436    -0.0005315    0.0004873     0.9134400   -0.2521746 
   0.004451101     0.9789280   -0.1770164     0.0021899   -0.0015716    -0.0004574   -0.0001248     0.9070290   -0.2651740 
   0.004551126     0.9847658   -0.1332866     0.0001398    0.0044206     0.0002594    0.0004105     0.9102327   -0.2656701 
   0.004651151     0.9534026   -0.1512990     0.0007756    0.0007135     0.0004314   -0.0003959     0.9065414   -0.2718900 
   0.004751176     0.9560497   -0.1747299    -0.0008753   -0.0008683     0.0000955   -0.0001979     0.9012085   -0.2766392 
   0.004851201     0.9267291   -0.1727898     0.0007535    0.0005564    -0.0006037    0.0000550     0.8928481   -0.2852085 
   0.004951226     0.9173681   -0.1587845    -0.0002085    0.0017011    -0.0001984    0.0001082     0.8951769   -0.2807188 
   0.005051251     0.9904370   -0.1787660    -0.0020806   -0.0007003    -0.0003714    0.0000551     0.8902311   -0.2825854 
   0.005151276     0.9596084   -0.1647826    -0.0009846    0.0013048    -0.0003738    0.0004246     0.8834107   -0.2931730 
   0.005251301     0.9450030   -0.1778533    -0.0010654    0.0009779    -0.0003616   -0.0001663     0.8823990   -0.2927470 
   0.005351326     0.9457052   -0.1541106    -0.0004101    0.0009964     0.0003617    0.0000096     0.8782715   -0.3029291 
   0.005451351     0.9603710   -0.1492211    -0.0007663   -0.0001166     0.0000325   -0.0004365     0.8760703   -0.3109829 
   0.005551376     0.9820958   -0.1729732     0.0011822    0.0004140     0.0000767   -0.0004048     0.8701383   -0.3064309 
   0.005651401     0.9564669   -0.1772634     0.0004342    0.0027980    -0.0003376    0.0001634     0.8595867   -0.3177165 
   0.005751426     0.9358070   -0.1618968    -0.0013154    0.0013879    -0.0001420    0.0007122     0.8593348   -0.3178989 
   0.005851451     0.9372174   -0.1898012     0.0009916    0.0014609    -0.0001283   -0.0003882     0.8577212   -0.3200461 
   0.005951476     0.9375850   -0.1811100    -0.0000162    0.0000947    -0.0001692   -0.0001623     0.8552591   -0.3237582 
   0.006051501     0.9402996   -0.1936824     0.0003199   -0.0004571     0.0006949   -0.0006623     0.8527304   -0.3322830 
   0.006151526     0.9573600   -0.2012650    -0.0008976    0.0005143    -0.0004659   -0.0001480     0.8419974   -0.3347176 
   0.006251551     0.9455603   -0.2040006     0.0003152    0.0000023    -0.0003815   -0.0000246     0.8419874   -0.3360427 
   0.006351576     0.9319617   -0.1950445    -0.0019161    0.0022983     0.0001592    0.0001164     0.8348703   -0.3415792 
   0.006451601     0.9463207   -0.2245419    -0.0012067    0.0002972     0.0004321   -0.0002598     0.8343378   -0.3424464 
   0.006551626     0.9268156   -0.2107132    -0.0008973    0.0031788    -0.0000215    0.0000949     0.8291118   -0.3449447 
   0.006651651     0.9375472   -0.2161451     0.0001827   -0.0001563    -0.0001234    0.0004694     0.8217213   -0.3531464 
   0.006751676     0.9241769   -0.2274825     0.0024113    0.0006064     0.0002065    0.0001752     0.8224284   -0.3508928 
   0.006851701     0.9351979   -0.2291913    -0.0013450   -0.0001897    -0.0002288   -0.0003460     0.8155465   -0.3555681 
   0.006951726     0.9224560   -0.1967453     0.0012246    0.0007738     0.0004563    0.0000258     0.8142025   -0.3561236 
   0.007051751     0.9524040   -0.2288262    -0.0021698    0.0001085     0.0001051    0.0004933     0.8042396   -0.3595442 
   0.007151776     0.9270490   -0.2314989     0.0017857    0.0007983     0.0001351    0.0001322     0.7978257   -0.3656022 
   0.007251801     0.9572960   -0.2256684     0.0006332    0.0016335     0.0003927    0.0002017     0.7994809   -0.3663497 
   0.007351826     0.9423914   -0.2306390     0.0000445    0.0023112    -0.0003546    0.0000016     0.7906041   -0.3712913 
   0.007451851     0.9119871   -0.2273914     0.0007869    0.0013961    -0.0000141    0.0001775     0.7856331   -0.3685424 
   0.007551876     0.9241691   -0.2513604    -0.0015517    0.0004818    -0.0003432    0.0001786     0.7887043   -0.3759648 
   0.007651901     0.9352977   -0.2546811     0.0002126    0.0005749    -0.0005226    0.0003079     0.7812876   -0.3730783 
   0.007751926     0.9323842   -0.2492462     0.0000281   -0.0001213     0.0008190    0.0001419     0.7718764   -0.3808075 
   0.007851951     0.9114853   -0.2485016    -0.0011422   -0.0015785     0.0000649    0.0003417     0.7747024   -0.3820110 
   0.007951976     0.9174511   -0.2723146    -0.0003287   -0.0001695     0.0002422   -0.0003870     0.7668995   -0.3832624 
   0.008052001     0.9216627   -0.2409881    -0.0018532    0.0000160    -0.0002020    0.0001830     0.7624092   -0.3873047 
   0.008152026     0.9182115   -0.2742984    -0.0010093    0.0006237     0.0000294   -0.0001241     0.7615857   -0.3852226 
   0.008252051     0.8924384   -0.2528218    -0.0002237   -0.0004755    -0.0001139    0.0001497     0.7554866   -0.3920058 
   0.008352076     0.9085984   -0.2711491    -0.0015434   -0.0003459     0.0001583    0.0002085     0.7525348   -0.3934118 
   0.008452101     0.9024812   -0.2556658     0.0002819   -0.0001981    -0.0000009   -0.0003075     0.7509438   -0.3923037 
   0.008552126     0.9086029   -0.2668433    -0.0005768    0.0013676    -0.0000380   -0.0001453     0.7449614   -0.3966914 
   0.008652151     0.9054571   -0.2520308     0.0005871    0.0000855     0.0001988    0.0002864     0.7380717   -0.3998314 
   0.008752176     0.9268443   -0.2681642     0.0009672    0.0009454    -0.0001898    0.0005228     0.7363635   -0.4002811 
   0.008852201     0.9069256   -0.2575838     0.0011941    0.0003698    -0.0003123    0.0000836     0.7284994   -0.3999124 
   0.008952226     0.9170808   -0.2779200     0.0000878    0.0008889     0.0000827    0.0005205     0.7280433   -0.4034382 
   0.009052251     0.9108505   -0.2664240     0.0009047    0.0002005     0.0001645    0.0002907     0.7231315   -0.4034867 
   0.009152276     0.8972141   -0.2678121    -0.0011380    0.0007207     0.0000560    0.0001039     0.7152178   -0.4077219 
   0.009252301     0.9074212   -0.2802832     0.0009259    0.0001414    -0.0000414    0.0000141     0.7119504   -0.4120847 
   0.009352326     0.9007607   -0.2937863    -0.0013925   -0.0006419     0.0002411   -0.0001468     0.7084338   -0.4071500 
   0.009452351     0.9143881   -0.2813225     0.0004123   -0.0012796     0.0000456    0.0004245     0.7032642   -0.4088456 
   0.009552376     0.8905571   -0.2912052     0.0001300    0.0005058    -0.0000907    0.0004167     0.6985928   -0.4098435 
   0.009652401     0.8764091   -0.2811625     0.0000995    0.0005890     0.0001354    0.0000282     0.6974652   -0.4142190 
   0.009752426     0.8803298   -0.2866033     0.0005486   -0.0002680    -0.0001342   -0.0001919     0.6941832   -0.4144761 
   0.009852451     0.8842654   -0.2864424     0.0005195    0.0015555    -0.0002455    0.0001044     0.6883553   -0.4150774 
   0.009952476     0.8918332   -0.3130823     0.0007014   -0.0008506    -0.0001968    0.0002101     0.6831054   -0.4141287 
   0.010052501     0.8935443   -0.2974440     0.0003424    0.0014270     0.0001758    0.0001576     0.6830772   -0.4149563 
   0.010152526     0.8840970   -0.2881856    -0.0001075    0.0001882     0.0002209    0.0002539     0.6764390   -0.4165229 
   0.010252551     0.8728952   -0.2860294     0.0000984    0.0002779    -0.0002549   -0.0001416     0.6724511   -0.4211707 
   0.010352576     0.8979363   -0.3113451     0.0004413    0.0011921     0.0000281    0.0000697     0.6674417   -0.4193828 
   0.010452601     0.8882651   -0.3064386    -0.0001244   -0.0007715     0.0002782   -0.0000197     0.6648892   -0.4219843 
   0.010552626     0.8811212   -0.3116142    -0.0003462    0.0004736     0.0000823   -0.0004123     0.6622206   -0.4240622 
   0.010652651     0.8847175   -0.3177539     0.0007055   -0.0003755    -0.0000834    0.0003941     0.6560062   -0.4257119 
   0.010752676     0.8614218   -0.3277461    -0.0002804   -0.0001029     0.0003357   -0.0001451     0.6539083   -0.4252261 
   0.010852701     0.8784065   -0.3006771    -0.0006308    0.0001388     0.0001250    0.0003796     0.6520582   -0.4213821 
   0.010952726     0.8541773   -0.3018505     0.0000205    0.0013750     0.0004838   -0.0002892     0.6457870   -0.4266229 
   0.011052751     0.8745258   -0.3392513     0.0008321    0.0014560     0.0001177    0.0000678     0.6427820   -0.4271470 
   0.011152776     0.8686842   -0.3240305    -0.0003947    0.0000397    -0.0001859    0.0002408     0.6385086   -0.4286291 
   0.011252801     0.8617623   -0.3219456     0.0004292    0.0002632    -0.0002675   -0.0000488     0.6319464   -0.4276006 
   0.011352826     0.8566113   -0.3407804    -0.0008437   -0.0018481     0.0000591    0.0001769     0.6333517   -0.4283614 
   0.011452851     0.8451748   -0.3345062     0.0004891   -0.0004693    -0.0000240    0.0000076     0.6256649   -0.4306121 
   0.011552876     0.8650550   -0.3355637     0.0005690   -0.0005229    -0.0004265    0.0000622     0.6236126   -0.4300388 
   0.011652901     0.8595828   -0.3443833    -0.0001031    0.0002437     0.0001795    0.0000504     0.6177920   -0.4294886 
   0.011752926     0.8447258   -0.3300184     0.0003533   -0.0007249     0.0000833   -0.0000971     0.6169165   -0.4284870 
   0.011852951     0.8672941   -0.3317943     0.0002158   -0.0003607     0.0002536   -0.0000979     0.6133710   -0.4305771 
   0.011952976     0.8535366   -0.3397699     0.0007411    0.0001821    -0.0001247    0.0000255     0.6087044   -0.4291876 
   0.012053002     0.8324488   -0.3589377     0.0002275   -0.0007087    -0.0000005    0.0002365     0.6072214   -0.4309465 
   0.012153027     0.8458191   -0.3383073    -0.0008676    0.0000035     0.0001775   -0.0004526     0.6021077   -0.4327248 
   0.012253052     0.8431048   -0.3515292     0.0007554   -0.0003538    -0.0001649    0.0002444     0.6002271   -0.4321743 
   0.012353077     0.8444188   -0.3451525    -0.0014818   -0.0002183     0.0000289    0.0002184     0.5972598   -0.4323420 
   0.012453102     0.8397398   -0.3524905     0.0001774    0.0004986    -0.0001266    0.0001365     0.5915327   -0.4363685 
   0.012553127     0.8283837   -0.3755791     0.0009312   -0.0001386     0.0002967    0.0000664     0.5862818   -0.4304417 
   0.012653152     0.8451972   -0.3378756     0.0001109   -0.0007059    -0.0000411    0.0000274     0.5826474   -0.4323097 
   0.012753177     0.8321935   -0.3553307     0.0008331   -0.0001135    -0.0000094    0.0001422     0.5838432   -0.4323492 
   0.012853202     0.8204772   -0.3349145     0.0000544   -0.0002451     0.0002306    0.0004180     0.5759851   -0.4316946 
   0.012953227     0.8192049   -0.3465714    -0.0002992   -0.0002346    -0.0000231   -0.0002043     0.5753666   -0.4338790 
   0.013053252     0.8217188   -0.3636296    -0.0003662    0.0000163     0.0002462    0.0003445     0.5725486   -0.4356381 
   0.013153277     0.8285654   -0.3723284    -0.0000231   -0.0004290    -0.0000617    0.0002181     0.5660903   -0.4334648 
   0.013253302     0.8244359   -0.3560005     0.0010857    0.0010384     0.0002006    0.0000921     0.5660555   -0.4320605 
   0.013353327     0.8260436   -0.3735037     0.0004369   -0.0003468     0.0001335    0.0000590     0.5607032   -0.4327574 
   0.013453352     0.8268309   -0.3548168    -0.0001695   -0.0000114     0.0001578   -0.0001028     0.5565665   -0.4322954 
   0.013553377     0.7995492   -0.3558351     0.0006821   -0.0002224     0.0002346    0.0002599     0.5529619   -0.4332392 
   0.013653402     0.8096361   -0.3732310     0.0007057    0.0004633    -0.0000769    0.0002249     0.5531336   -0.4321741 
   0.013753427     0.8085631   -0.3748067    -0.0003582   -0.0004426     0.0000097    0.0001309     0.5467069   -0.4332874 
   0.013853452     0.8231186   -0.3807425     0.0001981    0.0014232     0.0001863    0.0000817     0.5469972   -0.4306090 
   0.013953477     0.8008365   -0.3731011     0.0007129   -0.0003799     0.0001874    0.0001407     0.5433322   -0.4336485 
   0.014053502     0.8062960   -0.3836460     0.0005804   -0.0003468     0.0001683   -0.0000621     0.5396754   -0.4327737 
   0.014153527     0.8019346   -0.3793154    -0.0000218   -0.0001716     0.0002102   -0.0000683     0.5357109   -0.4316795 
   0.014253552     0.8127833   -0.3694339    -0.0003897    0.0007028     0.0000493    0.0001791     0.5373208   -0.4338601 
   0.014353577     0.7942222   -0.3783288     0.0002163    0.0000879    -0.0001943    0.0000576     0.5274748   -0.4298508 
   0.014453602     0.7881752   -0.3859736     0.0003469   -0.0005992     0.0001565    0.0004538     0.5264061   -0.4291535 
   0.014553627     0.7931252   -0.3803761     0.0006925   -0.0006015     0.0000918    0.0001943     0.5247363   -0.4286504 
   0.014653652     0.7980583   -0.3966511     0.0000300    0.0003613     0.0001595    0.0000792     0.5214477   -0.4317256 
   0.014753677     0.7863240   -0.3848874    -0.0000067    0.0003522     0.0003111    0.0002485     0.5187762   -0.4293116 
   0.014853702     0.7863287   -0.3785020     0.0001986    0.0004842    -0.0000313    0.0002170     0.5148935   -0.4285693 
   0.014953727     0.7736950   -0.4052871     0.0004637    0.0004453     0.0000656    0.0000802     0.5112959   -0.4283801 
   0.015053752     0.7741296   -0.3958819     0.0000535    0.0001257     0.0001535    0.0001922     0.5100648   -0.4264689 
   0.015153777     0.7870518   -0.4010627    -0.0003401    0.0006603     0.0000073   -0.0000073     0.5082159   -0.4282826 
   0.015253802     0.7725746   -0.4010282     0.0002065   -0.0000527     0.0002709    0.0002929     0.5045207   -0.4264037 
   0.015353827     0.7743854   -0.4066794     0.0004075    0.0000732     0.0000162    0.0000062     0.5019385   -0.4285469 
   0.015453852     0.7787721   -0.4049596     0.0001639    0.0005369     0.0002476    0.0001893     0.4990348   -0.4273258 
   0.015553877     0.7825699   -0.4054706     0.0004739    0.0003922     0.0001188    0.0001990     0.4972899   -0.4278294 
   0.015653902     0.7815014   -0.3993601    -0.0002534    0.0001484     0.0002109    0.0000347     0.4948148   -0.4273174 
