! 26-Feb-26 11:43:22 AM
! E:\VNA_MEASUREMENTS\SP8T\SP8T_P3_RF4.S2P
! CHANNEL.1
! TR.MEASUREMENT
! CORRECTED.DATA
# GHZ S RI R 50.0
! FREQ.GHZ         S11RE         S11IM         S21RE         S21IM         S12RE         S12IM         S22RE         S22IM         
!; PortSelection: Port_12
   0.000050000     0.2589819    0.3479070     0.1260845   -0.1652711     0.0004910   -0.0045865     0.9882151   -0.0043185 
   0.000150025     1.2781940   -0.0075789    16.1767100    1.3804610     0.0015253    0.0004028     1.0110050   -0.0096651 
   0.000250050    -0.3710409   -0.1040269     0.0090077   -0.0073184     0.0007272   -0.0002402     1.0050970   -0.0194220 
   0.000350075     0.9994015   -0.0546653     0.0009977   -0.0077367     0.0005240   -0.0017427     0.9883071   -0.0312296 
   0.000450100     0.9498969   -0.0731892     0.0003664   -0.0069059     0.0011783    0.0004518     0.9882392   -0.0198452 
   0.000550125     1.0323190    0.0012131    -0.0084257   -0.0098861     0.0009877    0.0011584     0.9956872   -0.0362971 
   0.000650150     0.9770216   -0.0255598    -0.0048466   -0.0076369     0.0002327    0.0010626     1.0015840   -0.0371496 
   0.000750175     1.0020520   -0.0385779    -0.0078699   -0.0060780     0.0004669   -0.0006271     0.9942040   -0.0393015 
   0.000850200     0.9922351   -0.0521947    -0.0061902   -0.0100459     0.0015427    0.0005047     0.9950115   -0.0485546 
   0.000950225     1.0327730   -0.0574681    -0.0107495   -0.0047611     0.0004285    0.0001435     0.9920146   -0.0622415 
   0.001050250     0.9856333   -0.0498428    -0.0091026   -0.0091933    -0.0014245    0.0001917     0.9916139   -0.0560987 
   0.001150275     0.9880431   -0.0094851    -0.0069093   -0.0030859     0.0000993   -0.0001680     0.9924481   -0.0686031 
   0.001250300     0.9483870   -0.0572489    -0.0069990   -0.0046050     0.0003003    0.0009343     0.9934446   -0.0800595 
   0.001350325     1.0009840   -0.0284140    -0.0096346   -0.0002477    -0.0002678    0.0000857     0.9863580   -0.0940616 
   0.001450350     1.0139800   -0.0718924    -0.0130329   -0.0034845    -0.0001371    0.0016781     0.9917099   -0.0890054 
   0.001550375     0.9414397   -0.0424324    -0.0069948   -0.0013765     0.0008841    0.0004461     0.9934099   -0.0988656 
   0.001650400     0.9698278    0.0371349    -0.0097628    0.0029980     0.0002010    0.0006187     0.9817506   -0.1036093 
   0.001750425     0.9681050   -0.0455613    -0.0089473    0.0001246     0.0010731   -0.0003383     0.9908684   -0.1108986 
   0.001850450     0.9493122   -0.0584149    -0.0087670   -0.0035857    -0.0000590   -0.0007919     0.9844172   -0.1138110 
   0.001950475     0.9998637    0.0144472    -0.0081989   -0.0020020     0.0000673   -0.0003735     0.9844294   -0.1152848 
   0.002050500     0.9654821   -0.0229815    -0.0060068    0.0038031    -0.0003330   -0.0000918     0.9804041   -0.1320947 
   0.002150525     0.9632525   -0.0336879    -0.0045448   -0.0000502    -0.0003791    0.0004968     0.9752018   -0.1302301 
   0.002250550     0.9077466   -0.0340944    -0.0060825    0.0024870     0.0003274   -0.0000410     0.9750885   -0.1402498 
   0.002350575     0.9991783   -0.0312599    -0.0046980    0.0008176     0.0001873    0.0000089     0.9762013   -0.1465334 
   0.002450600     0.9782819   -0.0152457    -0.0052743    0.0008263     0.0002460   -0.0001992     0.9781864   -0.1497458 
   0.002550625     0.9733077   -0.0265608    -0.0057390    0.0001643     0.0001437    0.0004000     0.9687855   -0.1511582 
   0.002650650     0.9799687   -0.0230664    -0.0026997    0.0051252    -0.0000725    0.0005928     0.9696116   -0.1665643 
   0.002750675     0.9771095   -0.0142831    -0.0023323    0.0059927     0.0006354    0.0011181     0.9648523   -0.1678765 
   0.002850700     0.9697446   -0.0661583    -0.0007862    0.0025254     0.0001251   -0.0000835     0.9595984   -0.1752501 
   0.002950725     0.9381949   -0.0426709    -0.0031978    0.0007718    -0.0002619    0.0000172     0.9624931   -0.1803077 
   0.003050750     0.9399290   -0.0016855    -0.0023421    0.0012616     0.0000414   -0.0002757     0.9603013   -0.1852980 
   0.003150775     0.9431670   -0.0830111    -0.0019567    0.0019610    -0.0003800    0.0003727     0.9492573   -0.1900129 
   0.003250800     0.9627689   -0.0185441    -0.0017687    0.0046265    -0.0001007   -0.0004611     0.9531798   -0.1999618 
   0.003350825     0.9651583   -0.0291879    -0.0034015    0.0018631     0.0003894    0.0001306     0.9496686   -0.2024786 
   0.003450850     0.9595884   -0.0602558     0.0005138    0.0031773     0.0003492   -0.0002258     0.9446152   -0.2035650 
   0.003550875     0.9414088   -0.0235933     0.0003838    0.0029608    -0.0000076    0.0009490     0.9479193   -0.2104838 
   0.003650900     0.9706399   -0.0283026    -0.0046431    0.0016176    -0.0001169    0.0001176     0.9448528   -0.2193262 
   0.003750925     0.9403716   -0.0326025    -0.0010639    0.0025598    -0.0000534    0.0001808     0.9393744   -0.2246512 
   0.003850950     0.9624110   -0.0512022    -0.0002367    0.0026225     0.0005786    0.0008370     0.9369658   -0.2285766 
   0.003950975     0.9769257   -0.0522107     0.0021558    0.0005044     0.0000974   -0.0003897     0.9350504   -0.2289302 
   0.004051001     0.9540686   -0.0666660    -0.0007772    0.0013772     0.0005903    0.0000731     0.9260718   -0.2348738 
   0.004151026     1.0053790   -0.0331228    -0.0003964    0.0033039     0.0012352    0.0004215     0.9233925   -0.2430958 
   0.004251051     0.9920914   -0.0242590    -0.0018526    0.0024701     0.0003387   -0.0002641     0.9182573   -0.2498649 
   0.004351076     0.9914892   -0.0049386    -0.0008641    0.0005965    -0.0004741    0.0005995     0.9193438   -0.2494181 
   0.004451101     0.9821167   -0.0513309     0.0004031   -0.0008096     0.0001060    0.0001917     0.9157870   -0.2595410 
   0.004551126     0.9577205   -0.0663912     0.0006048    0.0000769     0.0007591    0.0000420     0.9169266   -0.2624255 
   0.004651151     0.9513084   -0.0225945     0.0101436    0.0018798     0.0001857   -0.0000546     0.9080953   -0.2631215 
   0.004751176     0.9516771   -0.0520189     0.0002802   -0.0004285     0.0002261    0.0002617     0.9114778   -0.2739362 
   0.004851201     0.9224702   -0.0392003     0.0005392    0.0016858    -0.0000992    0.0005544     0.8982806   -0.2702491 
   0.004951226     0.9441497   -0.0269762     0.0005892    0.0009187    -0.0003444    0.0003017     0.8985052   -0.2734379 
   0.005051251     0.9553308   -0.0245746    -0.0005053    0.0022537    -0.0002467   -0.0001562     0.8957812   -0.2819913 
   0.005151276     0.9476526   -0.0253523    -0.0006043    0.0025384    -0.0003141    0.0006689     0.8869272   -0.2858782 
   0.005251301     0.9462697   -0.0397284    -0.0030964    0.0002687     0.0001076    0.0000872     0.8908527   -0.2896370 
   0.005351326     0.9200217   -0.0259555     0.0009600    0.0008099    -0.0001563    0.0002488     0.8883372   -0.2967940 
   0.005451351     0.9483834   -0.0214677    -0.0006230   -0.0005640    -0.0001737    0.0000076     0.8829753   -0.3025612 
   0.005551376     0.9539613   -0.0613130    -0.0007355    0.0015580     0.0000876   -0.0000976     0.8768187   -0.3007016 
   0.005651401     0.9488660   -0.0210376     0.0019952    0.0022222    -0.0004135    0.0002328     0.8706532   -0.3141472 
   0.005751426     0.9261134   -0.0429801    -0.0013583   -0.0001547    -0.0002587    0.0005818     0.8683465   -0.3150352 
   0.005851451     0.9592567   -0.0708032     0.0005021    0.0014422    -0.0002435    0.0002608     0.8667984   -0.3108325 
   0.005951476     0.9243370   -0.0216995     0.0007878   -0.0022512     0.0000750   -0.0000782     0.8628051   -0.3168521 
   0.006051501     0.9328665   -0.0456768    -0.0005172   -0.0007335     0.0006547    0.0000971     0.8621911   -0.3253873 
   0.006151526     0.9405892   -0.0507096     0.0005355    0.0026404    -0.0000639    0.0004333     0.8556624   -0.3256822 
   0.006251551     0.9484650   -0.0067634     0.0003474    0.0015955    -0.0001029    0.0005279     0.8481328   -0.3304652 
   0.006351576     0.9342458   -0.0379251     0.0008538   -0.0013311    -0.0001601    0.0003699     0.8447849   -0.3320132 
   0.006451601     0.9501635   -0.0459395    -0.0012704    0.0025806    -0.0003461    0.0000091     0.8438529   -0.3366763 
   0.006551626     0.9341830   -0.0362352    -0.0012430    0.0002020     0.0000011    0.0003549     0.8401288   -0.3378983 
   0.006651651     0.9369144   -0.0270858    -0.0010975    0.0013922    -0.0007736   -0.0000332     0.8303210   -0.3433137 
   0.006751676     0.9514682   -0.0434239     0.0008075   -0.0004606     0.0002219    0.0001358     0.8353248   -0.3459893 
   0.006851701     0.9705013   -0.0584420    -0.0019902    0.0009414    -0.0000569    0.0001355     0.8258193   -0.3513513 
   0.006951726     0.9245128   -0.0384807    -0.0017010    0.0009239    -0.0004722    0.0002331     0.8211114   -0.3488979 
   0.007051751     0.9483843   -0.0411845    -0.0008026   -0.0001738    -0.0007945    0.0003978     0.8155680   -0.3570927 
   0.007151776     0.9117410   -0.0511365     0.0007018   -0.0001071    -0.0000982    0.0005522     0.8080792   -0.3611808 
   0.007251801     0.9545698   -0.0155633    -0.0010162    0.0009397     0.0001341    0.0005015     0.8096623   -0.3632962 
   0.007351826     0.9460030   -0.0356179    -0.0003984   -0.0006517    -0.0000322    0.0004528     0.8038129   -0.3701514 
   0.007451851     0.9281647   -0.0521775    -0.0014407    0.0009174    -0.0004001    0.0004945     0.7985473   -0.3639981 
   0.007551876     0.9426730   -0.0530944     0.0001002   -0.0001006     0.0003529    0.0005561     0.7989287   -0.3668063 
   0.007651901     0.9552969   -0.0440636     0.0002062    0.0009317     0.0001484   -0.0001987     0.7949648   -0.3678167 
   0.007751926     0.9431853   -0.0397933     0.0000595   -0.0005377    -0.0001765    0.0003310     0.7866472   -0.3741133 
   0.007851951     0.9431238   -0.0442083     0.0005025   -0.0012632    -0.0004793    0.0004701     0.7816818   -0.3743224 
   0.007951976     0.9556757   -0.0479375    -0.0007249   -0.0000912    -0.0005400    0.0005162     0.7761254   -0.3780702 
   0.008052001     0.9311622   -0.0344576    -0.0000700    0.0008452    -0.0000358    0.0004442     0.7728162   -0.3807084 
   0.008152026     0.9557393   -0.0429832    -0.0007090    0.0034684    -0.0002616   -0.0004747     0.7739346   -0.3823558 
   0.008252051     0.9384893   -0.0404947     0.0008491    0.0008206    -0.0000333    0.0001349     0.7654571   -0.3839298 
   0.008352076     0.9534065   -0.0464787    -0.0012066    0.0004250     0.0000653   -0.0001689     0.7639875   -0.3906588 
   0.008452101     0.9520486   -0.0328251     0.0008346    0.0000723    -0.0002013    0.0001876     0.7592884   -0.3881647 
   0.008552126     0.9441769   -0.0513397    -0.0002182    0.0011498    -0.0001898    0.0004101     0.7556625   -0.3937596 
   0.008652151     0.9293092   -0.0467886     0.0005179   -0.0006901     0.0001153    0.0003545     0.7524412   -0.3930771 
   0.008752176     0.9479964   -0.0404432    -0.0011894    0.0005323     0.0000651    0.0000046     0.7482203   -0.3968187 
   0.008852201     0.9404388   -0.0311739    -0.0001587    0.0011180    -0.0001363    0.0002942     0.7445073   -0.3962354 
   0.008952226     0.9639726   -0.0337563     0.0014017   -0.0009819    -0.0002504    0.0007161     0.7407475   -0.3981747 
   0.009052251     0.9453681   -0.0456319     0.0018179   -0.0018388    -0.0000827    0.0006708     0.7358858   -0.4029801 
   0.009152276     0.9349517   -0.0475101    -0.0005155   -0.0000712     0.0000209    0.0003925     0.7272570   -0.4031864 
   0.009252301     0.9567623   -0.0573442     0.0000283    0.0006270    -0.0000610    0.0000122     0.7261751   -0.4065125 
   0.009352326     0.9445665   -0.0445268     0.0012333    0.0007734    -0.0003445    0.0006791     0.7210972   -0.4048347 
   0.009452351     0.9509712   -0.0449115    -0.0006188    0.0010786     0.0001054   -0.0000092     0.7160210   -0.4071904 
   0.009552376     0.9404525   -0.0574037     0.0007114   -0.0007147    -0.0001372    0.0004089     0.7118471   -0.4059772 
   0.009652401     0.9383968   -0.0456563     0.0001829    0.0005917    -0.0004029    0.0002107     0.7087181   -0.4083064 
   0.009752426     0.9486018   -0.0438288     0.0008885    0.0002974    -0.0001797   -0.0000012     0.7035835   -0.4105142 
   0.009852451     0.9441496   -0.0535889     0.0000211    0.0002339    -0.0003153    0.0007059     0.7012777   -0.4120269 
   0.009952476     0.9358458   -0.0528864    -0.0006447    0.0008327    -0.0000483    0.0006486     0.6961275   -0.4122807 
   0.010052501     0.9383456   -0.0549297    -0.0002389   -0.0002290    -0.0002339    0.0003656     0.6956915   -0.4122150 
   0.010152526     0.9337201   -0.0356595     0.0002688    0.0003701    -0.0000443    0.0006155     0.6892551   -0.4139459 
   0.010252551     0.9215276   -0.0371867     0.0001749    0.0007086    -0.0002053   -0.0000124     0.6872032   -0.4224520 
   0.010352576     0.9442260   -0.0598539    -0.0006600   -0.0000509    -0.0002391    0.0004265     0.6824447   -0.4192794 
   0.010452601     0.9474868   -0.0329337     0.0006927    0.0006172    -0.0002819    0.0003064     0.6772684   -0.4212483 
   0.010552626     0.9212738   -0.0550661     0.0002331    0.0005694    -0.0004428    0.0002505     0.6731903   -0.4232178 
   0.010652651     0.9449978   -0.0517869    -0.0017507   -0.0006302    -0.0003343    0.0005169     0.6716548   -0.4218418 
   0.010752676     0.9482277   -0.0523549    -0.0007633    0.0007650    -0.0000647    0.0007337     0.6652141   -0.4250810 
   0.010852701     0.9569650   -0.0243374     0.0009376   -0.0008642    -0.0000384    0.0005290     0.6665695   -0.4212852 
   0.010952726     0.9365327   -0.0406426     0.0002669    0.0002203    -0.0001607    0.0005365     0.6601099   -0.4271870 
   0.011052751     0.9457264   -0.0488602     0.0007479   -0.0001498    -0.0001926    0.0000091     0.6555303   -0.4257964 
   0.011152776     0.9474639   -0.0467739    -0.0013182    0.0005759    -0.0001645    0.0005821     0.6502976   -0.4265327 
   0.011252801     0.9317043   -0.0583408     0.0007279    0.0008744     0.0000237    0.0005146     0.6468061   -0.4284194 
   0.011352826     0.9526479   -0.0673196     0.0001660    0.0007802     0.0001566    0.0004419     0.6452684   -0.4252507 
   0.011452851     0.9407585   -0.0542833    -0.0009411   -0.0000537     0.0001542    0.0004178     0.6375747   -0.4295033 
   0.011552876     0.9374385   -0.0630568     0.0002520    0.0010510     0.0001089    0.0005338     0.6384939   -0.4284818 
   0.011652901     0.9495274   -0.0779520    -0.0004864    0.0006517     0.0000327    0.0005031     0.6328881   -0.4311147 
   0.011752926     0.9283815   -0.0526867    -0.0002624    0.0008858    -0.0001854    0.0002273     0.6300741   -0.4299689 
   0.011852951     0.9424680   -0.0495722     0.0009847    0.0007329    -0.0002233    0.0003221     0.6283642   -0.4308688 
   0.011952976     0.9440692   -0.0434596    -0.0007082    0.0001112    -0.0002256    0.0004877     0.6219352   -0.4289801 
   0.012053002     0.9371281   -0.0725719    -0.0011113    0.0006794     0.0000596    0.0006313     0.6184673   -0.4318751 
   0.012153027     0.9359081   -0.0608697     0.0011941   -0.0004957    -0.0001330    0.0006806     0.6159834   -0.4324232 
   0.012253052     0.9248534   -0.0536864    -0.0012690    0.0006222    -0.0001313    0.0004238     0.6131827   -0.4327889 
   0.012353077     0.9464031   -0.0537196     0.0009626    0.0005086     0.0002014    0.0007124     0.6108407   -0.4334255 
   0.012453102     0.9436303   -0.0660199     0.0002438   -0.0007510    -0.0000589    0.0004179     0.6030056   -0.4360753 
   0.012553127     0.9429073   -0.0768816     0.0016524    0.0008271    -0.0000882    0.0004965     0.5996057   -0.4328611 
   0.012653152     0.9482858   -0.0461342    -0.0006744    0.0010356    -0.0002179    0.0005790     0.5964575   -0.4328273 
   0.012753177     0.9448044   -0.0528929    -0.0003158    0.0006838     0.0000242    0.0002964     0.5946466   -0.4327370 
   0.012853202     0.9235700   -0.0307519     0.0001042    0.0004127     0.0000997    0.0007189     0.5885454   -0.4317974 
   0.012953227     0.9431568   -0.0566147     0.0006797   -0.0003837     0.0001247    0.0004688     0.5881976   -0.4362988 
   0.013053252     0.9400755   -0.0729678    -0.0001072    0.0004745     0.0001394    0.0005352     0.5870293   -0.4345777 
   0.013153277     0.9454489   -0.0440847    -0.0008706    0.0002857    -0.0001564    0.0003397     0.5820323   -0.4365392 
   0.013253302     0.9369777   -0.0512183     0.0002781    0.0002846     0.0001040    0.0005249     0.5769369   -0.4347948 
   0.013353327     0.9480703   -0.0390278     0.0000137    0.0008349    -0.0001025    0.0005342     0.5735120   -0.4350512 
   0.013453352     0.9381149   -0.0418120    -0.0002655    0.0010693    -0.0002358    0.0004069     0.5706015   -0.4339252 
   0.013553377     0.9154447   -0.0589886    -0.0005414    0.0000292     0.0003509    0.0004345     0.5677012   -0.4356217 
   0.013653402     0.9470370   -0.0554000     0.0005775    0.0009867    -0.0004459    0.0000663     0.5666565   -0.4338398 
   0.013753427     0.9350439   -0.0437682    -0.0004613   -0.0002964     0.0000800    0.0006025     0.5606281   -0.4346509 
   0.013853452     0.9470751   -0.0690182     0.0004247    0.0006936    -0.0000133    0.0005105     0.5598516   -0.4339739 
   0.013953477     0.9246914   -0.0559568     0.0000409    0.0007124    -0.0000058    0.0005583     0.5570465   -0.4359033 
   0.014053502     0.9461507   -0.0602564     0.0001031    0.0001921     0.0001279    0.0008670     0.5526117   -0.4325079 
   0.014153527     0.9497897   -0.0574781    -0.0004995    0.0006262    -0.0003758    0.0006022     0.5521577   -0.4336669 
   0.014253552     0.9428565   -0.0464057    -0.0009386    0.0007537     0.0000334    0.0007460     0.5469896   -0.4361901 
   0.014353577     0.9279004   -0.0613219     0.0005873    0.0010715    -0.0000448    0.0002127     0.5417606   -0.4338970 
   0.014453602     0.9336795   -0.0599523     0.0002717    0.0005563     0.0000737    0.0006332     0.5432724   -0.4319474 
   0.014553627     0.9346452   -0.0613204    -0.0009979   -0.0001293    -0.0001556    0.0002598     0.5384137   -0.4344729 
   0.014653652     0.9540600   -0.0641339    -0.0002811    0.0026813     0.0002675    0.0002852     0.5348436   -0.4358985 
   0.014753677     0.9263939   -0.0511938     0.0001094    0.0004252    -0.0000722    0.0006158     0.5314996   -0.4327005 
   0.014853702     0.9352256   -0.0542783    -0.0010153    0.0000900     0.0001331    0.0006726     0.5294312   -0.4343026 
   0.014953727     0.9398337   -0.0707858     0.0004562    0.0002373    -0.0000189    0.0005255     0.5252303   -0.4302597 
   0.015053752     0.9389111   -0.0532919     0.0011750    0.0003865     0.0000230    0.0005024     0.5218745   -0.4301330 
   0.015153777     0.9449518   -0.0499398     0.0003802    0.0002355    -0.0001130    0.0005073     0.5220960   -0.4315284 
   0.015253802     0.9272118   -0.0637337    -0.0008015   -0.0004200    -0.0000642    0.0002877     0.5174625   -0.4317876 
   0.015353827     0.9218191   -0.0546650     0.0006914    0.0013064    -0.0001228    0.0005195     0.5151953   -0.4308324 
   0.015453852     0.9392211   -0.0456770    -0.0002388    0.0009046    -0.0001856    0.0001388     0.5099120   -0.4290361 
   0.015553877     0.9403781   -0.0579031     0.0002094    0.0014651    -0.0000695    0.0005531     0.5116677   -0.4300168 
   0.015653902     0.9427692   -0.0607124     0.0004126    0.0003582     0.0000974    0.0004107     0.5062696   -0.4317543 
