! 26-Feb-26 12:28:23 PM
! E:\VNA_MEASUREMENTS\SP8T\SP8T_P6_RF4.S2P
! CHANNEL.1
! TR.MEASUREMENT
! CORRECTED.DATA
# GHZ S RI R 50.0
! FREQ.GHZ         S11RE         S11IM         S21RE         S21IM         S12RE         S12IM         S22RE         S22IM         
!; PortSelection: Port_12
   0.000050000     0.3220764    0.2376505    -0.1836925   -0.0652066     0.0043641   -0.0031405     0.9341508    0.0577624 
   0.000150025     1.1689800   -0.5944348    -3.2270100    1.0600740    -0.0012369   -0.0005767     0.9980096   -0.0111238 
   0.000250050    -1.7632150   -1.0410470     0.0079585   -0.0004691    -0.0009037    0.0005493     1.0053220   -0.0182022 
   0.000350075     0.9981025   -0.0352242     0.0013818   -0.0152096    -0.0010316   -0.0004967     0.9934206   -0.0249781 
   0.000450100     0.9779080   -0.0272603    -0.0087737   -0.0117922     0.0009460   -0.0001993     0.9951666   -0.0226179 
   0.000550125     1.0450450   -0.0189488    -0.0041791   -0.0092246    -0.0001863    0.0010477     0.9946769   -0.0270562 
   0.000650150     1.0074470    0.0043282    -0.0064694   -0.0111096    -0.0014316   -0.0010542     1.0013800   -0.0490453 
   0.000750175     0.9885532   -0.0682635    -0.0107701   -0.0119040    -0.0010495    0.0004573     0.9944941   -0.0495809 
   0.000850200     0.9492015   -0.0619603    -0.0104553   -0.0064550    -0.0000978    0.0004738     1.0017120   -0.0479321 
   0.000950225     0.9865618   -0.0493600    -0.0127662   -0.0082752    -0.0009018   -0.0001929     0.9908805   -0.0587974 
   0.001050250     0.9952224   -0.0517139    -0.0113138   -0.0055347    -0.0003580   -0.0001289     0.9935314   -0.0581957 
   0.001150275     0.9914227   -0.0915991    -0.0102379   -0.0060065    -0.0000177    0.0007354     0.9769532   -0.0780807 
   0.001250300     0.9804655   -0.0260791    -0.0098144   -0.0061344    -0.0005078    0.0000948     1.0004800   -0.0865069 
   0.001350325     0.9685264   -0.0853434    -0.0074128   -0.0030371    -0.0002757   -0.0002053     0.9928534   -0.0920716 
   0.001450350     1.0211300   -0.0431532    -0.0118141    0.0003019     0.0005464   -0.0008681     0.9811867   -0.0952125 
   0.001550375     0.9781964   -0.0852169    -0.0044664   -0.0008099     0.0004763    0.0002626     0.9890652   -0.0970993 
   0.001650400     0.9916678   -0.0408107    -0.0144813   -0.0001870     0.0000865   -0.0005957     0.9819145   -0.0955475 
   0.001750425     0.9656388   -0.0862352    -0.0065356    0.0004383    -0.0003237    0.0008465     0.9917719   -0.1069806 
   0.001850450     0.9878828   -0.0628424    -0.0068310    0.0013039     0.0005957   -0.0001254     0.9795147   -0.1172537 
   0.001950475     0.9983275   -0.0237252    -0.0053160   -0.0019397    -0.0004138   -0.0010227     0.9809633   -0.1223922 
   0.002050500     0.9558088   -0.0548304    -0.0082360    0.0032016    -0.0001388    0.0003247     0.9811837   -0.1358241 
   0.002150525     1.0004000   -0.0849177    -0.0073065    0.0025283     0.0006835   -0.0006652     0.9799898   -0.1392185 
   0.002250550     1.0200430   -0.0830237    -0.0045928    0.0041254     0.0001410    0.0009769     0.9792110   -0.1405083 
   0.002350575     0.9537330   -0.1001761    -0.0048893    0.0069906    -0.0006755    0.0003449     0.9695994   -0.1477909 
   0.002450600     0.9741132   -0.0653971    -0.0062865    0.0067529     0.0006401    0.0001883     0.9770506   -0.1568763 
   0.002550625     0.9798332   -0.0899841    -0.0050191    0.0048632     0.0001857    0.0001155     0.9675341   -0.1574796 
   0.002650650     1.0058710   -0.0645250    -0.0053683    0.0005463    -0.0005608   -0.0001449     0.9712451   -0.1655485 
   0.002750675     0.9639198   -0.0698747    -0.0038259    0.0022247     0.0000867    0.0003358     0.9592904   -0.1742919 
   0.002850700     1.0025970   -0.0733500    -0.0002965    0.0037847    -0.0001583    0.0001708     0.9667766   -0.1788647 
   0.002950725     0.9283247   -0.0888587    -0.0011426    0.0013659     0.0002870   -0.0004368     0.9661106   -0.1789940 
   0.003050750     0.9867808   -0.1378548    -0.0014632    0.0016885     0.0006211   -0.0007211     0.9516343   -0.1936381 
   0.003150775     0.9995978   -0.1252516    -0.0025389    0.0024128     0.0001482    0.0001881     0.9493454   -0.1957982 
   0.003250800     0.9792390   -0.1202902    -0.0001742    0.0022780    -0.0002613   -0.0003828     0.9599119   -0.2044786 
   0.003350825     0.9973945   -0.0907258    -0.0037093   -0.0004476    -0.0001369    0.0000291     0.9478493   -0.2080619 
   0.003450850     0.9660705   -0.1555218    -0.0017018    0.0014870    -0.0002139    0.0003481     0.9487529   -0.2072229 
   0.003550875     0.9583620   -0.1323881    -0.0019005    0.0044508     0.0005184   -0.0003019     0.9407197   -0.2164912 
   0.003650900     0.9818922   -0.1279001     0.0010736    0.0025506    -0.0001092    0.0001175     0.9412126   -0.2224791 
   0.003750925     0.9549806   -0.1382374    -0.0045777   -0.0003749     0.0003706   -0.0003745     0.9351585   -0.2318072 
   0.003850950     0.9419032   -0.1763392    -0.0008113    0.0015647     0.0000272    0.0001520     0.9379569   -0.2285582 
   0.003950975     0.9979324   -0.1071960    -0.0000036    0.0036893     0.0001272   -0.0000823     0.9320660   -0.2335473 
   0.004051001     0.9472928   -0.1599196    -0.0015264    0.0017841     0.0004736   -0.0003061     0.9250298   -0.2388093 
   0.004151026     0.9779265   -0.1352719    -0.0026291    0.0027635     0.0009111   -0.0007646     0.9227817   -0.2452495 
   0.004251051     0.9866879   -0.1390620     0.0026265    0.0034132     0.0002680    0.0000977     0.9204429   -0.2479912 
   0.004351076     0.9524634   -0.1333093    -0.0026338    0.0011012     0.0006658    0.0000861     0.9168953   -0.2546884 
   0.004451101     1.0121260   -0.1255026    -0.0019549    0.0022176    -0.0006168    0.0000721     0.9154725   -0.2595694 
   0.004551126     0.9660171   -0.1652050    -0.0002321    0.0026593     0.0004804    0.0000243     0.9132495   -0.2622142 
   0.004651151     0.9670539   -0.1650588     0.0018376    0.0017286     0.0004070   -0.0003017     0.9142793   -0.2649083 
   0.004751176     0.9544201   -0.1739072     0.0000876    0.0008295     0.0001509   -0.0001811     0.9053852   -0.2742639 
   0.004851201     0.9113188   -0.1355267     0.0007647    0.0011673    -0.0001433    0.0000913     0.8979602   -0.2756349 
   0.004951226     0.9514073   -0.1506762     0.0005529    0.0023882     0.0000521   -0.0004520     0.8981931   -0.2797292 
   0.005051251     0.9775183   -0.1826849    -0.0010258    0.0018373     0.0008100   -0.0000259     0.8973392   -0.2805326 
   0.005151276     0.9377732   -0.1416754     0.0008744    0.0005936    -0.0000215    0.0000259     0.8847041   -0.2894912 
   0.005251301     0.9714385   -0.1602376    -0.0006037    0.0038170     0.0001526   -0.0003641     0.8812474   -0.2948528 
   0.005351326     0.9505022   -0.1509522    -0.0001320    0.0016899    -0.0001470    0.0005804     0.8832628   -0.2943655 
   0.005451351     0.9545215   -0.1618672     0.0007712    0.0000275     0.0001010    0.0002234     0.8774222   -0.3064090 
   0.005551376     0.9429424   -0.1909928    -0.0003785    0.0003172     0.0002588   -0.0003404     0.8723521   -0.3010274 
   0.005651401     0.9521327   -0.1610848    -0.0008498    0.0003717     0.0001011    0.0002186     0.8694319   -0.3198677 
   0.005751426     0.9358481   -0.1715140    -0.0014100    0.0004064     0.0000844    0.0000066     0.8647201   -0.3112708 
   0.005851451     0.9561150   -0.2046918    -0.0000422    0.0001898     0.0007602   -0.0001596     0.8591748   -0.3207464 
   0.005951476     0.9444355   -0.1672853     0.0011796   -0.0014179    -0.0004620   -0.0004438     0.8592941   -0.3208849 
   0.006051501     0.9493257   -0.1869944     0.0018693   -0.0001886     0.0003698   -0.0001953     0.8560874   -0.3240289 
   0.006151526     0.9471998   -0.2203573    -0.0002385   -0.0004010     0.0004362    0.0002569     0.8501015   -0.3248392 
   0.006251551     0.9313667   -0.1888139     0.0004275    0.0006034     0.0000623   -0.0001052     0.8465012   -0.3354321 
   0.006351576     0.9295114   -0.2196221     0.0008251    0.0013573     0.0000378   -0.0001594     0.8402705   -0.3369175 
   0.006451601     0.9420084   -0.2081558     0.0011804    0.0013525     0.0002340   -0.0008117     0.8387541   -0.3397373 
   0.006551626     0.9122010   -0.2196623     0.0007868    0.0001807    -0.0001152   -0.0001070     0.8341610   -0.3413080 
   0.006651651     0.9352042   -0.1971765    -0.0007228    0.0000635    -0.0000120   -0.0000565     0.8297042   -0.3467229 
   0.006751676     0.9303936   -0.2320537     0.0008078   -0.0019655     0.0004627   -0.0000795     0.8289738   -0.3452978 
   0.006851701     0.9456199   -0.2530766    -0.0014430    0.0013340     0.0003269    0.0000061     0.8197540   -0.3523714 
   0.006951726     0.9232395   -0.2158597    -0.0006007   -0.0015335    -0.0001176   -0.0000062     0.8182515   -0.3533787 
   0.007051751     0.9425139   -0.2322169    -0.0007640    0.0006439    -0.0001451    0.0001055     0.8140697   -0.3593421 
   0.007151776     0.8988358   -0.2312187     0.0009957   -0.0000472     0.0003528   -0.0003534     0.8036608   -0.3604987 
   0.007251801     0.9519330   -0.2044592    -0.0005342    0.0012511    -0.0000151   -0.0000053     0.8005302   -0.3661898 
   0.007351826     0.9210236   -0.2250919     0.0002486   -0.0004932    -0.0005425   -0.0001264     0.7962391   -0.3672100 
   0.007451851     0.9289222   -0.2395559    -0.0013245    0.0014548     0.0002283    0.0004559     0.7956293   -0.3681819 
   0.007551876     0.9183331   -0.2342066    -0.0007506   -0.0002617    -0.0000962   -0.0000441     0.7912716   -0.3742418 
   0.007651901     0.9347426   -0.2560505    -0.0001136    0.0003899    -0.0007615   -0.0000842     0.7887918   -0.3733788 
   0.007751926     0.9152214   -0.2446889    -0.0004039   -0.0007129     0.0000605   -0.0001899     0.7822007   -0.3760976 
   0.007851951     0.9300290   -0.2357656    -0.0012072    0.0003059    -0.0001459   -0.0000219     0.7803821   -0.3761189 
   0.007951976     0.9132383   -0.2649347    -0.0006920    0.0012722     0.0004063   -0.0001202     0.7728847   -0.3803207 
   0.008052001     0.9212805   -0.2382196    -0.0007081    0.0002288    -0.0003680   -0.0003530     0.7693595   -0.3811522 
   0.008152026     0.9061275   -0.2687331     0.0002216   -0.0003152     0.0001373   -0.0002246     0.7663599   -0.3856389 
   0.008252051     0.8962258   -0.2451299     0.0008327    0.0015005    -0.0001809    0.0001827     0.7581581   -0.3895988 
   0.008352076     0.9213326   -0.2528158    -0.0011547   -0.0004666    -0.0002778   -0.0004423     0.7596701   -0.3868407 
   0.008452101     0.9247404   -0.2472643    -0.0014247    0.0002621    -0.0004913    0.0002720     0.7546530   -0.3909729 
   0.008552126     0.9172248   -0.2771543     0.0001895    0.0006365     0.0000138   -0.0006109     0.7485613   -0.3961938 
   0.008652151     0.9073825   -0.2538466    -0.0001716   -0.0012469     0.0002209    0.0004841     0.7438840   -0.3964903 
   0.008752176     0.9053616   -0.2511680     0.0005032   -0.0003115     0.0000278   -0.0002256     0.7415107   -0.4015721 
   0.008852201     0.8969045   -0.2543824    -0.0000237   -0.0002226     0.0003444   -0.0000011     0.7347711   -0.3980308 
   0.008952226     0.9171282   -0.2752859     0.0006043   -0.0000434    -0.0000006    0.0001367     0.7323793   -0.4010356 
   0.009052251     0.9114015   -0.2488822    -0.0004441    0.0009987    -0.0000171   -0.0001560     0.7307124   -0.4034939 
   0.009152276     0.9045405   -0.2654429     0.0000398    0.0001617     0.0000309    0.0000597     0.7240578   -0.4035483 
   0.009252301     0.8994659   -0.2807765    -0.0007793    0.0002394    -0.0001139    0.0003152     0.7224491   -0.4102912 
   0.009352326     0.9023386   -0.2893863    -0.0011454    0.0007912     0.0002241    0.0001787     0.7181669   -0.4066692 
   0.009452351     0.8989957   -0.2819364    -0.0007016   -0.0005703    -0.0002464   -0.0000869     0.7105163   -0.4070713 
   0.009552376     0.8856003   -0.2923141    -0.0001954    0.0003447     0.0000460   -0.0000910     0.7062498   -0.4091836 
   0.009652401     0.8857330   -0.2756886    -0.0003425    0.0007279    -0.0001806   -0.0000607     0.7056035   -0.4121095 
   0.009752426     0.8774855   -0.2920180     0.0000208   -0.0000082    -0.0003259   -0.0001998     0.7007412   -0.4126163 
   0.009852451     0.8890554   -0.3050522    -0.0002480   -0.0013812     0.0000199    0.0001061     0.6949827   -0.4150671 
   0.009952476     0.8862979   -0.3002904     0.0014162    0.0000323    -0.0003391    0.0000091     0.6916323   -0.4142477 
   0.010052501     0.8829023   -0.2898079     0.0007440   -0.0006242     0.0002866    0.0000971     0.6917966   -0.4132582 
   0.010152526     0.8818170   -0.2765745     0.0002521   -0.0000806     0.0000324    0.0002160     0.6825609   -0.4160687 
   0.010252551     0.8698030   -0.2949220    -0.0002255   -0.0012886     0.0001704    0.0000177     0.6833349   -0.4226736 
   0.010352576     0.9024422   -0.3102304    -0.0013957   -0.0010814    -0.0000125    0.0000161     0.6759124   -0.4191988 
   0.010452601     0.8853701   -0.2861967    -0.0013005   -0.0003808    -0.0001753    0.0002139     0.6691041   -0.4236765 
   0.010552626     0.8734459   -0.3078347    -0.0006992    0.0006418    -0.0001632    0.0000303     0.6699309   -0.4241954 
   0.010652651     0.8660868   -0.3123597    -0.0004738   -0.0012283    -0.0002085    0.0000044     0.6650854   -0.4251199 
   0.010752676     0.8737469   -0.3299441     0.0004321    0.0006206    -0.0001059   -0.0001285     0.6606480   -0.4231314 
   0.010852701     0.8713499   -0.2919748    -0.0006794   -0.0010160     0.0001254   -0.0000342     0.6604105   -0.4226263 
   0.010952726     0.8662485   -0.3035057     0.0003341    0.0004624    -0.0000315   -0.0000339     0.6539575   -0.4263045 
   0.011052751     0.8735052   -0.3232387    -0.0001297   -0.0009649    -0.0003126   -0.0001460     0.6483459   -0.4284373 
   0.011152776     0.8583584   -0.3131936    -0.0006276    0.0001696     0.0000190    0.0001002     0.6433771   -0.4287137 
   0.011252801     0.8561576   -0.3249327    -0.0007537    0.0000694    -0.0002674   -0.0001836     0.6403432   -0.4294198 
   0.011352826     0.8659067   -0.3367845     0.0004839   -0.0014281    -0.0000156   -0.0000965     0.6397907   -0.4283223 
   0.011452851     0.8520105   -0.3309478     0.0012193    0.0000701     0.0000731   -0.0002256     0.6337013   -0.4295076 
   0.011552876     0.8658413   -0.3298637     0.0013827   -0.0002601     0.0000504    0.0001547     0.6320150   -0.4297160 
   0.011652901     0.8513706   -0.3453080     0.0004852    0.0002551     0.0001886    0.0001400     0.6267807   -0.4323451 
   0.011752926     0.8354394   -0.3297916    -0.0007294   -0.0004530     0.0000865    0.0003885     0.6239434   -0.4314204 
   0.011852951     0.8571258   -0.3538859     0.0005403    0.0009779     0.0000196    0.0001303     0.6214815   -0.4313068 
   0.011952976     0.8322154   -0.3362723    -0.0009517    0.0003558     0.0002739   -0.0000744     0.6149445   -0.4313034 
   0.012053002     0.8352835   -0.3518519    -0.0003655    0.0005197     0.0001825    0.0001725     0.6123930   -0.4322204 
   0.012153027     0.8401800   -0.3407616    -0.0000422   -0.0003136    -0.0001918    0.0001389     0.6084442   -0.4319468 
   0.012253052     0.8320571   -0.3533952    -0.0009693   -0.0003474     0.0000554    0.0000385     0.6059154   -0.4326386 
   0.012353077     0.8354244   -0.3445427    -0.0004393    0.0010632    -0.0001062    0.0001564     0.6041288   -0.4339549 
   0.012453102     0.8383205   -0.3504747     0.0010751   -0.0009783     0.0001089    0.0003102     0.5979286   -0.4345638 
   0.012553127     0.8229768   -0.3680283     0.0000987    0.0005453    -0.0000230   -0.0000342     0.5918887   -0.4336246 
   0.012653152     0.8398584   -0.3380014    -0.0005033   -0.0009095     0.0002815   -0.0001222     0.5918533   -0.4361999 
   0.012753177     0.8257937   -0.3427692    -0.0006119    0.0009024     0.0000215    0.0000215     0.5889995   -0.4350782 
   0.012853202     0.8204750   -0.3407300     0.0000091   -0.0004317    -0.0001783    0.0002008     0.5821741   -0.4346775 
   0.012953227     0.8233084   -0.3532855     0.0002506   -0.0001068    -0.0000484    0.0001165     0.5836596   -0.4369995 
   0.013053252     0.8033604   -0.3670527     0.0004041    0.0001874    -0.0001471   -0.0001127     0.5793560   -0.4335314 
   0.013153277     0.8171386   -0.3506822     0.0008379   -0.0005470     0.0002528   -0.0001012     0.5741097   -0.4360822 
   0.013253302     0.8174557   -0.3569879    -0.0006222    0.0001620    -0.0000304    0.0001294     0.5705322   -0.4319122 
   0.013353327     0.8097595   -0.3602788    -0.0003432    0.0013250     0.0001701    0.0000474     0.5677081   -0.4354017 
   0.013453352     0.8174473   -0.3486567     0.0003009    0.0002380     0.0002175    0.0000331     0.5661100   -0.4346382 
   0.013553377     0.7986372   -0.3611922    -0.0003470    0.0007831    -0.0001918   -0.0002458     0.5604926   -0.4360226 
   0.013653402     0.8036143   -0.3708700     0.0005488    0.0001083    -0.0000140    0.0000119     0.5582696   -0.4336420 
   0.013753427     0.8137522   -0.3673812    -0.0006549    0.0001769     0.0001264    0.0004068     0.5531808   -0.4340401 
   0.013853452     0.8027279   -0.3842306     0.0000358   -0.0006377     0.0002984    0.0004112     0.5527937   -0.4339916 
   0.013953477     0.7974764   -0.3597075    -0.0003189    0.0004769    -0.0000610    0.0001860     0.5516132   -0.4358866 
   0.014053502     0.8160748   -0.3905874     0.0006530   -0.0001444    -0.0001613    0.0002009     0.5465027   -0.4339498 
   0.014153527     0.8032698   -0.3737136    -0.0000158    0.0002690    -0.0002627   -0.0001940     0.5439179   -0.4348680 
   0.014253552     0.8096520   -0.3798594    -0.0005354    0.0005777     0.0000391    0.0003148     0.5435595   -0.4347709 
   0.014353577     0.7843016   -0.3747174    -0.0001478   -0.0008927    -0.0000907    0.0001363     0.5359920   -0.4327418 
   0.014453602     0.7783341   -0.3842090     0.0000846   -0.0002909     0.0000399    0.0000428     0.5358909   -0.4325112 
   0.014553627     0.7942906   -0.3771388    -0.0003980   -0.0004283    -0.0000167    0.0000055     0.5315017   -0.4342579 
   0.014653652     0.7883458   -0.3847737    -0.0011392    0.0010253    -0.0000134   -0.0000856     0.5270814   -0.4345526 
   0.014753677     0.7797321   -0.3895574    -0.0007495    0.0006136     0.0002090    0.0002270     0.5251009   -0.4312167 
   0.014853702     0.7891916   -0.3810509     0.0003323    0.0003992     0.0000048   -0.0001769     0.5227354   -0.4322443 
   0.014953727     0.7769451   -0.3959055     0.0005179   -0.0000299     0.0001257    0.0001127     0.5203568   -0.4314483 
   0.015053752     0.7855028   -0.3870035     0.0004653    0.0004383    -0.0002605    0.0000338     0.5165491   -0.4316634 
   0.015153777     0.7872660   -0.3931857     0.0005939   -0.0002256     0.0001700    0.0000457     0.5161499   -0.4315663 
   0.015253802     0.7739473   -0.3884043     0.0000359   -0.0002751    -0.0001049   -0.0002052     0.5121923   -0.4321203 
   0.015353827     0.7668254   -0.3875393     0.0013335   -0.0002962     0.0000493    0.0005064     0.5090476   -0.4295072 
   0.015453852     0.7741966   -0.3979169    -0.0003173    0.0004719     0.0000206    0.0003598     0.5054788   -0.4291441 
   0.015553877     0.7714373   -0.3958470    -0.0009686    0.0004358    -0.0002046   -0.0002500     0.5027899   -0.4287503 
   0.015653902     0.7649558   -0.4053871    -0.0001690    0.0004930    -0.0002192   -0.0000762     0.5024038   -0.4326998 
