! 26-Feb-26 12:19:30 PM
! E:\VNA_MEASUREMENTS\SP8T\SP8T_P5_RF3.S2P
! CHANNEL.1
! TR.MEASUREMENT
! CORRECTED.DATA
# GHZ S RI R 50.0
! FREQ.GHZ         S11RE         S11IM         S21RE         S21IM         S12RE         S12IM         S22RE         S22IM         
!; PortSelection: Port_12
   0.000050000     0.0769270   -0.1488703    -0.0851694    0.0325970     0.0026616   -0.0056840     1.0825410   -0.0273893 
   0.000150025    -0.1532823    0.2490737     0.3565972   -0.7256239    -0.0001127    0.0007472     1.0047650   -0.0088062 
   0.000250050    -0.4608675   -0.2445006    -0.0013298    0.0053605    -0.0002434    0.0000447     1.0174080   -0.0139671 
   0.000350075     0.9608498   -0.0609031    -0.0026178   -0.0125863    -0.0000579   -0.0022258     0.9832146   -0.0256958 
   0.000450100     1.0308780   -0.0608939     0.0007359   -0.0089919     0.0007001   -0.0002121     0.9975519   -0.0203849 
   0.000550125     1.0148260   -0.0552427    -0.0061565   -0.0123212     0.0001746    0.0002167     0.9951473   -0.0353657 
   0.000650150     0.9801083   -0.0001160    -0.0098712   -0.0093476     0.0007559    0.0006221     1.0040530   -0.0406132 
   0.000750175     1.0169850   -0.0595423    -0.0081940   -0.0110583     0.0008105    0.0003900     0.9903872   -0.0561178 
   0.000850200     0.9710897   -0.0838500    -0.0096120   -0.0075406    -0.0006573    0.0008959     1.0025650   -0.0472476 
   0.000950225     1.0400510   -0.0047583    -0.0113923   -0.0071574     0.0011582   -0.0002171     0.9915665   -0.0610950 
   0.001050250     0.9624376   -0.0577552    -0.0118575   -0.0034769     0.0002107    0.0001193     0.9988371   -0.0654303 
   0.001150275     0.9851737   -0.0383990    -0.0075412   -0.0074684    -0.0000446   -0.0008203     0.9810052   -0.0821443 
   0.001250300     0.9521551   -0.0579396    -0.0092994    0.0001484     0.0004143   -0.0004520     0.9935961   -0.0890098 
   0.001350325     0.9694203   -0.0329735    -0.0115849   -0.0011771    -0.0002649    0.0002202     0.9855259   -0.0884618 
   0.001450350     0.9674936   -0.0179586    -0.0057660   -0.0044425    -0.0002171   -0.0000864     0.9841807   -0.0963977 
   0.001550375     0.9676957   -0.0546617    -0.0084444   -0.0000887    -0.0001306    0.0004036     0.9946526   -0.0969161 
   0.001650400     0.9676108   -0.0122877    -0.0112131    0.0006862     0.0005551    0.0002644     0.9827972   -0.1031060 
   0.001750425     0.9682734   -0.0299829    -0.0060168    0.0025152    -0.0003988    0.0001526     0.9822655   -0.1212971 
   0.001850450     0.9640591   -0.0288945    -0.0073909    0.0001221     0.0008756   -0.0003560     0.9840676   -0.1207254 
   0.001950475     1.0035410    0.0253573    -0.0065712   -0.0000047    -0.0002133    0.0003890     0.9794661   -0.1234449 
   0.002050500     0.9571643   -0.0347486    -0.0094740    0.0040587    -0.0002903   -0.0003489     0.9892017   -0.1312594 
   0.002150525     0.9618050   -0.0435116    -0.0087353    0.0004244    -0.0003907   -0.0004785     0.9759675   -0.1437352 
   0.002250550     0.9589711   -0.0145669    -0.0053114    0.0031751     0.0003837    0.0003207     0.9734221   -0.1448368 
   0.002350575     0.9756690   -0.0721387    -0.0043393    0.0021769     0.0001252    0.0006292     0.9781587   -0.1467580 
   0.002450600     0.9580482   -0.0588064    -0.0055878    0.0029117    -0.0003157   -0.0009050     0.9765579   -0.1564967 
   0.002550625     0.9824736   -0.0484771    -0.0002949    0.0015195    -0.0002410    0.0012152     0.9741834   -0.1569666 
   0.002650650     1.0021800   -0.0192675    -0.0015995    0.0026907     0.0003125    0.0001757     0.9696508   -0.1757813 
   0.002750675     0.9620770    0.0140632    -0.0034826    0.0034655    -0.0003139   -0.0000269     0.9670663   -0.1802101 
   0.002850700     0.9952421   -0.0272092    -0.0029658    0.0052327    -0.0003531   -0.0001624     0.9622263   -0.1766476 
   0.002950725     0.9674335   -0.0122937    -0.0005260    0.0008610    -0.0003091    0.0003300     0.9647746   -0.1819651 
   0.003050750     0.9752200   -0.0237358    -0.0036853    0.0043052    -0.0000152   -0.0007638     0.9544110   -0.1925702 
   0.003150775     0.9806139   -0.0670605    -0.0026721    0.0019193     0.0000990    0.0013970     0.9491037   -0.1986616 
   0.003250800     0.9731156   -0.0157198    -0.0017792    0.0026869    -0.0001123    0.0001868     0.9492294   -0.2058008 
   0.003350825     0.9800081   -0.0354961    -0.0026480    0.0021421    -0.0010508   -0.0001854     0.9448056   -0.2061688 
   0.003450850     0.9645659   -0.0545518    -0.0021322    0.0028408     0.0003324   -0.0001086     0.9460698   -0.2127755 
   0.003550875     0.9615745   -0.0455422     0.0000620    0.0023358    -0.0008036   -0.0000900     0.9379603   -0.2227037 
   0.003650900     0.9638960   -0.0391968    -0.0002092    0.0024496    -0.0005166    0.0001886     0.9426045   -0.2301841 
   0.003750925     0.9376807   -0.0463012    -0.0021580    0.0023803    -0.0004073    0.0000131     0.9292933   -0.2322275 
   0.003850950     0.9671265   -0.0561660     0.0009344    0.0026353     0.0009400   -0.0002081     0.9340425   -0.2322101 
   0.003950975     0.9772887   -0.0037882    -0.0037123    0.0016868    -0.0001227    0.0001180     0.9251660   -0.2392913 
   0.004051001     0.9647938   -0.0540568    -0.0037192    0.0045102    -0.0000509    0.0001733     0.9233397   -0.2406253 
   0.004151026     1.0047660   -0.0414033    -0.0006049    0.0028810     0.0002385    0.0003116     0.9179937   -0.2487998 
   0.004251051     0.9701130   -0.0314908     0.0006705    0.0015672    -0.0008892   -0.0000422     0.9183965   -0.2534924 
   0.004351076     0.9408054   -0.0192206     0.0003115    0.0001217    -0.0003496    0.0002662     0.9146907   -0.2578675 
   0.004451101     0.9949211   -0.0414373     0.0018774    0.0000823    -0.0004422   -0.0000250     0.9062464   -0.2661041 
   0.004551126     0.9476380   -0.0180202     0.0003759    0.0007742     0.0003768   -0.0000904     0.9101669   -0.2641641 
   0.004651151     0.9787503   -0.0161216     0.0002951    0.0018715     0.0001630    0.0006681     0.9037889   -0.2728947 
   0.004751176     0.9872284   -0.0600287    -0.0002852    0.0017465     0.0006461   -0.0004276     0.9040350   -0.2775664 
   0.004851201     0.9577667   -0.0267460     0.0008537    0.0027402    -0.0002632    0.0004001     0.8953524   -0.2780149 
   0.004951226     0.9368497   -0.0047358     0.0004112    0.0023555     0.0003552    0.0003850     0.8936121   -0.2802297 
   0.005051251     1.0022910   -0.0427110     0.0018631    0.0012445    -0.0003558    0.0010519     0.8904220   -0.2851588 
   0.005151276     0.9632975   -0.0112791     0.0002499    0.0001160     0.0004864   -0.0003473     0.8844444   -0.2940499 
   0.005251301     0.9490655   -0.0277414    -0.0005498    0.0006061    -0.0009436   -0.0003019     0.8804001   -0.2919842 
   0.005351326     0.9565303   -0.0311549    -0.0014253    0.0001667     0.0005262    0.0000951     0.8773949   -0.3026843 
   0.005451351     0.9421189   -0.0415924     0.0020448    0.0032300    -0.0000588    0.0000911     0.8731139   -0.3060553 
   0.005551376     0.9625278   -0.0289447    -0.0024940    0.0006965     0.0001351   -0.0005973     0.8690389   -0.3067652 
   0.005651401     0.9603137   -0.0359793    -0.0001324    0.0016539     0.0000803    0.0002603     0.8663085   -0.3180426 
   0.005751426     0.9443614   -0.0312464     0.0015573    0.0003174    -0.0004121   -0.0000066     0.8607482   -0.3123474 
   0.005851451     0.9600468   -0.0456443     0.0000517   -0.0004529     0.0000386    0.0002113     0.8577992   -0.3204808 
   0.005951476     0.9717726   -0.0256996     0.0016187   -0.0005433     0.0000326   -0.0004742     0.8559293   -0.3250521 
   0.006051501     0.9904145   -0.0374304    -0.0005386    0.0001820     0.0000165    0.0001961     0.8491951   -0.3318352 
   0.006151526     0.9449239   -0.0352534     0.0018509    0.0009852     0.0001377    0.0003330     0.8469120   -0.3304687 
   0.006251551     0.9451140    0.0066374    -0.0005750   -0.0000958     0.0002142   -0.0000962     0.8425428   -0.3348927 
   0.006351576     0.9638333   -0.0345847     0.0002541   -0.0004447     0.0004959    0.0001274     0.8361959   -0.3385589 
   0.006451601     0.9688870   -0.0425610     0.0014380    0.0002347     0.0002904    0.0003649     0.8290705   -0.3421574 
   0.006551626     0.9319690   -0.0469202    -0.0012344   -0.0010524     0.0000716    0.0002105     0.8297923   -0.3440567 
   0.006651651     0.9646842   -0.0331690     0.0020837   -0.0015231     0.0000698    0.0002178     0.8209027   -0.3493412 
   0.006751676     0.9583970   -0.0551763     0.0004065    0.0000652     0.0005318   -0.0001940     0.8229185   -0.3510010 
   0.006851701     0.9778159   -0.0539023     0.0008888    0.0009061     0.0000525    0.0003045     0.8145806   -0.3589227 
   0.006951726     0.9468270   -0.0416411     0.0014466    0.0004952     0.0000739   -0.0000374     0.8125569   -0.3556085 
   0.007051751     0.9691318   -0.0271631    -0.0009591    0.0011355     0.0001282    0.0003068     0.8049663   -0.3601469 
   0.007151776     0.9448233   -0.0523034     0.0002248   -0.0003523     0.0000725   -0.0005427     0.8000472   -0.3657975 
   0.007251801     0.9731573   -0.0163258    -0.0001267    0.0008860    -0.0003249   -0.0000161     0.7973314   -0.3678212 
   0.007351826     0.9589538   -0.0439809     0.0013264    0.0007071    -0.0000812   -0.0000345     0.7926174   -0.3686070 
   0.007451851     0.9357023   -0.0456402    -0.0002226    0.0010761     0.0000363    0.0004083     0.7861753   -0.3715875 
   0.007551876     0.9630093   -0.0453294    -0.0006255    0.0000833    -0.0001294    0.0003101     0.7867990   -0.3753291 
   0.007651901     0.9701651   -0.0540522     0.0015280   -0.0011290     0.0002366   -0.0001583     0.7832888   -0.3754517 
   0.007751926     0.9531882   -0.0375749    -0.0004232    0.0008098     0.0001239   -0.0000201     0.7760122   -0.3783463 
   0.007851951     0.9747977   -0.0384113     0.0005879   -0.0004673    -0.0001529    0.0009123     0.7727937   -0.3819469 
   0.007951976     0.9697393   -0.0692352     0.0002993   -0.0000685     0.0002162   -0.0003528     0.7665227   -0.3804788 
   0.008052001     0.9742646   -0.0433051     0.0012422   -0.0005542     0.0001719   -0.0004809     0.7639187   -0.3850779 
   0.008152026     0.9535536   -0.0573935     0.0001738   -0.0000567    -0.0001046   -0.0002791     0.7632150   -0.3897771 
   0.008252051     0.9316986   -0.0573413     0.0000198   -0.0001455     0.0003141   -0.0001567     0.7547342   -0.3891667 
   0.008352076     0.9679798   -0.0406925    -0.0004441    0.0002033    -0.0000044   -0.0000638     0.7544953   -0.3913503 
   0.008452101     0.9619478   -0.0214294    -0.0006464    0.0005427    -0.0000377   -0.0003292     0.7481109   -0.3938874 
   0.008552126     0.9704355   -0.0338364    -0.0003756   -0.0004079    -0.0000662   -0.0000615     0.7453198   -0.3938511 
   0.008652151     0.9753982   -0.0422203    -0.0005103    0.0005531     0.0001494   -0.0000557     0.7364524   -0.3976764 
   0.008752176     0.9684878   -0.0446189    -0.0002662    0.0007769     0.0006590   -0.0000236     0.7364948   -0.4005159 
   0.008852201     0.9558449   -0.0302937     0.0008596   -0.0003126     0.0004317   -0.0000229     0.7315537   -0.3978126 
   0.008952226     0.9695129   -0.0362167     0.0004051   -0.0013474     0.0003810    0.0000949     0.7283986   -0.4024005 
   0.009052251     0.9610530   -0.0353768    -0.0003948   -0.0003704    -0.0000664   -0.0000203     0.7247295   -0.4053459 
   0.009152276     0.9668609   -0.0401623    -0.0010414   -0.0004516     0.0002734    0.0001681     0.7157365   -0.4072827 
   0.009252301     0.9454491   -0.0458776     0.0007446   -0.0005239    -0.0001584    0.0001062     0.7134804   -0.4111064 
   0.009352326     0.9558997   -0.0427275    -0.0000562    0.0002414    -0.0001759   -0.0001055     0.7108707   -0.4081213 
   0.009452351     0.9651388   -0.0356378    -0.0008874   -0.0001743    -0.0001506    0.0000402     0.7043079   -0.4100263 
   0.009552376     0.9527608   -0.0530883     0.0000836   -0.0009813     0.0001957   -0.0003793     0.7020662   -0.4085546 
   0.009652401     0.9557731   -0.0431980     0.0008733   -0.0001596     0.0000791   -0.0001041     0.6959356   -0.4124303 
   0.009752426     0.9599041   -0.0418441     0.0001110    0.0007551    -0.0001298   -0.0002035     0.6930532   -0.4125756 
   0.009852451     0.9666192   -0.0518227     0.0004919   -0.0003759    -0.0003183    0.0000051     0.6893663   -0.4159071 
   0.009952476     0.9545146   -0.0517760    -0.0006663    0.0009302     0.0000266   -0.0002729     0.6842628   -0.4153937 
   0.010052501     0.9590156   -0.0470123     0.0000658    0.0003019    -0.0000300   -0.0000372     0.6836280   -0.4148500 
   0.010152526     0.9448766   -0.0353510     0.0005565    0.0000522     0.0004182    0.0002875     0.6744943   -0.4172466 
   0.010252551     0.9549220   -0.0490970    -0.0011937    0.0013279     0.0000776    0.0000239     0.6750625   -0.4208076 
   0.010352576     0.9652601   -0.0410752    -0.0006514   -0.0002565     0.0002239    0.0000948     0.6692361   -0.4177414 
   0.010452601     0.9576420   -0.0328287    -0.0005443    0.0021180     0.0001525    0.0006202     0.6653498   -0.4234188 
   0.010552626     0.9525579   -0.0439955    -0.0008009    0.0000040    -0.0000417    0.0001910     0.6626250   -0.4243158 
   0.010652651     0.9567404   -0.0430040     0.0004176    0.0003329    -0.0002363   -0.0002778     0.6570648   -0.4257914 
   0.010752676     0.9716479   -0.0537541    -0.0009359    0.0004182     0.0000100   -0.0001068     0.6520293   -0.4238462 
   0.010852701     0.9589754   -0.0185360     0.0004839    0.0009093     0.0000162    0.0000767     0.6534697   -0.4233426 
   0.010952726     0.9549354   -0.0438170     0.0000530   -0.0001581    -0.0004751    0.0003816     0.6447859   -0.4270853 
   0.011052751     0.9651862   -0.0533361     0.0009785   -0.0001793     0.0003184    0.0000533     0.6417411   -0.4297546 
   0.011152776     0.9657798   -0.0394291     0.0021245    0.0003652     0.0000623   -0.0001653     0.6375816   -0.4281824 
   0.011252801     0.9563834   -0.0500525    -0.0003762    0.0005480    -0.0000607    0.0000410     0.6357432   -0.4284824 
   0.011352826     0.9819033   -0.0542302    -0.0010560    0.0012069     0.0003352   -0.0001797     0.6336781   -0.4267013 
   0.011452851     0.9475442   -0.0555736    -0.0003205   -0.0008963     0.0002572    0.0002136     0.6253868   -0.4297703 
   0.011552876     0.9581423   -0.0572359    -0.0006948    0.0001214    -0.0001750    0.0000804     0.6235169   -0.4326645 
   0.011652901     0.9611290   -0.0508143     0.0005080    0.0003825     0.0001226    0.0003016     0.6197979   -0.4309461 
   0.011752926     0.9509205   -0.0525196    -0.0009464    0.0001701     0.0000804    0.0003727     0.6167201   -0.4282726 
   0.011852951     0.9737892   -0.0570798    -0.0006831   -0.0001619     0.0004311   -0.0000078     0.6149004   -0.4304627 
   0.011952976     0.9439735   -0.0450111    -0.0009335    0.0005864    -0.0005150    0.0001179     0.6100936   -0.4303394 
   0.012053002     0.9615530   -0.0751421    -0.0006358   -0.0006259     0.0001945    0.0002479     0.6043046   -0.4319944 
   0.012153027     0.9498557   -0.0654601    -0.0004883    0.0005160     0.0000069   -0.0002787     0.6014743   -0.4320892 
   0.012253052     0.9486600   -0.0636698     0.0001058   -0.0004509    -0.0000914   -0.0003817     0.5999739   -0.4326116 
   0.012353077     0.9628584   -0.0591079     0.0001820   -0.0002576     0.0000370   -0.0000371     0.5982241   -0.4326788 
   0.012453102     0.9546967   -0.0501276    -0.0012186    0.0006737     0.0000238   -0.0002303     0.5895653   -0.4350324 
   0.012553127     0.9623950   -0.0719324     0.0005333   -0.0005503    -0.0000221   -0.0000831     0.5872486   -0.4328627 
   0.012653152     0.9762844   -0.0456841     0.0006098   -0.0008623     0.0002320   -0.0001415     0.5852519   -0.4341882 
   0.012753177     0.9421958   -0.0571496    -0.0001491    0.0001245     0.0000957    0.0002485     0.5807696   -0.4322428 
   0.012853202     0.9491032   -0.0342440    -0.0001884    0.0000454     0.0003608   -0.0002891     0.5742322   -0.4323574 
   0.012953227     0.9509332   -0.0356344    -0.0008239    0.0005307    -0.0002928    0.0001244     0.5762162   -0.4318787 
   0.013053252     0.9442267   -0.0622905     0.0007893    0.0005529     0.0000883   -0.0002094     0.5730608   -0.4317364 
   0.013153277     0.9533131   -0.0497123    -0.0014177   -0.0004051     0.0002732    0.0002282     0.5685826   -0.4338501 
   0.013253302     0.9365343   -0.0429524    -0.0001052   -0.0006643    -0.0002413   -0.0001209     0.5655344   -0.4309441 
   0.013353327     0.9444140   -0.0485638     0.0005822    0.0000614     0.0001391    0.0002682     0.5594893   -0.4335033 
   0.013453352     0.9681156   -0.0441071    -0.0003088   -0.0010789     0.0001157    0.0000295     0.5592288   -0.4324209 
   0.013553377     0.9403347   -0.0606867     0.0003856    0.0004078     0.0000468   -0.0000870     0.5555259   -0.4327054 
   0.013653402     0.9443565   -0.0542405    -0.0005733    0.0007216    -0.0002033   -0.0003329     0.5513562   -0.4333188 
   0.013753427     0.9603443   -0.0513657    -0.0002371   -0.0004230     0.0000863    0.0001220     0.5474779   -0.4332648 
   0.013853452     0.9800821   -0.0573635     0.0010032    0.0001105     0.0000819   -0.0000961     0.5471591   -0.4304416 
   0.013953477     0.9387948   -0.0519969     0.0010977    0.0007813     0.0001858   -0.0000994     0.5421124   -0.4331960 
   0.014053502     0.9605093   -0.0524368     0.0012667    0.0000704    -0.0002080   -0.0000976     0.5403871   -0.4314678 
   0.014153527     0.9602288   -0.0594495    -0.0010449   -0.0016175     0.0001965   -0.0004796     0.5376210   -0.4315940 
   0.014253552     0.9675558   -0.0683249    -0.0004284   -0.0005220    -0.0000367    0.0001987     0.5345648   -0.4310625 
   0.014353577     0.9488502   -0.0697282     0.0004027   -0.0008933     0.0004101    0.0002706     0.5279326   -0.4311736 
   0.014453602     0.9425463   -0.0626731    -0.0003197    0.0008862     0.0000097    0.0001557     0.5282226   -0.4296222 
   0.014553627     0.9462432   -0.0566708     0.0001504    0.0004008     0.0001185   -0.0001956     0.5256712   -0.4325441 
   0.014653652     0.9713737   -0.0667769     0.0002347   -0.0010624     0.0000537   -0.0001992     0.5218811   -0.4306464 
   0.014753677     0.9494228   -0.0704215    -0.0013386   -0.0008169     0.0002435    0.0002548     0.5183020   -0.4288198 
   0.014853702     0.9560159   -0.0581714     0.0008339   -0.0012076    -0.0000157    0.0000471     0.5150767   -0.4302087 
   0.014953727     0.9654908   -0.0724444     0.0001061    0.0003019    -0.0001822   -0.0003814     0.5122663   -0.4289025 
   0.015053752     0.9549651   -0.0522612     0.0005759   -0.0007468     0.0003617   -0.0003657     0.5109454   -0.4291815 
   0.015153777     0.9615592   -0.0564823    -0.0003089   -0.0003222     0.0000905   -0.0002444     0.5087976   -0.4285046 
   0.015253802     0.9604596   -0.0462019    -0.0001536   -0.0008539    -0.0000711   -0.0000459     0.5039195   -0.4288394 
   0.015353827     0.9586922   -0.0724143     0.0001490    0.0004516     0.0003270   -0.0000604     0.5016370   -0.4286065 
   0.015453852     0.9566296   -0.0597169     0.0004941    0.0005917    -0.0001887    0.0000736     0.4990040   -0.4264677 
   0.015553877     0.9540387   -0.0721560     0.0000186   -0.0008531    -0.0005271    0.0001293     0.4955910   -0.4271867 
   0.015653902     0.9681146   -0.0658393     0.0000738    0.0004835    -0.0002197    0.0000497     0.4935239   -0.4268662 
