! 26-Feb-26 11:44:20 AM
! E:\VNA_MEASUREMENTS\SP8T\SP8T_P3_RF5.S2P
! CHANNEL.1
! TR.MEASUREMENT
! CORRECTED.DATA
# GHZ S RI R 50.0
! FREQ.GHZ         S11RE         S11IM         S21RE         S21IM         S12RE         S12IM         S22RE         S22IM         
!; PortSelection: Port_12
   0.000050000    -1.4484820    1.2770600     0.0442927    0.7381059     0.0031596    0.0009981     0.9723082    0.0202273 
   0.000150025     0.1106628    0.0183850    -0.6719094   -0.7677361    -0.0001677   -0.0004130     1.0109720   -0.0190139 
   0.000250050     0.3463624   -0.1035229    -0.0028005   -0.0107546    -0.0010295   -0.0002762     0.9997056   -0.0096073 
   0.000350075     1.0005970   -0.0468246     0.0013903   -0.0127294     0.0000593    0.0008789     0.9914320   -0.0241136 
   0.000450100     0.9768456   -0.0321046    -0.0010058   -0.0109515    -0.0003468    0.0007676     0.9921071   -0.0124976 
   0.000550125     1.0092840   -0.0399706    -0.0042417   -0.0108118    -0.0008487    0.0015827     0.9849274   -0.0393446 
   0.000650150     0.9911373   -0.0051908    -0.0045740   -0.0145695    -0.0005663    0.0011613     0.9988154   -0.0418748 
   0.000750175     1.0078000   -0.0492176    -0.0063745   -0.0126855     0.0003449   -0.0006805     0.9946200   -0.0517444 
   0.000850200     0.9748587   -0.0648374    -0.0052143   -0.0091897    -0.0010552    0.0005384     1.0046730   -0.0513188 
   0.000950225     1.0493640   -0.0763854    -0.0120656   -0.0046353     0.0007506    0.0005495     0.9868020   -0.0652676 
   0.001050250     1.0047910   -0.0665004    -0.0069796   -0.0061090    -0.0005441   -0.0005274     0.9907739   -0.0666945 
   0.001150275     1.0087560   -0.0781412    -0.0091214   -0.0016924     0.0011380    0.0003021     0.9884463   -0.0736709 
   0.001250300     0.9977151   -0.0416995    -0.0064200   -0.0078565    -0.0004951    0.0002859     0.9964833   -0.0792208 
   0.001350325     1.0031790   -0.0938549    -0.0107595   -0.0047516    -0.0005237    0.0009533     0.9916425   -0.0788800 
   0.001450350     0.9734214   -0.0903876    -0.0101007    0.0006004     0.0001793    0.0003400     0.9908333   -0.0879728 
   0.001550375     0.9430882   -0.0297290    -0.0086223   -0.0015168     0.0002348    0.0003400     0.9948505   -0.0955588 
   0.001650400     0.9957608   -0.0166168    -0.0150474   -0.0041487    -0.0004733    0.0003014     0.9775771   -0.0980821 
   0.001750425     0.9552714   -0.0841305    -0.0066790    0.0021487     0.0007656    0.0004748     0.9872340   -0.1067201 
   0.001850450     0.9888819   -0.0993762    -0.0041117    0.0029168    -0.0002488    0.0001972     0.9830458   -0.1072543 
   0.001950475     1.0142830   -0.0691486    -0.0066107    0.0006778    -0.0003440   -0.0008580     0.9844928   -0.1184557 
   0.002050500     0.9510278   -0.0629667    -0.0097685    0.0030067    -0.0004844   -0.0001569     0.9833043   -0.1356603 
   0.002150525     0.9930048   -0.0583105    -0.0060736    0.0002021    -0.0002697   -0.0002981     0.9776420   -0.1368246 
   0.002250550     0.9388070   -0.0601579    -0.0055552   -0.0012002     0.0002037    0.0001131     0.9751149   -0.1360727 
   0.002350575     0.9551731   -0.1247109    -0.0048652    0.0009953    -0.0004505   -0.0006735     0.9759483   -0.1438513 
   0.002450600     0.9964705   -0.1433424    -0.0007433    0.0029285     0.0003155   -0.0000951     0.9731346   -0.1482984 
   0.002550625     0.9691343   -0.0677764    -0.0045102    0.0002337    -0.0001452   -0.0001288     0.9729754   -0.1549429 
   0.002650650     1.0129470   -0.0992968    -0.0024602   -0.0011901    -0.0002366   -0.0001715     0.9685964   -0.1699722 
   0.002750675     0.9725643   -0.0605931    -0.0045788    0.0060122    -0.0009662   -0.0007803     0.9596565   -0.1679962 
   0.002850700     1.0015830   -0.1191090    -0.0025461    0.0047274    -0.0004204    0.0004344     0.9599888   -0.1745424 
   0.002950725     0.9612792   -0.0892089    -0.0029916   -0.0002005    -0.0002349    0.0001896     0.9666337   -0.1792772 
   0.003050750     1.0012910   -0.1034757    -0.0066232    0.0020115    -0.0002708   -0.0005128     0.9629092   -0.1836216 
   0.003150775     0.9671701   -0.1318057    -0.0041490    0.0034280     0.0006157   -0.0000196     0.9566132   -0.1888250 
   0.003250800     0.9599829   -0.1076658    -0.0032726    0.0001888     0.0002816    0.0000221     0.9528297   -0.2002403 
   0.003350825     0.9874448   -0.1070545     0.0000935   -0.0004354    -0.0001586   -0.0000006     0.9490167   -0.2013684 
   0.003450850     0.9401779   -0.1329782    -0.0016301    0.0048296     0.0005475    0.0004974     0.9445590   -0.2048834 
   0.003550875     0.9468650   -0.1214117    -0.0021063    0.0035280     0.0005380    0.0000909     0.9489067   -0.2189170 
   0.003650900     1.0045780   -0.1174826     0.0006148    0.0012486     0.0006781    0.0003847     0.9408773   -0.2188802 
   0.003750925     0.9480085   -0.1527510    -0.0004280    0.0005193     0.0006161   -0.0004376     0.9363002   -0.2222349 
   0.003850950     0.9904071   -0.1303259    -0.0029730    0.0000893     0.0000508    0.0002938     0.9362760   -0.2275043 
   0.003950975     0.9935029   -0.1468914    -0.0009584    0.0038279    -0.0002421    0.0002528     0.9328151   -0.2329942 
   0.004051001     0.9446330   -0.1537193     0.0004137    0.0036661     0.0000633    0.0006228     0.9271087   -0.2361152 
   0.004151026     0.9763747   -0.1243931     0.0004950    0.0000225     0.0002888   -0.0000893     0.9266097   -0.2448116 
   0.004251051     0.9648415   -0.1481712    -0.0013305    0.0027287     0.0003271   -0.0003524     0.9280869   -0.2465400 
   0.004351076     0.9668764   -0.1117713     0.0005305    0.0009637    -0.0009773    0.0001676     0.9180400   -0.2522729 
   0.004451101     0.9741107   -0.1826450    -0.0028442    0.0003937     0.0000217   -0.0003787     0.9151688   -0.2523259 
   0.004551126     0.9715163   -0.1760454    -0.0005486    0.0029935    -0.0004990   -0.0002249     0.9149637   -0.2551728 
   0.004651151     0.9580736   -0.1491810    -0.0085214   -0.0063866    -0.0001973   -0.0001760     0.9103119   -0.2655236 
   0.004751176     0.9640304   -0.1913388    -0.0003611    0.0024911     0.0003757    0.0000669     0.9064336   -0.2722000 
   0.004851201     0.9309769   -0.1544655    -0.0009359    0.0029265     0.0000746   -0.0004592     0.9024858   -0.2702583 
   0.004951226     0.9647154   -0.1475417     0.0003788    0.0002664     0.0000126   -0.0000103     0.9039205   -0.2791793 
   0.005051251     0.9516677   -0.1870773     0.0003392    0.0002244    -0.0005491    0.0002195     0.8951232   -0.2766717 
   0.005151276     0.9356723   -0.1440205     0.0011003    0.0008592    -0.0002871   -0.0000453     0.8885620   -0.2854463 
   0.005251301     0.9127391   -0.1749042    -0.0004980   -0.0011153    -0.0004794    0.0000390     0.8878187   -0.2857438 
   0.005351326     0.9533314   -0.1614093     0.0004173   -0.0008311    -0.0004585   -0.0001296     0.8855496   -0.2924484 
   0.005451351     0.9582251   -0.1643940    -0.0002572    0.0004839    -0.0002831   -0.0001858     0.8794966   -0.3043063 
   0.005551376     0.9763387   -0.1847302    -0.0012245    0.0027666    -0.0000792   -0.0000314     0.8719282   -0.3006102 
   0.005651401     0.9375168   -0.1460999    -0.0017253    0.0015700     0.0002403    0.0005821     0.8711931   -0.3113804 
   0.005751426     0.9362318   -0.1992098    -0.0009019    0.0013289    -0.0003474    0.0002095     0.8717368   -0.3119659 
   0.005851451     0.9541952   -0.2034777     0.0007008    0.0023755     0.0002960   -0.0003093     0.8658799   -0.3161684 
   0.005951476     0.9584786   -0.1886716     0.0013325    0.0009717    -0.0001660   -0.0002749     0.8619504   -0.3163787 
   0.006051501     0.9221076   -0.1905037     0.0003782    0.0012846    -0.0000138    0.0004744     0.8575428   -0.3228812 
   0.006151526     0.9252639   -0.2144676    -0.0000179    0.0002856     0.0000265   -0.0001125     0.8525900   -0.3259502 
   0.006251551     0.9313155   -0.1789123     0.0009253    0.0001569    -0.0002462    0.0000791     0.8510556   -0.3309893 
   0.006351576     0.9452724   -0.2217045    -0.0004759    0.0004673     0.0003163    0.0002573     0.8454021   -0.3350059 
   0.006451601     0.9290074   -0.2023696     0.0001627   -0.0000644    -0.0000792   -0.0003558     0.8423111   -0.3372156 
   0.006551626     0.9206050   -0.1969358     0.0000924    0.0002262    -0.0004884   -0.0000059     0.8395424   -0.3389240 
   0.006651651     0.9264494   -0.2165885     0.0005526    0.0008208     0.0002180    0.0001667     0.8315221   -0.3465833 
   0.006751676     0.9222304   -0.2379155    -0.0001956    0.0006717     0.0002736    0.0003010     0.8345893   -0.3461945 
   0.006851701     0.9271941   -0.2447781    -0.0003649    0.0006489    -0.0001377   -0.0000696     0.8232796   -0.3533354 
   0.006951726     0.9215288   -0.2311665     0.0025621   -0.0001289     0.0002010    0.0005245     0.8223577   -0.3530689 
   0.007051751     0.9427454   -0.2192493     0.0006008    0.0008230     0.0000887   -0.0000393     0.8165318   -0.3570373 
   0.007151776     0.9003996   -0.2343927     0.0001883    0.0003145     0.0001093   -0.0002599     0.8083453   -0.3615217 
   0.007251801     0.9331707   -0.2252613    -0.0006753    0.0008912     0.0001762   -0.0002997     0.8063079   -0.3618664 
   0.007351826     0.9071738   -0.2444270    -0.0012244    0.0017413    -0.0000098    0.0006197     0.8018497   -0.3673658 
   0.007451851     0.9066949   -0.2311711     0.0004382    0.0006580    -0.0001107   -0.0001318     0.8007113   -0.3636452 
   0.007551876     0.9231459   -0.2514922    -0.0002251    0.0001201    -0.0001304    0.0000347     0.7962851   -0.3675883 
   0.007651901     0.9229686   -0.2626458    -0.0002813   -0.0014113    -0.0003211    0.0003515     0.7921281   -0.3691037 
   0.007751926     0.9184378   -0.2400434     0.0016448    0.0004520     0.0002319   -0.0001283     0.7868222   -0.3741935 
   0.007851951     0.9206256   -0.2334913    -0.0005473   -0.0004423    -0.0002960    0.0002728     0.7846556   -0.3780456 
   0.007951976     0.9048821   -0.2708641    -0.0000640   -0.0008362    -0.0001466    0.0000064     0.7775480   -0.3800233 
   0.008052001     0.9233500   -0.2477694     0.0001032   -0.0015369    -0.0002038   -0.0000332     0.7734316   -0.3814447 
   0.008152026     0.9177100   -0.2771031    -0.0000523   -0.0007064    -0.0001203   -0.0000208     0.7742129   -0.3839234 
   0.008252051     0.8962892   -0.2417434     0.0002210    0.0010575    -0.0001563   -0.0001467     0.7642513   -0.3873449 
   0.008352076     0.9239062   -0.2711121     0.0001237   -0.0004141    -0.0000671    0.0002525     0.7624573   -0.3871885 
   0.008452101     0.9121936   -0.2497759    -0.0000848   -0.0019360     0.0002136    0.0000450     0.7588484   -0.3896229 
   0.008552126     0.9073587   -0.2768606     0.0005976   -0.0000845    -0.0001356   -0.0001838     0.7553809   -0.3917906 
   0.008652151     0.9153104   -0.2463024    -0.0003331    0.0008673    -0.0000688   -0.0002017     0.7519587   -0.3960876 
   0.008752176     0.9188321   -0.2576151    -0.0002195    0.0009279     0.0005617    0.0003021     0.7461981   -0.3967394 
   0.008852201     0.8782975   -0.2524442     0.0005244   -0.0012943    -0.0002707   -0.0000497     0.7403116   -0.3972059 
   0.008952226     0.8974018   -0.2729672    -0.0005496    0.0007560     0.0001912    0.0004558     0.7413771   -0.3980366 
   0.009052251     0.9061329   -0.2690240     0.0004643   -0.0001918    -0.0001967    0.0001691     0.7343203   -0.4022744 
   0.009152276     0.9049209   -0.2792481     0.0004966    0.0002966    -0.0001055    0.0002620     0.7282076   -0.4022151 
   0.009252301     0.8869999   -0.2771644     0.0008395   -0.0004498     0.0001476   -0.0003692     0.7267936   -0.4058197 
   0.009352326     0.9003465   -0.2935797    -0.0008336   -0.0004474     0.0003616    0.0002019     0.7228225   -0.4054149 
   0.009452351     0.8959112   -0.2819710     0.0006266   -0.0007244     0.0000836    0.0000496     0.7153440   -0.4065095 
   0.009552376     0.9048513   -0.2894692     0.0015827   -0.0003643    -0.0000226    0.0001165     0.7138208   -0.4086966 
   0.009652401     0.8814315   -0.2893974    -0.0001235   -0.0005434     0.0001869    0.0000088     0.7096421   -0.4103834 
   0.009752426     0.8876058   -0.2979369    -0.0002340    0.0004050     0.0000621   -0.0003095     0.7024388   -0.4103527 
   0.009852451     0.8958321   -0.3099910     0.0012755    0.0009119    -0.0000232   -0.0002802     0.7007639   -0.4138370 
   0.009952476     0.8771750   -0.3030733    -0.0000252    0.0000481     0.0003947   -0.0002805     0.6981615   -0.4113177 
   0.010052501     0.8749627   -0.2908190    -0.0004456    0.0000975    -0.0001644    0.0001811     0.6951404   -0.4116013 
   0.010152526     0.8746352   -0.2889978     0.0003427   -0.0007081     0.0006576   -0.0001658     0.6883350   -0.4127641 
   0.010252551     0.8895625   -0.3058672     0.0008276    0.0007684    -0.0002328    0.0000326     0.6877688   -0.4191748 
   0.010352576     0.8891255   -0.3156312     0.0000028    0.0014768     0.0000999   -0.0001990     0.6829279   -0.4192862 
   0.010452601     0.8736446   -0.2901790     0.0010982    0.0010026     0.0000622    0.0002266     0.6757038   -0.4206016 
   0.010552626     0.8622248   -0.3089877    -0.0007688   -0.0008446     0.0001070    0.0001831     0.6738205   -0.4227962 
   0.010652651     0.8591354   -0.3105789    -0.0000565   -0.0004852    -0.0004164    0.0002607     0.6699518   -0.4212799 
   0.010752676     0.8664372   -0.3316403    -0.0009015    0.0004130    -0.0002012    0.0002700     0.6660536   -0.4220507 
   0.010852701     0.8786228   -0.2945109     0.0000056   -0.0001413    -0.0002136   -0.0001686     0.6657658   -0.4214869 
   0.010952726     0.8666139   -0.3256835    -0.0004510    0.0001382     0.0001200   -0.0000448     0.6600994   -0.4251731 
   0.011052751     0.8600063   -0.3321965     0.0007879    0.0005971     0.0000422    0.0002188     0.6570988   -0.4260046 
   0.011152776     0.8664333   -0.3320224    -0.0009173    0.0003256    -0.0003316   -0.0000696     0.6507626   -0.4255165 
   0.011252801     0.8551260   -0.3299373    -0.0009870    0.0007135    -0.0000375    0.0001912     0.6473024   -0.4274147 
   0.011352826     0.8622453   -0.3469729     0.0008612    0.0013375    -0.0000724    0.0001248     0.6465135   -0.4262235 
   0.011452851     0.8432693   -0.3243905     0.0008635   -0.0004060    -0.0001435    0.0003513     0.6374700   -0.4301176 
   0.011552876     0.8324499   -0.3373805    -0.0001579    0.0002457     0.0002567    0.0000687     0.6389834   -0.4305454 
   0.011652901     0.8443513   -0.3519259     0.0001330   -0.0012871    -0.0000756    0.0000272     0.6332242   -0.4289743 
   0.011752926     0.8369333   -0.3272890    -0.0000994   -0.0005909     0.0001565    0.0001045     0.6293322   -0.4302990 
   0.011852951     0.8581115   -0.3409491     0.0008678    0.0010801    -0.0002376    0.0002050     0.6266651   -0.4335068 
   0.011952976     0.8375537   -0.3347642    -0.0006002    0.0006020    -0.0000278    0.0002419     0.6200654   -0.4300752 
   0.012053002     0.8364252   -0.3405970    -0.0003264    0.0001926     0.0000858   -0.0001056     0.6193298   -0.4317285 
   0.012153027     0.8298292   -0.3471359     0.0004039    0.0004911    -0.0002409    0.0004524     0.6128984   -0.4314170 
   0.012253052     0.8141836   -0.3533424    -0.0007632    0.0003997    -0.0001023    0.0001487     0.6135207   -0.4312681 
   0.012353077     0.8311179   -0.3444963    -0.0004432    0.0005729    -0.0001248   -0.0000342     0.6089122   -0.4315771 
   0.012453102     0.8397888   -0.3441722     0.0001246    0.0002876     0.0001506    0.0000080     0.6041654   -0.4334048 
   0.012553127     0.8155248   -0.3644162    -0.0006611    0.0003688     0.0000018   -0.0001470     0.5980906   -0.4332264 
   0.012653152     0.8409038   -0.3475384    -0.0000859   -0.0003564     0.0000223    0.0000296     0.5961881   -0.4353786 
   0.012753177     0.8255578   -0.3667952     0.0002254    0.0008786     0.0002702    0.0001897     0.5936408   -0.4351878 
   0.012853202     0.8200839   -0.3495754    -0.0017647    0.0002144    -0.0000877   -0.0000964     0.5903171   -0.4338413 
   0.012953227     0.8246443   -0.3562931    -0.0002056   -0.0000746    -0.0000808   -0.0002068     0.5899336   -0.4343295 
   0.013053252     0.8042883   -0.3755393     0.0002538   -0.0009834    -0.0002468   -0.0002926     0.5859938   -0.4340502 
   0.013153277     0.8090657   -0.3671212    -0.0002492   -0.0001345    -0.0001058    0.0001465     0.5826316   -0.4356838 
   0.013253302     0.8178898   -0.3677032     0.0005758    0.0001112    -0.0000200   -0.0000865     0.5780798   -0.4323971 
   0.013353327     0.8134240   -0.3590877    -0.0014028    0.0000156    -0.0000999   -0.0001693     0.5738456   -0.4363967 
   0.013453352     0.8129401   -0.3592954    -0.0000549    0.0004540    -0.0002747   -0.0001229     0.5725625   -0.4358744 
   0.013553377     0.7958921   -0.3666706     0.0002511   -0.0003556    -0.0001114   -0.0000878     0.5670641   -0.4355352 
   0.013653402     0.7983449   -0.3665009    -0.0000534    0.0001715     0.0001957   -0.0002882     0.5643022   -0.4337531 
   0.013753427     0.8057759   -0.3792587    -0.0006819    0.0005240    -0.0000041    0.0000436     0.5592268   -0.4332901 
   0.013853452     0.8132048   -0.3919679     0.0002746   -0.0005392     0.0000302    0.0000087     0.5603141   -0.4336541 
   0.013953477     0.7905021   -0.3693991    -0.0004885    0.0002209    -0.0000067   -0.0001842     0.5569624   -0.4371195 
   0.014053502     0.7941577   -0.3850824     0.0005081    0.0002537     0.0001491    0.0004503     0.5533902   -0.4339371 
   0.014153527     0.8026605   -0.3810823    -0.0003303   -0.0008665     0.0001020    0.0001812     0.5509892   -0.4360519 
   0.014253552     0.7965458   -0.3768946     0.0005206   -0.0002818    -0.0000435   -0.0002540     0.5491003   -0.4356480 
   0.014353577     0.7872605   -0.3704232    -0.0003420    0.0000783    -0.0002171    0.0001324     0.5417350   -0.4332115 
   0.014453602     0.7809247   -0.3877271     0.0004905    0.0003115     0.0001450    0.0002458     0.5406964   -0.4326499 
   0.014553627     0.7848991   -0.3851734    -0.0003863   -0.0003284    -0.0001870    0.0000346     0.5373707   -0.4348379 
   0.014653652     0.7836474   -0.3852073     0.0000770   -0.0003587     0.0000682    0.0002833     0.5333456   -0.4341145 
   0.014753677     0.7758659   -0.3893408    -0.0008063    0.0000012    -0.0001392    0.0000958     0.5301197   -0.4316553 
   0.014853702     0.7928133   -0.3876829     0.0005825    0.0006093    -0.0003256    0.0000015     0.5277586   -0.4321990 
   0.014953727     0.7735059   -0.4096198    -0.0003025    0.0002337     0.0000315   -0.0001392     0.5270029   -0.4322281 
   0.015053752     0.7731667   -0.3990723    -0.0008160   -0.0000870     0.0001149   -0.0000293     0.5223720   -0.4330370 
   0.015153777     0.7725716   -0.3990227     0.0004420   -0.0000667    -0.0001171    0.0000853     0.5213296   -0.4336798 
   0.015253802     0.7749282   -0.3959135     0.0002133    0.0002978     0.0000933   -0.0000937     0.5150033   -0.4314446 
   0.015353827     0.7703596   -0.4049077    -0.0003861    0.0004588     0.0000424    0.0002257     0.5134943   -0.4308665 
   0.015453852     0.7740098   -0.3953307     0.0003167   -0.0005269     0.0000683    0.0002426     0.5115275   -0.4308946 
   0.015553877     0.7682424   -0.3955185     0.0001499   -0.0006598     0.0002325    0.0000440     0.5097600   -0.4300900 
   0.015653902     0.7702135   -0.4020497    -0.0003387   -0.0007569     0.0001024   -0.0003115     0.5062958   -0.4334017 
