! 26-Feb-26 11:14:37 AM
! E:\VNA_MEASUREMENTS\LONGCABLE\LONGCABLE_2.S2P
! CHANNEL.1
! TR.MEASUREMENT
! CORRECTED.DATA
# GHZ S RI R 50.0
! FREQ.GHZ         S11RE         S11IM         S21RE         S21IM         S12RE         S12IM         S22RE         S22IM         
!; PortSelection: Port_12
   0.000050000     1.2218200    1.7414300     0.6693098   -1.6745200    -0.1973166    1.0585570     1.1809810   -0.3691010 
   0.000150025    -1.0979560   -0.5288892    -2.1547880   -2.0144110     0.3937361   -0.7162294    -1.5942250   -2.2979640 
   0.000250050    14.8200400   21.6179600   -23.9371500  -34.1994500     8.5567030   17.0161300   -12.9998100  -27.1548300 
   0.000350075     0.0065795    0.0137344     0.9888232   -0.0469601     0.9949562   -0.0645408     0.0007749    0.0158292 
   0.000450100     0.0099066    0.0154745     0.9999678   -0.0747179     0.9910808   -0.0691010     0.0131250    0.0125393 
   0.000550125     0.0023690    0.0213435     0.9598455   -0.0797441     0.9855189   -0.0852164    -0.0138989    0.0231192 
   0.000650150     0.0099365    0.0161184     1.0035650   -0.1134882     0.9900736   -0.1062326     0.0178559    0.0110468 
   0.000750175     0.0063948    0.0164024     0.9920388   -0.1221924     0.9857510   -0.1305859     0.0134548    0.0169280 
   0.000850200     0.0124611    0.0270273     0.9932819   -0.1089658     0.9833630   -0.1280907     0.0185976    0.0396426 
   0.000950225     0.0112235    0.0275088     0.9777785   -0.1567293     0.9876217   -0.1514282     0.0087634    0.0200618 
   0.001050250     0.0115548    0.0276781     0.9779176   -0.1894514     0.9698140   -0.1595851     0.0080701    0.0125924 
   0.001150275     0.0163607    0.0337903     0.9962810   -0.1547764     0.9771593   -0.1698386     0.0314468    0.0435440 
   0.001250300     0.0172299    0.0326052     0.9910135   -0.1958181     0.9753593   -0.1996685     0.0273024    0.0285258 
   0.001350325     0.0164887    0.0309864     0.9713663   -0.2078731     0.9705231   -0.2151677     0.0196757    0.0335311 
   0.001450350     0.0171082    0.0346738     0.9747328   -0.2167328     0.9629281   -0.2208433     0.0250175    0.0397477 
   0.001550375     0.0254561    0.0390194     0.9665696   -0.2352566     0.9719741   -0.2367033     0.0244787    0.0401517 
   0.001650400     0.0240145    0.0471765     0.9629723   -0.2433359     0.9640684   -0.2541939     0.0266976    0.0429822 
   0.001750425     0.0232839    0.0460231     0.9422399   -0.2570760     0.9475344   -0.2650211     0.0178655    0.0521065 
   0.001850450     0.0247591    0.0472490     0.9378758   -0.2854209     0.9483719   -0.2830590     0.0159152    0.0449951 
   0.001950475     0.0282975    0.0478550     0.9597822   -0.2914818     0.9457717   -0.2967888     0.0368785    0.0440731 
   0.002050500     0.0253939    0.0521370     0.9404522   -0.3130124     0.9387147   -0.3019772     0.0267884    0.0470322 
   0.002150525     0.0335466    0.0527443     0.9443057   -0.3260797     0.9356198   -0.3262518     0.0344905    0.0452520 
   0.002250550     0.0302642    0.0528694     0.9027157   -0.3457842     0.9307933   -0.3291415     0.0140865    0.0563661 
   0.002350575     0.0331123    0.0526364     0.9244334   -0.3463941     0.9147052   -0.3470061     0.0342316    0.0568486 
   0.002450600     0.0379277    0.0591262     0.9345435   -0.3460689     0.9275160   -0.3562221     0.0510471    0.0607771 
   0.002550625     0.0395354    0.0558134     0.9232323   -0.3826330     0.9148043   -0.3723318     0.0402860    0.0516970 
   0.002650650     0.0397327    0.0633300     0.9173432   -0.3822902     0.9141040   -0.3863854     0.0478475    0.0599154 
   0.002750675     0.0387795    0.0594062     0.9071268   -0.3843005     0.8975621   -0.4052117     0.0514345    0.0681662 
   0.002850700     0.0489009    0.0653100     0.9051508   -0.4277970     0.8967464   -0.4126001     0.0443325    0.0516257 
   0.002950725     0.0466463    0.0666105     0.8823577   -0.4154350     0.8918574   -0.4219244     0.0494855    0.0730586 
   0.003050750     0.0440164    0.0713858     0.8798653   -0.4234383     0.8740057   -0.4394521     0.0543584    0.0731685 
   0.003150775     0.0488772    0.0672788     0.8762972   -0.4666395     0.8682108   -0.4492027     0.0459345    0.0596003 
   0.003250800     0.0488237    0.0654086     0.8538596   -0.4769208     0.8604087   -0.4648743     0.0419549    0.0695491 
   0.003350825     0.0587126    0.0683227     0.8719558   -0.5072802     0.8493225   -0.4816259     0.0467806    0.0496713 
   0.003450850     0.0581135    0.0652800     0.8657691   -0.5099985     0.8451136   -0.4969381     0.0546024    0.0533987 
   0.003550875     0.0545295    0.0678141     0.8225797   -0.5101665     0.8366445   -0.5024908     0.0471643    0.0775455 
   0.003650900     0.0613285    0.0709712     0.8338946   -0.5137190     0.8340667   -0.5156443     0.0621788    0.0734421 
   0.003750925     0.0630874    0.0663612     0.8079411   -0.5387893     0.8178686   -0.5322423     0.0521980    0.0775446 
   0.003850950     0.0653740    0.0736457     0.8101011   -0.5414318     0.8190254   -0.5362710     0.0620272    0.0774270 
   0.003950975     0.0655207    0.0763278     0.7991560   -0.5525154     0.8085163   -0.5518087     0.0652321    0.0781060 
   0.004051001     0.0743531    0.0718886     0.8088626   -0.5768424     0.7975845   -0.5703139     0.0667917    0.0657154 
   0.004151026     0.0733985    0.0780764     0.8046235   -0.5608257     0.7951732   -0.5784323     0.0850103    0.0725540 
   0.004251051     0.0709405    0.0733076     0.7810303   -0.5778148     0.7809184   -0.5851381     0.0796038    0.0784010 
   0.004351076     0.0759011    0.0707168     0.7583540   -0.6286325     0.7668408   -0.6016824     0.0566401    0.0755892 
   0.004451101     0.0791216    0.0777482     0.7491955   -0.6047420     0.7650211   -0.6129112     0.0785254    0.0858008 
   0.004551126     0.0822099    0.0758182     0.7593717   -0.6252174     0.7510125   -0.6186379     0.0796424    0.0726954 
   0.004651151     0.0841478    0.0776821     0.7545351   -0.6318098     0.7466071   -0.6345035     0.0863090    0.0714650 
   0.004751176     0.0874243    0.0741172     0.7347685   -0.6392784     0.7338997   -0.6462761     0.0877074    0.0775449 
   0.004851201     0.0867055    0.0714706     0.7199092   -0.6523975     0.7184554   -0.6532332     0.0877717    0.0797986 
   0.004951226     0.0900318    0.0711730     0.7057664   -0.6648362     0.7146901   -0.6668572     0.0890793    0.0810948 
   0.005051251     0.0949561    0.0760646     0.6985367   -0.6733326     0.7093778   -0.6703553     0.0934178    0.0799438 
   0.005151276     0.0945516    0.0741955     0.7035440   -0.6836777     0.6894147   -0.6838533     0.0980930    0.0696691 
   0.005251301     0.0998134    0.0739691     0.6933716   -0.7150715     0.6850457   -0.6925276     0.0875382    0.0672340 
   0.005351326     0.0983054    0.0758532     0.6826350   -0.7144157     0.6757779   -0.6985471     0.0968389    0.0695427 
   0.005451351     0.1074693    0.0764729     0.6621458   -0.7196650     0.6638445   -0.7178079     0.0998899    0.0742408 
   0.005551376     0.1010411    0.0760526     0.6529078   -0.7129697     0.6548023   -0.7191356     0.1115217    0.0752038 
   0.005651401     0.1144155    0.0745738     0.6419843   -0.7494721     0.6445316   -0.7407551     0.0988282    0.0686387 
   0.005751426     0.1066189    0.0735023     0.6097423   -0.7439950     0.6298402   -0.7402843     0.1048567    0.0837711 
   0.005851451     0.1126580    0.0694279     0.6076345   -0.7615140     0.6243922   -0.7523897     0.1042550    0.0765370 
   0.005951476     0.1122404    0.0679270     0.5911396   -0.7498721     0.6044036   -0.7622595     0.1176428    0.0832462 
   0.006051501     0.1130526    0.0699526     0.5868222   -0.7854002     0.5964786   -0.7673599     0.1046736    0.0736333 
   0.006151526     0.1216947    0.0667651     0.5769898   -0.7905446     0.5768193   -0.7798958     0.1095152    0.0718282 
   0.006251551     0.1201576    0.0707589     0.5640200   -0.7739583     0.5734603   -0.7872665     0.1268774    0.0752085 
   0.006351576     0.1254795    0.0655701     0.5647056   -0.8052557     0.5590873   -0.7938497     0.1157762    0.0642597 
   0.006451601     0.1214173    0.0682203     0.5525017   -0.7932642     0.5485628   -0.8075579     0.1296966    0.0650843 
   0.006551626     0.1262870    0.0626573     0.5298949   -0.8059648     0.5396159   -0.8111328     0.1274634    0.0690395 
   0.006651651     0.1286062    0.0647692     0.5142146   -0.8054854     0.5259303   -0.8179196     0.1354012    0.0713513 
   0.006751676     0.1307116    0.0589379     0.5138885   -0.8293100     0.5079921   -0.8287656     0.1277114    0.0625361 
   0.006851701     0.1331377    0.0626696     0.4996441   -0.8448395     0.5021291   -0.8389536     0.1253541    0.0608201 
   0.006951726     0.1342684    0.0547627     0.4823191   -0.8416280     0.4843840   -0.8394915     0.1320528    0.0636334 
   0.007051751     0.1376124    0.0564645     0.4593995   -0.8581201     0.4754405   -0.8473120     0.1293403    0.0671725 
   0.007151776     0.1357201    0.0585469     0.4797035   -0.8532045     0.4622676   -0.8556635     0.1378924    0.0462880 
   0.007251801     0.1409028    0.0607800     0.4674441   -0.8666095     0.4526456   -0.8588877     0.1340021    0.0451783 
   0.007351826     0.1450791    0.0498357     0.4328109   -0.8748624     0.4329708   -0.8720741     0.1376455    0.0575564 
   0.007451851     0.1418544    0.0566368     0.4289664   -0.8598654     0.4255685   -0.8669980     0.1499488    0.0491266 
   0.007551876     0.1435101    0.0530300     0.4258208   -0.8812196     0.4162892   -0.8815289     0.1419320    0.0414292 
   0.007651901     0.1491005    0.0471435     0.4051214   -0.8907256     0.3974646   -0.8849378     0.1417259    0.0459354 
   0.007751926     0.1471681    0.0457030     0.3840170   -0.8945616     0.3792376   -0.8900113     0.1438826    0.0460424 
   0.007851951     0.1471088    0.0478106     0.3743316   -0.8859009     0.3739919   -0.8951758     0.1546450    0.0431643 
   0.007951976     0.1518894    0.0438234     0.3729849   -0.8932164     0.3557169   -0.9008446     0.1513166    0.0338713 
   0.008052001     0.1510531    0.0400463     0.3559903   -0.9092782     0.3463721   -0.9044070     0.1470904    0.0370860 
   0.008152026     0.1542800    0.0371033     0.3266608   -0.9089646     0.3272986   -0.9127403     0.1552223    0.0426284 
   0.008252051     0.1561284    0.0342704     0.3245851   -0.9217593     0.3156252   -0.9147356     0.1503395    0.0359270 
   0.008352076     0.1531878    0.0325236     0.2984883   -0.9209051     0.3030328   -0.9201266     0.1567256    0.0393809 
   0.008452101     0.1545548    0.0348020     0.2931249   -0.9244398     0.2903438   -0.9242823     0.1554855    0.0323683 
   0.008552126     0.1565965    0.0343437     0.2819095   -0.9235497     0.2724839   -0.9264436     0.1578112    0.0289745 
   0.008652151     0.1551843    0.0336732     0.2554997   -0.9309030     0.2663308   -0.9283301     0.1599809    0.0338947 
   0.008752176     0.1616038    0.0281172     0.2529130   -0.9390316     0.2490653   -0.9316810     0.1563853    0.0265716 
   0.008852201     0.1602714    0.0274332     0.2340175   -0.9345601     0.2336593   -0.9350871     0.1627214    0.0263565 
   0.008952226     0.1646722    0.0248005     0.2131170   -0.9476129     0.2205621   -0.9448557     0.1605461    0.0284153 
   0.009052251     0.1633147    0.0242109     0.2014227   -0.9611849     0.2073679   -0.9456274     0.1549945    0.0281138 
   0.009152276     0.1639419    0.0201478     0.1963295   -0.9489527     0.1931072   -0.9468033     0.1613630    0.0178606 
   0.009252301     0.1630366    0.0135782     0.1727097   -0.9463710     0.1785945   -0.9456778     0.1677211    0.0200744 
   0.009352326     0.1650299    0.0121796     0.1694581   -0.9548173     0.1703146   -0.9517973     0.1618090    0.0142843 
   0.009452351     0.1643835    0.0146696     0.1460982   -0.9597852     0.1533585   -0.9552631     0.1639678    0.0164751 
   0.009552376     0.1688838    0.0076912     0.1378119   -0.9686577     0.1398825   -0.9557635     0.1598806    0.0139032 
   0.009652401     0.1661892    0.0112083     0.1361491   -0.9477873     0.1259264   -0.9599947     0.1671441   -0.0006955 
   0.009752426     0.1654749    0.0089803     0.1170832   -0.9579633     0.1128180   -0.9627209     0.1652337    0.0024592 
   0.009852451     0.1664872    0.0009807     0.0959912   -0.9550608     0.0946582   -0.9627464     0.1684722    0.0012290 
   0.009952476     0.1674984    0.0024550     0.0874625   -0.9665073     0.0810666   -0.9588163     0.1619150   -0.0000345 
   0.010052501     0.1723623   -0.0037810     0.0669030   -0.9732065     0.0712624   -0.9656691     0.1613533    0.0037467 
   0.010152526     0.1668588   -0.0007209     0.0538829   -0.9523429     0.0558849   -0.9652629     0.1721158   -0.0073166 
   0.010252551     0.1655770   -0.0045655     0.0340756   -0.9717666     0.0391424   -0.9660218     0.1652190   -0.0009545 
   0.010352576     0.1687260   -0.0113311     0.0233508   -0.9575387     0.0222700   -0.9663557     0.1705907   -0.0101503 
   0.010452601     0.1658770   -0.0089427     0.0226775   -0.9620656     0.0144481   -0.9655383     0.1634483   -0.0173854 
   0.010552626     0.1637298   -0.0136092     0.0078391   -0.9729258    -0.0067408   -0.9629875     0.1582257   -0.0149368 
   0.010652651     0.1642904   -0.0163038    -0.0253565   -0.9619651    -0.0161855   -0.9622685     0.1711540   -0.0125596 
   0.010752676     0.1674259   -0.0192367    -0.0260137   -0.9761521    -0.0302106   -0.9642119     0.1578484   -0.0142838 
   0.010852701     0.1607869   -0.0157373    -0.0442544   -0.9572139    -0.0398147   -0.9677904     0.1688392   -0.0216630 
   0.010952726     0.1649932   -0.0209445    -0.0522833   -0.9744555    -0.0580788   -0.9605364     0.1553368   -0.0216360 
   0.011052751     0.1624237   -0.0250921    -0.0680606   -0.9574676    -0.0726588   -0.9627185     0.1640351   -0.0285068 
   0.011152776     0.1629154   -0.0269342    -0.0857324   -0.9530199    -0.0894189   -0.9630699     0.1660664   -0.0313281 
   0.011252801     0.1659900   -0.0275546    -0.1010200   -0.9485129    -0.1037674   -0.9630075     0.1662159   -0.0340461 
   0.011352826     0.1624759   -0.0345326    -0.1152186   -0.9623427    -0.1142969   -0.9584143     0.1605731   -0.0285086 
   0.011452851     0.1612650   -0.0340248    -0.1356347   -0.9584637    -0.1310720   -0.9543283     0.1626253   -0.0302058 
   0.011552876     0.1597351   -0.0329143    -0.1433306   -0.9512556    -0.1438337   -0.9578175     0.1618799   -0.0378628 
   0.011652901     0.1594485   -0.0381138    -0.1531142   -0.9462349    -0.1564821   -0.9563885     0.1596027   -0.0420159 
   0.011752926     0.1595813   -0.0433667    -0.1745066   -0.9564087    -0.1730059   -0.9451963     0.1576360   -0.0361590 
   0.011852951     0.1590532   -0.0467151    -0.1861580   -0.9513226    -0.1900819   -0.9495155     0.1566032   -0.0393112 
   0.011952976     0.1562776   -0.0424334    -0.2046607   -0.9508896    -0.1975227   -0.9438170     0.1569328   -0.0393172 
   0.012053002     0.1538585   -0.0462404    -0.2099135   -0.9343674    -0.2125067   -0.9381088     0.1550710   -0.0500728 
   0.012153027     0.1555559   -0.0490754    -0.2219701   -0.9395418    -0.2299689   -0.9382535     0.1512907   -0.0489378 
   0.012253052     0.1506305   -0.0496439    -0.2410311   -0.9360801    -0.2390091   -0.9369636     0.1534328   -0.0488814 
   0.012353077     0.1517237   -0.0526432    -0.2531253   -0.9386107    -0.2485123   -0.9322493     0.1488375   -0.0472942 
   0.012453102     0.1497886   -0.0495319    -0.2715840   -0.9347487    -0.2683494   -0.9278145     0.1502406   -0.0497919 
   0.012553127     0.1511620   -0.0572719    -0.2738773   -0.9220802    -0.2834135   -0.9241583     0.1436576   -0.0588025 
   0.012653152     0.1480161   -0.0538928    -0.2931553   -0.9271946    -0.2901869   -0.9195309     0.1435014   -0.0533439 
   0.012753177     0.1453951   -0.0581877    -0.3020544   -0.9140660    -0.3106640   -0.9178770     0.1414157   -0.0613319 
   0.012853202     0.1398622   -0.0586222    -0.3275875   -0.9052933    -0.3199647   -0.9068665     0.1472832   -0.0620985 
   0.012953227     0.1410402   -0.0627552    -0.3404639   -0.9018034    -0.3340287   -0.9057757     0.1459556   -0.0639832 
   0.013053252     0.1421103   -0.0651926    -0.3486229   -0.8985299    -0.3515084   -0.9048786     0.1412210   -0.0657171 
   0.013153277     0.1400097   -0.0658599    -0.3667512   -0.8892028    -0.3667088   -0.8926910     0.1428924   -0.0693167 
   0.013253302     0.1355001   -0.0640776    -0.3738997   -0.8836751    -0.3757201   -0.8920633     0.1369837   -0.0711942 
   0.013353327     0.1330212   -0.0680502    -0.3954804   -0.8717891    -0.3870801   -0.8855474     0.1415833   -0.0749834 
   0.013453352     0.1329372   -0.0695879    -0.4013232   -0.8711835    -0.4015763   -0.8810651     0.1353220   -0.0756445 
   0.013553377     0.1295900   -0.0682910    -0.4086213   -0.8722996    -0.4129101   -0.8736504     0.1275683   -0.0730085 
   0.013653402     0.1310056   -0.0737579    -0.4204794   -0.8708077    -0.4258681   -0.8648625     0.1257907   -0.0713006 
   0.013753427     0.1267559   -0.0746051    -0.4332613   -0.8588261    -0.4343824   -0.8620438     0.1234224   -0.0747787 
   0.013853452     0.1252310   -0.0770372    -0.4517633   -0.8508475    -0.4514244   -0.8531242     0.1258050   -0.0778336 
   0.013953477     0.1242794   -0.0744535    -0.4575023   -0.8585606    -0.4652213   -0.8499419     0.1176808   -0.0695908 
   0.014053502     0.1226681   -0.0775712    -0.4826830   -0.8451491    -0.4767678   -0.8376601     0.1236352   -0.0741289 
   0.014153527     0.1208497   -0.0786320    -0.4933023   -0.8320211    -0.4902420   -0.8385938     0.1217315   -0.0786969 
   0.014253552     0.1157763   -0.0769464    -0.5099965   -0.8337832    -0.5018795   -0.8265742     0.1213059   -0.0751732 
   0.014353577     0.1133673   -0.0801125    -0.5070878   -0.8172980    -0.5091413   -0.8128612     0.1104552   -0.0818860 
   0.014453602     0.1115631   -0.0779444    -0.5298460   -0.8141099    -0.5263253   -0.8164099     0.1144216   -0.0789058 
   0.014553627     0.1082133   -0.0807491    -0.5354236   -0.7951900    -0.5383254   -0.8042866     0.1087352   -0.0881087 
   0.014653652     0.1088501   -0.0834494    -0.5469672   -0.8039816    -0.5490413   -0.7929043     0.1058984   -0.0775817 
   0.014753677     0.1043999   -0.0817860    -0.5703295   -0.7856683    -0.5609759   -0.7895941     0.1103767   -0.0850397 
   0.014853702     0.1089263   -0.0848684    -0.5748158   -0.7726549    -0.5750190   -0.7804610     0.1034289   -0.0879949 
   0.014953727     0.1018747   -0.0852240    -0.5935097   -0.7707628    -0.5820374   -0.7701548     0.1065935   -0.0846827 
   0.015053752     0.0971644   -0.0857152    -0.5803280   -0.7550360    -0.5904910   -0.7608630     0.0878593   -0.0872802 
   0.015153777     0.0947775   -0.0831076    -0.6079555   -0.7486977    -0.6094028   -0.7519875     0.0963549   -0.0889961 
   0.015253802     0.0929553   -0.0809827    -0.6172675   -0.7487592    -0.6171094   -0.7468946     0.0933288   -0.0822735 
   0.015353827     0.0906796   -0.0824859    -0.6336298   -0.7334436    -0.6275630   -0.7356046     0.0942557   -0.0877991 
   0.015453852     0.0892801   -0.0847424    -0.6367249   -0.7289378    -0.6363496   -0.7276202     0.0872301   -0.0829943 
   0.015553877     0.0875760   -0.0852646    -0.6591212   -0.7080487    -0.6513518   -0.7173060     0.0903335   -0.0920289 
   0.015653902     0.0852180   -0.0864426    -0.6562005   -0.7071534    -0.6627920   -0.7021316     0.0804008   -0.0842008 
