! 26-Feb-26 11:10:31 AM
! E:\VNA_MEASUREMENTS\LONGCABLE\LONGCABLE_0.S2P
! CHANNEL.1
! TR.MEASUREMENT
! CORRECTED.DATA
# GHZ S RI R 50.0
! FREQ.GHZ         S11RE         S11IM         S21RE         S21IM         S12RE         S12IM         S22RE         S22IM         
!; PortSelection: Port_12
   0.000050000     0.9755732    0.5698265     1.0996640   -0.7624052     0.6629842    0.7542900     0.5534348   -0.0019130 
   0.000150025     0.4391142    0.2476274     1.5667820   -1.0913910     1.2240280    0.2680583     0.7059425   -0.5660194 
   0.000250050    -0.3120181   -0.5388694     0.2188474   -0.2536657     0.8485877   -0.4649632    -0.5103294   -0.2431336 
   0.000350075     0.0066627    0.0082370     0.9889868   -0.0742392     0.9972926   -0.0703996     0.0010008   -0.0043812 
   0.000450100     0.0038528    0.0145494     0.9837787   -0.0841034     0.9859253   -0.0794411     0.0005326    0.0050948 
   0.000550125     0.0022712    0.0209722     0.9890286   -0.0822841     0.9857642   -0.0960752     0.0050443    0.0179943 
   0.000650150     0.0096245    0.0125171     1.0006960   -0.1287463     0.9873154   -0.1147627     0.0139589    0.0003316 
   0.000750175     0.0130135    0.0243162     1.0172090   -0.0948025     0.9926925   -0.1227556     0.0327148    0.0339792 
   0.000850200     0.0105151    0.0294994     0.9760398   -0.1141520     0.9823060   -0.1285874     0.0066707    0.0381558 
   0.000950225     0.0067799    0.0282760     0.9683061   -0.1461173     0.9781342   -0.1574068     0.0030173    0.0277355 
   0.001050250     0.0134410    0.0270579     0.9694144   -0.1742585     0.9728042   -0.1609670     0.0049943    0.0237773 
   0.001150275     0.0204800    0.0333167     1.0255990   -0.1636913     0.9784702   -0.1697639     0.0483094    0.0332517 
   0.001250300     0.0139512    0.0350216     0.9750586   -0.1997646     0.9708477   -0.1937234     0.0159147    0.0286967 
   0.001350325     0.0168850    0.0304871     0.9953243   -0.2064920     0.9670069   -0.2115739     0.0343426    0.0303589 
   0.001450350     0.0163566    0.0382315     0.9684978   -0.2083525     0.9548873   -0.2197703     0.0220099    0.0455982 
   0.001550375     0.0233657    0.0426051     0.9629168   -0.2239778     0.9717360   -0.2327708     0.0245009    0.0479850 
   0.001650400     0.0199729    0.0427850     0.9357936   -0.2561478     0.9541628   -0.2580644     0.0067275    0.0412584 
   0.001750425     0.0209844    0.0444933     0.9240204   -0.2762096     0.9445132   -0.2651335     0.0012491    0.0451400 
   0.001850450     0.0249258    0.0495426     0.9460133   -0.2515391     0.9563767   -0.2757340     0.0310940    0.0646780 
   0.001950475     0.0279677    0.0468049     0.9666433   -0.3002054     0.9399662   -0.2969716     0.0377317    0.0372331 
   0.002050500     0.0257279    0.0490847     0.9527737   -0.3272878     0.9410539   -0.3057046     0.0301355    0.0353465 
   0.002150525     0.0279763    0.0541360     0.9414818   -0.3131325     0.9315776   -0.3231973     0.0365508    0.0540184 
   0.002250550     0.0354296    0.0581238     0.9435939   -0.3447232     0.9365659   -0.3270533     0.0368905    0.0432102 
   0.002350575     0.0371772    0.0518716     0.9395819   -0.3490769     0.9186148   -0.3493177     0.0420736    0.0501503 
   0.002450600     0.0358767    0.0559895     0.9251308   -0.3501894     0.9237903   -0.3625362     0.0452667    0.0604771 
   0.002550625     0.0374396    0.0523578     0.9044750   -0.3789145     0.9121518   -0.3712745     0.0321815    0.0604290 
   0.002650650     0.0354342    0.0629802     0.8992211   -0.3826258     0.9072081   -0.3869128     0.0375207    0.0661700 
   0.002750675     0.0414796    0.0590734     0.9014963   -0.3980869     0.8995206   -0.4074357     0.0431055    0.0637919 
   0.002850700     0.0441537    0.0643859     0.8849142   -0.4157065     0.8951330   -0.4098955     0.0387924    0.0657987 
   0.002950725     0.0477655    0.0672063     0.8857149   -0.4296365     0.9011869   -0.4299736     0.0471743    0.0646796 
   0.003050750     0.0459432    0.0683747     0.8741240   -0.4274232     0.8760060   -0.4456978     0.0506156    0.0738955 
   0.003150775     0.0468498    0.0639200     0.8642678   -0.4629804     0.8705600   -0.4562495     0.0431245    0.0661847 
   0.003250800     0.0485926    0.0673827     0.8686639   -0.4710968     0.8551155   -0.4652039     0.0506950    0.0644563 
   0.003350825     0.0505230    0.0680652     0.8462883   -0.4836251     0.8540317   -0.4760242     0.0460092    0.0729254 
   0.003450850     0.0601239    0.0665482     0.8710313   -0.5097454     0.8506347   -0.4919280     0.0575058    0.0528450 
   0.003550875     0.0571823    0.0670295     0.8362591   -0.5228182     0.8442182   -0.5078967     0.0486923    0.0664479 
   0.003650900     0.0600615    0.0723459     0.8382750   -0.5086872     0.8321709   -0.5181550     0.0664333    0.0737092 
   0.003750925     0.0642640    0.0680793     0.8140184   -0.5417439     0.8208941   -0.5304568     0.0530809    0.0736628 
   0.003850950     0.0650742    0.0717662     0.8001022   -0.5388395     0.8163030   -0.5418022     0.0599876    0.0824284 
   0.003950975     0.0650711    0.0751572     0.7905333   -0.5535665     0.8099055   -0.5497169     0.0608835    0.0828877 
   0.004051001     0.0733864    0.0702994     0.8011221   -0.5732271     0.7957854   -0.5687937     0.0655661    0.0702789 
   0.004151026     0.0676145    0.0738189     0.7798778   -0.5543029     0.7958056   -0.5778478     0.0801125    0.0884671 
   0.004251051     0.0718574    0.0738975     0.7820566   -0.5834602     0.7800161   -0.5842763     0.0767862    0.0777026 
   0.004351076     0.0751062    0.0753918     0.7741737   -0.6063280     0.7659556   -0.5945477     0.0722721    0.0742931 
   0.004451101     0.0754022    0.0786704     0.7572596   -0.5951555     0.7638431   -0.6102178     0.0868481    0.0844744 
   0.004551126     0.0849768    0.0725362     0.7491846   -0.6347589     0.7498619   -0.6229728     0.0717372    0.0747898 
   0.004651151     0.0875202    0.0712256     0.7387583   -0.6442356     0.7450165   -0.6346757     0.0767505    0.0773970 
   0.004751176     0.0868307    0.0746841     0.7356876   -0.6428192     0.7378258   -0.6478916     0.0866432    0.0759855 
   0.004851201     0.0876016    0.0750502     0.7272266   -0.6495154     0.7240093   -0.6559916     0.0919687    0.0771902 
   0.004951226     0.0914316    0.0713574     0.7060434   -0.6712686     0.7130491   -0.6675864     0.0847423    0.0788634 
   0.005051251     0.0970106    0.0775155     0.7099500   -0.6821309     0.7104186   -0.6715729     0.0910396    0.0717790 
   0.005151276     0.0932522    0.0767371     0.7089652   -0.6685070     0.6946180   -0.6876726     0.1090369    0.0705319 
   0.005251301     0.0959680    0.0713112     0.6845693   -0.7065136     0.6802555   -0.6967886     0.0911313    0.0732410 
   0.005351326     0.0976249    0.0730997     0.6755287   -0.7180799     0.6677157   -0.7036102     0.0933446    0.0712482 
   0.005451351     0.1036939    0.0761368     0.6602124   -0.7104790     0.6630060   -0.7167743     0.1050917    0.0771218 
   0.005551376     0.1043085    0.0770710     0.6559050   -0.7330586     0.6575677   -0.7179599     0.0998096    0.0702353 
   0.005651401     0.1068129    0.0730956     0.6328868   -0.7214563     0.6416864   -0.7339934     0.1130361    0.0785676 
   0.005751426     0.1097987    0.0720130     0.6111850   -0.7559152     0.6283935   -0.7471436     0.0997794    0.0809528 
   0.005851451     0.1129349    0.0717543     0.6128734   -0.7635524     0.6210438   -0.7547179     0.1032111    0.0723247 
   0.005951476     0.1112771    0.0679285     0.5876341   -0.7461755     0.6061987   -0.7600870     0.1193367    0.0861148 
   0.006051501     0.1114825    0.0687539     0.5782919   -0.7741791     0.5989879   -0.7697771     0.1110857    0.0806023 
   0.006151526     0.1212249    0.0710698     0.5875641   -0.7887591     0.5815435   -0.7807852     0.1117732    0.0664087 
   0.006251551     0.1182302    0.0691077     0.5595645   -0.7643443     0.5739878   -0.7864687     0.1323428    0.0790432 
   0.006351576     0.1229172    0.0670646     0.5659394   -0.7911521     0.5600935   -0.7958899     0.1251037    0.0648770 
   0.006451601     0.1210760    0.0671636     0.5552161   -0.7969477     0.5491768   -0.8050432     0.1277328    0.0639347 
   0.006551626     0.1255558    0.0600916     0.5232348   -0.8078059     0.5366070   -0.8126789     0.1269198    0.0721513 
   0.006651651     0.1267332    0.0620186     0.5055489   -0.8066015     0.5241066   -0.8188398     0.1343465    0.0758304 
   0.006751676     0.1318344    0.0582373     0.5148626   -0.8295200     0.5086411   -0.8284039     0.1276172    0.0624851 
   0.006851701     0.1312896    0.0642468     0.5045216   -0.8359174     0.4994012   -0.8373601     0.1306953    0.0575460 
   0.006951726     0.1343132    0.0575667     0.4904272   -0.8426349     0.4864602   -0.8447578     0.1321165    0.0586924 
   0.007051751     0.1354123    0.0587305     0.4736457   -0.8514927     0.4762496   -0.8507622     0.1343384    0.0585585 
   0.007151776     0.1382108    0.0541680     0.4639764   -0.8621014     0.4593384   -0.8562764     0.1325050    0.0562911 
   0.007251801     0.1363565    0.0585684     0.4571013   -0.8549929     0.4533367   -0.8584009     0.1422820    0.0513580 
   0.007351826     0.1444575    0.0525268     0.4389739   -0.8717153     0.4308637   -0.8704473     0.1384738    0.0527248 
   0.007451851     0.1423177    0.0537651     0.4206299   -0.8617706     0.4239911   -0.8732085     0.1503580    0.0538562 
   0.007551876     0.1472281    0.0536434     0.4207624   -0.8911942     0.4161859   -0.8815608     0.1354289    0.0460742 
   0.007651901     0.1471102    0.0465196     0.3966340   -0.8890325     0.3965130   -0.8813515     0.1432191    0.0506819 
   0.007751926     0.1455997    0.0485567     0.3957320   -0.8858011     0.3842247   -0.8928773     0.1491997    0.0392102 
   0.007851951     0.1512445    0.0484390     0.3772791   -0.9024541     0.3734172   -0.8957655     0.1440596    0.0428419 
   0.007951976     0.1523536    0.0412166     0.3651775   -0.8953826     0.3611526   -0.9035117     0.1516497    0.0399109 
   0.008052001     0.1504171    0.0400916     0.3554657   -0.9020172     0.3423215   -0.9034401     0.1511069    0.0352489 
   0.008152026     0.1532806    0.0372382     0.3264012   -0.9065073     0.3327771   -0.9089168     0.1554002    0.0438938 
   0.008252051     0.1580541    0.0324826     0.3148597   -0.9303311     0.3146228   -0.9093704     0.1447384    0.0437808 
   0.008352076     0.1547847    0.0373909     0.3151493   -0.9278023     0.3030533   -0.9171535     0.1491921    0.0307938 
   0.008452101     0.1567674    0.0341696     0.2943782   -0.9340197     0.2921968   -0.9248711     0.1501475    0.0342951 
   0.008552126     0.1595330    0.0333310     0.2767641   -0.9300079     0.2745072   -0.9280315     0.1557191    0.0343752 
   0.008652151     0.1565920    0.0338259     0.2576796   -0.9369767     0.2649461   -0.9300771     0.1560405    0.0338507 
   0.008752176     0.1626592    0.0305916     0.2595407   -0.9465948     0.2468190   -0.9338595     0.1515471    0.0241625 
   0.008852201     0.1585409    0.0249423     0.2255630   -0.9277673     0.2376907   -0.9378641     0.1690930    0.0308776 
   0.008952226     0.1626248    0.0223634     0.2074588   -0.9391645     0.2249108   -0.9434710     0.1664477    0.0308770 
   0.009052251     0.1605414    0.0245452     0.2033096   -0.9500173     0.2101000   -0.9454051     0.1608596    0.0253168 
   0.009152276     0.1651191    0.0190958     0.1949219   -0.9503732     0.1950814   -0.9483960     0.1613499    0.0199686 
   0.009252301     0.1625630    0.0124521     0.1674670   -0.9494521     0.1770679   -0.9444210     0.1674510    0.0233903 
   0.009352326     0.1634064    0.0145517     0.1793273   -0.9560785     0.1715902   -0.9510067     0.1582783    0.0093207 
   0.009452351     0.1655220    0.0155014     0.1491750   -0.9647844     0.1548969   -0.9541804     0.1601842    0.0167542 
   0.009552376     0.1693493    0.0090600     0.1469836   -0.9694124     0.1375764   -0.9549654     0.1559283    0.0090071 
   0.009652401     0.1658409    0.0094545     0.1316267   -0.9475428     0.1230301   -0.9610124     0.1688266    0.0008484 
   0.009752426     0.1654877    0.0090118     0.1144806   -0.9590663     0.1135155   -0.9573845     0.1644085    0.0043186 
   0.009852451     0.1686142    0.0020165     0.0997009   -0.9626452     0.0964911   -0.9656441     0.1642014    0.0027696 
   0.009952476     0.1676331   -0.0008233     0.0762219   -0.9647722     0.0789889   -0.9565591     0.1666679    0.0050993 
   0.010052501     0.1703423   -0.0041424     0.0695623   -0.9647058     0.0699938   -0.9618074     0.1645025   -0.0008790 
   0.010152526     0.1677458   -0.0021537     0.0481601   -0.9495834     0.0556574   -0.9633382     0.1748346   -0.0055902 
   0.010252551     0.1676121   -0.0041542     0.0356428   -0.9771563     0.0412308   -0.9670593     0.1617678    0.0005923 
   0.010352576     0.1690363   -0.0082918     0.0403336   -0.9650689     0.0248609   -0.9671450     0.1605908   -0.0149723 
   0.010452601     0.1678230   -0.0095832     0.0257693   -0.9708448     0.0121873   -0.9664687     0.1586238   -0.0155068 
   0.010552626     0.1640459   -0.0159929     0.0005046   -0.9665878    -0.0101633   -0.9631290     0.1646341   -0.0145490 
   0.010652651     0.1673867   -0.0162726    -0.0289729   -0.9683990    -0.0205835   -0.9617267     0.1694296   -0.0089484 
   0.010752676     0.1668744   -0.0191071    -0.0277327   -0.9669278    -0.0340804   -0.9622793     0.1624613   -0.0184284 
   0.010852701     0.1678244   -0.0189931    -0.0568862   -0.9727845    -0.0450395   -0.9686713     0.1670504   -0.0102964 
   0.010952726     0.1626008   -0.0219872    -0.0558958   -0.9630389    -0.0555844   -0.9618053     0.1619358   -0.0244358 
   0.011052751     0.1661248   -0.0271163    -0.0828990   -0.9660019    -0.0753757   -0.9640275     0.1676195   -0.0185367 
   0.011152776     0.1628176   -0.0284706    -0.0888601   -0.9535460    -0.0876125   -0.9594980     0.1666245   -0.0296009 
   0.011252801     0.1653474   -0.0286535    -0.1047594   -0.9497524    -0.1035988   -0.9622588     0.1674001   -0.0313014 
   0.011352826     0.1598506   -0.0335432    -0.1103294   -0.9527066    -0.1142135   -0.9559924     0.1616369   -0.0359466 
   0.011452851     0.1615628   -0.0301350    -0.1219479   -0.9623315    -0.1288345   -0.9590961     0.1552852   -0.0332260 
   0.011552876     0.1604066   -0.0348096    -0.1512686   -0.9524816    -0.1455903   -0.9535690     0.1647676   -0.0346985 
   0.011652901     0.1600968   -0.0386159    -0.1530975   -0.9435944    -0.1561407   -0.9546282     0.1600928   -0.0429126 
   0.011752926     0.1554809   -0.0420905    -0.1665176   -0.9454104    -0.1692837   -0.9465703     0.1582406   -0.0437803 
   0.011852951     0.1584357   -0.0461435    -0.1834781   -0.9489257    -0.1884456   -0.9495364     0.1562257   -0.0410460 
   0.011952976     0.1563615   -0.0425642    -0.1974771   -0.9494290    -0.1965473   -0.9421990     0.1534587   -0.0419026 
   0.012053002     0.1551262   -0.0474987    -0.2158342   -0.9441739    -0.2165351   -0.9385951     0.1559547   -0.0433232 
   0.012153027     0.1544393   -0.0519579    -0.2317442   -0.9298860    -0.2294617   -0.9364125     0.1597164   -0.0510320 
   0.012253052     0.1516048   -0.0503462    -0.2452722   -0.9433352    -0.2397487   -0.9396511     0.1546064   -0.0428194 
   0.012353077     0.1516460   -0.0525015    -0.2494031   -0.9334142    -0.2520620   -0.9316014     0.1487702   -0.0517136 
   0.012453102     0.1470833   -0.0525570    -0.2775403   -0.9224194    -0.2662425   -0.9252328     0.1568647   -0.0549027 
   0.012553127     0.1517530   -0.0585522    -0.2721132   -0.9181401    -0.2846327   -0.9240572     0.1441253   -0.0612722 
   0.012653152     0.1490142   -0.0585651    -0.3138631   -0.9279799    -0.2938874   -0.9183042     0.1556962   -0.0481162 
   0.012753177     0.1437721   -0.0592859    -0.3043601   -0.9047220    -0.3081364   -0.9179720     0.1452226   -0.0657138 
   0.012853202     0.1427995   -0.0575096    -0.3230897   -0.9129775    -0.3216332   -0.9082378     0.1433637   -0.0589707 
   0.012953227     0.1417683   -0.0610568    -0.3326115   -0.9100263    -0.3309784   -0.9074278     0.1400004   -0.0600199 
   0.013053252     0.1417078   -0.0657007    -0.3516789   -0.8994959    -0.3517100   -0.9037023     0.1427167   -0.0648916 
   0.013153277     0.1407179   -0.0647983    -0.3621906   -0.8886080    -0.3651927   -0.8912417     0.1398841   -0.0703692 
   0.013253302     0.1366131   -0.0633530    -0.3779011   -0.8917397    -0.3757991   -0.8923268     0.1383642   -0.0651453 
   0.013353327     0.1325801   -0.0654950    -0.3840755   -0.8770485    -0.3875974   -0.8866958     0.1336398   -0.0738244 
   0.013453352     0.1343619   -0.0677113    -0.3946801   -0.8789323    -0.3999751   -0.8832306     0.1301756   -0.0712873 
   0.013553377     0.1300350   -0.0700439    -0.4201118   -0.8750895    -0.4113736   -0.8722975     0.1343625   -0.0696800 
   0.013653402     0.1297804   -0.0715697    -0.4141657   -0.8703169    -0.4280315   -0.8645201     0.1221265   -0.0730846 
   0.013753427     0.1277090   -0.0727770    -0.4314974   -0.8600275    -0.4352061   -0.8605536     0.1215721   -0.0749821 
   0.013853452     0.1267771   -0.0757752    -0.4483751   -0.8624054    -0.4499407   -0.8543022     0.1224959   -0.0704090 
   0.013953477     0.1226917   -0.0752826    -0.4619206   -0.8516645    -0.4641326   -0.8483146     0.1211443   -0.0737304 
   0.014053502     0.1206998   -0.0758350    -0.4736548   -0.8454972    -0.4762591   -0.8426149     0.1190355   -0.0744353 
   0.014153527     0.1195056   -0.0780494    -0.4865111   -0.8304681    -0.4917384   -0.8355547     0.1173524   -0.0809576 
   0.014253552     0.1156534   -0.0771095    -0.5149100   -0.8376874    -0.5055299   -0.8287849     0.1250606   -0.0729278 
   0.014353577     0.1139868   -0.0807193    -0.5097062   -0.8198645    -0.5097750   -0.8129876     0.1125505   -0.0801908 
   0.014453602     0.1097805   -0.0790399    -0.5274434   -0.8045658    -0.5245457   -0.8140764     0.1129249   -0.0854360 
   0.014553627     0.1084656   -0.0809738    -0.5365404   -0.8004826    -0.5372490   -0.8036180     0.1093672   -0.0842796 
   0.014653652     0.1098490   -0.0835675    -0.5473146   -0.8084051    -0.5497730   -0.7943937     0.1066636   -0.0750803 
   0.014753677     0.1036934   -0.0797935    -0.5615444   -0.7895947    -0.5593900   -0.7907428     0.1048766   -0.0825238 
   0.014853702     0.1085829   -0.0858287    -0.5817701   -0.7740257    -0.5762932   -0.7797779     0.1081699   -0.0879615 
   0.014953727     0.1017740   -0.0851485    -0.5924668   -0.7681990    -0.5835117   -0.7695095     0.1062476   -0.0867536 
   0.015053752     0.0979692   -0.0871385    -0.5864849   -0.7531949    -0.5935274   -0.7611934     0.0922132   -0.0890808 
   0.015153777     0.0954667   -0.0835353    -0.6087633   -0.7494686    -0.6075402   -0.7548522     0.0976203   -0.0881205 
   0.015253802     0.0929070   -0.0826127    -0.6222073   -0.7412896    -0.6147711   -0.7465051     0.0954201   -0.0877221 
   0.015353827     0.0912829   -0.0831708    -0.6422811   -0.7331735    -0.6288032   -0.7379738     0.1003303   -0.0889817 
   0.015453852     0.0897192   -0.0844583    -0.6389970   -0.7291833    -0.6378245   -0.7290992     0.0895502   -0.0834245 
   0.015553877     0.0880430   -0.0838051    -0.6634498   -0.7136405    -0.6521925   -0.7198027     0.0944930   -0.0892527 
   0.015653902     0.0861957   -0.0844922    -0.6557535   -0.7117307    -0.6636515   -0.7060932     0.0814371   -0.0814759 
