! 26-Feb-26 11:12:37 AM
! E:\VNA_MEASUREMENTS\LONGCABLE\LONGCABLE_1.S2P
! CHANNEL.1
! TR.MEASUREMENT
! CORRECTED.DATA
# GHZ S RI R 50.0
! FREQ.GHZ         S11RE         S11IM         S21RE         S21IM         S12RE         S12IM         S22RE         S22IM         
!; PortSelection: Port_12
   0.000050000     0.1590159    0.3810541     1.1260250   -0.4216271     0.6970966    0.0976671     0.2666205    0.0007813 
   0.000150025    -0.0458141    0.2020164    -0.2667742   -0.3171690     0.9068044    0.0980006    -0.7793334   -0.5695312 
   0.000250050    -0.2409828    0.0086238    -0.2310188    0.2111179     0.8212507   -0.0730263    -0.8788910    0.0245422 
   0.000350075     0.0054772    0.0121705     0.9846104   -0.0451706     0.9870251   -0.0644756    -0.0030989    0.0183291 
   0.000450100     0.0063085    0.0174333     1.0070200   -0.0706520     0.9883950   -0.0633646     0.0173778    0.0159641 
   0.000550125     0.0031597    0.0183634     0.9900827   -0.0833292     0.9902639   -0.0915200     0.0071849    0.0185355 
   0.000650150     0.0056869    0.0139154     0.9856839   -0.1122191     0.9831508   -0.1115957     0.0052505    0.0121042 
   0.000750175     0.0069204    0.0192727     0.9933940   -0.1225135     0.9892297   -0.1264371     0.0143477    0.0174488 
   0.000850200     0.0120561    0.0276320     0.9758169   -0.1064075     0.9826976   -0.1309261     0.0081065    0.0425086 
   0.000950225     0.0074695    0.0256686     0.9624746   -0.1644116     0.9812376   -0.1508592    -0.0026765    0.0177792 
   0.001050250     0.0119607    0.0292671     0.9661006   -0.1729499     0.9702867   -0.1584215     0.0033315    0.0253819 
   0.001150275     0.0149752    0.0292857     0.9904414   -0.1788532     0.9769838   -0.1781187     0.0234559    0.0279971 
   0.001250300     0.0113841    0.0357729     0.9586142   -0.1846814     0.9716141   -0.1893469     0.0080229    0.0421235 
   0.001350325     0.0185197    0.0273845     0.9727125   -0.2276148     0.9668313   -0.2138509     0.0153911    0.0208227 
   0.001450350     0.0158284    0.0417734     0.9771593   -0.1967670     0.9562137   -0.2131705     0.0305209    0.0519854 
   0.001550375     0.0212839    0.0423310     0.9709482   -0.2290968     0.9651127   -0.2265157     0.0267490    0.0438401 
   0.001650400     0.0204288    0.0465006     0.9452025   -0.2373380     0.9575907   -0.2556979     0.0168487    0.0506733 
   0.001750425     0.0230851    0.0463599     0.9433478   -0.2458384     0.9489869   -0.2678320     0.0218053    0.0586647 
   0.001850450     0.0294204    0.0480263     0.9656141   -0.2785055     0.9514620   -0.2756029     0.0341115    0.0424230 
   0.001950475     0.0270711    0.0444506     0.9510838   -0.3066791     0.9411077   -0.2979727     0.0269380    0.0389137 
   0.002050500     0.0257130    0.0531426     0.9611114   -0.3120252     0.9403385   -0.3066685     0.0407184    0.0405054 
   0.002150525     0.0283081    0.0527692     0.9284686   -0.3066659     0.9332359   -0.3189966     0.0311484    0.0626358 
   0.002250550     0.0304110    0.0562906     0.9160138   -0.3316012     0.9337586   -0.3269424     0.0258340    0.0591689 
   0.002350575     0.0343515    0.0529555     0.9228911   -0.3462175     0.9277198   -0.3519074     0.0347962    0.0578489 
   0.002450600     0.0367314    0.0544344     0.9149631   -0.3513788     0.9215201   -0.3657935     0.0395618    0.0633944 
   0.002550625     0.0454769    0.0557758     0.9458237   -0.4060464     0.9146887   -0.3773592     0.0437061    0.0304387 
   0.002650650     0.0357854    0.0655071     0.9108663   -0.3692694     0.9080777   -0.3881128     0.0496212    0.0682157 
   0.002750675     0.0387779    0.0585160     0.8912336   -0.3921082     0.8970801   -0.4053875     0.0403459    0.0701261 
   0.002850700     0.0464108    0.0626556     0.8910579   -0.4260711     0.8980588   -0.4206620     0.0391218    0.0575211 
   0.002950725     0.0430342    0.0670069     0.8671505   -0.4037527     0.8940685   -0.4252970     0.0480978    0.0848479 
   0.003050750     0.0438662    0.0673222     0.8751844   -0.4366186     0.8751113   -0.4393246     0.0476648    0.0697311 
   0.003150775     0.0453211    0.0659083     0.8692779   -0.4458858     0.8711984   -0.4553682     0.0527507    0.0716547 
   0.003250800     0.0468274    0.0662190     0.8564465   -0.4638582     0.8580434   -0.4644886     0.0492245    0.0739747 
   0.003350825     0.0526060    0.0691063     0.8586990   -0.4741386     0.8556333   -0.4779951     0.0567854    0.0709915 
   0.003450850     0.0576353    0.0639153     0.8471282   -0.5072823     0.8498232   -0.4963138     0.0491774    0.0646347 
   0.003550875     0.0583586    0.0670467     0.8380978   -0.5331671     0.8393072   -0.5081435     0.0437621    0.0599693 
   0.003650900     0.0577401    0.0705979     0.8232071   -0.5015175     0.8323552   -0.5200222     0.0644146    0.0829938 
   0.003750925     0.0626976    0.0693583     0.8160154   -0.5288379     0.8244417   -0.5249308     0.0597618    0.0784472 
   0.003850950     0.0643992    0.0731369     0.8111333   -0.5377813     0.8160496   -0.5422378     0.0648046    0.0767751 
   0.003950975     0.0645549    0.0748246     0.7986572   -0.5575365     0.8080969   -0.5509915     0.0620971    0.0769560 
   0.004051001     0.0700571    0.0683228     0.7909451   -0.5685842     0.7976161   -0.5684126     0.0650675    0.0777187 
   0.004151026     0.0708821    0.0760550     0.7866131   -0.5588460     0.7927170   -0.5800958     0.0794386    0.0822036 
   0.004251051     0.0730967    0.0741833     0.7813584   -0.5868961     0.7836924   -0.5833313     0.0750874    0.0767779 
   0.004351076     0.0733993    0.0742532     0.7722436   -0.6044937     0.7662242   -0.5985312     0.0735911    0.0755133 
   0.004451101     0.0805727    0.0751971     0.7574363   -0.6166115     0.7659560   -0.6148027     0.0753132    0.0778850 
   0.004551126     0.0835235    0.0732244     0.7494974   -0.6310157     0.7546115   -0.6172171     0.0734825    0.0769412 
   0.004651151     0.0851578    0.0783358     0.7501132   -0.6293291     0.7493272   -0.6332773     0.0865009    0.0748149 
   0.004751176     0.0895603    0.0745702     0.7378147   -0.6445491     0.7418815   -0.6516319     0.0871542    0.0744196 
   0.004851201     0.0880721    0.0718916     0.7134834   -0.6592499     0.7241974   -0.6545424     0.0828655    0.0823934 
   0.004951226     0.0895029    0.0726651     0.7059307   -0.6551750     0.7146118   -0.6676012     0.0942524    0.0832454 
   0.005051251     0.0966004    0.0756639     0.6936958   -0.6856837     0.7109107   -0.6725586     0.0850295    0.0801406 
   0.005151276     0.0909208    0.0762984     0.6958381   -0.6629966     0.6955420   -0.6838132     0.1084252    0.0802753 
   0.005251301     0.0988432    0.0715717     0.6815355   -0.7054628     0.6843041   -0.6941133     0.0912327    0.0760034 
   0.005351326     0.0994009    0.0744815     0.6645334   -0.7189363     0.6750897   -0.7023665     0.0903109    0.0787526 
   0.005451351     0.1035849    0.0780122     0.6714239   -0.6992326     0.6656806   -0.7131247     0.1129221    0.0727278 
   0.005551376     0.1023346    0.0749154     0.6512325   -0.7268960     0.6524761   -0.7155167     0.1022561    0.0729660 
   0.005651401     0.1081829    0.0793421     0.6496434   -0.7192035     0.6436115   -0.7348445     0.1174018    0.0687141 
   0.005751426     0.1021801    0.0694934     0.5968352   -0.7309279     0.6257448   -0.7427991     0.1112498    0.0929589 
   0.005851451     0.1115868    0.0719832     0.6049415   -0.7573768     0.6227369   -0.7514632     0.1055608    0.0780531 
   0.005951476     0.1117601    0.0723860     0.6049246   -0.7502204     0.6064470   -0.7637994     0.1195168    0.0749445 
   0.006051501     0.1149854    0.0696853     0.5818909   -0.7911769     0.5958455   -0.7680475     0.1001334    0.0761571 
   0.006151526     0.1184879    0.0670825     0.5723147   -0.7750590     0.5802072   -0.7811256     0.1194572    0.0770929 
   0.006251551     0.1201603    0.0716001     0.5647944   -0.7727450     0.5724014   -0.7871591     0.1274085    0.0741966 
   0.006351576     0.1205291    0.0638974     0.5552498   -0.7849408     0.5568905   -0.7918804     0.1272293    0.0715951 
   0.006451601     0.1205536    0.0641509     0.5443369   -0.7916212     0.5472730   -0.8082045     0.1306556    0.0699521 
   0.006551626     0.1258353    0.0647090     0.5433813   -0.8003103     0.5438448   -0.8105482     0.1319229    0.0619588 
   0.006651651     0.1265765    0.0704142     0.5334401   -0.7987543     0.5276464   -0.8172016     0.1396936    0.0595855 
   0.006751676     0.1331611    0.0584795     0.5122381   -0.8388928     0.5098186   -0.8292591     0.1215073    0.0637182 
   0.006851701     0.1368138    0.0570421     0.4830165   -0.8511462     0.4957121   -0.8380924     0.1202600    0.0699452 
   0.006951726     0.1348808    0.0541738     0.4791887   -0.8464742     0.4860581   -0.8429140     0.1295890    0.0660172 
   0.007051751     0.1366561    0.0574221     0.4696393   -0.8601896     0.4773457   -0.8487067     0.1287023    0.0621039 
   0.007151776     0.1353683    0.0547894     0.4686609   -0.8512291     0.4625408   -0.8519066     0.1381687    0.0541069 
   0.007251801     0.1399494    0.0583890     0.4549554   -0.8608380     0.4504945   -0.8589272     0.1371624    0.0526100 
   0.007351826     0.1457030    0.0547419     0.4530089   -0.8738155     0.4344592   -0.8710855     0.1375509    0.0451859 
   0.007451851     0.1441781    0.0544924     0.4212732   -0.8645594     0.4262945   -0.8696689     0.1474936    0.0542555 
   0.007551876     0.1435838    0.0502055     0.4153584   -0.8813328     0.4163810   -0.8825839     0.1421939    0.0486910 
   0.007651901     0.1486173    0.0511791     0.4142594   -0.8917892     0.3956545   -0.8838822     0.1400853    0.0403812 
   0.007751926     0.1487289    0.0464991     0.3959427   -0.8994038     0.3822848   -0.8927790     0.1403784    0.0405196 
   0.007851951     0.1523296    0.0490346     0.3757169   -0.9024470     0.3755448   -0.8943044     0.1435685    0.0446338 
   0.007951976     0.1513799    0.0433714     0.3746293   -0.8956688     0.3579644   -0.9050511     0.1513689    0.0340054 
   0.008052001     0.1484817    0.0385465     0.3455064   -0.9040579     0.3458634   -0.9039342     0.1513829    0.0425035 
   0.008152026     0.1511963    0.0398964     0.3378189   -0.8900154     0.3336858   -0.9096883     0.1635241    0.0350581 
   0.008252051     0.1545170    0.0331250     0.3203016   -0.9194103     0.3130841   -0.9101317     0.1507808    0.0377357 
   0.008352076     0.1558891    0.0336655     0.3019589   -0.9299349     0.3045732   -0.9184882     0.1503533    0.0390470 
   0.008452101     0.1547735    0.0353899     0.2993824   -0.9251530     0.2904346   -0.9265707     0.1544219    0.0289657 
   0.008552126     0.1581367    0.0336727     0.2808049   -0.9290664     0.2728240   -0.9309240     0.1560568    0.0312234 
   0.008652151     0.1536207    0.0326199     0.2546535   -0.9215092     0.2636041   -0.9296741     0.1662182    0.0319834 
   0.008752176     0.1609208    0.0310282     0.2589389   -0.9368961     0.2493924   -0.9333535     0.1567266    0.0232048 
   0.008852201     0.1601517    0.0260097     0.2291226   -0.9335564     0.2378953   -0.9362473     0.1641627    0.0298251 
   0.008952226     0.1618350    0.0248093     0.2181559   -0.9379935     0.2265927   -0.9444606     0.1648695    0.0252605 
   0.009052251     0.1615303    0.0251182     0.2014669   -0.9491407     0.2108200   -0.9469339     0.1614495    0.0261040 
   0.009152276     0.1627226    0.0205579     0.1981965   -0.9444805     0.1940951   -0.9454919     0.1629651    0.0157373 
   0.009252301     0.1622263    0.0147383     0.1793573   -0.9511402     0.1789295   -0.9453408     0.1633261    0.0170852 
   0.009352326     0.1647018    0.0122047     0.1700530   -0.9572118     0.1676616   -0.9522802     0.1604195    0.0141876 
   0.009452351     0.1650954    0.0132768     0.1428568   -0.9620554     0.1543686   -0.9558641     0.1638856    0.0193844 
   0.009552376     0.1688647    0.0081290     0.1454050   -0.9660015     0.1414756   -0.9548234     0.1583111    0.0100851 
   0.009652401     0.1682711    0.0095386     0.1328078   -0.9571669     0.1247521   -0.9605778     0.1627520    0.0035862 
   0.009752426     0.1659674    0.0095584     0.1153997   -0.9592934     0.1125843   -0.9590384     0.1642193    0.0037539 
   0.009852451     0.1681760    0.0023616     0.0973315   -0.9589722     0.0952349   -0.9617712     0.1658858    0.0021187 
   0.009952476     0.1667114    0.0017671     0.0848123   -0.9635180     0.0810873   -0.9589647     0.1646447    0.0002257 
   0.010052501     0.1679985   -0.0035503     0.0688973   -0.9602783     0.0698621   -0.9656802     0.1677707   -0.0021370 
   0.010152526     0.1684383   -0.0003491     0.0571974   -0.9547212     0.0572453   -0.9653146     0.1693002   -0.0073687 
   0.010252551     0.1634140   -0.0038549     0.0392871   -0.9635264     0.0410934   -0.9703780     0.1684012   -0.0059308 
   0.010352576     0.1725262   -0.0106013     0.0315627   -0.9728118     0.0238037   -0.9676127     0.1598888   -0.0073852 
   0.010452601     0.1674457   -0.0105700     0.0166301   -0.9646266     0.0097592   -0.9658349     0.1647899   -0.0143050 
   0.010552626     0.1638691   -0.0141250     0.0090373   -0.9717906    -0.0074890   -0.9659113     0.1592070   -0.0154470 
   0.010652651     0.1639780   -0.0157111    -0.0241304   -0.9634578    -0.0169370   -0.9617038     0.1698929   -0.0125918 
   0.010752676     0.1657364   -0.0178993    -0.0211064   -0.9648791    -0.0284058   -0.9655592     0.1615303   -0.0207966 
   0.010852701     0.1662936   -0.0184616    -0.0530137   -0.9683536    -0.0442914   -0.9665443     0.1670599   -0.0140268 
   0.010952726     0.1639376   -0.0200456    -0.0450414   -0.9732288    -0.0553723   -0.9648136     0.1532331   -0.0246458 
   0.011052751     0.1642245   -0.0257368    -0.0712734   -0.9622878    -0.0730688   -0.9632670     0.1635135   -0.0250693 
   0.011152776     0.1653532   -0.0278459    -0.0869068   -0.9640940    -0.0892928   -0.9611412     0.1614771   -0.0255038 
   0.011252801     0.1629185   -0.0265802    -0.0927900   -0.9435543    -0.1009282   -0.9621013     0.1645611   -0.0384144 
   0.011352826     0.1629342   -0.0355840    -0.1185505   -0.9606975    -0.1178295   -0.9586320     0.1628837   -0.0289326 
   0.011452851     0.1612432   -0.0319361    -0.1270583   -0.9609562    -0.1312949   -0.9584026     0.1585169   -0.0325264 
   0.011552876     0.1603748   -0.0344878    -0.1504727   -0.9532261    -0.1437200   -0.9551599     0.1641132   -0.0336977 
   0.011652901     0.1597910   -0.0365281    -0.1464303   -0.9463804    -0.1561227   -0.9547000     0.1559184   -0.0439620 
   0.011752926     0.1571626   -0.0405340    -0.1671574   -0.9533393    -0.1696132   -0.9476037     0.1557649   -0.0393871 
   0.011852951     0.1582791   -0.0418408    -0.1666564   -0.9530579    -0.1887539   -0.9524867     0.1466624   -0.0445872 
   0.011952976     0.1543981   -0.0414177    -0.1950875   -0.9439651    -0.1920589   -0.9423566     0.1537776   -0.0447120 
   0.012053002     0.1525928   -0.0474882    -0.2121645   -0.9329513    -0.2131776   -0.9398690     0.1574825   -0.0499662 
   0.012153027     0.1559692   -0.0525020    -0.2327629   -0.9362512    -0.2296361   -0.9354953     0.1578359   -0.0472413 
   0.012253052     0.1526905   -0.0476754    -0.2322228   -0.9469412    -0.2406815   -0.9362353     0.1455315   -0.0455857 
   0.012353077     0.1519356   -0.0543128    -0.2601575   -0.9310741    -0.2489713   -0.9286579     0.1546816   -0.0492401 
   0.012453102     0.1486695   -0.0509289    -0.2740383   -0.9304413    -0.2663449   -0.9240988     0.1526904   -0.0513278 
   0.012553127     0.1496030   -0.0592832    -0.2789393   -0.9111400    -0.2816779   -0.9219695     0.1493291   -0.0631884 
   0.012653152     0.1469782   -0.0555764    -0.2961170   -0.9224038    -0.2919596   -0.9176888     0.1466060   -0.0558871 
   0.012753177     0.1467537   -0.0598856    -0.3115388   -0.9131894    -0.3094193   -0.9185700     0.1472720   -0.0589952 
   0.012853202     0.1424796   -0.0578101    -0.3195576   -0.9173656    -0.3192190   -0.9083813     0.1405510   -0.0561423 
   0.012953227     0.1406069   -0.0623166    -0.3329083   -0.9013493    -0.3332134   -0.9048623     0.1418759   -0.0654177 
   0.013053252     0.1411912   -0.0649715    -0.3431467   -0.8951746    -0.3525565   -0.9015557     0.1378656   -0.0693343 
   0.013153277     0.1412547   -0.0655196    -0.3703077   -0.8913110    -0.3663419   -0.8930529     0.1447738   -0.0670700 
   0.013253302     0.1378493   -0.0628188    -0.3783419   -0.8970528    -0.3751733   -0.8939228     0.1379589   -0.0614059 
   0.013353327     0.1347921   -0.0677125    -0.3966016   -0.8877277    -0.3899739   -0.8871511     0.1404248   -0.0654640 
   0.013453352     0.1326542   -0.0690028    -0.3976018   -0.8685294    -0.4017914   -0.8793536     0.1331894   -0.0778010 
   0.013553377     0.1291601   -0.0694800    -0.4135679   -0.8778862    -0.4105515   -0.8728852     0.1299372   -0.0686993 
   0.013653402     0.1289267   -0.0760828    -0.4255839   -0.8614872    -0.4247221   -0.8639250     0.1300976   -0.0762388 
   0.013753427     0.1273411   -0.0768740    -0.4415277   -0.8544629    -0.4339744   -0.8569722     0.1281276   -0.0771564 
   0.013853452     0.1285183   -0.0757986    -0.4560860   -0.8668822    -0.4539776   -0.8551573     0.1275976   -0.0671924 
   0.013953477     0.1232974   -0.0746303    -0.4543769   -0.8559130    -0.4643510   -0.8468810     0.1160323   -0.0715671 
   0.014053502     0.1204017   -0.0766616    -0.4750498   -0.8393949    -0.4735804   -0.8393180     0.1193722   -0.0777654 
   0.014153527     0.1194575   -0.0772950    -0.4834028   -0.8317401    -0.4913340   -0.8395818     0.1160096   -0.0796204 
   0.014253552     0.1162109   -0.0785747    -0.5158654   -0.8357624    -0.5055164   -0.8262090     0.1258018   -0.0742737 
   0.014353577     0.1152060   -0.0815922    -0.5173578   -0.8273133    -0.5096149   -0.8125194     0.1174461   -0.0749006 
   0.014453602     0.1098422   -0.0796219    -0.5267690   -0.8100336    -0.5239592   -0.8130267     0.1124295   -0.0814146 
   0.014553627     0.1086803   -0.0804155    -0.5334498   -0.7983950    -0.5367641   -0.8050388     0.1076820   -0.0851992 
   0.014653652     0.1081569   -0.0854930    -0.5509535   -0.7977309    -0.5503140   -0.7905518     0.1084415   -0.0822595 
   0.014753677     0.1050414   -0.0813987    -0.5700447   -0.7931181    -0.5590035   -0.7927326     0.1106039   -0.0798234 
   0.014853702     0.1084970   -0.0863976    -0.5794035   -0.7717748    -0.5765246   -0.7791221     0.1068105   -0.0892471 
   0.014953727     0.1014511   -0.0852536    -0.5866805   -0.7673696    -0.5830187   -0.7682322     0.1020012   -0.0867017 
   0.015053752     0.0978374   -0.0864933    -0.5838962   -0.7548848    -0.5910138   -0.7601896     0.0903269   -0.0877363 
   0.015153777     0.0958914   -0.0832554    -0.6111196   -0.7494112    -0.6080635   -0.7520652     0.0985607   -0.0885297 
   0.015253802     0.0926978   -0.0820447    -0.6196716   -0.7471516    -0.6180882   -0.7457085     0.0947362   -0.0845365 
   0.015353827     0.0904465   -0.0820638    -0.6384192   -0.7345663    -0.6279006   -0.7392259     0.0981709   -0.0874486 
   0.015453852     0.0895813   -0.0848227    -0.6377540   -0.7301551    -0.6393577   -0.7245268     0.0879067   -0.0832880 
   0.015553877     0.0866520   -0.0837705    -0.6557134   -0.7069732    -0.6528660   -0.7191581     0.0883952   -0.0921767 
   0.015653902     0.0864788   -0.0856139    -0.6607459   -0.7103129    -0.6645934   -0.7048379     0.0844221   -0.0830928 
