! 19-Feb-26 2:56:53 PM
! E:\VNA_MEASUREMENTS\RECBLOCK\3DBATT3.S2P
! CHANNEL.1
! TR.MEASUREMENT
! CORRECTED.DATA
# GHZ S RI R 50.0
! FREQ.GHZ         S11RE         S11IM         S21RE         S21IM         S12RE         S12IM         S22RE         S22IM         
!; PortSelection: Port_12
   0.000050000    -0.1844659    0.4801249    -0.8363864    0.0189853     0.4592122   -0.0632219    -0.1603518   -0.8594573 
   0.000150025    -0.0516784   -0.0452989    -0.2202870   -0.0599548     0.6944971   -0.0328082    -0.4315118   -0.2317025 
   0.000250050    -0.6518735   -1.6271080     1.2879660    2.5325920     0.5784935   -0.8866021    -0.0026739    1.3291330 
   0.000350075     0.0058553   -0.0081215     0.7362298   -0.0078561     0.7096106   -0.0010974     0.0164341   -0.0014118 
   0.000450100     0.0059276    0.0015606     0.7185316    0.0308693     0.7070961    0.0019077     0.0056975    0.0160285 
   0.000550125     0.0040728    0.0042780     0.7084672    0.0119555     0.7080656    0.0018311     0.0014852    0.0055127 
   0.000650150     0.0006740    0.0050237     0.7006299    0.0028152     0.7108280    0.0034439    -0.0009632    0.0018951 
   0.000750175    -0.0014295    0.0044454     0.6897428    0.0110039     0.7124587   -0.0047964    -0.0076514    0.0050464 
   0.000850200     0.0038686   -0.0010839     0.7238833   -0.0069023     0.7150262   -0.0046680     0.0111903   -0.0042299 
   0.000950225     0.0050569   -0.0018832     0.7156842   -0.0035232     0.7092182   -0.0066189     0.0053263   -0.0014217 
   0.001050250     0.0035465    0.0003616     0.7021491   -0.0069506     0.7061574   -0.0001843    -0.0003172   -0.0025476 
   0.001150275     0.0037057    0.0036750     0.7036908    0.0182705     0.7046435   -0.0030878     0.0007753    0.0094388 
   0.001250300     0.0024792    0.0035920     0.7011358    0.0103658     0.7076607   -0.0025402    -0.0004609    0.0063583 
   0.001350325     0.0004431    0.0011928     0.7122511    0.0133461     0.7019805   -0.0026044     0.0049370    0.0075428 
   0.001450350     0.0000050   -0.0012074     0.7069836    0.0014992     0.7084036   -0.0007256     0.0017136    0.0025303 
   0.001550375     0.0020630    0.0017864     0.7030990   -0.0002663     0.7095803    0.0043147     0.0007681    0.0021014 
   0.001650400     0.0012495    0.0027654     0.7030202    0.0117996     0.7078452   -0.0004941     0.0013528    0.0074656 
   0.001750425     0.0025054   -0.0035743     0.7064763   -0.0182398     0.7089084   -0.0051868     0.0012553   -0.0082756 
   0.001850450     0.0048893   -0.0008771     0.7060095   -0.0198965     0.7069175   -0.0043177    -0.0001489   -0.0080260 
   0.001950475    -0.0006311    0.0041574     0.7017046    0.0123447     0.7073657    0.0014631     0.0009386    0.0079106 
   0.002050500    -0.0002886    0.0000123     0.7131146   -0.0062470     0.7023409    0.0000724     0.0039202   -0.0020123 
   0.002150525     0.0022860    0.0005002     0.7021038    0.0031281     0.7101433   -0.0041632     0.0011118    0.0026885 
   0.002250550    -0.0013432    0.0046489     0.6951395    0.0155782     0.7094300    0.0024210    -0.0023472    0.0101426 
   0.002350575     0.0022210    0.0022499     0.7138157    0.0098562     0.7082942   -0.0014678     0.0073929    0.0057212 
   0.002450600     0.0035285    0.0011192     0.7098269    0.0144751     0.7128450   -0.0005667     0.0056657    0.0083000 
   0.002550625     0.0046033   -0.0011949     0.7279969    0.0107289     0.7105700   -0.0085233     0.0135159    0.0051551 
   0.002650650     0.0019342   -0.0008384     0.7147439   -0.0037081     0.7089592   -0.0039505     0.0060116   -0.0006327 
   0.002750675     0.0020859    0.0028867     0.7121617   -0.0001431     0.7120615    0.0060894     0.0053891    0.0023381 
   0.002850700     0.0023246   -0.0012344     0.7011213   -0.0126540     0.7065006   -0.0030694    -0.0025677   -0.0034554 
   0.002950725     0.0047244    0.0005737     0.7272639   -0.0021715     0.7112600   -0.0026629     0.0122202   -0.0012759 
   0.003050750     0.0037544    0.0033896     0.7040471    0.0054887     0.7108375    0.0003341     0.0017438    0.0046306 
   0.003150775     0.0030638    0.0001851     0.7112654   -0.0079293     0.7122652   -0.0054844     0.0045208   -0.0020260 
   0.003250800     0.0035718   -0.0001727     0.7127690   -0.0026802     0.7083938   -0.0017985     0.0050836    0.0003208 
   0.003350825     0.0039549   -0.0026458     0.7010729   -0.0088882     0.7069795   -0.0050011    -0.0015576   -0.0011430 
   0.003450850     0.0036214   -0.0019246     0.7143190   -0.0127984     0.7053618   -0.0045654     0.0043862   -0.0051785 
   0.003550875     0.0016283    0.0006634     0.7070140   -0.0007243     0.7040597   -0.0080263     0.0016823    0.0012881 
   0.003650900     0.0022665   -0.0004457     0.7047795   -0.0157048     0.7054551   -0.0027397    -0.0007214   -0.0048041 
   0.003750925     0.0030637    0.0005680     0.7170794   -0.0044210     0.7047420   -0.0017773     0.0058210   -0.0010958 
   0.003850950     0.0027086   -0.0033794     0.7000350   -0.0204603     0.7052486   -0.0038730    -0.0042600   -0.0055509 
   0.003950975    -0.0008364    0.0019123     0.6954771    0.0065169     0.7027216    0.0005545    -0.0024790    0.0071269 
   0.004051001     0.0033362   -0.0009027     0.6985019   -0.0085419     0.7063692   -0.0055873    -0.0030532    0.0002140 
   0.004151026     0.0008156    0.0005049     0.7015160   -0.0104268     0.7111483   -0.0013370    -0.0014442   -0.0005064 
   0.004251051     0.0038321    0.0026561     0.7174737    0.0148746     0.7121385    0.0002154     0.0099329    0.0087395 
   0.004351076     0.0020965    0.0007512     0.7053387   -0.0001927     0.7072292   -0.0024991     0.0011091    0.0035551 
   0.004451101     0.0010315   -0.0027850     0.6968629   -0.0187745     0.7075629   -0.0034550    -0.0049735   -0.0035233 
   0.004551126     0.0030889   -0.0005281     0.7067899   -0.0082649     0.7138142   -0.0036825     0.0013613   -0.0006969 
   0.004651151     0.0022596   -0.0021908     0.7093443   -0.0118191     0.7082088   -0.0048386     0.0017341   -0.0025968 
   0.004751176     0.0041031    0.0025294     0.7098608   -0.0070064     0.7053237   -0.0000215     0.0022810   -0.0006743 
   0.004851201     0.0051952    0.0041501     0.7163426    0.0132678     0.7058330   -0.0066238     0.0093927    0.0070961 
   0.004951226     0.0018195   -0.0013057     0.7071829   -0.0082412     0.7068913   -0.0031643     0.0012083   -0.0008219 
   0.005051251     0.0014926    0.0008753     0.7150052   -0.0052700     0.7087149   -0.0020556     0.0054109    0.0002089 
   0.005151276     0.0032998    0.0006433     0.7173279    0.0021074     0.7060860   -0.0065513     0.0077770    0.0020149 
   0.005251301     0.0018796    0.0025497     0.6973427    0.0032545     0.7090526   -0.0045101    -0.0009987    0.0063752 
   0.005351326     0.0015081   -0.0000322     0.7009447    0.0027184     0.7060421   -0.0057772     0.0005253    0.0054111 
   0.005451351     0.0045627   -0.0014397     0.6993720   -0.0194313     0.7115306   -0.0061648    -0.0041635   -0.0031349 
   0.005551376     0.0013910   -0.0011124     0.6944679   -0.0021464     0.7063150   -0.0084693    -0.0029745    0.0045513 
   0.005651401     0.0022919   -0.0002589     0.7083249   -0.0033547     0.7061328   -0.0051538     0.0030415    0.0017070 
   0.005751426     0.0042591    0.0003883     0.7158558   -0.0108669     0.7101006   -0.0077090     0.0049370   -0.0030465 
   0.005851451     0.0030536    0.0003741     0.7037915   -0.0013479     0.7052605   -0.0101906     0.0001707    0.0026319 
   0.005951476     0.0026925    0.0020120     0.7077475    0.0055081     0.7090654   -0.0039061     0.0042509    0.0059983 
   0.006051501     0.0014481   -0.0000908     0.6948360   -0.0082092     0.7051919   -0.0044076    -0.0041700    0.0028897 
   0.006151526     0.0049194    0.0011209     0.7158744    0.0021190     0.7142830   -0.0022780     0.0079943    0.0032325 
   0.006251551     0.0008596   -0.0003665     0.7098097   -0.0053908     0.7051293   -0.0058369     0.0026658    0.0002288 
   0.006351576     0.0026010    0.0018733     0.7119939   -0.0001640     0.7077017   -0.0049145     0.0052826    0.0028693 
   0.006451601     0.0026535    0.0011810     0.7136545   -0.0080591     0.7070231   -0.0045063     0.0040687   -0.0009601 
   0.006551626     0.0019373    0.0006097     0.7097955   -0.0021051     0.7109039   -0.0060645     0.0049245    0.0023126 
   0.006651651     0.0023564    0.0007366     0.7008189   -0.0108636     0.7108113   -0.0077074    -0.0014526    0.0004751 
   0.006751676     0.0043370   -0.0006559     0.7124774   -0.0140984     0.7081739   -0.0055238     0.0024480   -0.0030237 
   0.006851701     0.0019099    0.0009509     0.7083802   -0.0028817     0.7116349   -0.0044639     0.0039989    0.0022871 
   0.006951726     0.0028365    0.0011371     0.7104259   -0.0159174     0.7096429   -0.0082500     0.0016619   -0.0033480 
   0.007051751     0.0019381    0.0020542     0.7135526    0.0008972     0.7073864   -0.0061204     0.0064643    0.0024512 
   0.007151776     0.0029249    0.0014700     0.7123567    0.0002185     0.7113807   -0.0085295     0.0062791    0.0028930 
   0.007251801     0.0027814    0.0005378     0.7124790   -0.0108039     0.7076015   -0.0044796     0.0030485   -0.0016983 
   0.007351826     0.0003391    0.0003102     0.6917525   -0.0010198     0.7033962   -0.0049339    -0.0027750    0.0077919 
   0.007451851     0.0043755    0.0008548     0.7192724   -0.0088280     0.7083674   -0.0071203     0.0065724   -0.0029633 
   0.007551876     0.0018830    0.0005053     0.7088874   -0.0001149     0.7078639   -0.0062730     0.0046619    0.0037798 
   0.007651901     0.0018400    0.0018973     0.7055426   -0.0061917     0.7045016   -0.0057063     0.0010631    0.0019747 
   0.007751926     0.0018759   -0.0001840     0.7062750   -0.0043152     0.7097117   -0.0115182     0.0032066    0.0023950 
   0.007851951     0.0012209    0.0005917     0.7080556   -0.0067724     0.7111934   -0.0090708     0.0030727    0.0011820 
   0.007951976     0.0026101    0.0007092     0.7116506   -0.0001798     0.7088798   -0.0066564     0.0063628    0.0031969 
   0.008052001     0.0035981    0.0013093     0.7071282   -0.0096028     0.7086182   -0.0071022     0.0017487    0.0010609 
   0.008152026     0.0013632    0.0003482     0.7070958   -0.0062975     0.7078710   -0.0076803     0.0022413    0.0016909 
   0.008252051     0.0030130    0.0002209     0.7079724   -0.0021921     0.7057229   -0.0132203     0.0042880    0.0024568 
   0.008352076     0.0021220    0.0003007     0.7017684   -0.0047503     0.7076572   -0.0069562     0.0007179    0.0041637 
   0.008452101     0.0008931    0.0001888     0.7044930   -0.0102074     0.7068484   -0.0092193     0.0007773    0.0007494 
   0.008552126     0.0036247    0.0000778     0.7137685   -0.0104773     0.7082585   -0.0089173     0.0039221   -0.0017537 
   0.008652151     0.0019499    0.0015264     0.7102075   -0.0005334     0.7040903   -0.0099933     0.0052302    0.0027455 
   0.008752176     0.0010366   -0.0006564     0.6947419   -0.0102790     0.7058459   -0.0101235    -0.0028530    0.0040019 
   0.008852201     0.0037385    0.0001039     0.7043093   -0.0081544     0.7079157   -0.0072891     0.0012197    0.0023256 
   0.008952226     0.0023663   -0.0002147     0.7063338   -0.0071349     0.7069347   -0.0073687     0.0023325    0.0023928 
   0.009052251     0.0026513   -0.0001211     0.7055240   -0.0118600     0.7075099   -0.0107300     0.0007645    0.0005066 
   0.009152276     0.0026780    0.0001118     0.7144535   -0.0076153     0.7053761   -0.0115159     0.0051067   -0.0010930 
   0.009252301     0.0040880    0.0006692     0.7144309   -0.0088624     0.7107037   -0.0105646     0.0051929   -0.0013691 
   0.009352326     0.0041089    0.0006712     0.7076065   -0.0192574     0.7085118   -0.0088085    -0.0008477   -0.0021619 
   0.009452351     0.0034037    0.0001518     0.7135974   -0.0167173     0.7110747   -0.0110363     0.0027462   -0.0035784 
   0.009552376     0.0028880    0.0003293     0.7135477   -0.0113255     0.7114127   -0.0082454     0.0044270   -0.0015598 
   0.009652401     0.0024631    0.0010160     0.7105429   -0.0069915     0.7067998   -0.0101088     0.0048679    0.0007650 
   0.009752426     0.0028331    0.0013201     0.7086456   -0.0065128     0.7082403   -0.0097860     0.0043708    0.0013839 
   0.009852451     0.0047776    0.0009545     0.7142737   -0.0111294     0.7098015   -0.0108247     0.0043043   -0.0018329 
   0.009952476     0.0023919    0.0011627     0.7031287   -0.0033932     0.7085611   -0.0082657     0.0036269    0.0044842 
   0.010052501     0.0027088    0.0017404     0.7110764   -0.0054981     0.7063048   -0.0100807     0.0051177    0.0010789 
   0.010152526     0.0024113    0.0004474     0.7067540   -0.0038684     0.7075481   -0.0076494     0.0041429    0.0033559 
   0.010252551     0.0009533    0.0007829     0.6989816    0.0037199     0.7053082   -0.0089734     0.0037986    0.0080637 
   0.010352576     0.0026212    0.0022689     0.7173234   -0.0070111     0.7117901   -0.0080812     0.0070613   -0.0008904 
   0.010452601     0.0035308   -0.0000671     0.7103581   -0.0027154     0.7094027   -0.0104785     0.0061935    0.0026139 
   0.010552626     0.0038194    0.0003862     0.7067973   -0.0058111     0.7083803   -0.0131924     0.0038965    0.0021436 
   0.010652651     0.0025955   -0.0000588     0.7119101   -0.0085096     0.7090504   -0.0096017     0.0048338    0.0002346 
   0.010752676     0.0034506    0.0008134     0.7125034   -0.0090317     0.7082163   -0.0088968     0.0044050   -0.0001121 
   0.010852701     0.0025148    0.0014640     0.7098240   -0.0107153     0.7087866   -0.0095537     0.0034704    0.0000862 
   0.010952726     0.0028214   -0.0009847     0.7074131   -0.0133899     0.7020426   -0.0131167     0.0011163   -0.0005293 
   0.011052751     0.0031225    0.0010290     0.7095283   -0.0068328     0.7117358   -0.0101930     0.0049025    0.0015695 
   0.011152776     0.0031045    0.0004374     0.7071224   -0.0061566     0.7062060   -0.0107640     0.0040094    0.0021335 
   0.011252801     0.0012378    0.0012453     0.7008352   -0.0084558     0.7047613   -0.0081813     0.0011763    0.0042312 
   0.011352826     0.0018309   -0.0007134     0.7036405   -0.0135573     0.7043573   -0.0126815     0.0002778    0.0012538 
   0.011452851     0.0023101    0.0000792     0.7126119   -0.0126383     0.7061915   -0.0124018     0.0036518   -0.0017053 
   0.011552876     0.0031260    0.0016612     0.7137273   -0.0105158     0.7091607   -0.0141226     0.0047590   -0.0012621 
   0.011652901     0.0028581    0.0005019     0.7155795   -0.0150696     0.7062782   -0.0116722     0.0033372   -0.0033480 
   0.011752926     0.0021553    0.0019390     0.7117463   -0.0045401     0.7096519   -0.0115932     0.0065549    0.0012478 
   0.011852951     0.0029555    0.0004677     0.7076377   -0.0190028     0.7072091   -0.0136916    -0.0003759   -0.0019521 
   0.011952976     0.0029105    0.0003918     0.7091252   -0.0087992     0.7086641   -0.0107818     0.0038152    0.0008934 
   0.012053002     0.0034041    0.0002456     0.7093244   -0.0152418     0.7101529   -0.0126414     0.0022978   -0.0007747 
   0.012153027     0.0026406    0.0020010     0.7090159   -0.0107925     0.7066081   -0.0123398     0.0031326    0.0007688 
   0.012253052     0.0009471    0.0010418     0.7114826   -0.0106941     0.7086950   -0.0106631     0.0040227   -0.0000339 
   0.012353077     0.0015225    0.0007724     0.7042419   -0.0065284     0.7072919   -0.0117515     0.0038877    0.0035273 
   0.012453102     0.0020885    0.0014705     0.7041393   -0.0155146     0.7098168   -0.0104513     0.0003121    0.0015577 
   0.012553127     0.0028199    0.0015866     0.7140356   -0.0041690     0.7054783   -0.0139945     0.0074019   -0.0000398 
   0.012653152     0.0029591    0.0017072     0.7206929   -0.0104320     0.7047916   -0.0141601     0.0072202   -0.0040306 
   0.012753177     0.0021948   -0.0002452     0.7067604   -0.0119772     0.7087026   -0.0120757     0.0024529    0.0015960 
   0.012853202     0.0013918   -0.0001594     0.7037793   -0.0128715     0.7039145   -0.0125225     0.0017549    0.0017419 
   0.012953227     0.0024140   -0.0003294     0.7071621   -0.0087626     0.7092827   -0.0133400     0.0039608    0.0019518 
   0.013053252     0.0028968    0.0016139     0.7166811   -0.0078351     0.7069612   -0.0132154     0.0069828   -0.0017404 
   0.013153277     0.0034680   -0.0009380     0.7059424   -0.0197664     0.7067640   -0.0123199    -0.0005904   -0.0002898 
   0.013253302     0.0018570    0.0008499     0.7019737   -0.0123440     0.7078608   -0.0121250     0.0012915    0.0029955 
   0.013353327     0.0020948    0.0012194     0.7077681   -0.0144415     0.7086428   -0.0095821     0.0024087    0.0008500 
   0.013453352     0.0021007    0.0004622     0.7056119   -0.0100825     0.7072710   -0.0133317     0.0034622    0.0022116 
   0.013553377     0.0033107    0.0004170     0.7075146   -0.0246102     0.7100915   -0.0130542    -0.0017686   -0.0018810 
   0.013653402     0.0022736   -0.0002952     0.7073438   -0.0186420     0.7072381   -0.0144253     0.0003894   -0.0004498 
   0.013753427     0.0036141    0.0012360     0.7038691   -0.0146701     0.7076923   -0.0154208     0.0015107    0.0022488 
   0.013853452     0.0026144   -0.0001370     0.7072473   -0.0068077     0.7096892   -0.0145563     0.0050118    0.0025067 
   0.013953477     0.0041860    0.0002821     0.7118458   -0.0277602     0.7070066   -0.0137885    -0.0022645   -0.0041488 
   0.014053502     0.0014837    0.0005264     0.7113743   -0.0091882     0.7055879   -0.0141338     0.0054839   -0.0004694 
   0.014153527     0.0025589    0.0011193     0.7126011   -0.0077978     0.7072663   -0.0143170     0.0063717    0.0003994 
   0.014253552     0.0021917    0.0015449     0.7145684   -0.0085842     0.7069655   -0.0168260     0.0066525   -0.0012589 
   0.014353577     0.0024078    0.0008011     0.7056791   -0.0129029     0.7078367   -0.0120854     0.0027693    0.0021986 
   0.014453602     0.0020448   -0.0005973     0.7024831   -0.0076963     0.7064145   -0.0159001     0.0043708    0.0040061 
   0.014553627     0.0037603    0.0001696     0.7041119   -0.0167537     0.7088623   -0.0147259     0.0012942    0.0019600 
   0.014653652     0.0030784    0.0017555     0.7102042   -0.0054688     0.7097940   -0.0122279     0.0068395    0.0019327 
   0.014753677     0.0029763    0.0012971     0.7016957   -0.0121965     0.7074270   -0.0130613     0.0024703    0.0037799 
   0.014853702     0.0033962    0.0005055     0.7145388   -0.0173083     0.7093155   -0.0139919     0.0026138   -0.0023711 
   0.014953727     0.0019941    0.0001846     0.7013271   -0.0148509     0.7081487   -0.0142403     0.0012461    0.0035255 
   0.015053752     0.0025063    0.0006907     0.7070405   -0.0163734     0.7075304   -0.0146166     0.0019859    0.0009573 
   0.015153777     0.0021094    0.0004490     0.7063819   -0.0156243     0.7070980   -0.0128890     0.0019549    0.0008971 
   0.015253802     0.0028041    0.0007726     0.7131696   -0.0236796     0.7050827   -0.0132006    -0.0006282   -0.0036233 
   0.015353827     0.0034799    0.0011052     0.7169786   -0.0165711     0.7081092   -0.0153987     0.0034479   -0.0039388 
   0.015453852     0.0028715    0.0011113     0.7119347   -0.0154621     0.7083217   -0.0152589     0.0033494   -0.0014283 
   0.015553877     0.0019217    0.0007761     0.7016650   -0.0156172     0.7069497   -0.0149359     0.0015481    0.0034115 
   0.015653902     0.0032779    0.0007452     0.7075058   -0.0151643     0.7056667   -0.0148759     0.0027739    0.0008534 
