! 19-Feb-26 2:54:25 PM
! E:\VNA_MEASUREMENTS\RECBLOCK\3DBATT2.S2P
! CHANNEL.1
! TR.MEASUREMENT
! CORRECTED.DATA
# GHZ S RI R 50.0
! FREQ.GHZ         S11RE         S11IM         S21RE         S21IM         S12RE         S12IM         S22RE         S22IM         
!; PortSelection: Port_12
   0.000050000     0.9706814    0.6078252     1.2771530    1.1890460     0.4992637    0.5908530    -0.5436354    0.4408750 
   0.000150025     0.1682246    0.1801116     1.3709920   -2.7982210     0.7513145    0.1197454     0.9257320   -1.2073370 
   0.000250050     0.7792039   -0.1916713     0.1107071    0.6320387     1.1129220    0.0047373    -0.3670353    0.2422432 
   0.000350075    -0.0000707    0.0033350     0.7011619   -0.0031237     0.7082216    0.0043004     0.0005718   -0.0015163 
   0.000450100    -0.0008813   -0.0009009     0.7135395   -0.0004087     0.7089732    0.0047529     0.0067522    0.0008755 
   0.000550125     0.0026224   -0.0001001     0.7096892   -0.0199050     0.7018677   -0.0020228     0.0019304   -0.0088323 
   0.000650150     0.0003184   -0.0028600     0.7123164   -0.0210543     0.7093133   -0.0011761     0.0049010   -0.0099599 
   0.000750175    -0.0039395    0.0016701     0.6849750   -0.0027383     0.7097439   -0.0018204    -0.0085284   -0.0010055 
   0.000850200     0.0043233    0.0002220     0.7224813   -0.0039213     0.7084159   -0.0018893     0.0090148   -0.0016324 
   0.000950225     0.0024835    0.0005598     0.7039397    0.0098277     0.7074181   -0.0005276    -0.0002090    0.0060770 
   0.001050250     0.0017687   -0.0016404     0.6967606   -0.0231989     0.7055822   -0.0023315    -0.0039560   -0.0100288 
   0.001150275     0.0082358    0.0058644     0.7063955    0.0236256     0.7106768   -0.0007903     0.0023077    0.0119923 
   0.001250300     0.0037516   -0.0033824     0.7195913   -0.0051308     0.7075753   -0.0070314     0.0077386   -0.0020708 
   0.001350325     0.0000001   -0.0025116     0.7101925    0.0000574     0.6996139   -0.0051953     0.0027306    0.0007438 
   0.001450350     0.0013124   -0.0004021     0.7072189   -0.0086723     0.7054054    0.0009098     0.0010187   -0.0023949 
   0.001550375     0.0040585    0.0029776     0.6972269    0.0081640     0.7112575    0.0047205    -0.0017272    0.0059680 
   0.001650400     0.0015064   -0.0010747     0.6998321   -0.0041929     0.7094728   -0.0003353    -0.0003287   -0.0000993 
   0.001750425     0.0026974   -0.0006172     0.7054737   -0.0121550     0.7095588   -0.0003528     0.0012596   -0.0044725 
   0.001850450     0.0031097   -0.0013680     0.7121689   -0.0143021     0.7089664   -0.0015468     0.0031515   -0.0049166 
   0.001950475     0.0056993    0.0000359     0.7318147   -0.0011809     0.7058591    0.0003238     0.0133715   -0.0002359 
   0.002050500     0.0027312    0.0022059     0.7124777   -0.0034327     0.7076802   -0.0036427     0.0039294   -0.0009780 
   0.002150525     0.0047072   -0.0022199     0.7218504    0.0022065     0.7131625   -0.0036550     0.0107651    0.0012167 
   0.002250550     0.0035517    0.0008638     0.7149981   -0.0016398     0.7098784   -0.0003733     0.0056624   -0.0004028 
   0.002350575     0.0012707    0.0013657     0.7078037   -0.0001995     0.7059106   -0.0009261     0.0019219    0.0013349 
   0.002450600    -0.0005753   -0.0017026     0.6922588   -0.0066781     0.7084551   -0.0021940    -0.0050216   -0.0002382 
   0.002550625     0.0032289   -0.0003945     0.7223458    0.0122304     0.7064498   -0.0055473     0.0106485    0.0059083 
   0.002650650     0.0027203    0.0000454     0.7090944   -0.0010719     0.7102679   -0.0037622     0.0034920    0.0007829 
   0.002750675     0.0002722    0.0011361     0.7062538   -0.0034232     0.7066820    0.0022144     0.0022137    0.0003556 
   0.002850700     0.0035966    0.0001179     0.6920861    0.0001926     0.7102066    0.0015203    -0.0044250    0.0041406 
   0.002950725     0.0026432    0.0026643     0.6986520    0.0087079     0.7107471   -0.0014076     0.0000448    0.0074633 
   0.003050750     0.0028318    0.0001111     0.7058885   -0.0062704     0.7092484   -0.0036583     0.0018628   -0.0012041 
   0.003150775     0.0035418    0.0000618     0.7172163   -0.0057503     0.7089428   -0.0048698     0.0059000   -0.0016598 
   0.003250800     0.0029894    0.0010024     0.7090681   -0.0036392     0.7123523   -0.0036751     0.0037517    0.0001834 
   0.003350825     0.0003716    0.0005137     0.6917834   -0.0006161     0.7039049   -0.0083989    -0.0054098    0.0035682 
   0.003450850     0.0044385   -0.0002179     0.7190163   -0.0036885     0.7039317   -0.0052877     0.0071096   -0.0010670 
   0.003550875     0.0020784    0.0011761     0.7071792    0.0016751     0.7074702   -0.0092832     0.0022969    0.0020758 
   0.003650900     0.0030253   -0.0008996     0.7170525   -0.0242081     0.7070947   -0.0041264     0.0041393   -0.0100201 
   0.003750925     0.0012539   -0.0028167     0.7067421   -0.0247977     0.7054354   -0.0052487    -0.0011844   -0.0093932 
   0.003850950     0.0027387   -0.0007535     0.6971987   -0.0107601     0.7050353   -0.0056523    -0.0046100   -0.0014022 
   0.003950975     0.0004936    0.0021881     0.7012618    0.0092424     0.7069775   -0.0006421     0.0011818    0.0074449 
   0.004051001     0.0050585   -0.0018534     0.7076033   -0.0092632     0.7112288   -0.0044332     0.0020278   -0.0011187 
   0.004151026     0.0010680   -0.0016408     0.7004697   -0.0103111     0.7078391   -0.0061622    -0.0019713   -0.0012651 
   0.004251051     0.0033387   -0.0010917     0.7175555   -0.0192053     0.7110972   -0.0048966     0.0045073   -0.0072565 
   0.004351076     0.0014095   -0.0008688     0.7050164    0.0007287     0.7082830   -0.0053298     0.0014556    0.0035275 
   0.004451101     0.0036563   -0.0003989     0.7267419   -0.0119286     0.7120574   -0.0098975     0.0096608   -0.0066256 
   0.004551126     0.0003290    0.0012824     0.6983896   -0.0005103     0.7113234   -0.0006995    -0.0013788    0.0044539 
   0.004651151     0.0013858    0.0007867     0.6977183   -0.0017314     0.7049994   -0.0030822    -0.0022292    0.0034979 
   0.004751176     0.0016854    0.0006269     0.6998659   -0.0104255     0.7052168   -0.0023375    -0.0026504   -0.0006928 
   0.004851201     0.0046124    0.0018580     0.7136655    0.0119640     0.7079530   -0.0079730     0.0077219    0.0068232 
   0.004951226    -0.0000023    0.0014564     0.7094721    0.0024167     0.7105632   -0.0044734     0.0047734    0.0036102 
   0.005051251     0.0017731   -0.0004556     0.7163491   -0.0055597     0.7072311   -0.0029173     0.0056245   -0.0007670 
   0.005151276     0.0014170    0.0025377     0.7181944    0.0064579     0.7059712   -0.0024797     0.0082714    0.0043911 
   0.005251301     0.0027527   -0.0021405     0.6976557   -0.0108122     0.7060915   -0.0077077    -0.0040033    0.0001278 
   0.005351326     0.0021961   -0.0004153     0.7071145   -0.0003256     0.7076151   -0.0054432     0.0028429    0.0029254 
   0.005451351     0.0033976   -0.0000421     0.6989044   -0.0071195     0.7131875   -0.0072104    -0.0016905    0.0013928 
   0.005551376     0.0029093    0.0015925     0.7087048    0.0070683     0.7094611   -0.0099485     0.0052319    0.0051385 
   0.005651401     0.0023135    0.0013690     0.7032164    0.0006816     0.7038898   -0.0044035     0.0003579    0.0043824 
   0.005751426     0.0034903    0.0000454     0.7147084   -0.0082706     0.7098389   -0.0075049     0.0046096   -0.0016002 
   0.005851451     0.0032684   -0.0001367     0.7099491   -0.0058320     0.7087011   -0.0093535     0.0026497   -0.0002523 
   0.005951476     0.0028390    0.0007685     0.7065991   -0.0001930     0.7131158   -0.0052144     0.0032449    0.0035370 
   0.006051501     0.0030322   -0.0008413     0.7018095   -0.0037194     0.7063986   -0.0047751    -0.0006181    0.0031500 
   0.006151526     0.0010057    0.0006754     0.7068993   -0.0054948     0.7075254   -0.0050152     0.0018629    0.0011912 
   0.006251551    -0.0005972   -0.0006146     0.7056482   -0.0059485     0.7061740   -0.0069312     0.0007991    0.0011012 
   0.006351576     0.0042311    0.0010351     0.7135738   -0.0103091     0.7099610   -0.0049942     0.0035911   -0.0017228 
   0.006451601     0.0014514    0.0009412     0.7104715   -0.0108446     0.7089708   -0.0050236     0.0023034   -0.0016772 
   0.006551626     0.0017920   -0.0014307     0.7035638   -0.0126074     0.7065642   -0.0044235    -0.0010744   -0.0004987 
   0.006651651     0.0037842    0.0003865     0.7057670   -0.0145246     0.7108293   -0.0076677    -0.0005435   -0.0025042 
   0.006751676     0.0024918   -0.0002392     0.7032405   -0.0106263     0.7092933   -0.0078660    -0.0003500   -0.0001696 
   0.006851701     0.0018546    0.0001354     0.7041008   -0.0001798     0.7070408   -0.0075260     0.0021066    0.0037552 
   0.006951726     0.0026420    0.0004799     0.7062916   -0.0154520     0.7081873   -0.0053216    -0.0003625   -0.0021017 
   0.007051751     0.0037303    0.0005832     0.7172420   -0.0065219     0.7079896   -0.0050930     0.0055969   -0.0009662 
   0.007151776     0.0031370    0.0012696     0.7112637   -0.0066929     0.7108681   -0.0097640     0.0042888   -0.0001320 
   0.007251801     0.0030302    0.0010063     0.7167175   -0.0075169     0.7078947   -0.0047892     0.0054162   -0.0016789 
   0.007351826     0.0015617   -0.0001860     0.6944386   -0.0068644     0.7078258   -0.0080820    -0.0028226    0.0040333 
   0.007451851     0.0015687    0.0000920     0.7117350   -0.0068443     0.7074197   -0.0086463     0.0040130   -0.0002895 
   0.007551876     0.0019853   -0.0006840     0.7035823   -0.0114795     0.7070201   -0.0093130    -0.0004821    0.0003536 
   0.007651901     0.0017129    0.0024952     0.7121610    0.0008474     0.7080385   -0.0069637     0.0063787    0.0024591 
   0.007751926     0.0022705    0.0003370     0.7138562   -0.0025892     0.7079430   -0.0057849     0.0055987    0.0015508 
   0.007851951     0.0019857   -0.0001168     0.7080363   -0.0063531     0.7083641   -0.0084206     0.0024850    0.0012669 
   0.007951976     0.0027830    0.0013493     0.7073631    0.0055948     0.7070251   -0.0034940     0.0054511    0.0066764 
   0.008052001     0.0032739    0.0005479     0.7072826   -0.0068436     0.7090158   -0.0069451     0.0023850    0.0016978 
   0.008152026     0.0020814   -0.0000587     0.7081968   -0.0122040     0.7102126   -0.0085536     0.0012699   -0.0010547 
   0.008252051     0.0020178    0.0003418     0.7024111    0.0078878     0.7071205   -0.0130686     0.0048335    0.0077776 
   0.008352076     0.0024168    0.0005536     0.7062251   -0.0113840     0.7068421   -0.0092396     0.0005135    0.0001152 
   0.008452101     0.0033533    0.0016496     0.7162184   -0.0100622     0.7093512   -0.0109503     0.0053711   -0.0024627 
   0.008552126     0.0028781   -0.0009659     0.7093129   -0.0145354     0.7075460   -0.0096810     0.0011714   -0.0020325 
   0.008652151     0.0011029    0.0010724     0.7064583   -0.0054856     0.7041708   -0.0064813     0.0017751    0.0023157 
   0.008752176     0.0028949    0.0025490     0.7063454   -0.0010153     0.7107350   -0.0083192     0.0045846    0.0041718 
   0.008852201     0.0027281   -0.0004126     0.7044346   -0.0096679     0.7086174   -0.0110296     0.0010387    0.0014118 
   0.008952226     0.0017486   -0.0001873     0.7020799   -0.0119582     0.7078530   -0.0103186    -0.0007547    0.0010383 
   0.009052251     0.0033058   -0.0001252     0.7093212   -0.0057438     0.7082165   -0.0112664     0.0039346    0.0012080 
   0.009152276     0.0036924    0.0004456     0.7175388   -0.0109014     0.7081203   -0.0126699     0.0054122   -0.0034921 
   0.009252301     0.0020272   -0.0005312     0.7035445   -0.0054782     0.7087376   -0.0138724     0.0022252    0.0028165 
   0.009352326     0.0031602    0.0014096     0.7046485   -0.0124778     0.7083808   -0.0082419     0.0000186    0.0010663 
   0.009452351     0.0024036    0.0006972     0.7158595   -0.0139642     0.7105832   -0.0093715     0.0043722   -0.0033012 
   0.009552376     0.0026317    0.0002753     0.7068855   -0.0113551     0.7082484   -0.0096217     0.0014350    0.0003625 
   0.009652401     0.0035822    0.0014875     0.7117702   -0.0128656     0.7074539   -0.0085849     0.0028510   -0.0016479 
   0.009752426     0.0020348    0.0003374     0.7124788   -0.0087383     0.7061453   -0.0083815     0.0043866   -0.0007483 
   0.009852451     0.0037213    0.0014550     0.7182360   -0.0121919     0.7112075   -0.0097134     0.0055355   -0.0032859 
   0.009952476     0.0027529    0.0013063     0.7040380   -0.0075454     0.7087550   -0.0058769     0.0019982    0.0031727 
   0.010052501     0.0022402    0.0014651     0.7147162   -0.0024519     0.7058787   -0.0083716     0.0072077    0.0009141 
   0.010152526     0.0038868    0.0007190     0.7143873   -0.0046898     0.7067065   -0.0077581     0.0057456    0.0003278 
   0.010252551     0.0019121    0.0003084     0.7016597   -0.0012148     0.7060145   -0.0094041     0.0028377    0.0057304 
   0.010352576     0.0029567    0.0015934     0.7174288   -0.0085869     0.7115073   -0.0088364     0.0066954   -0.0017555 
   0.010452601     0.0031688    0.0002573     0.7062138   -0.0049284     0.7065535   -0.0107610     0.0037518    0.0026784 
   0.010552626     0.0041775    0.0011827     0.7163857   -0.0023287     0.7085385   -0.0133471     0.0079579    0.0000937 
   0.010652651     0.0028389   -0.0003624     0.7144017   -0.0119055     0.7061379   -0.0117416     0.0038952   -0.0023227 
   0.010752676     0.0018095    0.0003825     0.7080617   -0.0067429     0.7099972   -0.0097963     0.0039520    0.0018241 
   0.010852701     0.0035084    0.0007867     0.7043028   -0.0100410     0.7096618   -0.0097640     0.0018098    0.0021724 
   0.010952726     0.0037824    0.0004456     0.7049786   -0.0152716     0.7026033   -0.0111477    -0.0006155   -0.0000875 
   0.011052751     0.0033735    0.0016164     0.7117798   -0.0082926     0.7112246   -0.0090401     0.0044516    0.0001945 
   0.011152776     0.0029918    0.0014675     0.7147949   -0.0123851     0.7086735   -0.0096726     0.0044330   -0.0022258 
   0.011252801     0.0019427    0.0014534     0.7093235   -0.0112567     0.7062994   -0.0113330     0.0028017   -0.0001073 
   0.011352826     0.0021910    0.0000998     0.7048870   -0.0090008     0.7059240   -0.0124588     0.0025398    0.0022111 
   0.011452851     0.0022623    0.0007784     0.7133821   -0.0150902     0.7073984   -0.0112303     0.0027470   -0.0024972 
   0.011552876     0.0010877    0.0000637     0.7036383   -0.0092842     0.7055610   -0.0121036     0.0017496    0.0023865 
   0.011652901     0.0014810    0.0005437     0.7111381   -0.0082764     0.7073054   -0.0121942     0.0050394    0.0001181 
   0.011752926     0.0019307    0.0022728     0.7084921   -0.0098270     0.7086952   -0.0101184     0.0030934    0.0010997 
   0.011852951     0.0027557    0.0004407     0.7082487   -0.0176196     0.7056397   -0.0116535     0.0000435   -0.0012381 
   0.011952976     0.0025281    0.0000565     0.7112609   -0.0023394     0.7086201   -0.0103489     0.0066117    0.0019630 
   0.012053002     0.0038602   -0.0008473     0.7055458   -0.0161195     0.7117128   -0.0119736     0.0007283    0.0004641 
   0.012153027     0.0007382    0.0020868     0.7068857   -0.0078063     0.7078779   -0.0126171     0.0043655    0.0023724 
   0.012253052     0.0012658    0.0013685     0.7119339   -0.0118853     0.7073585   -0.0117022     0.0039097   -0.0006787 
   0.012353077     0.0038905    0.0000665     0.7099303   -0.0202033     0.7085013   -0.0129490     0.0002602   -0.0023885 
   0.012453102     0.0039954    0.0001777     0.7036147   -0.0200945     0.7092144   -0.0103315    -0.0020403    0.0006150 
   0.012553127     0.0043749    0.0004395     0.7146133   -0.0170534     0.7059785   -0.0140062     0.0023197   -0.0035703 
   0.012653152     0.0032784    0.0013558     0.7160640   -0.0104919     0.7053633   -0.0132584     0.0052754   -0.0019658 
   0.012753177     0.0024191    0.0011931     0.7046615   -0.0045700     0.7084852   -0.0131907     0.0048430    0.0041417 
   0.012853202     0.0018788    0.0001857     0.7048459   -0.0174281     0.7050323   -0.0141121    -0.0000594    0.0000607 
   0.012953227     0.0030751   -0.0000403     0.7063058   -0.0067148     0.7083514   -0.0128497     0.0042452    0.0026006 
   0.013053252     0.0040073   -0.0001434     0.7152856   -0.0140425     0.7074414   -0.0134721     0.0043493   -0.0025279 
   0.013153277     0.0031364   -0.0003237     0.7079525   -0.0102744     0.7050573   -0.0118570     0.0030448    0.0013476 
   0.013253302     0.0025787   -0.0002158     0.7047657   -0.0133801     0.7090366   -0.0111913     0.0014497    0.0018358 
   0.013353327     0.0022677    0.0009248     0.7095593   -0.0158408     0.7084085   -0.0130932     0.0020492   -0.0007354 
   0.013453352     0.0032020    0.0008756     0.7115721   -0.0141994     0.7082677   -0.0140529     0.0027479   -0.0010726 
   0.013553377     0.0034542    0.0004701     0.7138870   -0.0232909     0.7094300   -0.0103434    -0.0001476   -0.0037860 
   0.013653402     0.0031934   -0.0001996     0.7030223   -0.0179960     0.7072971   -0.0147058    -0.0006532    0.0016588 
   0.013753427     0.0021376    0.0003514     0.7060974   -0.0109511     0.7072300   -0.0143710     0.0031176    0.0016013 
   0.013853452     0.0042196   -0.0000511     0.7119007   -0.0131462     0.7104160   -0.0150393     0.0036074   -0.0006044 
   0.013953477     0.0035803    0.0000978     0.7115935   -0.0273357     0.7089438   -0.0133897    -0.0021450   -0.0038402 
   0.014053502     0.0026779    0.0011633     0.7144973   -0.0147086     0.7061301   -0.0130626     0.0034743   -0.0023863 
   0.014153527     0.0023925    0.0017882     0.7108968   -0.0101730     0.7087724   -0.0141436     0.0048689    0.0001631 
   0.014253552     0.0019353   -0.0006589     0.7122497   -0.0110732     0.7066135   -0.0158673     0.0048128   -0.0006084 
   0.014353577     0.0018012    0.0000786     0.7031414   -0.0091378     0.7070516   -0.0124845     0.0034311    0.0037732 
   0.014453602     0.0018663   -0.0012604     0.7023091   -0.0044743     0.7065418   -0.0144191     0.0052179    0.0053186 
   0.014553627     0.0016761    0.0009222     0.7084125   -0.0045373     0.7056104   -0.0103320     0.0063433    0.0020552 
   0.014653652     0.0025872    0.0005567     0.7032332   -0.0050119     0.7100312   -0.0136041     0.0058572    0.0046247 
   0.014753677     0.0026000    0.0014490     0.7021002   -0.0088992     0.7083259   -0.0146518     0.0038641    0.0040183 
   0.014853702     0.0017300    0.0007626     0.7091511   -0.0123796     0.7089767   -0.0116084     0.0031763    0.0007577 
   0.014953727     0.0031340    0.0010050     0.7097957   -0.0150280     0.7091411   -0.0146787     0.0028834   -0.0000162 
   0.015053752     0.0019656    0.0015426     0.7069085   -0.0145563     0.7076205   -0.0115362     0.0023674    0.0013815 
   0.015153777     0.0031905    0.0005981     0.7151055   -0.0077199     0.7105958   -0.0150415     0.0072045   -0.0013176 
   0.015253802     0.0031411    0.0021982     0.7143907   -0.0219648     0.7053157   -0.0161611     0.0005034   -0.0042560 
   0.015353827     0.0030506    0.0012464     0.7166773   -0.0130184     0.7077638   -0.0150669     0.0046208   -0.0032783 
   0.015453852     0.0017544    0.0006644     0.7058237   -0.0102427     0.7089989   -0.0140351     0.0043417    0.0026893 
   0.015553877     0.0032346   -0.0006759     0.7097699   -0.0170510     0.7056633   -0.0182874     0.0024277   -0.0008139 
   0.015653902     0.0027572    0.0010389     0.7086400   -0.0096131     0.7058517   -0.0141777     0.0051418    0.0012592 
