! 19-Feb-26 1:30:10 PM
! E:\VNA_MEASUREMENTS\RECBLOCK\3DBATTREV0.S2P
! CHANNEL.1
! TR.MEASUREMENT
! CORRECTED.DATA
# GHZ S RI R 50.0
! FREQ.GHZ         S11RE         S11IM         S21RE         S21IM         S12RE         S12IM         S22RE         S22IM         
!; PortSelection: Port_12
   0.000050000     0.1779192    0.8443496     1.0566620    2.7059090     0.2967589    0.1787903    -1.3977750    0.4760235 
   0.000150025     0.3291526    0.4759522    -0.9529553   -1.5685530     0.7720337    0.3016872    -0.4615208   -1.1354740 
   0.000250050    -0.3620692    2.3421720     1.6283050   -3.8472060     0.2589935    1.1132670     0.8959866   -1.7908850 
   0.000350075     0.0071524   -0.0010159     0.7239034    0.0153501     0.7114308   -0.0007868     0.0093184    0.0078110 
   0.000450100     0.0005812   -0.0004794     0.7138928   -0.0013233     0.7042075    0.0041994     0.0053486    0.0005763 
   0.000550125     0.0042132    0.0008682     0.7090703   -0.0037669     0.7078301   -0.0009364     0.0022427   -0.0014479 
   0.000650150    -0.0023630    0.0060578     0.6809924   -0.0022925     0.7097545    0.0084781    -0.0094572   -0.0004552 
   0.000750175    -0.0008553   -0.0016400     0.6926636   -0.0034071     0.7142506   -0.0026146    -0.0049812   -0.0019144 
   0.000850200     0.0055455    0.0005467     0.7374024    0.0076580     0.7153661   -0.0031124     0.0173760    0.0032779 
   0.000950225     0.0021568   -0.0013585     0.7154426   -0.0051567     0.7039830    0.0018322     0.0056711   -0.0005522 
   0.001050250    -0.0004882    0.0023740     0.6659948   -0.0094981     0.7053769   -0.0004916    -0.0179585   -0.0029315 
   0.001150275     0.0057698    0.0024258     0.7248874    0.0284908     0.7090648   -0.0058644     0.0110332    0.0135841 
   0.001250300    -0.0003850   -0.0006383     0.6883430    0.0017547     0.7065319   -0.0098744    -0.0073985    0.0014297 
   0.001350325    -0.0030597    0.0017589     0.6981177   -0.0014552     0.7002009   -0.0050821    -0.0023691    0.0005442 
   0.001450350     0.0052573    0.0017960     0.7194220    0.0098012     0.7109988   -0.0000886     0.0088063    0.0054958 
   0.001550375     0.0036666    0.0008613     0.6914217   -0.0024114     0.7092435    0.0031399    -0.0050192    0.0020026 
   0.001650400     0.0020015   -0.0014904     0.6975268    0.0023182     0.7104566   -0.0010380    -0.0013021    0.0027966 
   0.001750425    -0.0024895   -0.0023130     0.6950900   -0.0266525     0.7077090    0.0011308    -0.0042826   -0.0111092 
   0.001850450     0.0010262    0.0008079     0.7092956   -0.0101173     0.7051776   -0.0023492     0.0020596   -0.0036700 
   0.001950475     0.0049868    0.0033392     0.7208945    0.0085541     0.7069927   -0.0003142     0.0089285    0.0049255 
   0.002050500     0.0009687    0.0030684     0.7050734    0.0040966     0.7048649   -0.0004566     0.0015517    0.0037126 
   0.002150525     0.0036103   -0.0000896     0.7145671   -0.0048274     0.7069182   -0.0048697     0.0053782   -0.0020456 
   0.002250550     0.0020735   -0.0000288     0.7175206    0.0013503     0.7115501    0.0001825     0.0077655    0.0009354 
   0.002350575     0.0012100   -0.0009227     0.7039223   -0.0178284     0.7050582   -0.0005395    -0.0003073   -0.0061385 
   0.002450600     0.0009619   -0.0040598     0.7009197   -0.0091552     0.7113822   -0.0032809    -0.0008255   -0.0018900 
   0.002550625     0.0011515   -0.0015723     0.6979772   -0.0033876     0.7086959   -0.0064466    -0.0018182    0.0006355 
   0.002650650     0.0025340   -0.0037056     0.7167750   -0.0116857     0.7091147   -0.0041185     0.0061327   -0.0052607 
   0.002750675     0.0025143    0.0005342     0.7222135   -0.0049575     0.7128450    0.0028686     0.0101063   -0.0017918 
   0.002850700    -0.0003285   -0.0021384     0.6785006    0.0013642     0.7058296   -0.0001234    -0.0116265    0.0062429 
   0.002950725    -0.0001687    0.0002463     0.7097856   -0.0037487     0.7107566   -0.0004737     0.0039603   -0.0000287 
   0.003050750     0.0019629   -0.0021916     0.7001984   -0.0141616     0.7122264   -0.0022633    -0.0015980   -0.0039885 
   0.003150775     0.0025111    0.0012842     0.7167559   -0.0072190     0.7081661   -0.0048381     0.0058714   -0.0026346 
   0.003250800     0.0041385    0.0006280     0.7078575   -0.0029568     0.7115244   -0.0047519     0.0023981    0.0004158 
   0.003350825     0.0016684   -0.0017301     0.6982212   -0.0054474     0.7082028   -0.0079940    -0.0020483    0.0003189 
   0.003450850     0.0016451   -0.0009118     0.7003037   -0.0033459     0.7067412   -0.0068359    -0.0007422    0.0009797 
   0.003550875     0.0009354   -0.0012089     0.7053196   -0.0093088     0.7064933   -0.0086338     0.0000396   -0.0023012 
   0.003650900     0.0024650    0.0002303     0.7085114   -0.0178213     0.7049230   -0.0017511     0.0006827   -0.0058749 
   0.003750925     0.0030283   -0.0016839     0.7112413   -0.0137761     0.7036768   -0.0014814     0.0022146   -0.0043195 
   0.003850950     0.0039186   -0.0027202     0.7011062   -0.0194678     0.7067357   -0.0055936    -0.0034796   -0.0059008 
   0.003950975    -0.0018846    0.0021191     0.6879525    0.0035720     0.7051495   -0.0001220    -0.0053825    0.0071226 
   0.004051001     0.0055437   -0.0002207     0.7087228   -0.0059908     0.7121243   -0.0038187     0.0024960   -0.0002673 
   0.004151026     0.0012954   -0.0014491     0.7084493   -0.0149764     0.7054358   -0.0017375     0.0004022   -0.0041311 
   0.004251051     0.0016697    0.0001448     0.7116424   -0.0046654     0.7082179   -0.0032734     0.0040527    0.0001002 
   0.004351076     0.0024529    0.0002133     0.7044383   -0.0004448     0.7106323   -0.0024402     0.0009222    0.0037733 
   0.004451101     0.0033382   -0.0008068     0.7152770   -0.0121289     0.7084091   -0.0046526     0.0040388   -0.0039601 
   0.004551126     0.0013782   -0.0004078     0.7038205   -0.0032466     0.7113599   -0.0029603     0.0008913    0.0024806 
   0.004651151     0.0047667   -0.0000102     0.7134310   -0.0132884     0.7091281   -0.0027965     0.0029519   -0.0039472 
   0.004751176     0.0038658    0.0022912     0.7128196   -0.0037645     0.7057346   -0.0040787     0.0042945   -0.0001661 
   0.004851201     0.0032588    0.0040803     0.7145914    0.0096784     0.7061098   -0.0041930     0.0077124    0.0061817 
   0.004951226     0.0009342   -0.0011175     0.7100841   -0.0160476     0.7068871   -0.0055743     0.0006808   -0.0051739 
   0.005051251     0.0038371   -0.0003016     0.7240102   -0.0064651     0.7088599   -0.0060770     0.0089045   -0.0030773 
   0.005151276     0.0020542    0.0032589     0.7153712    0.0052905     0.7076098   -0.0026170     0.0069091    0.0038958 
   0.005251301     0.0051372    0.0000586     0.7196813   -0.0076492     0.7096163   -0.0081475     0.0072652   -0.0030994 
   0.005351326     0.0034780    0.0013420     0.7123598    0.0055937     0.7100069   -0.0063824     0.0061351    0.0049282 
   0.005451351     0.0043872   -0.0002751     0.7000508   -0.0166918     0.7099452   -0.0051373    -0.0038443   -0.0027989 
   0.005551376     0.0011206    0.0015212     0.7021854    0.0041625     0.7074058   -0.0056119     0.0014862    0.0056562 
   0.005651401     0.0025331    0.0019041     0.7118204    0.0009328     0.7075688   -0.0054273     0.0049079    0.0024367 
   0.005751426     0.0036673    0.0003383     0.7148829   -0.0073685     0.7083673   -0.0073800     0.0043555   -0.0015140 
   0.005851451     0.0046407   -0.0012492     0.7070458   -0.0081243     0.7058903   -0.0064477     0.0002193   -0.0000559 
   0.005951476     0.0011223    0.0016820     0.7077507    0.0088395     0.7093145   -0.0060288     0.0048525    0.0064870 
   0.006051501     0.0009386   -0.0007950     0.6962437   -0.0039918     0.7076071   -0.0038933    -0.0029875    0.0047181 
   0.006151526     0.0019384   -0.0001931     0.7072027   -0.0058350     0.7082330   -0.0037192     0.0020277    0.0008796 
   0.006251551     0.0014408   -0.0008676     0.7053405   -0.0096651     0.7096849   -0.0057979     0.0005546    0.0002368 
   0.006351576     0.0018376    0.0012176     0.7069929   -0.0058130     0.7087052   -0.0064494     0.0024012    0.0010153 
   0.006451601     0.0024971    0.0000758     0.7103141   -0.0125502     0.7084008   -0.0050626     0.0019183   -0.0021217 
   0.006551626     0.0016021    0.0000971     0.7123067   -0.0006113     0.7086940   -0.0060855     0.0059472    0.0020215 
   0.006651651     0.0038967   -0.0011069     0.7096492   -0.0180950     0.7101562   -0.0102939     0.0007542   -0.0050902 
   0.006751676     0.0024181    0.0018103     0.7129527   -0.0039743     0.7098367   -0.0032051     0.0047871    0.0010203 
   0.006851701     0.0023428    0.0010439     0.7142443    0.0030781     0.7094391   -0.0046205     0.0070376    0.0029467 
   0.006951726     0.0045029    0.0004029     0.7114990   -0.0190418     0.7094090   -0.0073931     0.0008182   -0.0050942 
   0.007051751     0.0028703    0.0002053     0.7167937   -0.0035204     0.7069114   -0.0062674     0.0064764    0.0000236 
   0.007151776     0.0016088    0.0018974     0.7073112   -0.0012430     0.7109828   -0.0063927     0.0031351    0.0035659 
   0.007251801     0.0023952    0.0011190     0.7166157   -0.0055417     0.7069727   -0.0039821     0.0058577   -0.0009729 
   0.007351826     0.0011210    0.0028124     0.6986760    0.0036303     0.7081357   -0.0023068     0.0012918    0.0079611 
   0.007451851     0.0019063    0.0013486     0.7189741    0.0010257     0.7071117   -0.0060343     0.0084139    0.0010813 
   0.007551876     0.0024112   -0.0002789     0.7078060   -0.0048079     0.7067238   -0.0038390     0.0022516    0.0021867 
   0.007651901     0.0024325    0.0001416     0.7067861   -0.0147188     0.7050710   -0.0074956    -0.0004928   -0.0018688 
   0.007751926     0.0013159   -0.0004419     0.7069926   -0.0010027     0.7083912   -0.0066148     0.0034666    0.0039103 
   0.007851951     0.0015778    0.0005349     0.7164204   -0.0167275     0.7099022   -0.0087342     0.0033031   -0.0049268 
   0.007951976     0.0021368    0.0003439     0.7110745   -0.0005096     0.7059759   -0.0073717     0.0054648    0.0026178 
   0.008052001     0.0019709   -0.0009993     0.7001773   -0.0087556     0.7085034   -0.0085835    -0.0007480    0.0026869 
   0.008152026     0.0010402   -0.0015783     0.7008021   -0.0160727     0.7082923   -0.0099507    -0.0025545   -0.0002833 
   0.008252051     0.0030311    0.0016016     0.7107381    0.0017648     0.7098828   -0.0100580     0.0063589    0.0037164 
   0.008352076     0.0022190    0.0015543     0.7140296    0.0013040     0.7079860   -0.0078337     0.0069774    0.0027939 
   0.008452101     0.0022036    0.0015418     0.7139221   -0.0066952     0.7094346   -0.0086992     0.0054438   -0.0005281 
   0.008552126     0.0026719   -0.0001861     0.7219352   -0.0053565     0.7096496   -0.0073937     0.0084859   -0.0018620 
   0.008652151     0.0014384   -0.0000498     0.7050237   -0.0075725     0.7044185   -0.0095137     0.0009868    0.0015031 
   0.008752176     0.0033282   -0.0007060     0.7084460   -0.0180796     0.7080275   -0.0091119     0.0004111   -0.0029279 
   0.008852201     0.0028232   -0.0010280     0.7014053   -0.0162816     0.7096053   -0.0087265    -0.0024129    0.0000604 
   0.008952226     0.0023617    0.0010641     0.7118336   -0.0082498     0.7061138   -0.0068224     0.0035107    0.0001843 
   0.009052251     0.0014368    0.0012824     0.7095205    0.0003407     0.7077993   -0.0096678     0.0054414    0.0035523 
   0.009152276     0.0023179    0.0014612     0.7119866   -0.0053372     0.7078017   -0.0088180     0.0050036    0.0008246 
   0.009252301     0.0013303    0.0011032     0.7076486   -0.0016525     0.7116790   -0.0096913     0.0049533    0.0036878 
   0.009352326     0.0026415    0.0024563     0.7095548   -0.0017791     0.7085462   -0.0093457     0.0049541    0.0029461 
   0.009452351     0.0037776    0.0009142     0.7174130   -0.0156283     0.7098488   -0.0097631     0.0040286   -0.0044011 
   0.009552376     0.0027164   -0.0002057     0.7085433   -0.0132951     0.7109861   -0.0077774     0.0014481   -0.0004274 
   0.009652401     0.0030219    0.0006250     0.7073779   -0.0114812     0.7083346   -0.0109089     0.0021939    0.0001841 
   0.009752426     0.0021722    0.0017350     0.7132328   -0.0071651     0.7059838   -0.0081560     0.0052228   -0.0001697 
   0.009852451     0.0029359    0.0004508     0.7097965   -0.0106564     0.7100103   -0.0097143     0.0030723    0.0000781 
   0.009952476     0.0012758    0.0011977     0.7033905   -0.0026637     0.7078194   -0.0057648     0.0038082    0.0050536 
   0.010052501     0.0026789    0.0006158     0.7099039   -0.0100320     0.7060681   -0.0080738     0.0026605    0.0002715 
   0.010152526     0.0033198    0.0000942     0.7093091   -0.0058960     0.7059984   -0.0087751     0.0040090    0.0013159 
   0.010252551     0.0017196    0.0023449     0.7093804    0.0003086     0.7066751   -0.0083854     0.0062025    0.0031784 
   0.010352576     0.0026801    0.0009726     0.7143681   -0.0085765     0.7092768   -0.0116552     0.0053850   -0.0008286 
   0.010452601     0.0021504    0.0000138     0.7055585   -0.0043119     0.7089183   -0.0092131     0.0040550    0.0037138 
   0.010552626     0.0028083    0.0021733     0.7128804    0.0003450     0.7071711   -0.0118484     0.0078533    0.0020961 
   0.010652651     0.0010354    0.0001703     0.7038474   -0.0057286     0.7063837   -0.0083351     0.0024209    0.0037617 
   0.010752676     0.0022519    0.0009848     0.7068015   -0.0039250     0.7077922   -0.0107270     0.0046229    0.0029863 
   0.010852701     0.0026154    0.0024749     0.7135049   -0.0047353     0.7073181   -0.0083930     0.0061021    0.0005126 
   0.010952726     0.0012419   -0.0004850     0.6993933   -0.0089984     0.7036403   -0.0121819     0.0002544    0.0038212 
   0.011052751     0.0032103   -0.0000016     0.7087895   -0.0121966     0.7097363   -0.0107072     0.0023221    0.0000201 
   0.011152776     0.0022969   -0.0001552     0.7122278   -0.0101309     0.7087506   -0.0103645     0.0040478   -0.0005443 
   0.011252801     0.0018023    0.0011244     0.7049676   -0.0051257     0.7066501   -0.0108270     0.0040725    0.0036083 
   0.011352826     0.0016108   -0.0004341     0.6986178   -0.0091340     0.7061495   -0.0092729     0.0000309    0.0047064 
   0.011452851     0.0015224    0.0003332     0.7141519   -0.0173849     0.7063234   -0.0125212     0.0020355   -0.0036825 
   0.011552876     0.0024119    0.0015469     0.7107924   -0.0124312     0.7088593   -0.0127674     0.0030527   -0.0008833 
   0.011652901     0.0035500    0.0007422     0.7161739   -0.0077913     0.7077537   -0.0114424     0.0063158   -0.0013254 
   0.011752926     0.0030848    0.0026784     0.7193362   -0.0109169     0.7085057   -0.0102016     0.0058900   -0.0031573 
   0.011852951     0.0021754    0.0002464     0.7058887   -0.0149832     0.7051300   -0.0119820     0.0003735    0.0001742 
   0.011952976     0.0008220    0.0002158     0.7099512   -0.0028764     0.7085248   -0.0114184     0.0059965    0.0023541 
   0.012053002     0.0016852   -0.0005030     0.7062748   -0.0132810     0.7100467   -0.0109880     0.0018392    0.0010285 
   0.012153027     0.0021990    0.0000816     0.7012722   -0.0144901     0.7079014   -0.0121491    -0.0004252    0.0025471 
   0.012253052     0.0005402    0.0001128     0.7058791   -0.0117759     0.7066892   -0.0134083     0.0022206    0.0009241 
   0.012353077     0.0008375   -0.0002071     0.7040482   -0.0091307     0.7086037   -0.0143576     0.0031045    0.0024894 
   0.012453102     0.0024520    0.0009986     0.7044278   -0.0152847     0.7103972   -0.0136718     0.0008821    0.0013029 
   0.012553127     0.0033966    0.0011960     0.7117568   -0.0142744     0.7052760   -0.0126727     0.0025356   -0.0015819 
   0.012653152     0.0025545    0.0015874     0.7102648   -0.0051688     0.7045656   -0.0131967     0.0061399    0.0016094 
   0.012753177     0.0032655    0.0011055     0.7137954   -0.0120730     0.7102252   -0.0128338     0.0044889   -0.0011817 
   0.012853202     0.0015454    0.0003423     0.7103219   -0.0183158     0.7044387   -0.0117503     0.0010210   -0.0023115 
   0.012953227     0.0020477   -0.0009379     0.7028085   -0.0068620     0.7086406   -0.0116687     0.0034038    0.0043483 
   0.013053252     0.0032558    0.0007549     0.7176874   -0.0085972     0.7077631   -0.0118013     0.0066157   -0.0020140 
   0.013153277     0.0022091   -0.0012186     0.7090884   -0.0177801     0.7069494   -0.0116938     0.0006615   -0.0007050 
   0.013253302     0.0009773    0.0012462     0.7055378   -0.0112358     0.7089763   -0.0101872     0.0024969    0.0021235 
   0.013353327     0.0021139   -0.0003109     0.7050960   -0.0150652     0.7066100   -0.0148115     0.0011481    0.0011897 
   0.013453352     0.0032832    0.0001735     0.7115189   -0.0196146     0.7091122   -0.0131842     0.0009623   -0.0024485 
   0.013553377     0.0023009    0.0001596     0.7114524   -0.0232626     0.7085646   -0.0097972    -0.0008102   -0.0028373 
   0.013653402     0.0036439    0.0008124     0.7122647   -0.0163310     0.7071065   -0.0134113     0.0023039   -0.0014414 
   0.013753427     0.0030102    0.0017425     0.7076718   -0.0095626     0.7079674   -0.0153891     0.0041773    0.0011804 
   0.013853452     0.0035073   -0.0006849     0.7084974   -0.0100646     0.7097990   -0.0160307     0.0042727    0.0013691 
   0.013953477     0.0021542    0.0009555     0.7044826   -0.0208007     0.7086734   -0.0122498    -0.0009805    0.0006038 
   0.014053502     0.0025965    0.0002463     0.7105708   -0.0134985     0.7082983   -0.0120573     0.0032879   -0.0004673 
   0.014153527     0.0024736    0.0020553     0.7168454   -0.0079677     0.7084552   -0.0135134     0.0070041   -0.0014981 
   0.014253552     0.0025783    0.0009330     0.7162121   -0.0119324     0.7083915   -0.0146640     0.0054915   -0.0021764 
   0.014353577     0.0015005    0.0008990     0.7046088   -0.0086842     0.7071521   -0.0139101     0.0041866    0.0028665 
   0.014453602     0.0027219    0.0010841     0.7107304   -0.0116905     0.7071975   -0.0145881     0.0040879   -0.0000605 
   0.014553627     0.0017125   -0.0006731     0.7036924   -0.0170037     0.7048123   -0.0125515     0.0002390    0.0013744 
   0.014653652     0.0042540    0.0011933     0.7154024   -0.0071659     0.7102732   -0.0139939     0.0072162   -0.0006780 
   0.014753677     0.0010884    0.0005177     0.6991937   -0.0103391     0.7075013   -0.0130527     0.0025751    0.0052122 
   0.014853702     0.0022614    0.0004317     0.7082017   -0.0111735     0.7076537   -0.0120540     0.0033827    0.0014975 
   0.014953727     0.0030882   -0.0006047     0.7059438   -0.0220012     0.7074106   -0.0153945    -0.0010510   -0.0002005 
   0.015053752     0.0032759    0.0004067     0.7103144   -0.0198580     0.7055633   -0.0117027     0.0006370   -0.0010449 
   0.015153777     0.0015984   -0.0002846     0.7061646   -0.0078623     0.7094470   -0.0147085     0.0052993    0.0025691 
   0.015253802     0.0027028    0.0008231     0.7195460   -0.0197825     0.7058833   -0.0142076     0.0023109   -0.0057853 
   0.015353827     0.0030237    0.0002669     0.7144676   -0.0148994     0.7085306   -0.0150746     0.0037820   -0.0023697 
   0.015453852     0.0032599    0.0008462     0.7141662   -0.0175164     0.7093671   -0.0152787     0.0026063   -0.0024600 
   0.015553877     0.0018148   -0.0011349     0.7033777   -0.0176105     0.7068641   -0.0171412     0.0008712    0.0023634 
   0.015653902     0.0037212    0.0001868     0.7100180   -0.0196597     0.7068992   -0.0168436     0.0007685   -0.0011609 
