! 19-Feb-26 2:58:38 PM
! E:\VNA_MEASUREMENTS\RECBLOCK\3DBATTREV2.S2P
! CHANNEL.1
! TR.MEASUREMENT
! CORRECTED.DATA
# GHZ S RI R 50.0
! FREQ.GHZ         S11RE         S11IM         S21RE         S21IM         S12RE         S12IM         S22RE         S22IM         
!; PortSelection: Port_12
   0.000050000    -1.3445770    0.4849552    -1.1331080   -1.7964630     0.2992351   -0.6884370     0.7288975   -1.2344370 
   0.000150025     1.1123820    1.5115800     2.6137450    0.6112093     0.9130352    0.9728123     0.7851933    0.7121783 
   0.000250050     1.1730700    0.4330058    -0.2019106   -0.5561250     1.2365510    0.3388954    -0.3901698   -0.3757590 
   0.000350075     0.0021202   -0.0022186     0.7168790   -0.0058750     0.7082339   -0.0008605     0.0064762   -0.0022374 
   0.000450100    -0.0024637    0.0022635     0.7123671    0.0048637     0.7032191    0.0030247     0.0040364    0.0032460 
   0.000550125     0.0055399    0.0005118     0.7177747   -0.0137312     0.7102373    0.0004393     0.0074078   -0.0054332 
   0.000650150    -0.0020995    0.0028040     0.6922350   -0.0052323     0.7073156    0.0016232    -0.0050076   -0.0023634 
   0.000750175    -0.0021164    0.0028751     0.6871929    0.0131899     0.7102244   -0.0060855    -0.0084865    0.0057327 
   0.000850200     0.0080446   -0.0025140     0.7233279   -0.0029576     0.7190043    0.0001399     0.0117058   -0.0008432 
   0.000950225     0.0064593    0.0009290     0.7210339    0.0034727     0.7063943   -0.0027796     0.0083355    0.0032128 
   0.001050250     0.0035387   -0.0006664     0.6963954   -0.0115996     0.7058675   -0.0019675    -0.0039639   -0.0046920 
   0.001150275     0.0020384    0.0025192     0.7003635   -0.0071809     0.7046221   -0.0032516    -0.0016774   -0.0028466 
   0.001250300    -0.0025009    0.0030632     0.6832513    0.0034750     0.6999602    0.0005087    -0.0097838    0.0038256 
   0.001350325    -0.0019957    0.0025242     0.7044003    0.0067856     0.7019821   -0.0023248     0.0013046    0.0048016 
   0.001450350     0.0033500    0.0008519     0.7228451    0.0052126     0.7113023   -0.0033321     0.0098809    0.0033615 
   0.001550375     0.0008750    0.0013967     0.6869261    0.0027498     0.7075126    0.0024089    -0.0071799    0.0042788 
   0.001650400     0.0055958   -0.0023834     0.7089282    0.0052454     0.7128947   -0.0024399     0.0037386    0.0035917 
   0.001750425     0.0035335   -0.0042283     0.7232162   -0.0260784     0.7098450   -0.0013714     0.0093157   -0.0119958 
   0.001850450     0.0021483    0.0016516     0.7061114   -0.0116797     0.7084531   -0.0051940     0.0013779   -0.0041581 
   0.001950475     0.0044122    0.0011455     0.7225185    0.0058195     0.7097761   -0.0010631     0.0104941    0.0028003 
   0.002050500     0.0016516   -0.0028193     0.7104978   -0.0141966     0.7103549   -0.0005877     0.0037195   -0.0057342 
   0.002150525     0.0027420    0.0022771     0.7097756    0.0063234     0.7087321   -0.0028458     0.0048151    0.0047607 
   0.002250550     0.0029459    0.0010705     0.7151693    0.0052053     0.7115836    0.0005266     0.0066602    0.0038171 
   0.002350575     0.0028538    0.0017477     0.7157949   -0.0076803     0.7078651   -0.0017333     0.0061074   -0.0020159 
   0.002450600     0.0010680    0.0002051     0.6918617    0.0001746     0.7091284   -0.0034560    -0.0044443    0.0026155 
   0.002550625     0.0035946   -0.0017141     0.7163391    0.0088884     0.7123579   -0.0039529     0.0084337    0.0058724 
   0.002650650     0.0036344   -0.0002371     0.7190964   -0.0151375     0.7072012   -0.0014141     0.0067387   -0.0062626 
   0.002750675    -0.0004939   -0.0020182     0.6897928   -0.0149109     0.7086484   -0.0012690    -0.0064726   -0.0034765 
   0.002850700     0.0033811   -0.0018863     0.6978438   -0.0034127     0.7053951   -0.0039892    -0.0033460    0.0014095 
   0.002950725     0.0025437   -0.0001072     0.7253491   -0.0046614     0.7097088   -0.0005930     0.0109143   -0.0014002 
   0.003050750     0.0030097   -0.0024356     0.7088438   -0.0128335     0.7122760    0.0004425     0.0023812   -0.0033642 
   0.003150775     0.0027294    0.0010225     0.7074214   -0.0042041     0.7089661   -0.0057814     0.0020480   -0.0001843 
   0.003250800     0.0044367    0.0007986     0.7124776    0.0010067     0.7104816   -0.0039879     0.0051067    0.0016009 
   0.003350825     0.0036694   -0.0021541     0.7079805   -0.0135956     0.7041444   -0.0090743     0.0009690   -0.0041448 
   0.003450850     0.0017339   -0.0019892     0.7097714   -0.0276172     0.7016243   -0.0091834    -0.0003305   -0.0117084 
   0.003550875    -0.0003484    0.0022838     0.7060221    0.0048892     0.7017544   -0.0081537     0.0019863    0.0037842 
   0.003650900     0.0017474   -0.0000327     0.7146528   -0.0216514     0.7083143   -0.0038801     0.0035585   -0.0090776 
   0.003750925     0.0028927   -0.0000995     0.7157503   -0.0096365     0.7051167   -0.0038874     0.0051255   -0.0032826 
   0.003850950     0.0038862   -0.0007516     0.7019596   -0.0136799     0.7060499   -0.0039312    -0.0025494   -0.0031503 
   0.003950975     0.0007585    0.0006625     0.7002673    0.0045578     0.7080393   -0.0052303     0.0008627    0.0050722 
   0.004051001     0.0031544    0.0021060     0.7044224    0.0158435     0.7073731   -0.0014612     0.0039747    0.0109819 
   0.004151026     0.0024829    0.0008525     0.6996415   -0.0074853     0.7110686   -0.0055064    -0.0014205    0.0003986 
   0.004251051     0.0014775   -0.0006855     0.7119806   -0.0010590     0.7128987   -0.0052122     0.0054162    0.0019631 
   0.004351076     0.0008145   -0.0009907     0.7041741   -0.0007431     0.7079185   -0.0027458     0.0007588    0.0034475 
   0.004451101     0.0037563   -0.0003867     0.7115552   -0.0125654     0.7127676   -0.0068549     0.0025786   -0.0040802 
   0.004551126     0.0012859   -0.0014791     0.6969696   -0.0148018     0.7090178   -0.0051249    -0.0043337   -0.0023736 
   0.004651151     0.0008701    0.0000280     0.7004025   -0.0047099     0.7069253   -0.0069170    -0.0004173    0.0010478 
   0.004751176     0.0030401   -0.0004064     0.7079131   -0.0158099     0.7037758   -0.0004479     0.0001128   -0.0038661 
   0.004851201     0.0038569    0.0008964     0.7139964    0.0047324     0.7048693   -0.0055079     0.0066491    0.0038732 
   0.004951226     0.0017335    0.0000589     0.7085615   -0.0096869     0.7104551   -0.0064104     0.0014715   -0.0018446 
   0.005051251     0.0010627    0.0000099     0.7121537   -0.0061810     0.7067008   -0.0023534     0.0039401    0.0001695 
   0.005151276     0.0022174   -0.0003089     0.7226692   -0.0037885     0.7089776   -0.0048233     0.0091694   -0.0011178 
   0.005251301     0.0023137   -0.0008719     0.6993479   -0.0141188     0.7069154   -0.0103184    -0.0030907   -0.0017056 
   0.005351326     0.0006800   -0.0006900     0.6988234    0.0052219     0.7063428   -0.0060865     0.0001731    0.0067509 
   0.005451351     0.0055504    0.0006574     0.7084554   -0.0059399     0.7121978   -0.0054082     0.0023950    0.0009944 
   0.005551376     0.0025225    0.0000315     0.7065248    0.0040610     0.7081360   -0.0051554     0.0033904    0.0053323 
   0.005651401     0.0029254    0.0012058     0.7158470    0.0002452     0.7059761   -0.0066063     0.0065559    0.0017482 
   0.005751426     0.0041360    0.0003465     0.7133974   -0.0130023     0.7091205   -0.0064206     0.0027735   -0.0032335 
   0.005851451     0.0028994    0.0011926     0.7029076    0.0052386     0.7104519   -0.0092309     0.0025114    0.0061807 
   0.005951476     0.0010800    0.0023955     0.7030297    0.0082625     0.7073426   -0.0038297     0.0029381    0.0080551 
   0.006051501     0.0011741    0.0003859     0.7007523    0.0015259     0.7096948   -0.0051439     0.0009873    0.0059302 
   0.006151526     0.0032577   -0.0003412     0.7089292   -0.0094551     0.7086401   -0.0035913     0.0020616   -0.0007060 
   0.006251551    -0.0001889   -0.0002204     0.7061297   -0.0060635     0.7063840   -0.0045864     0.0016255    0.0014257 
   0.006351576     0.0032950    0.0009357     0.7144638   -0.0073002     0.7089339   -0.0064921     0.0053567   -0.0011898 
   0.006451601     0.0023129    0.0015047     0.7102290   -0.0058779     0.7076613   -0.0046453     0.0033472    0.0005047 
   0.006551626     0.0024398    0.0006217     0.7197388   -0.0102271     0.7066939   -0.0052068     0.0065289   -0.0034903 
   0.006651651     0.0024562    0.0003011     0.7022600   -0.0077512     0.7104892   -0.0034679    -0.0001025    0.0022973 
   0.006751676     0.0035221   -0.0006293     0.7111814   -0.0134374     0.7108340   -0.0071844     0.0026344   -0.0025935 
   0.006851701     0.0012842    0.0021197     0.7060831    0.0041908     0.7097746   -0.0048583     0.0044473    0.0054561 
   0.006951726     0.0040588    0.0010055     0.7118287   -0.0169618     0.7087200   -0.0053880     0.0016746   -0.0040486 
   0.007051751     0.0024078    0.0014785     0.7169377   -0.0069940     0.7062901   -0.0039899     0.0055679   -0.0010367 
   0.007151776     0.0024732    0.0011133     0.7073986   -0.0019338     0.7090646   -0.0098057     0.0035470    0.0029469 
   0.007251801     0.0015533    0.0004632     0.7061363   -0.0080263     0.7061485   -0.0079392     0.0015165    0.0001148 
   0.007351826     0.0016871   -0.0017339     0.7008801   -0.0049874     0.7057514   -0.0078605     0.0003759    0.0032606 
   0.007451851     0.0021983    0.0011637     0.7170674   -0.0028972     0.7054509   -0.0080311     0.0064916   -0.0002072 
   0.007551876     0.0012485   -0.0004450     0.7008094   -0.0070369     0.7069281   -0.0068888    -0.0003382    0.0031803 
   0.007651901     0.0023906    0.0015824     0.7112067   -0.0067086     0.7047660   -0.0081726     0.0033616    0.0000316 
   0.007751926     0.0026248    0.0009238     0.7102593   -0.0005452     0.7092968   -0.0086718     0.0053435    0.0033673 
   0.007851951     0.0023348   -0.0009383     0.7107711   -0.0151545     0.7113057   -0.0076602     0.0020226   -0.0026044 
   0.007951976     0.0023905    0.0007508     0.7096141    0.0050456     0.7053318   -0.0057262     0.0062827    0.0055189 
   0.008052001     0.0023613   -0.0004435     0.7029442   -0.0135710     0.7081731   -0.0074224    -0.0006766    0.0004465 
   0.008152026     0.0019729   -0.0005950     0.7066045   -0.0137461     0.7072847   -0.0089520     0.0004090   -0.0010248 
   0.008252051     0.0011484    0.0017617     0.7066756    0.0093702     0.7086666   -0.0110425     0.0074373    0.0075616 
   0.008352076     0.0017038   -0.0005190     0.7053760   -0.0037744     0.7066323   -0.0088310     0.0029181    0.0037088 
   0.008452101     0.0018598    0.0004324     0.7133915   -0.0029334     0.7069473   -0.0097833     0.0064515    0.0010437 
   0.008552126     0.0037343   -0.0011603     0.7144725   -0.0167564     0.7072080   -0.0075095     0.0023153   -0.0038834 
   0.008652151     0.0021002    0.0010505     0.7034051   -0.0077117     0.7049368   -0.0083370     0.0008333    0.0022566 
   0.008752176     0.0021414    0.0011877     0.7019433   -0.0052954     0.7075989   -0.0091090     0.0012567    0.0036968 
   0.008852201     0.0022050    0.0005162     0.7096966   -0.0079231     0.7072059   -0.0082556     0.0028698    0.0007071 
   0.008952226     0.0027055    0.0004305     0.7058477   -0.0022297     0.7070837   -0.0083299     0.0040819    0.0042701 
   0.009052251     0.0034567    0.0003106     0.7136511   -0.0079139     0.7083478   -0.0093442     0.0049431   -0.0004755 
   0.009152276     0.0025300    0.0006440     0.7127067   -0.0042514     0.7069924   -0.0098664     0.0057617    0.0008193 
   0.009252301     0.0043761    0.0007303     0.7113833   -0.0032291     0.7102177   -0.0096553     0.0059183    0.0019865 
   0.009352326     0.0040079    0.0008964     0.7059974   -0.0118831     0.7089329   -0.0095241     0.0012804    0.0007878 
   0.009452351     0.0043876    0.0018352     0.7191432   -0.0140544     0.7087644   -0.0089211     0.0050455   -0.0045633 
   0.009552376     0.0017646    0.0013176     0.7092562   -0.0065391     0.7090274   -0.0097918     0.0040602    0.0014711 
   0.009652401     0.0026924   -0.0012045     0.7004824   -0.0136794     0.7070943   -0.0112245    -0.0012524    0.0016709 
   0.009752426     0.0033617    0.0001909     0.7090997   -0.0147310     0.7070509   -0.0107009     0.0015728   -0.0018755 
   0.009852451     0.0029790    0.0008801     0.7105821   -0.0088390     0.7076782   -0.0094700     0.0039798    0.0002515 
   0.009952476     0.0027273   -0.0000685     0.7050921   -0.0098233     0.7068925   -0.0077254     0.0016500    0.0019534 
   0.010052501     0.0022857    0.0022221     0.7094156   -0.0032781     0.7074386   -0.0084503     0.0055697    0.0027343 
   0.010152526     0.0028498    0.0005164     0.7133886   -0.0059400     0.7071134   -0.0068037     0.0060223    0.0003177 
   0.010252551     0.0026021    0.0008602     0.7076319   -0.0015034     0.7068152   -0.0092659     0.0053562    0.0035023 
   0.010352576     0.0030636    0.0013478     0.7229177   -0.0097285     0.7078928   -0.0096018     0.0077069   -0.0040465 
   0.010452601     0.0028290   -0.0004022     0.7079365   -0.0135132     0.7095941   -0.0095197     0.0016731   -0.0001636 
   0.010552626     0.0031139   -0.0003811     0.7087715   -0.0091021     0.7088820   -0.0132296     0.0035480    0.0008580 
   0.010652651     0.0023628   -0.0007487     0.7071777   -0.0066562     0.7076600   -0.0108926     0.0040177    0.0020045 
   0.010752676     0.0018893   -0.0000288     0.7076952   -0.0051549     0.7071012   -0.0092680     0.0045078    0.0026189 
   0.010852701     0.0028996   -0.0006058     0.7005467   -0.0140940     0.7064674   -0.0115982    -0.0008430    0.0022858 
   0.010952726     0.0026221    0.0008745     0.7084454   -0.0091225     0.7048826   -0.0116843     0.0032926    0.0008564 
   0.011052751     0.0014055    0.0007745     0.6991655   -0.0041219     0.7095448   -0.0084058     0.0023435    0.0061950 
   0.011152776     0.0029521    0.0008989     0.7161310   -0.0078962     0.7115269   -0.0107165     0.0068798   -0.0012120 
   0.011252801     0.0036104    0.0009271     0.7068779   -0.0106691     0.7064229   -0.0103033     0.0022642    0.0011352 
   0.011352826     0.0014164    0.0007365     0.6996278   -0.0053081     0.7055504   -0.0107635     0.0020577    0.0053638 
   0.011452851     0.0023067    0.0003633     0.7131826   -0.0144569     0.7075052   -0.0119057     0.0033109   -0.0019809 
   0.011552876     0.0030035    0.0007641     0.7074665   -0.0125511     0.7075567   -0.0133226     0.0023315    0.0004923 
   0.011652901     0.0026711   -0.0001540     0.7109857   -0.0082763     0.7057323   -0.0104889     0.0042652    0.0002877 
   0.011752926     0.0034734    0.0017062     0.7153085   -0.0166666     0.7077005   -0.0109580     0.0030239   -0.0033257 
   0.011852951     0.0033379    0.0009623     0.7074233   -0.0171612     0.7085332   -0.0155355     0.0007525   -0.0011666 
   0.011952976     0.0016673    0.0010118     0.7149653   -0.0030332     0.7093366   -0.0122306     0.0079725    0.0003461 
   0.012053002     0.0044686    0.0010677     0.7166221   -0.0157273     0.7088557   -0.0120461     0.0040962   -0.0035695 
   0.012153027     0.0028768    0.0009030     0.7102510   -0.0121458     0.7087427   -0.0143928     0.0036706   -0.0003742 
   0.012253052     0.0008052    0.0004491     0.7075495   -0.0113381     0.7064996   -0.0122207     0.0028636    0.0009563 
   0.012353077     0.0036864    0.0011391     0.7121365   -0.0117523     0.7087511   -0.0115655     0.0041391   -0.0006104 
   0.012453102     0.0021566    0.0000670     0.6979636   -0.0174466     0.7092202   -0.0108772    -0.0020477    0.0034102 
   0.012553127     0.0035259    0.0008038     0.7144367   -0.0101198     0.7071449   -0.0158494     0.0057362   -0.0014674 
   0.012653152     0.0024328    0.0012825     0.7179318   -0.0112932     0.7060763   -0.0149321     0.0061849   -0.0031441 
   0.012753177     0.0032131    0.0007134     0.7104051   -0.0093794     0.7099805   -0.0126996     0.0048106    0.0008112 
   0.012853202     0.0023780    0.0007320     0.7081982   -0.0149671     0.7059433   -0.0106214     0.0022273   -0.0001882 
   0.012953227     0.0016497   -0.0000810     0.7019603   -0.0072036     0.7078547   -0.0133545     0.0035944    0.0044105 
   0.013053252     0.0037756   -0.0008035     0.7090551   -0.0183912     0.7061067   -0.0124928     0.0008087   -0.0010840 
   0.013153277     0.0021812   -0.0017697     0.7023917   -0.0191717     0.7060457   -0.0145644    -0.0011673    0.0014428 
   0.013253302     0.0017494   -0.0002077     0.7060618   -0.0155987     0.7081671   -0.0124299     0.0008839    0.0004563 
   0.013353327     0.0024748   -0.0002211     0.7054794   -0.0181901     0.7073978   -0.0123023     0.0000605    0.0006404 
   0.013453352     0.0015985    0.0010429     0.7112516   -0.0128846     0.7096913   -0.0142779     0.0039311   -0.0004487 
   0.013553377     0.0025908   -0.0002522     0.7063290   -0.0238635     0.7065435   -0.0107441    -0.0019995   -0.0011187 
   0.013653402     0.0026689    0.0005164     0.7043793   -0.0196263     0.7076235   -0.0136926    -0.0004007    0.0006164 
   0.013753427     0.0040374    0.0014501     0.7059530   -0.0143663     0.7091672   -0.0152909     0.0022678    0.0015083 
   0.013853452     0.0034376   -0.0012641     0.7079970   -0.0121646     0.7092470   -0.0164602     0.0036381    0.0011272 
   0.013953477     0.0032078   -0.0002646     0.7067767   -0.0233404     0.7079557   -0.0139602    -0.0014119   -0.0010092 
   0.014053502     0.0016116    0.0007046     0.7101936   -0.0077205     0.7077951   -0.0124959     0.0060050    0.0012656 
   0.014153527     0.0028718    0.0011576     0.7139251   -0.0074355     0.7071152   -0.0131878     0.0069967   -0.0001261 
   0.014253552     0.0037559   -0.0000610     0.7219376   -0.0126422     0.7086646   -0.0173552     0.0067942   -0.0047413 
   0.014353577     0.0028707   -0.0013348     0.6997048   -0.0197672     0.7061138   -0.0139789    -0.0014095    0.0030295 
   0.014453602     0.0017342   -0.0002146     0.7060517   -0.0066803     0.7061501   -0.0143511     0.0052223    0.0030231 
   0.014553627     0.0024963    0.0003418     0.7099910   -0.0097615     0.7061774   -0.0158990     0.0051432    0.0003998 
   0.014653652     0.0031055    0.0005670     0.7065739   -0.0046870     0.7104408   -0.0137846     0.0065592    0.0036183 
   0.014753677     0.0023038   -0.0000470     0.6958941   -0.0156996     0.7058323   -0.0127798    -0.0003239    0.0057956 
   0.014853702     0.0024545   -0.0002444     0.7040521   -0.0131708     0.7057891   -0.0125770     0.0020731    0.0026747 
   0.014953727     0.0032400    0.0004579     0.7084025   -0.0175265     0.7081112   -0.0171189     0.0022268   -0.0003598 
   0.015053752     0.0043299    0.0009268     0.7138127   -0.0159915     0.7083106   -0.0145619     0.0038357   -0.0018136 
   0.015153777     0.0024226   -0.0009169     0.7043720   -0.0159058     0.7075554   -0.0150436     0.0016686    0.0017210 
   0.015253802     0.0021617    0.0007504     0.7102289   -0.0226850     0.7059191   -0.0150516    -0.0005298   -0.0021841 
   0.015353827     0.0028593   -0.0002694     0.7110327   -0.0229915     0.7066003   -0.0153560    -0.0004766   -0.0022859 
   0.015453852     0.0024718   -0.0002342     0.7090343   -0.0161258     0.7082090   -0.0163517     0.0026294    0.0000849 
   0.015553877     0.0023485   -0.0004206     0.7053071   -0.0223949     0.7067246   -0.0179756    -0.0005495    0.0005214 
   0.015653902     0.0029065    0.0006938     0.7058460   -0.0124060     0.7073559   -0.0158406     0.0038132    0.0021473 
