! 19-Feb-26 1:32:23 PM
! E:\VNA_MEASUREMENTS\RECBLOCK\3DBATT1.S2P
! CHANNEL.1
! TR.MEASUREMENT
! CORRECTED.DATA
# GHZ S RI R 50.0
! FREQ.GHZ         S11RE         S11IM         S21RE         S21IM         S12RE         S12IM         S22RE         S22IM         
!; PortSelection: Port_12
   0.000050000    -0.2646054    0.1454250    -0.4728064   -0.8916786     0.6372194   -0.1440639     0.3979620   -0.7635197 
   0.000150025     0.3558553    0.3551433     1.2754060    0.2474612     0.8093875    0.2551107     0.2246022    0.2452508 
   0.000250050    -0.5103704    0.6125783     2.2776580   -0.8709934     0.3866738    0.2414483     0.8735862   -0.2577262 
   0.000350075     0.0012443    0.0040540     0.7059141    0.0160793     0.7088332    0.0090174     0.0014717    0.0084999 
   0.000450100     0.0042241   -0.0050878     0.7247739    0.0032272     0.7053351    0.0000624     0.0098107    0.0033832 
   0.000550125     0.0071488    0.0022952     0.7187615   -0.0032713     0.7056847   -0.0021081     0.0061123   -0.0006312 
   0.000650150     0.0029817   -0.0007262     0.7106380   -0.0051212     0.7094908   -0.0019609     0.0033590   -0.0022840 
   0.000750175     0.0035647    0.0001355     0.7199229    0.0003606     0.7157432   -0.0028493     0.0083243    0.0001656 
   0.000850200     0.0020489    0.0023921     0.7128586   -0.0120849     0.7109544   -0.0007185     0.0052200   -0.0058419 
   0.000950225     0.0037303    0.0007784     0.7192364    0.0075394     0.7104401    0.0004965     0.0079436    0.0054302 
   0.001050250    -0.0002829    0.0006429     0.6774709   -0.0074249     0.7034047   -0.0024939    -0.0128236   -0.0018985 
   0.001150275     0.0082544    0.0054834     0.7131065    0.0116688     0.7107345    0.0001966     0.0051232    0.0059827 
   0.001250300     0.0010017   -0.0007952     0.6993056    0.0022834     0.7048101   -0.0076982    -0.0029615    0.0017681 
   0.001350325    -0.0004737   -0.0020628     0.7201161    0.0008357     0.7035763    0.0000109     0.0093672    0.0014606 
   0.001450350     0.0013943   -0.0009043     0.7135296   -0.0097759     0.7063797   -0.0012535     0.0051397   -0.0038353 
   0.001550375     0.0001406    0.0040954     0.6855540    0.0130037     0.7090092    0.0023506    -0.0069911    0.0084147 
   0.001650400     0.0036634   -0.0001231     0.7057468    0.0064546     0.7127655   -0.0001706     0.0023749    0.0041720 
   0.001750425     0.0036691   -0.0023766     0.7124384   -0.0153035     0.7076609    0.0025648     0.0040922   -0.0063642 
   0.001850450     0.0003593    0.0012187     0.6950483   -0.0076771     0.7078427   -0.0029701    -0.0043585   -0.0008577 
   0.001950475    -0.0001183    0.0014046     0.7079334   -0.0050283     0.7091262   -0.0010298     0.0027308   -0.0014057 
   0.002050500     0.0028475   -0.0012116     0.7248933   -0.0179956     0.7101524   -0.0030244     0.0095765   -0.0083201 
   0.002150525     0.0001406    0.0012728     0.6988683    0.0030361     0.7063055   -0.0008626    -0.0010352    0.0042572 
   0.002250550     0.0032287    0.0012377     0.7141184    0.0045353     0.7129170    0.0030044     0.0059293    0.0035303 
   0.002350575     0.0023662    0.0017050     0.7171186   -0.0022071     0.6997162   -0.0000703     0.0060884    0.0005615 
   0.002450600     0.0006545   -0.0025425     0.6908075   -0.0017865     0.7097306   -0.0023096    -0.0049805    0.0024256 
   0.002550625     0.0039611   -0.0008979     0.7221228    0.0043418     0.7065562   -0.0064154     0.0098287    0.0021695 
   0.002650650     0.0025180   -0.0035242     0.7208314   -0.0175912     0.7109757   -0.0042751     0.0077743   -0.0080108 
   0.002750675     0.0019117   -0.0005461     0.7128778   -0.0123318     0.7075114   -0.0005272     0.0038127   -0.0045766 
   0.002850700     0.0027069    0.0007842     0.6964185    0.0026548     0.7098543   -0.0014877    -0.0025717    0.0043010 
   0.002950725     0.0040871    0.0003063     0.7176480    0.0018018     0.7101601    0.0000508     0.0078336    0.0018144 
   0.003050750     0.0029548    0.0006175     0.7073116   -0.0042875     0.7103515   -0.0004582     0.0024990    0.0003350 
   0.003150775     0.0028070   -0.0017695     0.7109542   -0.0134629     0.7082540   -0.0045936     0.0028228   -0.0043298 
   0.003250800     0.0034702    0.0008320     0.7018411   -0.0029426     0.7119781   -0.0062837    -0.0002356    0.0011493 
   0.003350825     0.0020928   -0.0000479     0.6943520   -0.0039439     0.7064937   -0.0077166    -0.0043728    0.0008993 
   0.003450850    -0.0008664   -0.0025147     0.7044654   -0.0137046     0.7015633   -0.0061551    -0.0009303   -0.0044486 
   0.003550875    -0.0002983    0.0015282     0.7040999    0.0140037     0.7050797   -0.0078083     0.0026016    0.0085455 
   0.003650900     0.0035494   -0.0003595     0.7130413   -0.0154807     0.7078723   -0.0048008     0.0035872   -0.0062653 
   0.003750925     0.0023176    0.0001745     0.7054906   -0.0081213     0.7063733   -0.0019224     0.0007277   -0.0016529 
   0.003850950     0.0041695   -0.0017466     0.7046618   -0.0131250     0.7088860   -0.0036760    -0.0007490   -0.0033189 
   0.003950975    -0.0001691    0.0010163     0.6952775   -0.0024322     0.7057292   -0.0023263    -0.0033174    0.0029611 
   0.004051001     0.0046143   -0.0014922     0.7016814   -0.0120245     0.7126487   -0.0045226    -0.0008703   -0.0017828 
   0.004151026     0.0013015   -0.0001319     0.7041364   -0.0140574     0.7062831   -0.0027515    -0.0017095   -0.0030790 
   0.004251051     0.0031390   -0.0031043     0.7142335   -0.0170927     0.7086842   -0.0046100     0.0030017   -0.0056726 
   0.004351076     0.0019258    0.0006120     0.7085119    0.0137366     0.7082134   -0.0018553     0.0046813    0.0092416 
   0.004451101     0.0049936   -0.0018335     0.7315645   -0.0243202     0.7137946   -0.0066390     0.0099303   -0.0124551 
   0.004551126     0.0019343    0.0023645     0.6955448    0.0064611     0.7115270   -0.0033017    -0.0014979    0.0077855 
   0.004651151     0.0019015   -0.0014826     0.7007744   -0.0042750     0.7069383   -0.0053826    -0.0010290    0.0015576 
   0.004751176     0.0039941    0.0007963     0.7100794   -0.0152259     0.7082638   -0.0015677     0.0014252   -0.0042505 
   0.004851201     0.0034086    0.0034142     0.7161239    0.0154240     0.7059703   -0.0033448     0.0093466    0.0084744 
   0.004951226     0.0006588   -0.0002256     0.7036222   -0.0050761     0.7095388   -0.0058881     0.0003936    0.0011448 
   0.005051251     0.0026914    0.0002643     0.7175918   -0.0025205     0.7104204   -0.0050103     0.0072711    0.0004492 
   0.005151276     0.0037974    0.0005312     0.7253855   -0.0142985     0.7071407   -0.0039841     0.0078021   -0.0063664 
   0.005251301     0.0032317    0.0016764     0.7081649    0.0017956     0.7075765   -0.0093887     0.0036669    0.0028417 
   0.005351326     0.0018188   -0.0011080     0.7033415   -0.0020226     0.7077907   -0.0069678     0.0006796    0.0028307 
   0.005451351     0.0027699   -0.0006291     0.6965240   -0.0109003     0.7099031   -0.0065644    -0.0040094    0.0007312 
   0.005551376     0.0008130    0.0000040     0.6983248   -0.0025880     0.7078568   -0.0073087    -0.0013077    0.0032663 
   0.005651401     0.0006979    0.0000912     0.7015913    0.0032904     0.7063039   -0.0055133     0.0011797    0.0060526 
   0.005751426     0.0034107   -0.0008007     0.7117180   -0.0119520     0.7095424   -0.0060604     0.0024730   -0.0021072 
   0.005851451     0.0045450    0.0002811     0.7119684   -0.0091758     0.7082413   -0.0092262     0.0023817   -0.0021090 
   0.005951476     0.0016470    0.0003302     0.7045527   -0.0089013     0.7075779   -0.0048372    -0.0004022    0.0004951 
   0.006051501     0.0014905   -0.0007059     0.7014257   -0.0109957     0.7044821   -0.0011419    -0.0024030    0.0007945 
   0.006151526     0.0010001    0.0024061     0.7039316    0.0021118     0.7068333   -0.0035033     0.0019442    0.0051417 
   0.006251551     0.0005297   -0.0018095     0.7084419   -0.0110609     0.7061337   -0.0074963     0.0011079   -0.0013845 
   0.006351576     0.0035152    0.0013779     0.7116407   -0.0032765     0.7090672   -0.0040450     0.0046064    0.0015887 
   0.006451601     0.0010021    0.0018157     0.7099963   -0.0022477     0.7076642   -0.0050613     0.0039364    0.0017292 
   0.006551626     0.0023357   -0.0004711     0.7162995   -0.0090316     0.7063846   -0.0053143     0.0052838   -0.0019784 
   0.006651651     0.0034686    0.0018249     0.7068018   -0.0109675     0.7113938   -0.0057307     0.0006507   -0.0009089 
   0.006751676     0.0039611    0.0016286     0.7128367   -0.0017255     0.7104386   -0.0072639     0.0055145    0.0015741 
   0.006851701     0.0011802    0.0013857     0.7018052    0.0011390     0.7105257   -0.0049221     0.0018299    0.0051318 
   0.006951726     0.0035704   -0.0002453     0.7070534   -0.0181558     0.7091050   -0.0077501    -0.0008378   -0.0038662 
   0.007051751     0.0020974    0.0014635     0.7132460   -0.0020115     0.7096927   -0.0068324     0.0053828    0.0016054 
   0.007151776     0.0029079    0.0008916     0.7125904   -0.0043826     0.7092872   -0.0081813     0.0045908    0.0006817 
   0.007251801     0.0036911    0.0007601     0.7183661   -0.0055205     0.7098833   -0.0056480     0.0067316   -0.0016627 
   0.007351826    -0.0002412    0.0033894     0.7001114    0.0084298     0.7059056   -0.0058961     0.0029454    0.0085837 
   0.007451851     0.0024172    0.0015165     0.7157345    0.0031276     0.7072205   -0.0075644     0.0076198    0.0026432 
   0.007551876     0.0016454    0.0013873     0.6996562   -0.0052356     0.7066771   -0.0054573    -0.0011417    0.0042964 
   0.007651901     0.0015555    0.0010097     0.7001442   -0.0099513     0.7049590   -0.0061816    -0.0019997    0.0015591 
   0.007751926     0.0012883   -0.0007315     0.7045313   -0.0002181     0.7073758   -0.0068569     0.0022338    0.0046697 
   0.007851951     0.0018660   -0.0003436     0.7067443   -0.0111932     0.7112607   -0.0085255     0.0012643   -0.0002350 
   0.007951976     0.0013630    0.0014657     0.7112794    0.0065946     0.7054119   -0.0063789     0.0071757    0.0052353 
   0.008052001     0.0016983    0.0017375     0.7054306    0.0010794     0.7065445   -0.0070431     0.0034757    0.0048467 
   0.008152026     0.0022378    0.0000882     0.7058155   -0.0115159     0.7084919   -0.0102228     0.0004060   -0.0002160 
   0.008252051     0.0022588    0.0010157     0.7126572    0.0061483     0.7084383   -0.0130930     0.0084712    0.0038205 
   0.008352076     0.0027549   -0.0010386     0.7007381   -0.0064216     0.7086399   -0.0095261    -0.0003016    0.0036644 
   0.008452101     0.0020856    0.0009080     0.7154928   -0.0014086     0.7063895   -0.0102832     0.0071367    0.0008707 
   0.008552126     0.0012967   -0.0005565     0.7034963   -0.0042121     0.7080318   -0.0101076     0.0019842    0.0033610 
   0.008652151     0.0018588   -0.0000155     0.7046142   -0.0083703     0.7072530   -0.0103362     0.0011324    0.0015424 
   0.008752176     0.0024480    0.0002358     0.7069547   -0.0153702     0.7061304   -0.0088772    -0.0002068   -0.0014863 
   0.008852201     0.0036408    0.0014507     0.7075411   -0.0100166     0.7093065   -0.0084691     0.0014002    0.0005570 
   0.008952226     0.0025139    0.0001980     0.7034757   -0.0041985     0.7091151   -0.0094548     0.0021010    0.0039338 
   0.009052251     0.0035087    0.0005095     0.7091245   -0.0135193     0.7104942   -0.0076806     0.0014713   -0.0006365 
   0.009152276     0.0027203    0.0020006     0.7128932   -0.0060808     0.7074587   -0.0095406     0.0050310   -0.0000454 
   0.009252301     0.0014517   -0.0000734     0.7016515   -0.0077504     0.7085045   -0.0112118     0.0005182    0.0031846 
   0.009352326     0.0023105    0.0003956     0.7023734   -0.0122881     0.7082450   -0.0098292    -0.0006089    0.0013316 
   0.009452351     0.0031639    0.0018656     0.7178864   -0.0095770     0.7100277   -0.0094809     0.0064564   -0.0023778 
   0.009552376     0.0021631    0.0003223     0.7093984   -0.0086826     0.7079335   -0.0105187     0.0029498    0.0000616 
   0.009652401     0.0021929   -0.0008442     0.7009338   -0.0121776     0.7069517   -0.0110083    -0.0006460    0.0020674 
   0.009752426     0.0028510    0.0019061     0.7108001   -0.0067987     0.7062547   -0.0100130     0.0044365    0.0001634 
   0.009852451     0.0030362    0.0010203     0.7089778   -0.0084880     0.7102300   -0.0120718     0.0034827    0.0004964 
   0.009952476     0.0020325    0.0013728     0.6992407   -0.0061853     0.7066355   -0.0066211     0.0005808    0.0045658 
   0.010052501     0.0029822    0.0018865     0.7097992   -0.0071647     0.7051499   -0.0104021     0.0036898    0.0006898 
   0.010152526     0.0032480    0.0015909     0.7112749   -0.0071264     0.7071929   -0.0082441     0.0041321    0.0000840 
   0.010252551     0.0015478    0.0008113     0.7044884    0.0008043     0.7047260   -0.0092433     0.0044020    0.0050776 
   0.010352576     0.0033728    0.0012658     0.7206854   -0.0102309     0.7082491   -0.0106039     0.0065602   -0.0036532 
   0.010452601     0.0037800    0.0006074     0.7130005   -0.0040648     0.7095796   -0.0101740     0.0065816    0.0012189 
   0.010552626     0.0020975    0.0005623     0.7028430   -0.0023855     0.7076270   -0.0103665     0.0036569    0.0047961 
   0.010652651     0.0016418   -0.0010131     0.7057157   -0.0117224     0.7065402   -0.0126976     0.0014587    0.0005261 
   0.010752676     0.0032501    0.0010989     0.7185871   -0.0051339     0.7081165   -0.0110924     0.0075915   -0.0012830 
   0.010852701     0.0033376   -0.0001334     0.7077421   -0.0166347     0.7070077   -0.0107006    -0.0002286   -0.0010699 
   0.010952726     0.0021075   -0.0004276     0.7059228   -0.0111837     0.7034310   -0.0117558     0.0016147    0.0009495 
   0.011052751     0.0039550    0.0008275     0.7094281   -0.0063238     0.7078084   -0.0107970     0.0039276    0.0016212 
   0.011152776     0.0027482   -0.0010038     0.7087466   -0.0173043     0.7072507   -0.0133340     0.0006273   -0.0021265 
   0.011252801     0.0024402    0.0013053     0.7106816   -0.0087045     0.7081702   -0.0105886     0.0041339    0.0003081 
   0.011352826     0.0019521    0.0003056     0.7032778   -0.0077231     0.7069559   -0.0119373     0.0020904    0.0029316 
   0.011452851     0.0021822    0.0007229     0.7148565   -0.0173791     0.7058360   -0.0114918     0.0019660   -0.0040466 
   0.011552876     0.0035780    0.0005000     0.7101178   -0.0159703     0.7096636   -0.0132689     0.0014623   -0.0014152 
   0.011652901     0.0020376    0.0008702     0.7152945   -0.0110618     0.7072566   -0.0122107     0.0045773   -0.0023045 
   0.011752926     0.0013546    0.0013448     0.7117393   -0.0078213     0.7068669   -0.0096762     0.0046451    0.0003808 
   0.011852951     0.0017437    0.0009666     0.7002401   -0.0158164     0.7085015   -0.0127335    -0.0013662    0.0019987 
   0.011952976     0.0022131    0.0001279     0.7101404   -0.0142597     0.7081483   -0.0097650     0.0018340   -0.0009332 
   0.012053002     0.0030284    0.0002303     0.7131456   -0.0124748     0.7077839   -0.0095666     0.0036994   -0.0017045 
   0.012153027     0.0030845    0.0012566     0.7120863   -0.0175981     0.7093244   -0.0148958     0.0017613   -0.0025481 
   0.012253052     0.0016135   -0.0003522     0.7049096   -0.0135550     0.7080007   -0.0096305     0.0009968    0.0017897 
   0.012353077     0.0027300    0.0007644     0.7117231   -0.0073935     0.7090894   -0.0130122     0.0052813    0.0004753 
   0.012453102     0.0017043   -0.0003226     0.6960132   -0.0131954     0.7099392   -0.0109878    -0.0008412    0.0050650 
   0.012553127     0.0035969    0.0002268     0.7092238   -0.0155084     0.7053999   -0.0113399     0.0011729   -0.0007907 
   0.012653152     0.0038586    0.0008712     0.7147008   -0.0111370     0.7067635   -0.0139428     0.0050781   -0.0018635 
   0.012753177     0.0032728    0.0009283     0.7104726   -0.0076156     0.7099820   -0.0124616     0.0053630    0.0010470 
   0.012853202     0.0019089    0.0013531     0.7106148   -0.0114926     0.7045689   -0.0109458     0.0034930   -0.0003656 
   0.012953227     0.0030262   -0.0006191     0.7022924   -0.0086176     0.7091948   -0.0141766     0.0030231    0.0038061 
   0.013053252     0.0029333    0.0019031     0.7201919   -0.0101050     0.7069930   -0.0122865     0.0066912   -0.0037646 
   0.013153277     0.0031246    0.0003243     0.7122667   -0.0130526     0.7054111   -0.0124246     0.0031656   -0.0011235 
   0.013253302     0.0010100    0.0003604     0.7027045   -0.0103966     0.7079358   -0.0103718     0.0022316    0.0034288 
   0.013353327     0.0026166    0.0011209     0.7048118   -0.0145865     0.7074384   -0.0125367     0.0012618    0.0016298 
   0.013453352     0.0030875    0.0013873     0.7093467   -0.0123450     0.7082018   -0.0126419     0.0030123    0.0002579 
   0.013553377     0.0018322    0.0004691     0.7060015   -0.0211676     0.7081815   -0.0112238    -0.0012117   -0.0003284 
   0.013653402     0.0024278   -0.0001841     0.7034655   -0.0154280     0.7076067   -0.0108889     0.0000563    0.0022753 
   0.013753427     0.0032155    0.0025129     0.7059066   -0.0082554     0.7068147   -0.0137117     0.0042663    0.0023597 
   0.013853452     0.0032473    0.0010498     0.7103146   -0.0086588     0.7075403   -0.0153099     0.0047701    0.0008492 
   0.013953477     0.0024535    0.0005075     0.7080222   -0.0230740     0.7069544   -0.0139550    -0.0013448   -0.0020496 
   0.014053502     0.0026475    0.0001408     0.7105278   -0.0133932     0.7087108   -0.0123439     0.0035914   -0.0005883 
   0.014153527     0.0012248    0.0012954     0.7092609   -0.0060339     0.7063570   -0.0113872     0.0057792    0.0020216 
   0.014253552     0.0022254    0.0001049     0.7133624   -0.0135338     0.7073317   -0.0173987     0.0040914   -0.0015544 
   0.014353577     0.0015198    0.0001662     0.6985584   -0.0128239     0.7067091   -0.0132600     0.0007800    0.0047644 
   0.014453602     0.0013299    0.0016229     0.7115313   -0.0049434     0.7061283   -0.0145660     0.0068102    0.0008546 
   0.014553627     0.0027321    0.0014994     0.7119823   -0.0103371     0.7065334   -0.0131531     0.0048455   -0.0005306 
   0.014653652     0.0025057    0.0015398     0.7049588   -0.0043498     0.7095652   -0.0133545     0.0059264    0.0041213 
   0.014753677     0.0022049    0.0008026     0.7037326   -0.0143931     0.7074465   -0.0156688     0.0018371    0.0022599 
   0.014853702     0.0024972    0.0004396     0.7110963   -0.0157549     0.7088000   -0.0141336     0.0024343   -0.0007274 
   0.014953727     0.0022229    0.0005800     0.7070327   -0.0131318     0.7089266   -0.0138864     0.0030816    0.0015121 
   0.015053752     0.0029287    0.0006368     0.7068818   -0.0204170     0.7070624   -0.0151666    -0.0001383    0.0002373 
   0.015153777     0.0021372   -0.0000607     0.7089767   -0.0114406     0.7084261   -0.0133647     0.0040289    0.0005911 
   0.015253802     0.0029129    0.0011633     0.7116969   -0.0241919     0.7051218   -0.0142901    -0.0010828   -0.0030487 
   0.015353827     0.0032859    0.0017758     0.7140206   -0.0193345     0.7088193   -0.0141078     0.0015246   -0.0029222 
   0.015453852     0.0020166    0.0016555     0.7099901   -0.0100370     0.7065639   -0.0153079     0.0047379    0.0001304 
   0.015553877     0.0026418    0.0000785     0.7061151   -0.0225399     0.7054452   -0.0172272    -0.0009247   -0.0001165 
   0.015653902     0.0024635    0.0018375     0.7055758   -0.0060421     0.7072377   -0.0144330     0.0058831    0.0028833 
