! 19-Feb-26 1:28:20 PM
! E:\VNA_MEASUREMENTS\RECBLOCK\3DBATT0.S2P
! CHANNEL.1
! TR.MEASUREMENT
! CORRECTED.DATA
# GHZ S RI R 50.0
! FREQ.GHZ         S11RE         S11IM         S21RE         S21IM         S12RE         S12IM         S22RE         S22IM         
!; PortSelection: Port_12
   0.000050000     1.8866900   -2.5494090     4.6715040   -2.5063330     2.2425070    0.6722385     1.7485860    1.7807780 
   0.000150025    -1.6148590   -0.2034217     5.6478810    3.1482260    -0.0253341   -0.4511811     1.6916270    2.5894800 
   0.000250050     0.1400298   -0.3467206     1.0132920    0.7659128     0.8123435   -0.1581735     0.0629918    0.4114584 
   0.000350075     0.0003169   -0.0076757     0.7101012   -0.0238633     0.7088984   -0.0032105     0.0046548   -0.0109921 
   0.000450100     0.0016021   -0.0033810     0.7251164    0.0027576     0.7084619    0.0043921     0.0112118    0.0033105 
   0.000550125     0.0041513    0.0025676     0.7082267   -0.0006865     0.7067510   -0.0031201     0.0010334    0.0007842 
   0.000650150     0.0011360    0.0044069     0.7063118    0.0028486     0.7063498    0.0034035     0.0018463    0.0023617 
   0.000750175     0.0033272   -0.0041396     0.7173430    0.0012443     0.7154614   -0.0072639     0.0073391    0.0000296 
   0.000850200     0.0012699   -0.0055133     0.7208195   -0.0254396     0.7026688   -0.0035664     0.0083273   -0.0113564 
   0.000950225    -0.0019154   -0.0010836     0.7004128   -0.0164726     0.7082459    0.0023204    -0.0012743   -0.0059316 
   0.001050250    -0.0009431   -0.0002806     0.6832366   -0.0147206     0.7068405   -0.0060302    -0.0099818   -0.0070753 
   0.001150275     0.0076468    0.0029042     0.7071422    0.0142399     0.7102069   -0.0008273     0.0024390    0.0082228 
   0.001250300    -0.0037935   -0.0019327     0.6856465   -0.0121362     0.7037386   -0.0099194    -0.0090519   -0.0048556 
   0.001350325     0.0031457    0.0016258     0.7194313    0.0003900     0.7017855   -0.0010800     0.0072641    0.0020332 
   0.001450350     0.0039657    0.0008309     0.7206420    0.0014208     0.7085767   -0.0001411     0.0082180    0.0012903 
   0.001550375     0.0062096   -0.0013688     0.7086887   -0.0019182     0.7118642    0.0013011     0.0034424    0.0008192 
   0.001650400     0.0012741   -0.0003959     0.6879607   -0.0075328     0.7113007   -0.0010945    -0.0065548   -0.0014954 
   0.001750425     0.0001293   -0.0013712     0.6973547   -0.0259956     0.7106221   -0.0041844    -0.0038914   -0.0119499 
   0.001850450     0.0061752   -0.0005256     0.7272312   -0.0124144     0.7115614   -0.0054106     0.0106333   -0.0061091 
   0.001950475     0.0032333    0.0005634     0.7073947    0.0026640     0.7116180   -0.0058512     0.0029474    0.0015093 
   0.002050500    -0.0021132    0.0006346     0.6909674   -0.0175564     0.7072616   -0.0032747    -0.0067810   -0.0062486 
   0.002150525     0.0016850   -0.0014595     0.6976288   -0.0052019     0.7070500   -0.0004666    -0.0023373    0.0001843 
   0.002250550     0.0033429    0.0045019     0.7105279    0.0225799     0.7078901    0.0006111     0.0043117    0.0112645 
   0.002350575     0.0035630    0.0004948     0.7095959   -0.0140955     0.7063246   -0.0009485     0.0028608   -0.0052541 
   0.002450600     0.0029127   -0.0027404     0.7049981   -0.0046392     0.7130019   -0.0051150     0.0014229   -0.0009571 
   0.002550625     0.0022109    0.0007689     0.7120982    0.0125210     0.7079614   -0.0062146     0.0062695    0.0070388 
   0.002650650     0.0004062   -0.0027575     0.7145497   -0.0137948     0.7096840   -0.0010203     0.0051702   -0.0052511 
   0.002750675     0.0038047   -0.0022099     0.7170175   -0.0141265     0.7110854    0.0017362     0.0062103   -0.0051601 
   0.002850700     0.0017961    0.0007194     0.6903698    0.0094488     0.7077708   -0.0029451    -0.0048993    0.0079815 
   0.002950725     0.0053195    0.0004164     0.7112997   -0.0011944     0.7106284   -0.0028306     0.0046555    0.0009791 
   0.003050750     0.0016238   -0.0005745     0.6945577   -0.0066611     0.7052135   -0.0019422    -0.0049196   -0.0001470 
   0.003150775     0.0010107   -0.0007632     0.6996886   -0.0058279     0.7085459   -0.0057047    -0.0020148    0.0005889 
   0.003250800     0.0012304    0.0019627     0.6966984    0.0024237     0.7123845   -0.0039331    -0.0015219    0.0040098 
   0.003350825     0.0013136   -0.0023762     0.7013446   -0.0129289     0.7060728   -0.0056849    -0.0020361   -0.0030925 
   0.003450850     0.0017174   -0.0004168     0.7022577   -0.0111118     0.7044427   -0.0038189    -0.0016891   -0.0023489 
   0.003550875     0.0008194    0.0003965     0.7029786    0.0078607     0.7061362   -0.0083065     0.0011051    0.0056413 
   0.003650900     0.0036857   -0.0014948     0.7122414   -0.0212671     0.7061213   -0.0010441     0.0017967   -0.0079238 
   0.003750925     0.0023200   -0.0019764     0.7084171   -0.0146112     0.7036600   -0.0021027     0.0009329   -0.0042306 
   0.003850950     0.0069532   -0.0033304     0.7151262   -0.0242714     0.7101583   -0.0045413     0.0024730   -0.0096317 
   0.003950975    -0.0000502    0.0028860     0.6921048    0.0085518     0.7079064   -0.0018905    -0.0028665    0.0084944 
   0.004051001     0.0052663   -0.0006580     0.7077289   -0.0034472     0.7106544   -0.0036043     0.0024745    0.0012655 
   0.004151026     0.0000779    0.0003652     0.6988414   -0.0098247     0.7073065   -0.0025257    -0.0028408   -0.0007820 
   0.004251051     0.0047670   -0.0010166     0.7253509   -0.0065455     0.7098361   -0.0036101     0.0102043   -0.0028443 
   0.004351076     0.0035424   -0.0024549     0.7093060   -0.0094650     0.7101455   -0.0044281     0.0016289   -0.0010591 
   0.004451101     0.0035037   -0.0000410     0.7153950   -0.0147571     0.7099674   -0.0044802     0.0031856   -0.0052139 
   0.004551126     0.0013825    0.0001883     0.6986451   -0.0104417     0.7120466   -0.0035134    -0.0030588   -0.0004995 
   0.004651151     0.0027586   -0.0016742     0.7077799   -0.0065719     0.7066103   -0.0069288     0.0012236   -0.0006398 
   0.004751176     0.0033250    0.0029595     0.7169249    0.0025875     0.7040922   -0.0018226     0.0069453    0.0026215 
   0.004851201     0.0027496    0.0024795     0.7073585    0.0105390     0.7044594   -0.0056783     0.0046240    0.0074202 
   0.004951226     0.0000240   -0.0012486     0.7062966   -0.0132249     0.7059332   -0.0038851    -0.0009779   -0.0030138 
   0.005051251     0.0028269   -0.0022247     0.7080822   -0.0110944     0.7114071   -0.0054358     0.0015471   -0.0016723 
   0.005151276     0.0021833    0.0001115     0.7155419   -0.0047832     0.7069826   -0.0051112     0.0052739   -0.0006073 
   0.005251301     0.0014961   -0.0002221     0.6957141   -0.0037142     0.7058218   -0.0080977    -0.0034413    0.0031783 
   0.005351326     0.0024160   -0.0021440     0.7072653   -0.0083949     0.7085904   -0.0061188     0.0013209   -0.0006638 
   0.005451351     0.0051843    0.0003551     0.7135751   -0.0119537     0.7109699   -0.0048490     0.0032520   -0.0030724 
   0.005551376     0.0015726   -0.0007721     0.7021795   -0.0010828     0.7069810   -0.0088416     0.0000370    0.0034135 
   0.005651401     0.0039652    0.0011829     0.7127103   -0.0062494     0.7077262   -0.0041697     0.0039056   -0.0006913 
   0.005751426     0.0041912   -0.0007480     0.7155173   -0.0224382     0.7080922   -0.0057632     0.0021205   -0.0075007 
   0.005851451     0.0030049    0.0011881     0.6975259    0.0054805     0.7090613   -0.0083414    -0.0004856    0.0072607 
   0.005951476     0.0004629    0.0011741     0.6950669   -0.0034799     0.7079538   -0.0028421    -0.0029518    0.0045587 
   0.006051501     0.0016193    0.0000343     0.7014847   -0.0051219     0.7048723   -0.0053244    -0.0015491    0.0026053 
   0.006151526     0.0025669    0.0011296     0.7146564   -0.0022300     0.7059557   -0.0049674     0.0056945    0.0006730 
   0.006251551    -0.0000053   -0.0010615     0.7033362   -0.0100029     0.7068319   -0.0056214    -0.0010146    0.0003453 
   0.006351576     0.0032886   -0.0005850     0.7102802   -0.0141163     0.7089935   -0.0080580     0.0013359   -0.0032581 
   0.006451601     0.0007219    0.0011044     0.7068093   -0.0119869     0.7041857   -0.0041724     0.0001822   -0.0014668 
   0.006551626    -0.0005063   -0.0005888     0.7027027   -0.0110257     0.7085814   -0.0055255    -0.0005803    0.0004747 
   0.006651651     0.0035470    0.0012081     0.7085237   -0.0100006     0.7097797   -0.0075352     0.0017953   -0.0010998 
   0.006751676     0.0026890    0.0011183     0.7124118   -0.0060684     0.7094011   -0.0065846     0.0041429    0.0001068 
   0.006851701     0.0012533    0.0016389     0.7046259    0.0059689     0.7099031   -0.0021798     0.0038857    0.0065570 
   0.006951726     0.0029857    0.0015372     0.7119135   -0.0121482     0.7078527   -0.0049337     0.0026581   -0.0022836 
   0.007051751     0.0019883    0.0007045     0.7140875   -0.0128229     0.7093447   -0.0048369     0.0033285   -0.0028949 
   0.007151776     0.0025303    0.0003031     0.7064075   -0.0089640     0.7105908   -0.0111272     0.0011684    0.0000464 
   0.007251801     0.0024164   -0.0002721     0.7145165   -0.0074701     0.7076278   -0.0063171     0.0046823   -0.0010651 
   0.007351826     0.0023897    0.0010752     0.7017366    0.0017882     0.7062774   -0.0057636     0.0018971    0.0057300 
   0.007451851     0.0005865    0.0009357     0.7149613    0.0030756     0.7044560   -0.0076001     0.0071798    0.0025436 
   0.007551876     0.0008765    0.0005383     0.6970665   -0.0027146     0.7088073   -0.0044384    -0.0010173    0.0061684 
   0.007651901     0.0011919    0.0014603     0.7069383   -0.0063086     0.7049531   -0.0050132     0.0014227    0.0018558 
   0.007751926     0.0014003    0.0009594     0.7039378    0.0005454     0.7068585   -0.0080529     0.0022675    0.0049133 
   0.007851951     0.0019238   -0.0013411     0.7029878   -0.0181108     0.7105560   -0.0104402    -0.0021095   -0.0022203 
   0.007951976     0.0021048    0.0008229     0.7110550    0.0084904     0.7090774   -0.0045068     0.0079768    0.0065355 
   0.008052001     0.0037928    0.0009347     0.7086588   -0.0000923     0.7094485   -0.0095492     0.0048484    0.0032726 
   0.008152026     0.0018438   -0.0016488     0.7081053   -0.0127179     0.7106040   -0.0093438     0.0015818   -0.0009824 
   0.008252051     0.0025526   -0.0004449     0.7107537   -0.0004440     0.7098580   -0.0116970     0.0060852    0.0026377 
   0.008352076     0.0030490    0.0008728     0.7052661   -0.0073534     0.7080718   -0.0095973     0.0015463    0.0017101 
   0.008452101     0.0022595    0.0010475     0.7136244   -0.0083596     0.7085309   -0.0102627     0.0051862   -0.0011652 
   0.008552126     0.0028147   -0.0000169     0.7114035   -0.0168791     0.7078058   -0.0087167     0.0007397   -0.0036851 
   0.008652151     0.0018115   -0.0002279     0.7077045   -0.0116437     0.7042119   -0.0056440     0.0006485   -0.0001645 
   0.008752176     0.0024945    0.0008089     0.7033408   -0.0083886     0.7055796   -0.0096406     0.0005844    0.0020033 
   0.008852201     0.0032876    0.0010935     0.7070719   -0.0101320     0.7098248   -0.0101247     0.0011629    0.0001557 
   0.008952226     0.0031579   -0.0001076     0.7089188   -0.0108339     0.7083399   -0.0068704     0.0020226    0.0003393 
   0.009052251     0.0024468   -0.0009292     0.7084218   -0.0059931     0.7080584   -0.0112196     0.0036286    0.0013288 
   0.009152276     0.0020592    0.0008959     0.7148166   -0.0024659     0.7059156   -0.0098329     0.0064511    0.0004273 
   0.009252301     0.0030577   -0.0012263     0.7116085   -0.0104874     0.7083437   -0.0111433     0.0030947   -0.0013160 
   0.009352326     0.0025521   -0.0006369     0.7000231   -0.0180552     0.7082500   -0.0113073    -0.0029930   -0.0000962 
   0.009452351     0.0035097    0.0016115     0.7174811   -0.0119099     0.7082749   -0.0090955     0.0050781   -0.0027515 
   0.009552376     0.0030359    0.0012498     0.7129567   -0.0120947     0.7111396   -0.0096117     0.0034363   -0.0021374 
   0.009652401     0.0023688   -0.0005278     0.7074305   -0.0123588     0.7075627   -0.0121165     0.0016169   -0.0003478 
   0.009752426     0.0022576    0.0008063     0.7109982   -0.0088206     0.7060963   -0.0097100     0.0035902   -0.0003832 
   0.009852451     0.0033178    0.0007744     0.7137586   -0.0106186     0.7097115   -0.0124522     0.0044985   -0.0016434 
   0.009952476     0.0029053    0.0016463     0.7102531   -0.0090382     0.7080479   -0.0074741     0.0033627    0.0004240 
   0.010052501     0.0008411    0.0019395     0.7074791   -0.0014849     0.7045717   -0.0078329     0.0049173    0.0036952 
   0.010152526     0.0029139    0.0005743     0.7134825   -0.0104706     0.7065132   -0.0077542     0.0036279   -0.0016494 
   0.010252551     0.0020950    0.0027415     0.7088336   -0.0049140     0.7078748   -0.0077705     0.0039739    0.0018137 
   0.010352576     0.0021725    0.0008550     0.7172741   -0.0097200     0.7080745   -0.0121520     0.0060169   -0.0026936 
   0.010452601     0.0028795    0.0004282     0.7055894   -0.0042474     0.7095175   -0.0097946     0.0039172    0.0032906 
   0.010552626     0.0029409    0.0004863     0.7126246   -0.0051368     0.7077513   -0.0122142     0.0056126    0.0005554 
   0.010652651     0.0032669    0.0010302     0.7121623   -0.0061273     0.7072840   -0.0116518     0.0052524    0.0001456 
   0.010752676     0.0027141    0.0001796     0.7084909   -0.0100707     0.7079868   -0.0099079     0.0025480    0.0002212 
   0.010852701     0.0036306    0.0003119     0.7090027   -0.0123736     0.7076063   -0.0099866     0.0019424   -0.0001414 
   0.010952726     0.0023641    0.0015546     0.7139666   -0.0076073     0.7055807   -0.0098085     0.0052781   -0.0003443 
   0.011052751     0.0038377    0.0020078     0.7071838   -0.0003013     0.7128779   -0.0096672     0.0061265    0.0046009 
   0.011152776     0.0031073   -0.0002862     0.7099459   -0.0120705     0.7099513   -0.0122024     0.0030176   -0.0007717 
   0.011252801     0.0013558    0.0015586     0.7026793   -0.0099500     0.7087960   -0.0104420     0.0013069    0.0027003 
   0.011352826     0.0019228   -0.0000662     0.6990581   -0.0054764     0.7071543   -0.0109684     0.0018235    0.0054026 
   0.011452851     0.0027637    0.0018236     0.7159836   -0.0111028     0.7055711   -0.0122407     0.0046483   -0.0026763 
   0.011552876     0.0029008    0.0006149     0.7101565   -0.0102255     0.7102757   -0.0134002     0.0035859    0.0002076 
   0.011652901     0.0027017    0.0005762     0.7069359   -0.0113120     0.7087588   -0.0097520     0.0020174    0.0011662 
   0.011752926     0.0025259    0.0029742     0.7134269   -0.0099665     0.7082582   -0.0094607     0.0043671   -0.0008261 
   0.011852951     0.0026355    0.0009399     0.7051926   -0.0199628     0.7073463   -0.0149137    -0.0014863   -0.0013366 
   0.011952976     0.0015141    0.0001200     0.7116957   -0.0032890     0.7082785   -0.0109208     0.0064974    0.0015882 
   0.012053002     0.0032939    0.0007810     0.7047672   -0.0065267     0.7110810   -0.0099825     0.0039524    0.0033278 
   0.012153027     0.0028097    0.0014768     0.7132256   -0.0137873     0.7094796   -0.0141760     0.0036605   -0.0018436 
   0.012253052     0.0005546    0.0008107     0.7074792   -0.0066727     0.7082441   -0.0092840     0.0044059    0.0025993 
   0.012353077     0.0022075    0.0001961     0.7072372   -0.0105733     0.7074561   -0.0123676     0.0027038    0.0013969 
   0.012453102     0.0028517    0.0001352     0.6988282   -0.0145620     0.7121090   -0.0110808    -0.0006498    0.0040787 
   0.012553127     0.0039699    0.0005809     0.7118055   -0.0195179     0.7066412   -0.0138460     0.0002507   -0.0030219 
   0.012653152     0.0042002    0.0011072     0.7202157   -0.0147359     0.7058433   -0.0143549     0.0049639   -0.0049628 
   0.012753177     0.0033321    0.0013522     0.7116373   -0.0122100     0.7100399   -0.0125342     0.0038037   -0.0004072 
   0.012853202     0.0029982   -0.0000717     0.7134590   -0.0174023     0.7055619   -0.0120272     0.0022101   -0.0035488 
   0.012953227     0.0029394    0.0010404     0.7125750   -0.0069141     0.7109401   -0.0124902     0.0061077    0.0006323 
   0.013053252     0.0029146   -0.0008353     0.7132385   -0.0075316     0.7086260   -0.0141493     0.0064602   -0.0002065 
   0.013153277     0.0021203    0.0009284     0.7113653   -0.0046665     0.7077059   -0.0145441     0.0064795    0.0012785 
   0.013253302     0.0017564    0.0010572     0.7034882   -0.0138840     0.7088372   -0.0103239     0.0004177    0.0022041 
   0.013353327     0.0012606    0.0010553     0.7074968   -0.0092652     0.7065598   -0.0119612     0.0038069    0.0017251 
   0.013453352     0.0023883   -0.0007000     0.7053204   -0.0195993     0.7084245   -0.0143189    -0.0007151    0.0001498 
   0.013553377     0.0015214    0.0008054     0.7060357   -0.0170273     0.7076892   -0.0093002     0.0004737    0.0007034 
   0.013653402     0.0033717    0.0002746     0.7100516   -0.0180630     0.7084425   -0.0155253     0.0012910   -0.0011917 
   0.013753427     0.0020823    0.0016925     0.7015708   -0.0113386     0.7071446   -0.0118680     0.0017173    0.0036070 
   0.013853452     0.0033639   -0.0006520     0.7083762   -0.0101720     0.7108745   -0.0143533     0.0041085    0.0015335 
   0.013953477     0.0034951    0.0009632     0.7077396   -0.0254386     0.7089033   -0.0151083    -0.0025284   -0.0021282 
   0.014053502     0.0025667    0.0004582     0.7107937   -0.0161451     0.7088056   -0.0139588     0.0023010   -0.0011368 
   0.014153527     0.0024086    0.0007619     0.7103105   -0.0118232     0.7074834   -0.0128246     0.0038212    0.0001728 
   0.014253552     0.0025538    0.0003814     0.7150519   -0.0073918     0.7077271   -0.0165907     0.0067883   -0.0009782 
   0.014353577     0.0015048    0.0005516     0.7022751   -0.0074665     0.7068132   -0.0113948     0.0037437    0.0045174 
   0.014453602     0.0026660    0.0004704     0.7080882   -0.0073697     0.7058958   -0.0157012     0.0049323    0.0018458 
   0.014553627     0.0030771    0.0004844     0.7046690   -0.0164676     0.7044350   -0.0136134     0.0007024    0.0010491 
   0.014653652     0.0024715    0.0018470     0.7094873   -0.0084021     0.7087818   -0.0135092     0.0052610    0.0013423 
   0.014753677     0.0020889    0.0001638     0.6992781   -0.0139997     0.7082359   -0.0140600     0.0010472    0.0044673 
   0.014853702     0.0024037    0.0009466     0.7113494   -0.0149705     0.7085945   -0.0129458     0.0025818   -0.0010764 
   0.014953727     0.0016716    0.0012176     0.7070912   -0.0160845     0.7061665   -0.0148206     0.0017634    0.0003353 
   0.015053752     0.0032780    0.0001676     0.7079952   -0.0225989     0.7062411   -0.0139670    -0.0007649   -0.0010254 
   0.015153777     0.0029002   -0.0001882     0.7112746   -0.0112597     0.7074765   -0.0133397     0.0045496   -0.0004664 
   0.015253802     0.0021158    0.0008760     0.7104115   -0.0202993     0.7068651   -0.0144973     0.0004932   -0.0018165 
   0.015353827     0.0029205    0.0004577     0.7115012   -0.0239731     0.7094535   -0.0154326    -0.0009557   -0.0030473 
   0.015453852     0.0031371    0.0022999     0.7194560   -0.0120988     0.7091511   -0.0142581     0.0055891   -0.0038954 
   0.015553877     0.0018646    0.0005780     0.7093937   -0.0148202     0.7062048   -0.0187656     0.0031591   -0.0004651 
   0.015653902     0.0021239    0.0008709     0.7068461   -0.0082197     0.7056066   -0.0139641     0.0052088    0.0024503 
