! 19-Feb-26 3:00:13 PM
! E:\VNA_MEASUREMENTS\RECBLOCK\3DBATTREV3.S2P
! CHANNEL.1
! TR.MEASUREMENT
! CORRECTED.DATA
# GHZ S RI R 50.0
! FREQ.GHZ         S11RE         S11IM         S21RE         S21IM         S12RE         S12IM         S22RE         S22IM         
!; PortSelection: Port_12
   0.000050000     0.1419476    1.2136500    -0.7360054    1.5632080     0.1002269    0.1965737    -0.9901888   -0.5909240 
   0.000150025     0.3988758   -0.0369050     1.2731860    0.8221026     0.9156695    0.0687156     0.0957947    0.5204687 
   0.000250050     0.1767144   -1.1855080     0.9766777    1.7660330     0.9205974   -0.5733392    -0.0615982    0.8980525 
   0.000350075     0.0032131   -0.0008844     0.7080251   -0.0118538     0.7163419    0.0013472     0.0045348   -0.0080961 
   0.000450100     0.0037429   -0.0003321     0.7147650    0.0156163     0.7056988    0.0043397     0.0048023    0.0088181 
   0.000550125     0.0021101    0.0021829     0.7161999   -0.0072921     0.7067389   -0.0010242     0.0053807   -0.0032809 
   0.000650150     0.0007043    0.0000130     0.6986327   -0.0077286     0.7128980    0.0017971    -0.0004815   -0.0034776 
   0.000750175     0.0000233   -0.0025787     0.6950992   -0.0002794     0.7122282   -0.0048554    -0.0033994   -0.0000345 
   0.000850200     0.0027076    0.0007724     0.7200302   -0.0097478     0.7099108   -0.0010543     0.0087001   -0.0047156 
   0.000950225     0.0025758   -0.0010394     0.7058449   -0.0067522     0.7085022   -0.0038776     0.0016482   -0.0019059 
   0.001050250     0.0005770   -0.0030968     0.6807926   -0.0147277     0.7138025   -0.0049168    -0.0100055   -0.0063914 
   0.001150275     0.0055212    0.0026089     0.6995323    0.0115783     0.7095386   -0.0050408    -0.0012753    0.0058784 
   0.001250300    -0.0001319   -0.0028822     0.7049285   -0.0119065     0.7056096   -0.0087083     0.0003322   -0.0050981 
   0.001350325    -0.0018234    0.0017688     0.7054273    0.0040925     0.6995059   -0.0035297     0.0017199    0.0028223 
   0.001450350    -0.0003508    0.0034438     0.6967606    0.0102487     0.7094213    0.0020840    -0.0024030    0.0071962 
   0.001550375     0.0040233    0.0002307     0.7015189    0.0051652     0.7097762    0.0043149     0.0002339    0.0048019 
   0.001650400     0.0013970   -0.0029053     0.6990477   -0.0026943     0.7108706   -0.0059334    -0.0014621   -0.0006456 
   0.001750425     0.0017902   -0.0011935     0.6975407   -0.0233177     0.7078922   -0.0017437    -0.0033111   -0.0097897 
   0.001850450     0.0022862   -0.0023880     0.7056577   -0.0217651     0.7071402   -0.0046728    -0.0002583   -0.0084931 
   0.001950475     0.0034609    0.0007333     0.7149649   -0.0001326     0.7089799   -0.0048964     0.0063403    0.0006841 
   0.002050500     0.0007186    0.0015070     0.7113174   -0.0034635     0.7123947    0.0018908     0.0056696   -0.0002989 
   0.002150525     0.0023193   -0.0015059     0.7107979   -0.0175976     0.7064840   -0.0036910     0.0033063   -0.0070947 
   0.002250550     0.0037210    0.0030237     0.7221839    0.0141498     0.7071718    0.0042691     0.0094615    0.0077893 
   0.002350575     0.0022216   -0.0008199     0.7100542   -0.0240526     0.7061396   -0.0046353     0.0018845   -0.0103785 
   0.002450600    -0.0002237   -0.0021757     0.6913511   -0.0005177     0.7088315   -0.0075117    -0.0051617    0.0020837 
   0.002550625     0.0043452   -0.0003042     0.7182774    0.0186319     0.7078911   -0.0044701     0.0101980    0.0096216 
   0.002650650    -0.0001131   -0.0005041     0.7077136   -0.0007851     0.7045425   -0.0026190     0.0025004    0.0011452 
   0.002750675     0.0025679    0.0002152     0.7176123   -0.0142937     0.7105811    0.0025877     0.0065127   -0.0058851 
   0.002850700     0.0007309   -0.0019652     0.6823971   -0.0084821     0.7076387   -0.0013677    -0.0102044    0.0008558 
   0.002950725     0.0015815   -0.0020903     0.7104575   -0.0053747     0.7101094   -0.0033544     0.0037132   -0.0009901 
   0.003050750     0.0030390   -0.0002322     0.6923649   -0.0044419     0.7079006   -0.0043762    -0.0051971    0.0012247 
   0.003150775     0.0006973   -0.0014901     0.7036537   -0.0095946     0.7065197   -0.0084401     0.0001157   -0.0027442 
   0.003250800     0.0033496   -0.0009754     0.7179049   -0.0038957     0.7131487   -0.0047233     0.0072394   -0.0009412 
   0.003350825     0.0018429   -0.0020068     0.6953979   -0.0030726     0.7052589   -0.0059700    -0.0035085    0.0017484 
   0.003450850     0.0007063   -0.0024849     0.7019247   -0.0163086     0.7046749   -0.0070029    -0.0023376   -0.0053708 
   0.003550875     0.0023611    0.0041986     0.7080897    0.0193588     0.7090266   -0.0034895     0.0052491    0.0117214 
   0.003650900     0.0052286   -0.0006841     0.7171332   -0.0178483     0.7075906   -0.0043787     0.0053394   -0.0075525 
   0.003750925     0.0029884    0.0013852     0.7103152   -0.0042598     0.7060531   -0.0016147     0.0036847    0.0002252 
   0.003850950     0.0023850   -0.0026748     0.7020892   -0.0256576     0.7057057   -0.0045420    -0.0043557   -0.0087074 
   0.003950975     0.0004659   -0.0000633     0.6912705   -0.0011929     0.7076625   -0.0025765    -0.0047566    0.0044142 
   0.004051001     0.0017178   -0.0017960     0.6907309   -0.0065336     0.7080147   -0.0031855    -0.0055036    0.0021793 
   0.004151026     0.0026188    0.0031486     0.7096629   -0.0034207     0.7094722    0.0009881     0.0033262    0.0014379 
   0.004251051     0.0019848   -0.0002929     0.7095279   -0.0036508     0.7104346   -0.0036567     0.0032114    0.0007710 
   0.004351076     0.0021612   -0.0011501     0.7053419   -0.0118933     0.7079964   -0.0056758    -0.0004940   -0.0020511 
   0.004451101     0.0028812   -0.0007207     0.7204511   -0.0116134     0.7100137   -0.0045736     0.0066722   -0.0045211 
   0.004551126     0.0030655   -0.0008839     0.7074822   -0.0049451     0.7106515   -0.0044503     0.0020222    0.0008389 
   0.004651151     0.0037748    0.0007147     0.7029122    0.0005112     0.7074844   -0.0042461     0.0006430    0.0036668 
   0.004751176     0.0038132    0.0039794     0.7100186   -0.0020800     0.7059582   -0.0022397     0.0032513    0.0014263 
   0.004851201     0.0045826    0.0027386     0.7116855    0.0144300     0.7064389   -0.0065517     0.0076101    0.0086490 
   0.004951226     0.0013639   -0.0002019     0.7112795   -0.0003646     0.7069529   -0.0046513     0.0041463    0.0017887 
   0.005051251     0.0020497   -0.0010271     0.7095073    0.0000942     0.7099549   -0.0018284     0.0041295    0.0036528 
   0.005151276     0.0009713   -0.0004395     0.7165443   -0.0111406     0.7069929   -0.0031448     0.0049234   -0.0028311 
   0.005251301     0.0010221   -0.0010371     0.6883372   -0.0114851     0.7055372   -0.0059035    -0.0077573    0.0013147 
   0.005351326     0.0011199    0.0000078     0.7059372   -0.0011126     0.7067516   -0.0056991     0.0023969    0.0034112 
   0.005451351     0.0028245   -0.0012788     0.6982858   -0.0140156     0.7101781   -0.0074115    -0.0034499   -0.0014545 
   0.005551376     0.0031537    0.0008247     0.7103793    0.0042214     0.7087839   -0.0062004     0.0053282    0.0042045 
   0.005651401     0.0045937   -0.0009511     0.7118253   -0.0109412     0.7074351   -0.0074370     0.0027202   -0.0024279 
   0.005751426     0.0029562    0.0002386     0.7064846   -0.0066681     0.7088653   -0.0052952     0.0011833    0.0010577 
   0.005851451     0.0041110    0.0016221     0.7101791    0.0066420     0.7087954   -0.0056277     0.0050898    0.0057345 
   0.005951476     0.0028037    0.0020731     0.7076235   -0.0011201     0.7112755   -0.0036363     0.0031255    0.0029380 
   0.006051501    -0.0005587   -0.0006121     0.6930556   -0.0012055     0.7062691   -0.0067638    -0.0030420    0.0057572 
   0.006151526     0.0018906   -0.0007525     0.6958648   -0.0144648     0.7091637   -0.0059798    -0.0041546   -0.0003822 
   0.006251551     0.0008820   -0.0002867     0.7090254   -0.0057361     0.7060833   -0.0060867     0.0024345    0.0004213 
   0.006351576     0.0031813   -0.0000541     0.7064453   -0.0128131     0.7093385   -0.0046295     0.0003766   -0.0010765 
   0.006451601     0.0005602    0.0011459     0.7055408   -0.0032149     0.7068539   -0.0026898     0.0018395    0.0033287 
   0.006551626     0.0019662    0.0002879     0.7119744   -0.0077497     0.7083062   -0.0042095     0.0037005   -0.0005188 
   0.006651651     0.0027587    0.0009530     0.7041449   -0.0096644     0.7106274   -0.0053201     0.0003688    0.0005557 
   0.006751676     0.0028305    0.0009209     0.7105508   -0.0087222     0.7086125   -0.0044872     0.0028074   -0.0003896 
   0.006851701    -0.0005866    0.0001255     0.6878836    0.0014972     0.7090015   -0.0030279    -0.0039336    0.0091558 
   0.006951726     0.0046139    0.0003885     0.7120905   -0.0225337     0.7077923   -0.0058589     0.0003500   -0.0064432 
   0.007051751     0.0034897   -0.0003444     0.7118288   -0.0082303     0.7079909   -0.0051913     0.0031848   -0.0001569 
   0.007151776     0.0013440    0.0012775     0.7074591    0.0014001     0.7088738   -0.0093490     0.0042699    0.0041698 
   0.007251801     0.0037193   -0.0004056     0.7091793   -0.0150737     0.7083608   -0.0061450     0.0006962   -0.0028536 
   0.007351826     0.0015394    0.0003347     0.6976683    0.0009591     0.7087526   -0.0024114     0.0002663    0.0074242 
   0.007451851     0.0025821    0.0009640     0.7154250   -0.0073093     0.7081228   -0.0064129     0.0055012   -0.0013339 
   0.007551876     0.0001554    0.0001349     0.7000930   -0.0009761     0.7064478   -0.0082580     0.0008411    0.0051998 
   0.007651901     0.0016977    0.0004912     0.7068871   -0.0016351     0.7056202   -0.0054816     0.0030041    0.0034226 
   0.007751926     0.0019889    0.0019760     0.7091327    0.0098346     0.7075555   -0.0066577     0.0072945    0.0071076 
   0.007851951     0.0025144    0.0018296     0.7170697   -0.0074593     0.7117074   -0.0082392     0.0064589   -0.0012781 
   0.007951976     0.0022103    0.0005522     0.7097946    0.0040960     0.7039612   -0.0068835     0.0059100    0.0047406 
   0.008052001     0.0026663    0.0013050     0.7026924   -0.0036628     0.7076908   -0.0069447     0.0018219    0.0039116 
   0.008152026     0.0025359   -0.0003939     0.7101033   -0.0078572     0.7071924   -0.0097688     0.0033648   -0.0003758 
   0.008252051     0.0022303    0.0007841     0.7090604    0.0061174     0.7067250   -0.0134818     0.0069026    0.0048721 
   0.008352076     0.0026381   -0.0003553     0.7128038    0.0031678     0.7073029   -0.0103065     0.0074536    0.0036237 
   0.008452101     0.0012879   -0.0016158     0.7034908   -0.0061356     0.7066203   -0.0105570     0.0017332    0.0019564 
   0.008552126     0.0031726   -0.0009271     0.7163174   -0.0113162     0.7087572   -0.0100014     0.0046871   -0.0027516 
   0.008652151     0.0017495    0.0016349     0.7107817   -0.0060101     0.7060912   -0.0076671     0.0038724    0.0008505 
   0.008752176     0.0025764   -0.0009978     0.7038344   -0.0101154     0.7063105   -0.0114501     0.0005111    0.0010597 
   0.008852201     0.0023190   -0.0006733     0.6967738   -0.0130170     0.7111738   -0.0106275    -0.0024272    0.0024954 
   0.008952226     0.0017512    0.0005465     0.7087112   -0.0048618     0.7054501   -0.0098024     0.0039087    0.0017126 
   0.009052251     0.0027466    0.0002626     0.7116915   -0.0064176     0.7094808   -0.0110063     0.0049997    0.0003663 
   0.009152276     0.0027543    0.0023175     0.7196301   -0.0000447     0.7074243   -0.0090770     0.0093885    0.0002918 
   0.009252301     0.0013194    0.0003287     0.7071285   -0.0025352     0.7085401   -0.0104251     0.0041425    0.0031077 
   0.009352326     0.0024521   -0.0004232     0.7001063   -0.0115763     0.7089835   -0.0095911    -0.0008693    0.0025040 
   0.009452351     0.0027929    0.0002224     0.7134809   -0.0131315     0.7086319   -0.0087817     0.0034761   -0.0022881 
   0.009552376     0.0030730    0.0000039     0.7128329   -0.0137676     0.7090338   -0.0104282     0.0027977   -0.0025258 
   0.009652401     0.0034797    0.0001303     0.7035102   -0.0134371     0.7086684   -0.0119032     0.0001943    0.0004577 
   0.009752426     0.0025081   -0.0008150     0.7083688   -0.0115034     0.7055007   -0.0099218     0.0021011   -0.0005211 
   0.009852451     0.0043163    0.0013509     0.7168010   -0.0120052     0.7102433   -0.0108750     0.0052458   -0.0029605 
   0.009952476     0.0030325    0.0001745     0.7035773   -0.0089206     0.7071945   -0.0076919     0.0014391    0.0025569 
   0.010052501     0.0030325    0.0011495     0.7136464   -0.0057498     0.7058451   -0.0104272     0.0054897    0.0000238 
   0.010152526     0.0013503    0.0009419     0.7096460   -0.0024685     0.7056909   -0.0054673     0.0049912    0.0028778 
   0.010252551     0.0022637    0.0012372     0.7063728    0.0001254     0.7093046   -0.0088072     0.0053679    0.0045347 
   0.010352576     0.0030392    0.0015267     0.7257773   -0.0101334     0.7089657   -0.0105338     0.0086462   -0.0055737 
   0.010452601     0.0037623    0.0005130     0.7092746   -0.0024061     0.7092771   -0.0088044     0.0057770    0.0029246 
   0.010552626     0.0034663   -0.0000513     0.7167459   -0.0076907     0.7081062   -0.0121324     0.0064903   -0.0017168 
   0.010652651     0.0023837   -0.0004996     0.7124704   -0.0042480     0.7071494   -0.0118716     0.0061246    0.0009328 
   0.010752676     0.0027530   -0.0001636     0.7070290   -0.0100194     0.7088013   -0.0110949     0.0024576    0.0011384 
   0.010852701     0.0018559    0.0002580     0.7005408   -0.0139531     0.7097039   -0.0090870    -0.0005824    0.0025319 
   0.010952726     0.0024870    0.0011298     0.7133323   -0.0028109     0.7029131   -0.0109571     0.0068775    0.0009992 
   0.011052751     0.0047188    0.0020884     0.7140092   -0.0084424     0.7100276   -0.0104745     0.0052030   -0.0006083 
   0.011152776     0.0033146    0.0002652     0.7108997   -0.0131997     0.7089363   -0.0106928     0.0027654   -0.0012767 
   0.011252801     0.0019865    0.0002937     0.7041701   -0.0140513     0.7084109   -0.0099735     0.0004423    0.0012564 
   0.011352826     0.0012277    0.0012192     0.7006515   -0.0060747     0.7042737   -0.0099211     0.0017924    0.0043916 
   0.011452851     0.0009955   -0.0015814     0.7066440   -0.0217212     0.7065239   -0.0121659    -0.0015544   -0.0021170 
   0.011552876     0.0021617    0.0001711     0.7102990   -0.0159971     0.7080462   -0.0145695     0.0016479   -0.0021214 
   0.011652901     0.0038275    0.0009793     0.7180932   -0.0109324     0.7091691   -0.0110622     0.0056638   -0.0027646 
   0.011752926     0.0017947    0.0005979     0.7106804   -0.0127950     0.7073108   -0.0114036     0.0028821   -0.0007982 
   0.011852951     0.0015440    0.0008275     0.7049209   -0.0113676     0.7084509   -0.0134057     0.0017726    0.0015668 
   0.011952976     0.0025885    0.0008596     0.7111724   -0.0067790     0.7082071   -0.0110028     0.0051389    0.0009088 
   0.012053002     0.0028180   -0.0002342     0.7088628   -0.0110331     0.7084504   -0.0101090     0.0032576    0.0005077 
   0.012153027     0.0023935    0.0003217     0.7070915   -0.0163026     0.7063643   -0.0151027     0.0008137   -0.0004408 
   0.012253052     0.0010630    0.0007835     0.7094659   -0.0094465     0.7068901   -0.0123201     0.0040358    0.0005244 
   0.012353077     0.0030848   -0.0002660     0.7055878   -0.0118930     0.7091355   -0.0132725     0.0020179    0.0016688 
   0.012453102     0.0026072    0.0019957     0.7036958   -0.0140409     0.7105061   -0.0101505     0.0008177    0.0019944 
   0.012553127     0.0025791    0.0015319     0.7112260   -0.0107356     0.7077422   -0.0111719     0.0041545   -0.0003509 
   0.012653152     0.0019122    0.0018961     0.7199450   -0.0044998     0.7063663   -0.0134958     0.0091832   -0.0018836 
   0.012753177     0.0025163    0.0019798     0.7131174   -0.0057245     0.7086735   -0.0107999     0.0065748    0.0005475 
   0.012853202     0.0018251    0.0000031     0.7108224   -0.0205327     0.7041958   -0.0127077     0.0003440   -0.0028815 
   0.012953227     0.0029010    0.0000821     0.7049487   -0.0077808     0.7067399   -0.0134941     0.0036021    0.0030978 
   0.013053252     0.0041808    0.0003730     0.7147828   -0.0098019     0.7086662   -0.0130604     0.0059487   -0.0015022 
   0.013153277     0.0016368    0.0000062     0.7065499   -0.0117886     0.7058355   -0.0119237     0.0024684    0.0015257 
   0.013253302     0.0018741    0.0008560     0.7050740   -0.0130994     0.7085863   -0.0117180     0.0020217    0.0019041 
   0.013353327     0.0029037    0.0006254     0.7079122   -0.0173345     0.7084319   -0.0109346     0.0007722   -0.0004565 
   0.013453352     0.0014640   -0.0000421     0.7036923   -0.0132651     0.7079384   -0.0131743     0.0019161    0.0022341 
   0.013553377     0.0029731    0.0010031     0.7084817   -0.0189635     0.7100303   -0.0111020     0.0006146   -0.0009850 
   0.013653402     0.0023206    0.0004218     0.7100748   -0.0128757     0.7064075   -0.0153237     0.0032713   -0.0005021 
   0.013753427     0.0032761    0.0011178     0.6998129   -0.0164700     0.7076213   -0.0163223    -0.0002624    0.0028401 
   0.013853452     0.0044993   -0.0004606     0.7129519   -0.0156498     0.7078629   -0.0143424     0.0026293   -0.0017514 
   0.013953477     0.0021182   -0.0009164     0.7036245   -0.0294014     0.7074495   -0.0120277    -0.0047391   -0.0008659 
   0.014053502     0.0025669    0.0006883     0.7074331   -0.0104694     0.7086914   -0.0118083     0.0041364    0.0016297 
   0.014153527     0.0021404    0.0010381     0.7101033   -0.0059657     0.7082600   -0.0117657     0.0065498    0.0016562 
   0.014253552     0.0018362    0.0009981     0.7136349   -0.0079381     0.7084311   -0.0139549     0.0066085   -0.0002251 
   0.014353577     0.0007465    0.0017196     0.7082145   -0.0066882     0.7083525   -0.0134431     0.0061006    0.0023488 
   0.014453602     0.0020753    0.0014897     0.7173054   -0.0055815     0.7067417   -0.0162217     0.0081605   -0.0014837 
   0.014553627     0.0026509    0.0005391     0.7102174   -0.0142729     0.7061544   -0.0132954     0.0033313   -0.0005466 
   0.014653652     0.0037244    0.0018872     0.7101053   -0.0046350     0.7112027   -0.0148533     0.0073232    0.0016556 
   0.014753677     0.0016612    0.0007142     0.6998800   -0.0120132     0.7068019   -0.0141999     0.0023591    0.0044366 
   0.014853702     0.0029837    0.0018910     0.7132754   -0.0210973     0.7081682   -0.0113549     0.0003332   -0.0028101 
   0.014953727     0.0019492    0.0012280     0.7046699   -0.0137278     0.7065299   -0.0140289     0.0021060    0.0020178 
   0.015053752     0.0027004    0.0010289     0.7109616   -0.0185500     0.7053750   -0.0134447     0.0017237   -0.0014187 
   0.015153777     0.0033514   -0.0006493     0.7075058   -0.0154848     0.7094113   -0.0158826     0.0023271    0.0005961 
   0.015253802     0.0022415   -0.0000742     0.7091150   -0.0234812     0.7047852   -0.0145181    -0.0009687   -0.0017532 
   0.015353827     0.0028550    0.0004347     0.7168333   -0.0185347     0.7080697   -0.0161598     0.0028284   -0.0041529 
   0.015453852     0.0016199    0.0019249     0.7151870   -0.0102414     0.7065045   -0.0144915     0.0058805   -0.0020853 
   0.015553877     0.0013319   -0.0000623     0.7045660   -0.0167017     0.7065326   -0.0170892     0.0014242    0.0017804 
   0.015653902     0.0037964    0.0013570     0.7108558   -0.0132735     0.7064000   -0.0147835     0.0039355   -0.0003918 
