! 19-Feb-26 1:34:37 PM
! E:\VNA_MEASUREMENTS\RECBLOCK\3DBATTREV1.S2P
! CHANNEL.1
! TR.MEASUREMENT
! CORRECTED.DATA
# GHZ S RI R 50.0
! FREQ.GHZ         S11RE         S11IM         S21RE         S21IM         S12RE         S12IM         S22RE         S22IM         
!; PortSelection: Port_12
   0.000050000    -2.3945880   -0.8192026     2.0475910   -2.6438360     0.9341146   -1.3580590     1.5796640    0.4689887 
   0.000150025     0.2177778   -0.4445207     0.1484914   -2.2429630     0.9167215   -0.1652901     0.2310272   -1.2107420 
   0.000250050     0.6259044   -2.8622520    -0.6068652    2.6122730     1.3411820   -1.3318080    -0.9458708    1.1339200 
   0.000350075     0.0041643    0.0014291     0.7097570    0.0100532     0.7066657    0.0054384     0.0022530    0.0068194 
   0.000450100     0.0035885   -0.0029127     0.7273751   -0.0006581     0.7077462    0.0040049     0.0126527    0.0015919 
   0.000550125     0.0069378    0.0008139     0.7199134    0.0091507     0.7086104   -0.0015016     0.0073268    0.0054157 
   0.000650150     0.0015569   -0.0045286     0.7071078   -0.0226617     0.7086775   -0.0107526     0.0008896   -0.0123997 
   0.000750175     0.0012725    0.0013431     0.7015515    0.0040525     0.7152718   -0.0031571     0.0002170    0.0023237 
   0.000850200     0.0011886    0.0007975     0.7157622   -0.0109570     0.7141197   -0.0033175     0.0074249   -0.0063197 
   0.000950225     0.0014625    0.0013552     0.7001219    0.0078191     0.7044157   -0.0007551    -0.0019710    0.0056600 
   0.001050250    -0.0020383   -0.0037031     0.6772053   -0.0152887     0.7078142   -0.0043506    -0.0125814   -0.0062675 
   0.001150275     0.0061113    0.0052932     0.7049685    0.0290948     0.7067678    0.0001739     0.0012515    0.0148672 
   0.001250300     0.0023649   -0.0012623     0.7050099    0.0018085     0.7071682   -0.0089609    -0.0001926    0.0006977 
   0.001350325     0.0013049   -0.0035737     0.7191154   -0.0100088     0.6998193   -0.0073844     0.0074778   -0.0046097 
   0.001450350     0.0055142    0.0020586     0.7203415    0.0167670     0.7131359    0.0009301     0.0093367    0.0094948 
   0.001550375     0.0021634    0.0033801     0.6837838    0.0076232     0.7077649    0.0046218    -0.0087146    0.0067869 
   0.001650400     0.0019903   -0.0005495     0.7007775   -0.0048402     0.7074934   -0.0003410    -0.0010344   -0.0005394 
   0.001750425     0.0013169   -0.0004321     0.7008820   -0.0199789     0.7065079    0.0020573    -0.0015594   -0.0081178 
   0.001850450     0.0050046    0.0007486     0.7120799   -0.0035484     0.7110729   -0.0027336     0.0048176   -0.0005551 
   0.001950475     0.0020374   -0.0021642     0.7118174   -0.0040172     0.7082676   -0.0055224     0.0046449   -0.0011470 
   0.002050500     0.0043784    0.0011378     0.7225454   -0.0194126     0.7100953    0.0022925     0.0094572   -0.0079796 
   0.002150525     0.0036695    0.0008128     0.7186441   -0.0047565     0.7101745   -0.0007477     0.0081539   -0.0020896 
   0.002250550     0.0010498    0.0039303     0.7097919    0.0292051     0.7095126    0.0020239     0.0054645    0.0151296 
   0.002350575     0.0017522    0.0010258     0.7057728   -0.0168849     0.7082933    0.0028716     0.0010370   -0.0056891 
   0.002450600     0.0030962   -0.0019444     0.7080157    0.0034593     0.7110202   -0.0068819     0.0035658    0.0027044 
   0.002550625     0.0011478    0.0009573     0.7087930    0.0181073     0.7036262   -0.0023862     0.0042743    0.0103723 
   0.002650650     0.0002980   -0.0013090     0.7196282   -0.0085137     0.7088747   -0.0039403     0.0075078   -0.0039434 
   0.002750675    -0.0001052   -0.0009884     0.7077665   -0.0188939     0.7111979    0.0043617     0.0024063   -0.0063183 
   0.002850700     0.0033568    0.0011053     0.7014820    0.0138059     0.7110090   -0.0032630     0.0018963    0.0090211 
   0.002950725    -0.0001219    0.0015642     0.7075785    0.0111418     0.7072038   -0.0022941     0.0039170    0.0067269 
   0.003050750     0.0023780    0.0001308     0.7008972   -0.0182427     0.7107543   -0.0025424    -0.0024255   -0.0061356 
   0.003150775    -0.0011512   -0.0009090     0.6928480   -0.0119771     0.7084128   -0.0052818    -0.0050500   -0.0020011 
   0.003250800     0.0019805    0.0008941     0.7014483   -0.0058318     0.7087713   -0.0023416    -0.0010740    0.0001466 
   0.003350825     0.0003887   -0.0013198     0.6901030   -0.0098112     0.7090404   -0.0031410    -0.0062245   -0.0002404 
   0.003450850     0.0010087   -0.0024315     0.7004851   -0.0169084     0.7026778   -0.0029782    -0.0032759   -0.0043011 
   0.003550875    -0.0010887    0.0018307     0.6983765    0.0015314     0.7033780   -0.0078596    -0.0020392    0.0031678 
   0.003650900     0.0016135    0.0013459     0.7051012   -0.0156388     0.7071562   -0.0036015     0.0000996   -0.0049543 
   0.003750925     0.0045928    0.0005192     0.7187070   -0.0013953     0.7025048   -0.0023753     0.0068539    0.0000529 
   0.003850950     0.0034122   -0.0018313     0.6986845   -0.0176083     0.7077557   -0.0075261    -0.0044899   -0.0052338 
   0.003950975     0.0028952    0.0023696     0.7047719    0.0087846     0.7096596   -0.0016136     0.0031576    0.0073975 
   0.004051001     0.0024914    0.0014748     0.6974899    0.0036972     0.7136667   -0.0029859    -0.0012763    0.0062078 
   0.004151026     0.0022031   -0.0034006     0.7100462   -0.0278143     0.7085673   -0.0037194    -0.0005743   -0.0099762 
   0.004251051     0.0014572   -0.0000829     0.7142866    0.0003696     0.7074560   -0.0030168     0.0054626    0.0019495 
   0.004351076     0.0015515   -0.0012341     0.7087482   -0.0139659     0.7117904   -0.0060396     0.0013917   -0.0040216 
   0.004451101     0.0021688   -0.0001831     0.7056586   -0.0021975     0.7123662   -0.0033729     0.0020535    0.0020848 
   0.004551126     0.0028594   -0.0001996     0.7050444   -0.0095177     0.7128432   -0.0057532     0.0001132   -0.0014800 
   0.004651151     0.0026229    0.0004265     0.7043683   -0.0052954     0.7063185   -0.0067848     0.0003375    0.0002687 
   0.004751176     0.0024988    0.0019300     0.7074286    0.0024238     0.7026584   -0.0018990     0.0028390    0.0038011 
   0.004851201     0.0051807    0.0017087     0.7237089    0.0021880     0.7062594   -0.0060673     0.0104482    0.0015423 
   0.004951226     0.0014640    0.0000765     0.7117327   -0.0035163     0.7073597   -0.0026519     0.0038258    0.0007764 
   0.005051251     0.0027907   -0.0008987     0.7148232   -0.0088708     0.7088358   -0.0031866     0.0049584   -0.0017484 
   0.005151276     0.0037331   -0.0004135     0.7165565   -0.0014600     0.7072778   -0.0029041     0.0066048    0.0008939 
   0.005251301     0.0026290    0.0012152     0.7023262   -0.0044145     0.7072176   -0.0062074    -0.0004343    0.0017655 
   0.005351326     0.0040695   -0.0008096     0.7053711   -0.0006738     0.7108880   -0.0035990     0.0019568    0.0037788 
   0.005451351     0.0037693    0.0011996     0.6983685    0.0002881     0.7105205   -0.0072631    -0.0008976    0.0047076 
   0.005551376     0.0011582   -0.0012355     0.7024916   -0.0024869     0.7089045   -0.0076810     0.0006961    0.0029030 
   0.005651401     0.0018806   -0.0007113     0.7119341   -0.0013966     0.7058070   -0.0048503     0.0044485    0.0021365 
   0.005751426     0.0037515   -0.0004668     0.7176041   -0.0207850     0.7059564   -0.0066829     0.0021905   -0.0068412 
   0.005851451     0.0022730   -0.0008468     0.6956571   -0.0005075     0.7090952   -0.0092594    -0.0027273    0.0050782 
   0.005951476     0.0019146    0.0011804     0.7047365   -0.0052223     0.7104704   -0.0047307     0.0009250    0.0016977 
   0.006051501     0.0002738   -0.0002326     0.6911758   -0.0076682     0.7067642   -0.0048630    -0.0056375    0.0040639 
   0.006151526     0.0008408   -0.0001840     0.7080859   -0.0014257     0.7050760   -0.0054060     0.0031309    0.0022831 
   0.006251551    -0.0009322    0.0033104     0.7054662    0.0049261     0.7076791   -0.0030316     0.0036290    0.0063063 
   0.006351576     0.0021580    0.0012861     0.7079484   -0.0094181     0.7103176   -0.0071504     0.0016591   -0.0007316 
   0.006451601     0.0026523   -0.0010501     0.7028245   -0.0183107     0.7082804   -0.0057767    -0.0025126   -0.0030806 
   0.006551626     0.0018029   -0.0016807     0.7133315   -0.0110762     0.7078223   -0.0057188     0.0037499   -0.0024968 
   0.006651651     0.0030146    0.0012684     0.7074828   -0.0053722     0.7111785   -0.0091677     0.0023595    0.0008912 
   0.006751676     0.0027075    0.0011881     0.7135031   -0.0039015     0.7086810   -0.0045088     0.0051228    0.0006031 
   0.006851701     0.0014843    0.0008651     0.7066358    0.0031653     0.7068119   -0.0061702     0.0035336    0.0048766 
   0.006951726     0.0057909    0.0003475     0.7167634   -0.0257517     0.7103704   -0.0049678     0.0013279   -0.0086635 
   0.007051751     0.0016407    0.0031106     0.7142044    0.0110220     0.7093647   -0.0039587     0.0091591    0.0072284 
   0.007151776     0.0030646    0.0014945     0.7097260   -0.0012813     0.7129107   -0.0073503     0.0047360    0.0032708 
   0.007251801     0.0050424    0.0000744     0.7243769   -0.0125506     0.7104722   -0.0039693     0.0074897   -0.0048837 
   0.007351826     0.0000439    0.0012332     0.6979413    0.0006024     0.7062095   -0.0056457     0.0004863    0.0065699 
   0.007451851     0.0035937    0.0012517     0.7167729   -0.0013155     0.7096617   -0.0080601     0.0072930    0.0007812 
   0.007551876     0.0017237   -0.0000231     0.7049066   -0.0015162     0.7055038   -0.0059635     0.0022546    0.0040985 
   0.007651901     0.0023006    0.0008768     0.7066604   -0.0078268     0.7041692   -0.0042877     0.0013748    0.0016575 
   0.007751926     0.0013778   -0.0002311     0.7034935   -0.0024705     0.7070058   -0.0086913     0.0016495    0.0040940 
   0.007851951     0.0030925   -0.0009681     0.7202530   -0.0129374     0.7084395   -0.0094455     0.0058732   -0.0044824 
   0.007951976     0.0019724   -0.0000369     0.7053552   -0.0004983     0.7070895   -0.0063416     0.0026710    0.0044201 
   0.008052001     0.0007562    0.0004920     0.6976982   -0.0024353     0.7063265   -0.0038904    -0.0002288    0.0062736 
   0.008152026     0.0023058    0.0008834     0.7134187   -0.0074233     0.7074684   -0.0094540     0.0046662   -0.0009107 
   0.008252051     0.0027149    0.0025332     0.7183353    0.0078081     0.7100376   -0.0093018     0.0110256    0.0037888 
   0.008352076     0.0027468   -0.0008498     0.7076741   -0.0052454     0.7085142   -0.0112171     0.0028431    0.0018878 
   0.008452101     0.0025229    0.0019957     0.7105451   -0.0038676     0.7079070   -0.0116093     0.0050338    0.0009080 
   0.008552126     0.0029049   -0.0003993     0.7175208   -0.0150609     0.7075636   -0.0076883     0.0035825   -0.0045373 
   0.008652151     0.0018803    0.0012920     0.7114012   -0.0054565     0.7061774   -0.0119364     0.0041610    0.0005068 
   0.008752176     0.0013275    0.0003478     0.7036498   -0.0070813     0.7072214   -0.0096984     0.0012699    0.0024251 
   0.008852201     0.0021400    0.0007794     0.7046599   -0.0059367     0.7097056   -0.0070928     0.0019652    0.0030757 
   0.008952226     0.0032260    0.0016205     0.7117686   -0.0020499     0.7063323   -0.0067349     0.0053413    0.0019943 
   0.009052251     0.0023314   -0.0001521     0.7090362   -0.0076635     0.7096925   -0.0129197     0.0035068    0.0004022 
   0.009152276     0.0025760    0.0014563     0.7119814   -0.0071191     0.7053645   -0.0090445     0.0044473    0.0002479 
   0.009252301     0.0047658    0.0020065     0.7141523   -0.0057974     0.7119471   -0.0099114     0.0058075   -0.0000072 
   0.009352326     0.0024757    0.0014736     0.7027749   -0.0099058     0.7087904   -0.0096263     0.0001545    0.0022686 
   0.009452351     0.0042881    0.0009305     0.7222877   -0.0159507     0.7099838   -0.0102969     0.0056076   -0.0062669 
   0.009552376     0.0028868    0.0011785     0.7062150   -0.0114259     0.7104722   -0.0087627     0.0014066    0.0008000 
   0.009652401     0.0030132   -0.0003391     0.7087609   -0.0135400     0.7070442   -0.0110334     0.0018763   -0.0010271 
   0.009752426     0.0023758    0.0012234     0.7094529   -0.0071628     0.7069042   -0.0092928     0.0040701    0.0009994 
   0.009852451     0.0041760    0.0010832     0.7171618   -0.0129659     0.7100900   -0.0116909     0.0047745   -0.0031662 
   0.009952476     0.0020861    0.0011792     0.7079403   -0.0030380     0.7089330   -0.0091776     0.0053087    0.0027728 
   0.010052501     0.0015762    0.0008431     0.7127027   -0.0041637     0.7071306   -0.0090781     0.0057526    0.0013688 
   0.010152526     0.0021708    0.0016784     0.7145144   -0.0044240     0.7044117   -0.0065891     0.0062214    0.0003400 
   0.010252551     0.0016988    0.0015303     0.7100195   -0.0001114     0.7080258   -0.0098845     0.0064205    0.0031441 
   0.010352576     0.0020693    0.0020013     0.7196935   -0.0023934     0.7098925   -0.0109939     0.0089791   -0.0006192 
   0.010452601     0.0034567   -0.0005086     0.7102149   -0.0102549     0.7105210   -0.0110634     0.0036065    0.0002966 
   0.010552626     0.0032105   -0.0003663     0.7110248   -0.0103750     0.7069579   -0.0132827     0.0032424   -0.0003038 
   0.010652651     0.0020419    0.0007109     0.7115684   -0.0045839     0.7054275   -0.0087513     0.0055610    0.0011595 
   0.010752676     0.0025926   -0.0007555     0.7080398   -0.0093929     0.7085847   -0.0085530     0.0027480    0.0013755 
   0.010852701     0.0030590    0.0005727     0.7090533   -0.0152034     0.7066546   -0.0108218     0.0013632   -0.0014704 
   0.010952726     0.0013862    0.0010000     0.7063408   -0.0066301     0.7055298   -0.0117945     0.0035845    0.0021475 
   0.011052751     0.0025294    0.0018811     0.7086995   -0.0018983     0.7102739   -0.0086467     0.0056769    0.0035463 
   0.011152776     0.0029801   -0.0003329     0.7112078   -0.0150998     0.7072091   -0.0118547     0.0021107   -0.0020668 
   0.011252801     0.0011779   -0.0009823     0.6997061   -0.0143135     0.7055732   -0.0106624    -0.0010426    0.0027844 
   0.011352826     0.0016918    0.0005603     0.7016776   -0.0051882     0.7053252   -0.0127008     0.0026226    0.0042762 
   0.011452851     0.0038797   -0.0011432     0.7120460   -0.0211934     0.7057477   -0.0132000     0.0000703   -0.0037195 
   0.011552876     0.0029022    0.0015232     0.7120395   -0.0108118     0.7076124   -0.0122165     0.0037736   -0.0005458 
   0.011652901     0.0029816   -0.0001278     0.7137312   -0.0152363     0.7074745   -0.0116916     0.0028918   -0.0026177 
   0.011752926     0.0014610    0.0013645     0.7064425   -0.0093953     0.7076760   -0.0116951     0.0028436    0.0016689 
   0.011852951     0.0021687    0.0004692     0.7024614   -0.0189136     0.7072441   -0.0128054    -0.0021785    0.0003731 
   0.011952976     0.0011071    0.0003995     0.7087926   -0.0027255     0.7081427   -0.0106589     0.0060825    0.0030485 
   0.012053002     0.0032798   -0.0008790     0.7085306   -0.0153549     0.7101005   -0.0121104     0.0021809   -0.0002800 
   0.012153027     0.0017669    0.0014731     0.7102193   -0.0128258     0.7078912   -0.0139110     0.0030770   -0.0004444 
   0.012253052     0.0016978    0.0002211     0.7028502   -0.0133494     0.7090383   -0.0115748     0.0006844    0.0025108 
   0.012353077     0.0022882    0.0010185     0.7065926   -0.0149611     0.7077027   -0.0111466     0.0007871    0.0009045 
   0.012453102     0.0027769   -0.0005304     0.7015520   -0.0197115     0.7095642   -0.0100789    -0.0024682    0.0016048 
   0.012553127     0.0030374    0.0004927     0.7097069   -0.0150572     0.7070738   -0.0129471     0.0021254   -0.0007495 
   0.012653152     0.0031574    0.0002813     0.7040256   -0.0130013     0.7064676   -0.0156004     0.0011922    0.0021279 
   0.012753177     0.0029118    0.0002121     0.7053557   -0.0120829     0.7093436   -0.0122160     0.0020728    0.0022397 
   0.012853202     0.0033410    0.0010790     0.7113431   -0.0175823     0.7045466   -0.0124008     0.0013935   -0.0021244 
   0.012953227     0.0016525    0.0002079     0.7040910   -0.0047128     0.7079205   -0.0134366     0.0049786    0.0042260 
   0.013053252     0.0037517    0.0005256     0.7226747   -0.0090008     0.7070172   -0.0128454     0.0079907   -0.0040522 
   0.013153277     0.0023300   -0.0002361     0.7066720   -0.0075345     0.7071880   -0.0136683     0.0045552    0.0025701 
   0.013253302     0.0015803   -0.0004289     0.6997184   -0.0106029     0.7077648   -0.0123290     0.0014340    0.0044879 
   0.013353327     0.0017277    0.0010262     0.7063125   -0.0179701     0.7096062   -0.0132169     0.0004877    0.0004532 
   0.013453352     0.0025038    0.0013836     0.7110460   -0.0127245     0.7089533   -0.0138423     0.0036004   -0.0004186 
   0.013553377     0.0017091    0.0014696     0.7068713   -0.0146944     0.7098026   -0.0108569     0.0021387    0.0009583 
   0.013653402     0.0041197    0.0010135     0.7144266   -0.0215107     0.7075603   -0.0151372     0.0009044   -0.0038877 
   0.013753427     0.0018815    0.0020446     0.7002966   -0.0123361     0.7073941   -0.0128354     0.0014724    0.0040262 
   0.013853452     0.0021964   -0.0005157     0.7088041   -0.0068202     0.7095857   -0.0154708     0.0057400    0.0019523 
   0.013953477     0.0015620   -0.0003254     0.7024691   -0.0258953     0.7073846   -0.0130856    -0.0039300    0.0002523 
   0.014053502     0.0024272    0.0003075     0.7112888   -0.0127249     0.7084464   -0.0117012     0.0038933   -0.0002057 
   0.014153527     0.0030046    0.0017259     0.7122700   -0.0105902     0.7086151   -0.0141394     0.0052181   -0.0001918 
   0.014253552     0.0027699   -0.0006736     0.7115782   -0.0163346     0.7074015   -0.0146005     0.0024008   -0.0011073 
   0.014353577     0.0005331    0.0012882     0.7059467   -0.0061171     0.7062275   -0.0143219     0.0053619    0.0028691 
   0.014453602     0.0017594    0.0001967     0.7100124   -0.0161779     0.7080766   -0.0160290     0.0024703   -0.0003986 
   0.014553627     0.0019793    0.0012312     0.7090876   -0.0079824     0.7078078   -0.0132961     0.0056056    0.0013159 
   0.014653652     0.0024866    0.0010582     0.7056149   -0.0070219     0.7120290   -0.0135156     0.0056619    0.0035663 
   0.014753677     0.0021771    0.0011067     0.7010777   -0.0117339     0.7081081   -0.0158493     0.0027863    0.0042215 
   0.014853702     0.0033656    0.0002193     0.7125466   -0.0166118     0.7089964   -0.0149139     0.0024142   -0.0012158 
   0.014953727     0.0015733    0.0000205     0.6999089   -0.0222744     0.7060563   -0.0156227    -0.0024653    0.0026069 
   0.015053752     0.0030652   -0.0002516     0.7097612   -0.0206941     0.7059737   -0.0154442     0.0003373   -0.0014803 
   0.015153777     0.0022045    0.0005683     0.7085068   -0.0089313     0.7078851   -0.0128858     0.0048914    0.0017129 
   0.015253802     0.0026092    0.0012512     0.7129354   -0.0207403     0.7038856   -0.0155581     0.0009363   -0.0031127 
   0.015353827     0.0024101    0.0014277     0.7224355   -0.0144982     0.7069127   -0.0144197     0.0049269   -0.0058781 
   0.015453852     0.0015709    0.0014977     0.7094362   -0.0027431     0.7077957   -0.0165402     0.0081742    0.0021380 
   0.015553877     0.0016329    0.0000032     0.7020419   -0.0213857     0.7048530   -0.0155266    -0.0012460    0.0021019 
   0.015653902     0.0023143    0.0014268     0.7090061   -0.0085929     0.7069840   -0.0153267     0.0058578    0.0015614 
