! 19-Feb-26 1:15:10 PM
! E:\VNA_MEASUREMENTS\RECBLOCK\ADAPTERA.S2P
! CHANNEL.1
! TR.MEASUREMENT
! CORRECTED.DATA
# GHZ S RI R 50.0
! FREQ.GHZ         S11RE         S11IM         S21RE         S21IM         S12RE         S12IM         S22RE         S22IM         
!; PortSelection: Port_12
   0.000050000     0.0188458    1.6764800    -0.0882576    1.7835170    -0.2324993    0.2415724    -1.4352870   -0.5725332 
   0.000150025     0.0644454   -0.1210584    -1.1353080    0.9052988     1.0752590   -0.0626043    -1.7246010   -0.0428063 
   0.000250050    -0.9286641    0.3638513     2.3170240    0.2094532     0.2914117    0.1041331     0.8810945    0.3642767 
   0.000350075     0.0013987   -0.0028696     1.0092040   -0.0016708     1.0103730    0.0059642     0.0098696   -0.0013944 
   0.000450100     0.0024205   -0.0017361     1.0262940   -0.0006124     0.9962838    0.0004947     0.0186383    0.0030496 
   0.000550125     0.0029090   -0.0035551     1.0169900   -0.0180417     0.9977579   -0.0033279     0.0114652   -0.0113035 
   0.000650150    -0.0022835   -0.0063129     1.0112730   -0.0320041     1.0007160   -0.0017198     0.0087451   -0.0200393 
   0.000750175    -0.0045085    0.0034691     0.9634665    0.0100049     1.0077990   -0.0011450    -0.0232362    0.0066071 
   0.000850200     0.0009135   -0.0014881     1.0197650   -0.0181931     1.0042240   -0.0042313     0.0140635   -0.0131748 
   0.000950225    -0.0013989    0.0048169     0.9797755    0.0118461     0.9943871    0.0008327    -0.0146891    0.0099016 
   0.001050250    -0.0051450   -0.0019506     0.9710813   -0.0090743     0.9951798   -0.0043261    -0.0205833   -0.0050116 
   0.001150275     0.0006645    0.0032080     1.0048450    0.0207732     0.9901196   -0.0046208     0.0023571    0.0143254 
   0.001250300    -0.0028590   -0.0018732     0.9873400   -0.0069955     0.9952277   -0.0105391    -0.0109486   -0.0035129 
   0.001350325     0.0030228   -0.0018428     1.0267620    0.0155234     0.9966055   -0.0097711     0.0178437    0.0095000 
   0.001450350     0.0012150   -0.0032088     0.9921664   -0.0079420     1.0087950   -0.0052783    -0.0049398   -0.0041223 
   0.001550375     0.0013326    0.0013361     0.9741628    0.0046502     0.9984924   -0.0006527    -0.0169828    0.0060163 
   0.001650400    -0.0013031   -0.0021030     0.9783915   -0.0080848     1.0003000    0.0014100    -0.0140206   -0.0025878 
   0.001750425    -0.0003495   -0.0013354     1.0078810   -0.0150238     0.9981478    0.0043593     0.0042026   -0.0084237 
   0.001850450     0.0004632   -0.0014411     0.9963058   -0.0145572     1.0047060   -0.0040294    -0.0028780   -0.0083160 
   0.001950475     0.0019121    0.0003272     1.0063480    0.0005781     1.0018330   -0.0015207     0.0052088    0.0018062 
   0.002050500     0.0022479   -0.0010148     1.0034700   -0.0059977     0.9983826   -0.0029773     0.0008658   -0.0024479 
   0.002150525     0.0023925   -0.0005830     1.0053540    0.0090869     1.0017730   -0.0009545     0.0050674    0.0075724 
   0.002250550     0.0004403   -0.0000472     1.0048750    0.0185433     1.0067960    0.0002768     0.0062746    0.0146593 
   0.002350575    -0.0029283    0.0000039     0.9890551    0.0000607     0.9986343   -0.0039261    -0.0066826    0.0026193 
   0.002450600    -0.0033417    0.0009447     0.9742054    0.0240006     0.9971488   -0.0015440    -0.0140630    0.0207533 
   0.002550625     0.0027046    0.0007192     1.0253310    0.0268573     1.0005030   -0.0073549     0.0214390    0.0163606 
   0.002650650    -0.0010064   -0.0012572     1.0013750   -0.0114897     0.9942201    0.0008079    -0.0001739   -0.0052132 
   0.002750675    -0.0016694   -0.0001740     1.0005430   -0.0080259     1.0006700    0.0035447     0.0007589   -0.0026691 
   0.002850700    -0.0010194   -0.0009738     0.9945697   -0.0152223     0.9973788   -0.0023330    -0.0055336   -0.0060844 
   0.002950725     0.0003302    0.0003996     1.0080350   -0.0116309     1.0003030   -0.0017605     0.0044247   -0.0059809 
   0.003050750     0.0015446   -0.0023248     1.0030870   -0.0246953     1.0013670   -0.0034678    -0.0004519   -0.0142503 
   0.003150775    -0.0006362    0.0020075     1.0051430    0.0010648     1.0012830   -0.0072917     0.0048720    0.0021923 
   0.003250800     0.0001430   -0.0001975     0.9807642   -0.0161734     1.0022990   -0.0038230    -0.0136656   -0.0048466 
   0.003350825     0.0003179   -0.0011398     0.9981445   -0.0070804     0.9969850   -0.0031023    -0.0018301   -0.0008673 
   0.003450850     0.0004087   -0.0012771     0.9882919   -0.0136724     0.9984927   -0.0106864    -0.0092128   -0.0048517 
   0.003550875     0.0013689   -0.0014646     1.0037050   -0.0008653     1.0028610   -0.0110502     0.0037019    0.0007127 
   0.003650900     0.0024653   -0.0013427     1.0043800   -0.0232208     0.9972911    0.0012214    -0.0002836   -0.0125257 
   0.003750925    -0.0032460   -0.0018276     0.9784481   -0.0184723     0.9952629   -0.0016178    -0.0160185   -0.0046901 
   0.003850950     0.0036164   -0.0020343     1.0052320   -0.0156383     0.9991470   -0.0072479     0.0002385   -0.0075399 
   0.003950975    -0.0024813    0.0039037     0.9940040    0.0202568     0.9977300    0.0001029     0.0013266    0.0172599 
   0.004051001    -0.0004840    0.0000846     0.9819832    0.0016996     0.9990535   -0.0040648    -0.0099200    0.0079548 
   0.004151026    -0.0017266    0.0005193     0.9865317   -0.0130703     0.9958113   -0.0050886    -0.0102870   -0.0028649 
   0.004251051     0.0046792   -0.0025377     1.0299690   -0.0274283     1.0046810   -0.0017395     0.0153892   -0.0203431 
   0.004351076     0.0006387   -0.0012777     0.9933505   -0.0112323     1.0045920   -0.0044648    -0.0044846   -0.0024735 
   0.004451101    -0.0009406   -0.0020981     1.0029630   -0.0116366     1.0029460   -0.0094218     0.0009465   -0.0052784 
   0.004551126    -0.0009097    0.0013961     0.9835697   -0.0020622     1.0019380   -0.0042022    -0.0093304    0.0056166 
   0.004651151    -0.0000227   -0.0020264     0.9905142   -0.0113182     0.9960328   -0.0028118    -0.0069543   -0.0011704 
   0.004751176     0.0003810    0.0021978     0.9941006    0.0094983     0.9970400   -0.0006544     0.0005745    0.0106799 
   0.004851201     0.0024099    0.0012345     1.0069510    0.0135380     0.9964811   -0.0045319     0.0093145    0.0104142 
   0.004951226     0.0003516   -0.0001779     0.9956045   -0.0071653     1.0001650   -0.0065110    -0.0026742    0.0002816 
   0.005051251     0.0001272   -0.0009694     1.0050650   -0.0122446     1.0016340   -0.0039057     0.0022612   -0.0049539 
   0.005151276     0.0020558    0.0005396     1.0162130   -0.0087510     0.9990659   -0.0005095     0.0098728   -0.0051124 
   0.005251301     0.0007628    0.0003594     1.0057370   -0.0146674     0.9964435   -0.0090601     0.0010466   -0.0073762 
   0.005351326    -0.0008657   -0.0019424     0.9887561   -0.0125620     0.9977458   -0.0052675    -0.0082285   -0.0011669 
   0.005451351     0.0011968   -0.0006289     0.9882652   -0.0204041     1.0050890   -0.0076061    -0.0100695   -0.0055725 
   0.005551376     0.0004218    0.0001379     0.9912269   -0.0055314     0.9997674   -0.0058177    -0.0050834    0.0030172 
   0.005651401    -0.0028949    0.0021158     0.9978448    0.0022336     0.9981800   -0.0031711     0.0016903    0.0062914 
   0.005751426     0.0019846    0.0010679     1.0028130   -0.0113579     1.0003180   -0.0085562     0.0005141   -0.0033891 
   0.005851451     0.0007244    0.0007361     1.0018480    0.0100743     0.9990574   -0.0050858     0.0059657    0.0098501 
   0.005951476     0.0010569    0.0008106     0.9990019   -0.0094205     1.0000090   -0.0018683    -0.0012413   -0.0009015 
   0.006051501    -0.0027900    0.0006220     0.9841173   -0.0093263     0.9966080   -0.0038367    -0.0106365    0.0033931 
   0.006151526    -0.0008317    0.0010542     0.9869307    0.0011510     0.9985746   -0.0010459    -0.0045502    0.0091436 
   0.006251551    -0.0008713    0.0011966     0.9949557    0.0081085     0.9985179   -0.0046856     0.0017499    0.0113522 
   0.006351576     0.0015772    0.0008263     1.0110020   -0.0030707     1.0024290   -0.0074859     0.0086288   -0.0006377 
   0.006451601     0.0022649   -0.0002344     1.0197910   -0.0187002     0.9974846   -0.0029317     0.0080131   -0.0124964 
   0.006551626    -0.0010881    0.0006983     0.9983617   -0.0122734     1.0001500   -0.0019631    -0.0014159   -0.0020782 
   0.006651651    -0.0012391   -0.0001619     0.9872665   -0.0101303     0.9990997   -0.0073681    -0.0079016    0.0024999 
   0.006751676     0.0018721   -0.0000056     1.0074560   -0.0080408     1.0028480   -0.0064760     0.0051382   -0.0023605 
   0.006851701     0.0017129    0.0022279     1.0074960    0.0002515     1.0045370   -0.0044413     0.0076284    0.0019077 
   0.006951726     0.0026520    0.0004861     1.0039430   -0.0209142     1.0007460   -0.0045568    -0.0014364   -0.0084252 
   0.007051751    -0.0004732    0.0023131     1.0055710    0.0051524     1.0000150   -0.0057429     0.0077734    0.0053189 
   0.007151776    -0.0023025   -0.0004462     0.9913490    0.0017248     1.0016570   -0.0110149    -0.0007980    0.0086026 
   0.007251801    -0.0006336    0.0006385     0.9959978   -0.0115655     0.9986383   -0.0033525    -0.0034124   -0.0004816 
   0.007351826    -0.0010567    0.0011715     0.9905353    0.0039868     0.9956037   -0.0025849    -0.0009385    0.0106581 
   0.007451851     0.0001152    0.0014635     1.0112080   -0.0022356     0.9968598   -0.0100702     0.0083464   -0.0007716 
   0.007551876    -0.0022877    0.0003258     0.9945237    0.0012243     0.9945616   -0.0050907     0.0007518    0.0070007 
   0.007651901     0.0003441    0.0011351     1.0029740   -0.0036397     0.9976438   -0.0107037     0.0033196    0.0015189 
   0.007751926    -0.0011088   -0.0002200     0.9892048   -0.0072575     0.9978571   -0.0104161    -0.0050955    0.0045135 
   0.007851951     0.0012703    0.0002401     1.0096890   -0.0055936     1.0019930   -0.0111496     0.0071204   -0.0022089 
   0.007951976    -0.0000587    0.0026056     1.0028930    0.0042920     0.9999830   -0.0064102     0.0067227    0.0058406 
   0.008052001    -0.0013033   -0.0004991     0.9766533   -0.0078341     0.9970151   -0.0081976    -0.0116275    0.0094535 
   0.008152026    -0.0001065    0.0021148     1.0000640   -0.0010442     1.0000180   -0.0082252     0.0039669    0.0037516 
   0.008252051    -0.0007150    0.0028566     0.9974788    0.0166245     0.9987627   -0.0116594     0.0091629    0.0145158 
   0.008352076    -0.0004711    0.0001158     0.9928325   -0.0002937     0.9988188   -0.0121780    -0.0001978    0.0074349 
   0.008452101    -0.0007293    0.0009565     0.9985636   -0.0077538     0.9982885   -0.0109122     0.0008246    0.0008686 
   0.008552126    -0.0003463    0.0000411     1.0126010   -0.0077333     0.9956453   -0.0064844     0.0071027   -0.0042477 
   0.008652151    -0.0004067    0.0004893     0.9971117   -0.0072209     0.9973395   -0.0070990    -0.0010600    0.0026614 
   0.008752176     0.0002751   -0.0007556     0.9928386   -0.0174985     0.9986753   -0.0108181    -0.0063051   -0.0011668 
   0.008852201     0.0012210    0.0021126     0.9999641   -0.0068797     1.0005570   -0.0094447     0.0015604    0.0017184 
   0.008952226    -0.0001717    0.0011814     0.9975107   -0.0008395     0.9937831   -0.0076265     0.0022252    0.0055477 
   0.009052251    -0.0010285   -0.0004211     1.0007390   -0.0159567     0.9987496   -0.0130107    -0.0020283   -0.0033490 
   0.009152276     0.0002687    0.0009719     1.0087730   -0.0046548     0.9969244   -0.0098250     0.0068822   -0.0008825 
   0.009252301     0.0001870    0.0014238     0.9874203   -0.0085059     1.0014070   -0.0108091    -0.0053290    0.0064176 
   0.009352326     0.0007186   -0.0003203     0.9860114   -0.0064043     1.0018610   -0.0100230    -0.0053916    0.0085765 
   0.009452351     0.0016542    0.0007689     1.0074120   -0.0181006     1.0019600   -0.0094312     0.0009186   -0.0068977 
   0.009552376     0.0002518    0.0013672     1.0054970   -0.0101567     1.0021320   -0.0089322     0.0035910   -0.0017272 
   0.009652401    -0.0001775    0.0025407     0.9985178   -0.0033114     1.0012130   -0.0095116     0.0037422    0.0040578 
   0.009752426    -0.0005348    0.0007131     0.9944255   -0.0060638     0.9967974   -0.0105301    -0.0001396    0.0045658 
   0.009852451     0.0020589    0.0002434     1.0017530   -0.0183237     1.0028660   -0.0124132    -0.0017056   -0.0040228 
   0.009952476    -0.0000649    0.0004419     0.9908348   -0.0100119     0.9989308   -0.0097672    -0.0035522    0.0047819 
   0.010052501    -0.0000088    0.0018192     1.0058280   -0.0014845     0.9941116   -0.0078737     0.0067576    0.0021436 
   0.010152526    -0.0017912    0.0018830     0.9998112    0.0075385     0.9971717   -0.0079261     0.0083432    0.0087355 
   0.010252551    -0.0006174    0.0021804     1.0006270   -0.0057236     0.9950636   -0.0082017     0.0024586    0.0019680 
   0.010352576     0.0006472    0.0032152     1.0121380   -0.0045507     1.0009890   -0.0068493     0.0093839   -0.0017449 
   0.010452601     0.0003244    0.0010424     1.0048850    0.0012022     1.0020780   -0.0059876     0.0086461    0.0044154 
   0.010552626     0.0012550    0.0012978     1.0074800   -0.0019683     0.9969007   -0.0147360     0.0080002    0.0002558 
   0.010652651    -0.0007523    0.0001511     0.9990168   -0.0029821     1.0000810   -0.0133955     0.0039002    0.0042788 
   0.010752676     0.0016342    0.0027591     1.0112880   -0.0033812     1.0010210   -0.0082016     0.0093567   -0.0014771 
   0.010852701     0.0019506    0.0008751     0.9941587   -0.0141714     1.0012920   -0.0106526    -0.0038097    0.0023499 
   0.010952726    -0.0010073    0.0014870     0.9942301   -0.0034586     0.9924450   -0.0077175     0.0015093    0.0066155 
   0.011052751    -0.0004451    0.0020214     0.9966686   -0.0072227     1.0008240   -0.0089420     0.0011232    0.0037492 
   0.011152776     0.0006414    0.0005519     1.0024700   -0.0118864     1.0013860   -0.0100477     0.0014037   -0.0010379 
   0.011252801     0.0002359    0.0010056     0.9915470   -0.0099576     1.0013110   -0.0118270    -0.0019035    0.0052546 
   0.011352826    -0.0003245    0.0012846     0.9982030    0.0012202     0.9969622   -0.0114125     0.0061130    0.0065082 
   0.011452851     0.0010849    0.0001981     1.0011270   -0.0188803     0.9974508   -0.0130228    -0.0029363   -0.0037721 
   0.011552876     0.0006329   -0.0005124     0.9999637   -0.0107780     0.9977817   -0.0101915     0.0009891    0.0008082 
   0.011652901    -0.0006588    0.0018018     1.0058630    0.0014767     0.9985832   -0.0120365     0.0097242    0.0027336 
   0.011752926     0.0000648    0.0020096     1.0062990   -0.0028911     1.0002460   -0.0106470     0.0076732    0.0011723 
   0.011852951    -0.0012508   -0.0015869     0.9818421   -0.0157479     1.0005160   -0.0151504    -0.0086103    0.0080873 
   0.011952976    -0.0000956   -0.0000909     0.9965737   -0.0114725     1.0004290   -0.0111596    -0.0006695    0.0024628 
   0.012053002     0.0006761    0.0003133     1.0015310   -0.0157560     1.0013380   -0.0113562    -0.0002389   -0.0015000 
   0.012153027     0.0008208    0.0009879     1.0024480   -0.0204587     1.0008450   -0.0147823    -0.0024797   -0.0039249 
   0.012253052    -0.0011081   -0.0002022     0.9947999   -0.0169031     0.9980266   -0.0118172    -0.0042179    0.0012937 
   0.012353077     0.0015188   -0.0005906     0.9958314   -0.0221596     0.9971529   -0.0117979    -0.0064742   -0.0009794 
   0.012453102     0.0008024    0.0008665     0.9903877   -0.0196827     1.0019170   -0.0087838    -0.0070793    0.0037328 
   0.012553127     0.0007885   -0.0009130     0.9858947   -0.0171021     0.9965947   -0.0130637    -0.0073467    0.0065223 
   0.012653152     0.0013711    0.0013827     1.0107910   -0.0182460     0.9992111   -0.0127856     0.0022181   -0.0072346 
   0.012753177    -0.0002853    0.0006673     0.9942183   -0.0081399     0.9984460   -0.0136699     0.0009716    0.0054437 
   0.012853202     0.0011539    0.0009718     1.0001380   -0.0175255     0.9993683   -0.0116121    -0.0019702   -0.0012161 
   0.012953227    -0.0005965    0.0000455     0.9945946   -0.0063227     1.0015100   -0.0120538     0.0020951    0.0063744 
   0.013053252     0.0012810    0.0004614     1.0070420   -0.0071201     1.0006740   -0.0119870     0.0066111   -0.0011631 
   0.013153277     0.0008787    0.0008290     0.9982241   -0.0090639     0.9991972   -0.0130855     0.0019089    0.0032492 
   0.013253302    -0.0021317    0.0005684     0.9930107   -0.0063830     0.9970221   -0.0093780     0.0014403    0.0070619 
   0.013353327    -0.0006207    0.0002430     0.9920088   -0.0178042     0.9994407   -0.0122177    -0.0046084    0.0038154 
   0.013453352     0.0002285   -0.0002632     0.9988148   -0.0180001     1.0013620   -0.0159281    -0.0023653   -0.0000132 
   0.013553377     0.0010305    0.0011459     1.0099280   -0.0254732     1.0017420   -0.0090819    -0.0031729   -0.0089956 
   0.013653402     0.0008690    0.0017284     1.0042870   -0.0191191     0.9985177   -0.0153597    -0.0012201   -0.0039276 
   0.013753427    -0.0006033    0.0011444     0.9987670   -0.0143471     0.9987924   -0.0140429     0.0000384    0.0008702 
   0.013853452     0.0012805    0.0014303     1.0094690   -0.0029551     1.0025070   -0.0159624     0.0107606   -0.0011861 
   0.013953477     0.0004588    0.0011768     1.0013150   -0.0166463     0.9992373   -0.0132670    -0.0005567   -0.0007312 
   0.014053502    -0.0005664    0.0013163     1.0045120   -0.0084739     0.9973708   -0.0134331     0.0053915   -0.0006870 
   0.014153527    -0.0007153    0.0032252     1.0021690   -0.0010163     0.9979847   -0.0119763     0.0093686    0.0033809 
   0.014253552    -0.0002885   -0.0001047     1.0034690   -0.0087340     0.9995191   -0.0158254     0.0049042    0.0002847 
   0.014353577     0.0004319    0.0002098     0.9879317   -0.0116336     0.9979405   -0.0092655    -0.0022711    0.0088155 
   0.014453602    -0.0008577    0.0015119     0.9996973   -0.0030741     0.9977269   -0.0164098     0.0072349    0.0038179 
   0.014553627    -0.0001751    0.0009944     1.0040270   -0.0065610     0.9981129   -0.0129851     0.0063515    0.0003999 
   0.014653652     0.0000661    0.0010229     0.9920323    0.0005555     1.0013160   -0.0140686     0.0073468    0.0100185 
   0.014753677    -0.0016160    0.0013281     0.9965090   -0.0052425     0.9993787   -0.0117518     0.0055006    0.0056142 
   0.014853702     0.0013054    0.0002533     1.0049510   -0.0194873     1.0003410   -0.0140389    -0.0012230   -0.0033189 
   0.014953727    -0.0002915    0.0018440     0.9988474   -0.0154203     1.0003730   -0.0134712     0.0000795    0.0012525 
   0.015053752     0.0014138    0.0009725     1.0028470   -0.0167237     0.9992127   -0.0149064     0.0004888   -0.0014227 
   0.015153777     0.0009498    0.0000063     1.0005660   -0.0164793     1.0014180   -0.0160057    -0.0001457   -0.0001206 
   0.015253802     0.0018433    0.0008970     1.0075930   -0.0220266     0.9982571   -0.0158458    -0.0016422   -0.0060728 
   0.015353827     0.0009946    0.0012454     1.0073970   -0.0154862     0.9988321   -0.0177619     0.0025333   -0.0042215 
   0.015453852     0.0018176    0.0029291     1.0171500   -0.0146114     1.0001730   -0.0172917     0.0054772   -0.0098558 
   0.015553877    -0.0001280   -0.0014091     0.9878599   -0.0162640     0.9962836   -0.0207501    -0.0024273    0.0074267 
   0.015653902     0.0013909   -0.0015259     0.9940197   -0.0147094     0.9972837   -0.0166455    -0.0003061    0.0042919 
