! 19-Feb-26 2:24:13 PM
! E:\VNA_MEASUREMENTS\RECBLOCK\ADAPTERB1.S2P
! CHANNEL.1
! TR.MEASUREMENT
! CORRECTED.DATA
# GHZ S RI R 50.0
! FREQ.GHZ         S11RE         S11IM         S21RE         S21IM         S12RE         S12IM         S22RE         S22IM         
!; PortSelection: Port_12
   0.000050000     0.0772336    3.3839110    -1.6081570    2.9559840    -1.4856610    0.4795715    -2.4424860   -1.5489040 
   0.000150025    -0.2678835    0.2398112    -0.9624799    1.6597440     0.7449719    0.0780122    -1.8476190    0.5214416 
   0.000250050    -1.0379620    0.6524078     2.0570290   -0.6725209     0.1691843    0.2863171     0.8439055   -0.2966265 
   0.000350075     0.0039829   -0.0061624     1.0247000   -0.0000452     1.0104390    0.0056602     0.0195407    0.0018834 
   0.000450100     0.0005087   -0.0013862     0.9992905   -0.0014974     0.9948550    0.0070497     0.0000109    0.0014016 
   0.000550125     0.0035583    0.0010105     1.0193290    0.0052471     0.9947775    0.0016287     0.0116148    0.0057335 
   0.000650150    -0.0020864   -0.0016207     0.9942830   -0.0127036     1.0007590    0.0007944    -0.0033565   -0.0076233 
   0.000750175    -0.0048615    0.0008247     0.9683780    0.0030379     0.9999635   -0.0027138    -0.0213863    0.0018784 
   0.000850200     0.0029509   -0.0001638     1.0010990    0.0000004     1.0077430   -0.0057814     0.0017040   -0.0014105 
   0.000950225     0.0009282    0.0023240     1.0070360   -0.0057190     1.0033420   -0.0045265     0.0047505   -0.0039255 
   0.001050250    -0.0039151   -0.0020471     0.9706071   -0.0119378     0.9995314   -0.0073639    -0.0204324   -0.0075077 
   0.001150275     0.0025767    0.0013602     1.0103530    0.0187958     1.0032810   -0.0031264     0.0078167    0.0124980 
   0.001250300    -0.0004264   -0.0003330     0.9938371    0.0311857     0.9960458   -0.0114482    -0.0046286    0.0220061 
   0.001350325    -0.0006233   -0.0038889     1.0244200    0.0020427     0.9846152   -0.0100428     0.0153256    0.0021539 
   0.001450350     0.0024919    0.0001727     1.0102400    0.0017970     1.0038590   -0.0050348     0.0068437    0.0019366 
   0.001550375     0.0044464   -0.0002093     0.9941347   -0.0004277     0.9986391    0.0033697    -0.0033114    0.0020023 
   0.001650400     0.0029446    0.0005441     0.9800379    0.0152235     1.0046970    0.0031308    -0.0115980    0.0133301 
   0.001750425    -0.0025226   -0.0006946     0.9715804   -0.0205107     0.9950846    0.0002209    -0.0206408   -0.0092096 
   0.001850450     0.0003966   -0.0021579     0.9903536   -0.0227931     0.9976891   -0.0049213    -0.0074715   -0.0121687 
   0.001950475     0.0016717    0.0016434     1.0153960    0.0160193     0.9995792   -0.0039927     0.0122956    0.0117835 
   0.002050500    -0.0000050   -0.0020138     1.0035100   -0.0248582     0.9979274   -0.0030323     0.0003133   -0.0151867 
   0.002150525     0.0017618    0.0015733     0.9938411    0.0102959     1.0044220    0.0039888    -0.0013439    0.0103110 
   0.002250550     0.0013089    0.0005007     0.9964704    0.0171913     1.0037600    0.0007113     0.0008410    0.0144946 
   0.002350575     0.0020518   -0.0009721     1.0171330   -0.0125262     0.9976655   -0.0002060     0.0107255   -0.0077106 
   0.002450600    -0.0042941    0.0005674     0.9698926    0.0101713     1.0008210   -0.0026496    -0.0179510    0.0125631 
   0.002550625     0.0024129   -0.0029534     1.0177980    0.0063665     0.9976167   -0.0096601     0.0135401    0.0040120 
   0.002650650     0.0000971    0.0010371     0.9974787   -0.0013661     0.9975709   -0.0042280    -0.0012103    0.0019133 
   0.002750675    -0.0001704    0.0018527     0.9984506   -0.0119314     1.0038970    0.0036476    -0.0006602   -0.0040772 
   0.002850700    -0.0021656    0.0011069     0.9818274    0.0209907     0.9985152    0.0036912    -0.0090096    0.0201774 
   0.002950725     0.0003818    0.0010869     1.0092950   -0.0036108     1.0029060   -0.0025355     0.0073731   -0.0010817 
   0.003050750    -0.0019642   -0.0005522     0.9742904   -0.0159236     0.9954369   -0.0034072    -0.0182119   -0.0036850 
   0.003150775     0.0011244    0.0026231     1.0177520   -0.0005239     1.0028820   -0.0051914     0.0134911   -0.0004776 
   0.003250800     0.0025718   -0.0003260     1.0062860   -0.0033091     1.0070850   -0.0111778     0.0058182   -0.0010087 
   0.003350825    -0.0012616   -0.0010132     0.9734397   -0.0150628     0.9957142   -0.0074979    -0.0182219   -0.0024547 
   0.003450850    -0.0009902   -0.0033597     0.9902839   -0.0184970     0.9901038   -0.0121718    -0.0091466   -0.0082144 
   0.003550875     0.0034651    0.0002357     1.0067930    0.0198526     0.9970265   -0.0076918     0.0085258    0.0144466 
   0.003650900     0.0020255   -0.0002063     1.0031840   -0.0172954     0.9961613   -0.0013802     0.0003730   -0.0080736 
   0.003750925     0.0002916   -0.0010662     1.0057610   -0.0134473     0.9938041   -0.0045865     0.0025129   -0.0061270 
   0.003850950     0.0016076   -0.0005529     0.9903343   -0.0153366     0.9981499   -0.0077757    -0.0087920   -0.0046039 
   0.003950975    -0.0023021    0.0029768     0.9726533    0.0049116     0.9982501    0.0017356    -0.0142473    0.0132033 
   0.004051001     0.0016264    0.0005941     0.9990635    0.0027999     1.0018180   -0.0038749     0.0024722    0.0060566 
   0.004151026    -0.0005172   -0.0004647     0.9832594   -0.0170311     0.9968998   -0.0033850    -0.0130930   -0.0037423 
   0.004251051     0.0007189   -0.0035795     1.0056720   -0.0214777     1.0009860   -0.0088266     0.0014406   -0.0111728 
   0.004351076     0.0002981   -0.0025334     0.9944406   -0.0185317     0.9995226   -0.0058619    -0.0050827   -0.0070563 
   0.004451101     0.0011534    0.0011719     1.0125900   -0.0024214     1.0026350   -0.0030222     0.0096806   -0.0000378 
   0.004551126    -0.0021368    0.0007172     0.9777828   -0.0068556     0.9984134   -0.0014534    -0.0136667    0.0050350 
   0.004651151     0.0007019   -0.0038167     0.9864247   -0.0212250     0.9991247   -0.0129585    -0.0113958   -0.0067402 
   0.004751176     0.0001029    0.0032499     0.9949552    0.0022299     0.9914066    0.0038010    -0.0011974    0.0069599 
   0.004851201     0.0005411    0.0034664     1.0024690    0.0105822     0.9942043   -0.0038377     0.0061657    0.0101489 
   0.004951226     0.0020134    0.0000451     0.9957552   -0.0078648     0.9998844   -0.0055820    -0.0023260    0.0007889 
   0.005051251     0.0008185    0.0002521     1.0056930   -0.0018929     0.9998656   -0.0019408     0.0054915    0.0022892 
   0.005151276     0.0034098    0.0015056     1.0204290    0.0022256     1.0012400   -0.0030358     0.0163891    0.0005757 
   0.005251301     0.0006354   -0.0009973     0.9975492   -0.0217476     0.9948049   -0.0057606    -0.0049986   -0.0082638 
   0.005351326     0.0017019   -0.0009339     0.9951429   -0.0099492     0.9995702   -0.0051736    -0.0033180   -0.0008013 
   0.005451351     0.0007514    0.0005283     0.9790528    0.0024312     1.0007300   -0.0048940    -0.0092662    0.0121256 
   0.005551376     0.0012794   -0.0009100     0.9862937   -0.0105843     0.9996770   -0.0091115    -0.0087815    0.0016538 
   0.005651401     0.0002489    0.0029907     1.0076260    0.0032297     0.9975445   -0.0042421     0.0081411    0.0044508 
   0.005751426     0.0031846   -0.0009369     1.0011770   -0.0105998     1.0035650   -0.0082271     0.0007856   -0.0015200 
   0.005851451     0.0020325    0.0018510     0.9922127   -0.0009789     0.9977893   -0.0077880    -0.0025553    0.0058743 
   0.005951476     0.0001299    0.0017456     0.9897476    0.0039787     1.0006100   -0.0032364    -0.0020563    0.0101360 
   0.006051501    -0.0002594    0.0022367     0.9966190    0.0043690     0.9992139   -0.0049203     0.0020330    0.0092868 
   0.006151526     0.0007277    0.0017008     0.9902238    0.0087820     1.0012700   -0.0042464     0.0009200    0.0131896 
   0.006251551    -0.0012069    0.0007900     1.0040080   -0.0059982     0.9978778   -0.0112505     0.0041799    0.0002805 
   0.006351576     0.0012571    0.0002154     0.9993417   -0.0114321     1.0008830   -0.0079646    -0.0001604   -0.0012745 
   0.006451601     0.0012732    0.0000108     0.9982377   -0.0176268     0.9980499   -0.0061645    -0.0033714   -0.0040763 
   0.006551626     0.0001305    0.0018990     1.0107930   -0.0022072     1.0002480   -0.0063737     0.0100432    0.0003277 
   0.006651651     0.0020844   -0.0003356     1.0008040   -0.0235050     0.9990710   -0.0115452    -0.0039216   -0.0091919 
   0.006751676     0.0010261    0.0011227     1.0004110    0.0001556     1.0018870   -0.0077790     0.0047243    0.0049497 
   0.006851701     0.0006364    0.0015517     1.0181020   -0.0008105     0.9991456   -0.0070554     0.0134789   -0.0018566 
   0.006951726     0.0025907    0.0004244     1.0074350   -0.0153364     0.9998891   -0.0083706     0.0026941   -0.0060767 
   0.007051751     0.0003528    0.0006066     0.9991632    0.0012844     1.0022280   -0.0035862     0.0038583    0.0070870 
   0.007151776    -0.0008486   -0.0014724     0.9906636   -0.0161261     0.9972280   -0.0151224    -0.0068543   -0.0014207 
   0.007251801     0.0000931    0.0010559     1.0033520   -0.0026115     0.9997826   -0.0104786     0.0059757    0.0025213 
   0.007351826    -0.0022086    0.0000865     0.9872075    0.0049764     0.9913179   -0.0078110    -0.0019309    0.0121731 
   0.007451851     0.0011282    0.0004086     1.0013890   -0.0015288     1.0023560   -0.0100068     0.0048351    0.0038415 
   0.007551876    -0.0011659    0.0021610     0.9861361    0.0001705     1.0011390   -0.0029368    -0.0034956    0.0114054 
   0.007651901    -0.0008108    0.0027118     0.9951396    0.0035880     0.9933541   -0.0064439     0.0020731    0.0091018 
   0.007751926    -0.0006308    0.0020304     0.9883527    0.0062591     0.9980235   -0.0097437     0.0005749    0.0129448 
   0.007851951    -0.0010217    0.0011435     0.9982846   -0.0087165     0.9983251   -0.0087074     0.0000967    0.0014800 
   0.007951976     0.0013075    0.0049973     1.0037680    0.0143310     0.9989889   -0.0021355     0.0112343    0.0122421 
   0.008052001     0.0005561    0.0005215     0.9854212   -0.0053823     0.9991692   -0.0054996    -0.0050999    0.0085918 
   0.008152026     0.0002198    0.0009971     1.0003160   -0.0107349     0.9986755   -0.0083175     0.0011912   -0.0005988 
   0.008252051    -0.0009630    0.0030116     1.0031840    0.0153761     0.9986672   -0.0125748     0.0131719    0.0125385 
   0.008352076     0.0004967   -0.0002978     0.9887608   -0.0054659     0.9998515   -0.0080781    -0.0032618    0.0077441 
   0.008452101     0.0010343    0.0010198     1.0150470   -0.0064613     0.9991729   -0.0092105     0.0106631   -0.0040642 
   0.008552126     0.0013950   -0.0002544     1.0064110   -0.0189738     0.9981987   -0.0102443     0.0008604   -0.0068175 
   0.008652151     0.0002914    0.0013372     1.0005500    0.0017538     0.9958050   -0.0104995     0.0060024    0.0060096 
   0.008752176     0.0027756    0.0020650     1.0017600   -0.0080302     0.9970677   -0.0078537     0.0029224    0.0005462 
   0.008852201     0.0003690    0.0003998     0.9850239   -0.0171104     1.0000730   -0.0074483    -0.0100761    0.0033335 
   0.008952226     0.0007295    0.0017402     0.9977352    0.0062562     1.0014290   -0.0116362     0.0079006    0.0100959 
   0.009052251    -0.0013501    0.0014949     0.9975919   -0.0053873     0.9983007   -0.0092250     0.0021634    0.0042549 
   0.009152276     0.0018193    0.0015282     1.0094310   -0.0094257     1.0013720   -0.0112262     0.0067047   -0.0029858 
   0.009252301    -0.0003670    0.0004589     0.9900724   -0.0042825     1.0024050   -0.0120823    -0.0006067    0.0079001 
   0.009352326     0.0004067    0.0004400     0.9881501   -0.0107752     0.9987925   -0.0130047    -0.0049149    0.0057285 
   0.009452351     0.0007626    0.0013606     1.0036000   -0.0146288     1.0005110   -0.0121285     0.0016083   -0.0033787 
   0.009552376     0.0013255    0.0011263     1.0005180   -0.0113633     1.0001880   -0.0136794     0.0015250   -0.0002459 
   0.009652401     0.0012266    0.0023927     1.0049970   -0.0112831     1.0000990   -0.0102216     0.0045011   -0.0021412 
   0.009752426     0.0010343    0.0013350     1.0041420   -0.0094859     0.9944161   -0.0092269     0.0039293   -0.0007922 
   0.009852451     0.0033204    0.0015277     1.0077160   -0.0122728     1.0023390   -0.0157814     0.0052163   -0.0033695 
   0.009952476     0.0002088    0.0011339     0.9933909   -0.0067799     0.9986039   -0.0073232    -0.0000738    0.0060701 
   0.010052501     0.0002465    0.0023291     1.0028490   -0.0130992     0.9944186   -0.0086250     0.0011620   -0.0018677 
   0.010152526     0.0003169    0.0007373     0.9981698   -0.0100350     0.9953749   -0.0088156     0.0005136    0.0017800 
   0.010252551     0.0009942    0.0022877     0.9958633    0.0029207     0.9977507   -0.0080205     0.0058731    0.0092985 
   0.010352576     0.0003867    0.0028838     1.0087640   -0.0051913     0.9976616   -0.0076055     0.0082758   -0.0000494 
   0.010452601     0.0010709    0.0011784     0.9946191   -0.0048561     1.0021740   -0.0064226     0.0018118    0.0068200 
   0.010552626     0.0009368    0.0005663     1.0010870   -0.0056986     0.9981254   -0.0151536     0.0049029    0.0022151 
   0.010652651    -0.0003359    0.0003648     0.9928517   -0.0048900     0.9975241   -0.0116410     0.0014341    0.0072147 
   0.010752676    -0.0000395    0.0031564     1.0004170    0.0071309     0.9973238   -0.0074355     0.0103556    0.0092686 
   0.010852701     0.0020862    0.0020438     1.0020980   -0.0050883     1.0009860   -0.0099271     0.0054905    0.0030166 
   0.010952726    -0.0005472    0.0012684     0.9986170   -0.0061158     0.9925559   -0.0105688     0.0035423    0.0039392 
   0.011052751     0.0014472    0.0033660     1.0103600   -0.0069881     1.0013950   -0.0079970     0.0081256   -0.0018213 
   0.011152776     0.0018692    0.0009617     0.9948283   -0.0110854     0.9983664   -0.0109924    -0.0006243    0.0038060 
   0.011252801     0.0001944    0.0029374     1.0054440   -0.0118993     0.9968510   -0.0086548     0.0040700   -0.0019719 
   0.011352826     0.0000732    0.0008753     0.9872856   -0.0049978     0.9976103   -0.0082252    -0.0006110    0.0103271 
   0.011452851     0.0003697    0.0008053     1.0016100   -0.0101764     0.9968711   -0.0158697     0.0034168    0.0003416 
   0.011552876     0.0008539    0.0017017     1.0048910   -0.0067172     0.9986451   -0.0156639     0.0069052    0.0004246 
   0.011652901     0.0002720    0.0022835     1.0072670   -0.0114164     0.9985428   -0.0125857     0.0050557   -0.0028327 
   0.011752926     0.0008682    0.0023011     1.0043940   -0.0077265     0.9992952   -0.0124137     0.0059120    0.0003262 
   0.011852951     0.0008002   -0.0003123     0.9855921   -0.0170855     0.9972275   -0.0150433    -0.0068439    0.0064822 
   0.011952976    -0.0000275    0.0013897     0.9966400    0.0015623     1.0026910   -0.0107065     0.0075161    0.0090756 
   0.012053002     0.0034029   -0.0000367     1.0059080   -0.0249668     0.9992080   -0.0146329    -0.0021883   -0.0069973 
   0.012153027     0.0005113    0.0008957     0.9951182   -0.0233335     0.9986271   -0.0150260    -0.0055698   -0.0007706 
   0.012253052    -0.0015350    0.0004164     0.9923387   -0.0167013     0.9941431   -0.0131632    -0.0037188    0.0027700 
   0.012353077     0.0019445    0.0013947     0.9965397   -0.0139520     0.9994921   -0.0114251    -0.0001580    0.0026051 
   0.012453102     0.0015892    0.0016099     0.9929644   -0.0200821     1.0017730   -0.0102752    -0.0046164    0.0024707 
   0.012553127     0.0029699    0.0006747     1.0032390   -0.0192210     0.9970796   -0.0130715    -0.0000919   -0.0031881 
   0.012653152     0.0010679    0.0015792     1.0079750   -0.0095707     0.9967973   -0.0153308     0.0069582   -0.0022663 
   0.012753177     0.0004582    0.0006431     0.9989667   -0.0109701     1.0016040   -0.0134408     0.0026246    0.0024493 
   0.012853202     0.0004942    0.0021358     1.0021970   -0.0005803     0.9986817   -0.0124939     0.0099905    0.0044333 
   0.012953227     0.0017115    0.0012262     0.9999759   -0.0043492     1.0031180   -0.0124533     0.0068641    0.0043511 
   0.013053252     0.0024912    0.0011574     1.0068000   -0.0115518     0.9966882   -0.0146939     0.0049471   -0.0023093 
   0.013153277     0.0001196   -0.0006965     0.9887453   -0.0165246     0.9957471   -0.0135617    -0.0044332    0.0060209 
   0.013253302     0.0006656    0.0002857     0.9926044   -0.0127118     0.9979972   -0.0104947    -0.0006067    0.0060004 
   0.013353327     0.0013230    0.0017994     0.9932097   -0.0191731     0.9982325   -0.0170147    -0.0031852    0.0025935 
   0.013453352     0.0012827    0.0004014     0.9941626   -0.0174148     1.0004300   -0.0164858    -0.0015463    0.0027507 
   0.013553377     0.0009146   -0.0000679     0.9981151   -0.0222327     1.0002570   -0.0137422    -0.0033222   -0.0008486 
   0.013653402     0.0001228    0.0002244     0.9861444   -0.0146931     0.9952185   -0.0144254    -0.0033911    0.0082823 
   0.013753427    -0.0004577    0.0019635     0.9923732   -0.0106133     0.9987350   -0.0158201     0.0015511    0.0063037 
   0.013853452     0.0020827    0.0008101     1.0016570   -0.0141552     1.0008670   -0.0162711     0.0029366   -0.0000815 
   0.013953477     0.0026637    0.0004833     0.9969534   -0.0259387     0.9974514   -0.0165904    -0.0054279   -0.0009732 
   0.014053502     0.0006622    0.0038902     1.0089410   -0.0099949     0.9978547   -0.0136899     0.0072589   -0.0035320 
   0.014153527     0.0019381    0.0025163     1.0076020   -0.0081950     0.9975377   -0.0166658     0.0081112   -0.0015097 
   0.014253552     0.0000247    0.0003600     0.9986309   -0.0030700     0.9976617   -0.0153034     0.0077439    0.0053930 
   0.014353577    -0.0001709    0.0017523     0.9979413   -0.0122208     0.9966891   -0.0122685     0.0021152    0.0034362 
   0.014453602     0.0020827    0.0014215     1.0066180   -0.0109488     0.9996358   -0.0199177     0.0059721   -0.0019340 
   0.014553627     0.0003191    0.0017564     0.9943175   -0.0103874     0.9953362   -0.0130797     0.0025455    0.0050725 
   0.014653652     0.0003910    0.0013737     0.9928067    0.0052847     1.0014020   -0.0122466     0.0120311    0.0113313 
   0.014753677    -0.0000963    0.0001507     0.9835008   -0.0121475     0.9973834   -0.0161683    -0.0011780    0.0117940 
   0.014853702     0.0021703    0.0017895     0.9997960   -0.0160460     0.9983279   -0.0131210     0.0007003    0.0011900 
   0.014953727     0.0017293    0.0002171     0.9846156   -0.0251192     0.9982287   -0.0165299    -0.0085526    0.0074047 
   0.015053752     0.0027243    0.0020127     1.0067500   -0.0135126     0.9998900   -0.0175204     0.0052422   -0.0028562 
   0.015153777     0.0009691    0.0012955     0.9994655   -0.0137781     0.9990962   -0.0154688     0.0028525    0.0012483 
   0.015253802     0.0018578    0.0003066     0.9990250   -0.0256932     0.9956761   -0.0165948    -0.0050666   -0.0014660 
   0.015353827     0.0015788    0.0004375     1.0027550   -0.0172733     0.9977172   -0.0175164     0.0013654   -0.0015991 
   0.015453852     0.0014615    0.0040848     1.0091690   -0.0050465     1.0005580   -0.0178296     0.0111889   -0.0019616 
   0.015553877     0.0005740    0.0011440     0.9945188   -0.0148782     0.9963058   -0.0165442     0.0009155    0.0041984 
   0.015653902     0.0013200    0.0002308     0.9940911   -0.0100823     0.9964068   -0.0162640     0.0042942    0.0056060 
