! 19-Feb-26 12:55:10 PM
! E:\VNA_MEASUREMENTS\RECBLOCK\ADAPTER2.S2P
! CHANNEL.1
! TR.MEASUREMENT
! CORRECTED.DATA
# GHZ S RI R 50.0
! FREQ.GHZ         S11RE         S11IM         S21RE         S21IM         S12RE         S12IM         S22RE         S22IM         
!; PortSelection: Port_12
   0.000050000    -1.4710950    1.0814200    -1.0036070    0.2619399    -0.0231836   -0.9105300    -0.5128530   -1.4010240 
   0.000150025    -0.5593688   -0.1304040    -1.0931470    2.4400450     0.6674842   -0.2720948    -2.1993960    1.0384360 
   0.000250050    -0.6491588   -0.1160588     1.6798150    0.4191687     0.5619642   -0.1857453     0.4027671    0.4021070 
   0.000350075     0.0011439    0.0002111     1.0066340    0.0134872     1.0087900   -0.0010305     0.0033713    0.0073446 
   0.000450100     0.0025663    0.0003655     1.0009400    0.0162458     0.9962124    0.0010253    -0.0006215    0.0117756 
   0.000550125     0.0007622   -0.0037618     1.0149200   -0.0327463     0.9945720   -0.0034724     0.0102729   -0.0220521 
   0.000650150    -0.0029649   -0.0034313     1.0001070   -0.0089587     1.0000870   -0.0030469     0.0002276   -0.0049708 
   0.000750175    -0.0044553    0.0031538     0.9583960    0.0002261     1.0098290   -0.0010596    -0.0277312   -0.0016523 
   0.000850200     0.0060577   -0.0006833     1.0341320   -0.0098631     1.0099420   -0.0050251     0.0243894   -0.0084209 
   0.000950225    -0.0005839   -0.0048099     1.0095950   -0.0467394     1.0025490   -0.0079312     0.0065588   -0.0324677 
   0.001050250    -0.0043867    0.0001061     0.9696836   -0.0182462     0.9989527   -0.0050460    -0.0207481   -0.0107565 
   0.001150275     0.0019524    0.0019044     0.9948937    0.0185286     1.0027560   -0.0011688    -0.0031758    0.0131069 
   0.001250300    -0.0000869   -0.0009399     0.9764612    0.0073561     0.9921542   -0.0092692    -0.0177108    0.0071385 
   0.001350325     0.0012237   -0.0030310     1.0222420    0.0126252     0.9979387   -0.0035471     0.0150565    0.0091580 
   0.001450350     0.0014529    0.0000809     1.0170870    0.0115085     1.0030110   -0.0030975     0.0121084    0.0084179 
   0.001550375     0.0015564    0.0023376     0.9999877    0.0018025     1.0048770    0.0006332     0.0011382    0.0028331 
   0.001650400     0.0025489   -0.0005789     0.9970331   -0.0032415     1.0020970    0.0003864    -0.0015160   -0.0004187 
   0.001750425    -0.0017863   -0.0016507     0.9915221   -0.0254196     1.0034740   -0.0040437    -0.0068216   -0.0155229 
   0.001850450     0.0018440   -0.0001820     1.0126170   -0.0003140     1.0037750   -0.0027560     0.0092705    0.0002179 
   0.001950475     0.0034177   -0.0006965     1.0065500    0.0114229     0.9974788   -0.0015247     0.0056054    0.0091234 
   0.002050500    -0.0000794   -0.0023272     0.9998258   -0.0112784     0.9984971    0.0052093    -0.0014114   -0.0042800 
   0.002150525     0.0019310   -0.0017582     1.0120730   -0.0074923     1.0014570   -0.0040762     0.0078208   -0.0039175 
   0.002250550     0.0014969    0.0026019     1.0074820    0.0131300     1.0063460    0.0036816     0.0074468    0.0103951 
   0.002350575     0.0013841   -0.0016981     1.0197280   -0.0026658     0.9985581   -0.0009979     0.0138318   -0.0022360 
   0.002450600    -0.0021667   -0.0011424     0.9856117   -0.0083687     0.9995534   -0.0016452    -0.0105044   -0.0017968 
   0.002550625     0.0023408   -0.0019979     1.0257420    0.0041616     0.9997841   -0.0080513     0.0185460    0.0015920 
   0.002650650    -0.0003790    0.0005468     0.9999163   -0.0043341     0.9957431    0.0010658    -0.0001528   -0.0005332 
   0.002750675    -0.0018426    0.0023167     0.9916993    0.0010761     1.0056840   -0.0000280    -0.0035388    0.0044701 
   0.002850700     0.0016239    0.0014789     0.9983577    0.0114988     1.0023370   -0.0009309     0.0007882    0.0111424 
   0.002950725    -0.0009170    0.0021518     1.0026630    0.0048125     1.0052430    0.0006601     0.0045052    0.0057014 
   0.003050750     0.0006242    0.0002389     0.9850890   -0.0202573     0.9995914   -0.0023037    -0.0120796   -0.0083255 
   0.003150775    -0.0020376    0.0014888     1.0080470   -0.0128579     0.9998638   -0.0069475     0.0046032   -0.0071121 
   0.003250800     0.0028895    0.0022917     0.9924649   -0.0018647     1.0067580   -0.0062650    -0.0037345    0.0024281 
   0.003350825    -0.0013211   -0.0022294     0.9809127   -0.0206817     0.9943713   -0.0035293    -0.0157057   -0.0067810 
   0.003450850    -0.0020664   -0.0007034     0.9955190    0.0048607     0.9926859   -0.0071476    -0.0015765    0.0066990 
   0.003550875     0.0022689   -0.0012335     1.0118910    0.0021434     1.0028120   -0.0137653     0.0093550    0.0008340 
   0.003650900     0.0017338   -0.0035456     1.0004150   -0.0306827     1.0015820   -0.0028677    -0.0039096   -0.0166836 
   0.003750925    -0.0007508   -0.0006355     1.0014980   -0.0218658     0.9948395    0.0002313    -0.0021175   -0.0109127 
   0.003850950     0.0017406   -0.0027794     0.9836566   -0.0268293     0.9978478   -0.0051890    -0.0157220   -0.0105202 
   0.003950975    -0.0030931    0.0031174     0.9701260    0.0228626     0.9979686   -0.0013205    -0.0137700    0.0242846 
   0.004051001     0.0026284    0.0004247     1.0005480   -0.0082648     1.0051010   -0.0029143     0.0004422   -0.0009523 
   0.004151026    -0.0021034   -0.0025565     0.9700607   -0.0297473     1.0003730   -0.0077885    -0.0238228   -0.0094641 
   0.004251051     0.0019451   -0.0015810     1.0172700   -0.0098281     1.0037510   -0.0054828     0.0112908   -0.0065554 
   0.004351076     0.0007779   -0.0020639     0.9931268   -0.0090248     0.9986373   -0.0051543    -0.0046998   -0.0009709 
   0.004451101     0.0023105   -0.0017887     1.0080450   -0.0256368     1.0069490   -0.0069876     0.0020702   -0.0150569 
   0.004551126    -0.0008591    0.0000199     0.9830631   -0.0097258     0.9977090   -0.0022190    -0.0112355    0.0012207 
   0.004651151     0.0005880    0.0008276     1.0000940   -0.0075156     0.9992464   -0.0025295    -0.0001170   -0.0009235 
   0.004751176     0.0028354    0.0012485     1.0128510   -0.0122156     0.9982937   -0.0033789     0.0069500   -0.0068501 
   0.004851201     0.0007377    0.0034522     1.0100720    0.0186801     0.9994070   -0.0062041     0.0130097    0.0130406 
   0.004951226    -0.0003386   -0.0017903     0.9879090   -0.0155792     0.9989282   -0.0048971    -0.0094446   -0.0024593 
   0.005051251     0.0010432   -0.0002320     1.0123880   -0.0051667     0.9995570   -0.0031264     0.0083279   -0.0016702 
   0.005151276     0.0007959    0.0010727     1.0227770    0.0034750     0.9980541   -0.0044743     0.0169770    0.0008167 
   0.005251301    -0.0030574   -0.0015595     0.9806340   -0.0045763     0.9942838   -0.0062520    -0.0113323    0.0063753 
   0.005351326     0.0003080   -0.0001996     1.0078050   -0.0005766     0.9981309   -0.0028092     0.0065147    0.0015073 
   0.005451351     0.0011038   -0.0012536     0.9820486   -0.0160352     1.0053220   -0.0061598    -0.0124822   -0.0007619 
   0.005551376    -0.0005913    0.0008223     0.9896855   -0.0034365     0.9975590   -0.0049009    -0.0054718    0.0049599 
   0.005651401    -0.0012075    0.0028313     1.0065940    0.0049584     0.9937016   -0.0025531     0.0074301    0.0056023 
   0.005751426     0.0014324    0.0014834     1.0060450   -0.0015255     1.0015660   -0.0070054     0.0053231    0.0021653 
   0.005851451     0.0001932    0.0006443     1.0044500    0.0024616     0.9973230   -0.0112155     0.0054712    0.0040253 
   0.005951476     0.0006424    0.0024487     0.9927615    0.0054293     1.0027460   -0.0036149    -0.0000224    0.0101084 
   0.006051501    -0.0028638   -0.0008055     0.9751139   -0.0048559     0.9958163   -0.0042045    -0.0144163    0.0093804 
   0.006151526     0.0010792    0.0025637     1.0028530   -0.0060102     1.0031620   -0.0036131     0.0035135    0.0005117 
   0.006251551     0.0008689    0.0014910     1.0034290   -0.0087415     1.0011460   -0.0044916     0.0022326   -0.0007133 
   0.006351576     0.0003357    0.0006230     0.9962963   -0.0146377     0.9994451   -0.0059979    -0.0034794   -0.0026710 
   0.006451601     0.0008185   -0.0000502     1.0006110   -0.0166953     0.9950479   -0.0029900    -0.0029855   -0.0049866 
   0.006551626    -0.0009379    0.0017409     1.0065870   -0.0014505     0.9982401   -0.0024182     0.0069023    0.0022000 
   0.006651651     0.0015302   -0.0003922     0.9965601   -0.0079360     1.0053340   -0.0046428    -0.0016292    0.0019274 
   0.006751676     0.0030480    0.0002972     1.0231180   -0.0120190     1.0014200   -0.0032831     0.0127347   -0.0094151 
   0.006851701    -0.0002639    0.0024295     0.9969015    0.0013590     1.0032590   -0.0036762     0.0022132    0.0062454 
   0.006951726     0.0022938   -0.0014304     1.0032940   -0.0384447     0.9989744   -0.0088594    -0.0080595   -0.0181777 
   0.007051751     0.0001891    0.0015117     0.9933640   -0.0016382     0.9978310   -0.0039593    -0.0018683    0.0066765 
   0.007151776    -0.0000353    0.0020511     1.0000060   -0.0011446     1.0023140   -0.0065488     0.0032030    0.0046774 
   0.007251801    -0.0003955    0.0007926     0.9960256   -0.0099059     0.9993150   -0.0078335    -0.0020682    0.0005269 
   0.007351826    -0.0014990    0.0001199     0.9846276    0.0018301     0.9940311   -0.0078215    -0.0049017    0.0113872 
   0.007451851     0.0005602    0.0007599     1.0078680   -0.0050507     0.9986662   -0.0081491     0.0061266   -0.0004907 
   0.007551876    -0.0007347    0.0009077     0.9933735   -0.0117932     0.9988843   -0.0076089    -0.0041783    0.0008904 
   0.007651901    -0.0007107    0.0003108     0.9916726    0.0019807     0.9980623   -0.0037416    -0.0005356    0.0098230 
   0.007751926     0.0007008    0.0013576     1.0083390   -0.0084900     1.0006650   -0.0093953     0.0053613   -0.0024771 
   0.007851951    -0.0007497   -0.0004657     0.9990160   -0.0122158     1.0006930   -0.0129269    -0.0009504   -0.0014397 
   0.007951976     0.0019130    0.0013873     1.0057080    0.0024491     0.9986857   -0.0070176     0.0073575    0.0047596 
   0.008052001    -0.0001658    0.0019056     0.9887469   -0.0055332     0.9972619   -0.0072876    -0.0041698    0.0067428 
   0.008152026    -0.0006604    0.0010850     0.9927697   -0.0018935     1.0002000   -0.0092269    -0.0000690    0.0069424 
   0.008252051    -0.0026157    0.0005253     0.9918059    0.0044772     0.9943190   -0.0146060     0.0014344    0.0103276 
   0.008352076     0.0012528   -0.0002367     0.9990345   -0.0031696     1.0011030   -0.0090560     0.0028424    0.0042656 
   0.008452101     0.0005903    0.0004041     1.0010410   -0.0108413     0.9997504   -0.0108512     0.0009972   -0.0010824 
   0.008552126     0.0006909    0.0007102     1.0042260   -0.0072971     1.0003870   -0.0086897     0.0039028   -0.0003535 
   0.008652151    -0.0012873    0.0007434     0.9955293   -0.0089396     0.9961880   -0.0058831    -0.0018046    0.0024365 
   0.008752176     0.0009070   -0.0016476     0.9965626   -0.0184110     1.0002280   -0.0104387    -0.0045082   -0.0028782 
   0.008852201     0.0018434    0.0011350     0.9920275   -0.0053651     1.0033950   -0.0074705    -0.0017868    0.0066241 
   0.008952226    -0.0012945    0.0003037     0.9977875   -0.0016350     0.9942828   -0.0100941     0.0025424    0.0053763 
   0.009052251     0.0002977    0.0009964     0.9988072   -0.0120563     1.0013990   -0.0099246    -0.0005108    0.0005628 
   0.009152276     0.0015350    0.0009623     1.0088930   -0.0169597     0.9982784   -0.0096278     0.0025640   -0.0072729 
   0.009252301     0.0010498    0.0009692     0.9974377   -0.0031382     1.0037640   -0.0140596     0.0029713    0.0046215 
   0.009352326     0.0010191    0.0006738     0.9953651   -0.0091198     1.0032450   -0.0110789    -0.0008295    0.0031052 
   0.009452351     0.0017135    0.0000360     1.0115860   -0.0251429     1.0025160   -0.0123656     0.0002079   -0.0120896 
   0.009552376     0.0005576    0.0007927     0.9956480   -0.0158474     0.9989900   -0.0096191    -0.0033998   -0.0005332 
   0.009652401     0.0016388    0.0005092     1.0096500   -0.0230850     1.0002100   -0.0116499     0.0005017   -0.0104527 
   0.009752426     0.0007940    0.0009728     0.9975349   -0.0166976     0.9963133   -0.0072075    -0.0030376   -0.0012318 
   0.009852451     0.0031918    0.0020075     1.0088440   -0.0178666     1.0043200   -0.0129291     0.0023838   -0.0067679 
   0.009952476    -0.0005666    0.0009215     0.9932220   -0.0067827     1.0018030   -0.0074243    -0.0002827    0.0056945 
   0.010052501     0.0004954    0.0010099     1.0041970   -0.0109494     0.9966934   -0.0082595     0.0022170   -0.0016245 
   0.010152526    -0.0000365    0.0009055     0.9960295   -0.0040233     0.9943231   -0.0118259     0.0015382    0.0053669 
   0.010252551    -0.0023296    0.0013937     0.9942146    0.0066833     0.9947533   -0.0082219     0.0059159    0.0112216 
   0.010352576     0.0006580    0.0040376     1.0170430   -0.0045838     1.0029540   -0.0069480     0.0121751   -0.0041018 
   0.010452601    -0.0001152    0.0020850     1.0025770    0.0019371     1.0023510   -0.0082060     0.0088266    0.0059653 
   0.010552626     0.0009699    0.0003012     0.9946728   -0.0040523     0.9979095   -0.0129486     0.0016992    0.0060031 
   0.010652651     0.0023536    0.0004842     1.0056040   -0.0042527     1.0003310   -0.0120227     0.0066579    0.0011257 
   0.010752676     0.0016730    0.0008581     1.0068760   -0.0037714     0.9986699   -0.0094233     0.0074896    0.0009662 
   0.010852701     0.0008344    0.0016267     1.0045320   -0.0068945     0.9980747   -0.0106990     0.0048848    0.0003495 
   0.010952726     0.0008032    0.0028795     1.0042880   -0.0087746     0.9949158   -0.0109221     0.0041234   -0.0002348 
   0.011052751    -0.0000313    0.0025485     1.0047070   -0.0060053     1.0010380   -0.0083723     0.0055179    0.0007765 
   0.011152776    -0.0002492    0.0003512     0.9984340   -0.0094473     0.9989409   -0.0112754     0.0013940    0.0021129 
   0.011252801     0.0002302    0.0022924     0.9934221   -0.0088287     0.9991013   -0.0071316    -0.0007342    0.0054661 
   0.011352826     0.0000566   -0.0001120     0.9875361   -0.0184115     0.9948105   -0.0098725    -0.0080701    0.0040111 
   0.011452851     0.0017441    0.0002478     1.0070480   -0.0256464     0.9995701   -0.0135564    -0.0031067   -0.0088718 
   0.011552876     0.0014979    0.0007261     1.0039170   -0.0070171     1.0013450   -0.0133392     0.0053753    0.0007455 
   0.011652901    -0.0005622    0.0008128     0.9993347   -0.0037120     0.9976627   -0.0110729     0.0049296    0.0042731 
   0.011752926     0.0007902    0.0015165     1.0025890   -0.0034636     0.9997207   -0.0140371     0.0064804    0.0029069 
   0.011852951    -0.0002178    0.0009792     0.9955010   -0.0195679     0.9989130   -0.0151113    -0.0044691   -0.0005818 
   0.011952976     0.0004830    0.0001209     1.0009610   -0.0076214     1.0000090   -0.0101763     0.0035325    0.0021138 
   0.012053002     0.0019399    0.0012882     1.0109000   -0.0151412     1.0027380   -0.0131413     0.0044054   -0.0061745 
   0.012153027    -0.0000292    0.0018241     0.9980597   -0.0107297     1.0006490   -0.0136694     0.0016283    0.0024746 
   0.012253052    -0.0013221    0.0006046     0.9877902   -0.0128936     0.9956799   -0.0124818    -0.0041866    0.0065342 
   0.012353077     0.0015060    0.0000931     0.9941934   -0.0220433     0.9993207   -0.0116135    -0.0067586    0.0004420 
   0.012453102     0.0010614    0.0016629     0.9914746   -0.0214033     1.0023770   -0.0102319    -0.0066786    0.0030434 
   0.012553127     0.0016415    0.0017166     1.0025500   -0.0110208     0.9989418   -0.0133925     0.0036494   -0.0002527 
   0.012653152     0.0015354    0.0013170     1.0079890   -0.0187326     0.9962264   -0.0133371     0.0011247   -0.0056996 
   0.012753177     0.0036046    0.0014467     1.0069750   -0.0233196     1.0021070   -0.0126708    -0.0021357   -0.0070695 
   0.012853202     0.0009842    0.0010685     0.9941508   -0.0224583     0.9967391   -0.0104965    -0.0062305    0.0001817 
   0.012953227    -0.0002346    0.0012913     0.9932185    0.0050289     0.9994946   -0.0129553     0.0087787    0.0111763 
   0.013053252     0.0018183    0.0007662     1.0111520   -0.0157361     0.9971799   -0.0118633     0.0036341   -0.0062648 
   0.013153277     0.0019571    0.0008957     1.0062200   -0.0155620     0.9965272   -0.0124041     0.0015586   -0.0034210 
   0.013253302    -0.0003170    0.0003287     0.9965831   -0.0129793     0.9973541   -0.0101023     0.0000843    0.0030275 
   0.013353327    -0.0003397    0.0011297     0.9954029   -0.0150373     1.0005940   -0.0118464    -0.0010923    0.0029172 
   0.013453352     0.0009418    0.0010088     0.9992600   -0.0107588     0.9987525   -0.0133427     0.0022343    0.0024083 
   0.013553377     0.0010036    0.0002007     1.0022630   -0.0234562     1.0005560   -0.0113775    -0.0036136   -0.0038164 
   0.013653402     0.0012386    0.0015784     1.0001600   -0.0185122     0.9988115   -0.0152070    -0.0012292   -0.0010667 
   0.013753427    -0.0009396    0.0007715     0.9871193   -0.0107860     0.9976211   -0.0137265    -0.0013403    0.0093722 
   0.013853452     0.0005088    0.0000448     0.9932246   -0.0104196     0.9988886   -0.0141033     0.0014115    0.0059152 
   0.013953477     0.0011537   -0.0001551     0.9994248   -0.0254743     0.9980096   -0.0141526    -0.0055466   -0.0023924 
   0.014053502     0.0007042    0.0025085     1.0057120   -0.0134267     1.0042330   -0.0121218     0.0037729   -0.0022722 
   0.014153527     0.0001102    0.0015998     0.9951643   -0.0084507     0.9990932   -0.0136045     0.0033773    0.0058971 
   0.014253552     0.0006287    0.0009183     1.0010070   -0.0125632     0.9971603   -0.0154258     0.0024715    0.0008341 
   0.014353577     0.0007593    0.0000261     0.9968537   -0.0179885     0.9987408   -0.0150917    -0.0020416    0.0016706 
   0.014453602    -0.0005887    0.0023374     0.9989842   -0.0001747     0.9984407   -0.0152968     0.0090096    0.0056447 
   0.014553627    -0.0010973    0.0001187     0.9948341   -0.0072082     0.9949944   -0.0140463     0.0038105    0.0053590 
   0.014653652     0.0006790    0.0004879     0.9933689   -0.0093733     1.0030100   -0.0144172     0.0026767    0.0066393 
   0.014753677    -0.0008499    0.0012420     0.9982484   -0.0031661     0.9979276   -0.0138803     0.0074784    0.0050156 
   0.014853702     0.0006879    0.0009911     0.9965169   -0.0086239     0.9982910   -0.0145887     0.0038244    0.0046467 
   0.014953727     0.0008119    0.0002743     0.9973700   -0.0210808     0.9987155   -0.0150995    -0.0035580    0.0004814 
   0.015053752     0.0032107    0.0014384     1.0003910   -0.0242638     0.9990901   -0.0171544    -0.0039916   -0.0020750 
   0.015153777     0.0002767    0.0018609     1.0004020   -0.0093156     1.0031130   -0.0129537     0.0051290    0.0018358 
   0.015253802     0.0016940    0.0019084     1.0085070   -0.0233335     0.9984215   -0.0142179    -0.0017339   -0.0068620 
   0.015353827     0.0004707    0.0029064     1.0093190   -0.0112099     1.0013080   -0.0147379     0.0062569   -0.0039466 
   0.015453852     0.0009849    0.0013571     0.9988957   -0.0116205     0.9994278   -0.0176397     0.0038561    0.0021384 
   0.015553877     0.0011268    0.0001133     0.9966783   -0.0161437     0.9951699   -0.0187860     0.0002718    0.0024441 
   0.015653902     0.0009416    0.0000019     0.9928622   -0.0094568     0.9979935   -0.0164173     0.0039867    0.0064827 
