! 19-Feb-26 2:44:00 PM
! E:\VNA_MEASUREMENTS\RECBLOCK\ADAPTERA1.S2P
! CHANNEL.1
! TR.MEASUREMENT
! CORRECTED.DATA
# GHZ S RI R 50.0
! FREQ.GHZ         S11RE         S11IM         S21RE         S21IM         S12RE         S12IM         S22RE         S22IM         
!; PortSelection: Port_12
   0.000050000    -0.5359378    0.3049329    -0.5647991    0.1934507     0.7297892   -0.3478513    -0.3051969   -1.1838130 
   0.000150025    -0.3336408    0.5786698     1.8783330   -0.4922730     0.5957502    0.2859936     0.7464130   -0.0684032 
   0.000250050    -1.5211440   -4.5001250     2.1896090    5.0993690     0.6649587   -3.3953100     0.0074092    3.7603190 
   0.000350075    -0.0012199   -0.0019072     1.0082260    0.0038569     1.0035630    0.0023443     0.0066011    0.0033385 
   0.000450100     0.0009487    0.0058579     0.9957019    0.0311091     0.9977790    0.0112270    -0.0043550    0.0234210 
   0.000550125     0.0055331    0.0014362     1.0259140    0.0110353     1.0000840   -0.0008171     0.0156933    0.0083915 
   0.000650150     0.0016974   -0.0003959     1.0033520    0.0055663     1.0023190    0.0010313     0.0012234    0.0055278 
   0.000750175    -0.0053810    0.0004407     0.9835584    0.0017032     1.0036960   -0.0014922    -0.0108765    0.0010806 
   0.000850200    -0.0014584   -0.0026045     0.9919049   -0.0199243     0.9985124   -0.0001374    -0.0050611   -0.0134885 
   0.000950225    -0.0029607    0.0036436     0.9736990    0.0041566     0.9956761   -0.0007656    -0.0186675    0.0039053 
   0.001050250    -0.0051601   -0.0022583     0.9711884   -0.0353396     0.9929737   -0.0021856    -0.0206342   -0.0217993 
   0.001150275    -0.0003776    0.0018514     0.9930725    0.0140887     0.9955882   -0.0015289    -0.0047048    0.0102786 
   0.001250300    -0.0009141    0.0022144     1.0018350    0.0104023     0.9966827   -0.0049483     0.0010525    0.0078097 
   0.001350325    -0.0031407    0.0002470     1.0035690    0.0243396     0.9902182    0.0034582     0.0022872    0.0190132 
   0.001450350     0.0032989    0.0027943     1.0231860    0.0013067     1.0072550    0.0022972     0.0167070    0.0013994 
   0.001550375     0.0030192    0.0006145     0.9980920   -0.0073719     1.0030530    0.0039483    -0.0015211   -0.0027330 
   0.001650400    -0.0009356   -0.0016360     1.0052980    0.0045200     1.0019310   -0.0010846     0.0041537    0.0040447 
   0.001750425     0.0000959   -0.0003833     1.0020950   -0.0052574     0.9960336   -0.0002044     0.0009426   -0.0022491 
   0.001850450     0.0033168   -0.0028781     1.0067400   -0.0164964     1.0050950   -0.0106884     0.0034945   -0.0106104 
   0.001950475    -0.0002898   -0.0005269     0.9933449    0.0015163     0.9989308   -0.0093237    -0.0029081    0.0025497 
   0.002050500     0.0027497   -0.0036544     1.0181550   -0.0401718     0.9985132    0.0005809     0.0084760   -0.0261422 
   0.002150525     0.0015426   -0.0033393     0.9927013   -0.0187025     1.0074100   -0.0049326    -0.0060324   -0.0093622 
   0.002250550    -0.0025815    0.0047476     0.9884255    0.0313195     1.0031590   -0.0009671    -0.0031957    0.0242475 
   0.002350575     0.0017132    0.0003130     1.0151970   -0.0053380     0.9963789   -0.0002261     0.0097011   -0.0029020 
   0.002450600    -0.0024773   -0.0003529     0.9934281    0.0017997     0.9996389   -0.0045224    -0.0028312    0.0038307 
   0.002550625     0.0012582   -0.0016663     1.0104500    0.0061398     0.9998862   -0.0080802     0.0086111    0.0043340 
   0.002650650     0.0013691    0.0001005     1.0130120    0.0012825     1.0036940   -0.0016095     0.0099015    0.0015478 
   0.002750675    -0.0022508    0.0013513     0.9861825   -0.0012747     1.0010290    0.0034050    -0.0080093    0.0046713 
   0.002850700    -0.0032096   -0.0005271     0.9731121    0.0041776     0.9953017    0.0036517    -0.0168597    0.0101905 
   0.002950725     0.0008316    0.0005077     1.0069250   -0.0143608     1.0052390   -0.0014450     0.0048017   -0.0075714 
   0.003050750     0.0025431    0.0042942     1.0115070    0.0084046     1.0016020    0.0056336     0.0096814    0.0069781 
   0.003150775    -0.0011494    0.0006575     0.9979565   -0.0249464     1.0020370   -0.0040505    -0.0040180   -0.0128625 
   0.003250800     0.0019899    0.0021733     1.0106250   -0.0017969     1.0023730   -0.0024416     0.0081399   -0.0009498 
   0.003350825    -0.0008396    0.0008820     0.9875158   -0.0088267     0.9955484   -0.0093241    -0.0088162   -0.0010397 
   0.003450850    -0.0021086    0.0009573     0.9887854    0.0036099     0.9887485   -0.0122583    -0.0063335    0.0053600 
   0.003550875     0.0012006   -0.0010548     1.0068070    0.0044758     0.9988186   -0.0074051     0.0059389    0.0042708 
   0.003650900     0.0021279   -0.0023713     0.9975130   -0.0301249     1.0001600   -0.0076282    -0.0057268   -0.0164974 
   0.003750925    -0.0006222   -0.0015596     0.9863828   -0.0160151     0.9992950   -0.0046487    -0.0098574   -0.0051244 
   0.003850950     0.0007525   -0.0032221     0.9863412   -0.0280886     0.9986547   -0.0088461    -0.0137475   -0.0116691 
   0.003950975    -0.0011990    0.0032749     0.9854538    0.0118086     0.9979566   -0.0009830    -0.0051430    0.0138741 
   0.004051001     0.0008908    0.0000884     0.9968699   -0.0014956     0.9991564   -0.0070764    -0.0007526    0.0029609 
   0.004151026    -0.0017287    0.0002677     0.9960637   -0.0169329     0.9984738   -0.0008810    -0.0043853   -0.0065337 
   0.004251051     0.0025148    0.0008639     1.0196970    0.0055563     1.0054590   -0.0049516     0.0159174    0.0025366 
   0.004351076     0.0009990   -0.0035043     0.9985713   -0.0235081     0.9954313   -0.0051033    -0.0052627   -0.0109339 
   0.004451101    -0.0013567   -0.0013439     1.0107690   -0.0101239     0.9965422   -0.0063965     0.0058345   -0.0050653 
   0.004551126    -0.0007998   -0.0003248     0.9879027    0.0080691     1.0030500   -0.0039449    -0.0035707    0.0116830 
   0.004651151     0.0001235   -0.0001009     1.0010900    0.0081178     0.9988981   -0.0046747     0.0042029    0.0089655 
   0.004751176     0.0000280    0.0001849     0.9988096   -0.0040618     0.9934833   -0.0052359    -0.0001819    0.0017606 
   0.004851201     0.0011986    0.0029877     0.9986666    0.0135588     0.9945081   -0.0055254     0.0043161    0.0127553 
   0.004951226     0.0024166   -0.0011610     1.0109290   -0.0136851     1.0028640   -0.0106801     0.0052750   -0.0078996 
   0.005051251     0.0002946    0.0016431     1.0084650    0.0131762     1.0001090   -0.0033732     0.0106154    0.0104159 
   0.005151276     0.0014657    0.0016887     1.0101050    0.0004429     0.9962373   -0.0013496     0.0086921    0.0020383 
   0.005251301    -0.0010388    0.0019376     0.9882376   -0.0021889     0.9972881   -0.0077811    -0.0058193    0.0056960 
   0.005351326    -0.0008840   -0.0005827     0.9881042   -0.0079216     0.9976038   -0.0065943    -0.0072929    0.0022592 
   0.005451351     0.0003424   -0.0010256     0.9907914   -0.0111766     1.0002330   -0.0097203    -0.0061310   -0.0008063 
   0.005551376    -0.0008844    0.0011195     0.9841773   -0.0028162     1.0020150   -0.0075427    -0.0080694    0.0068651 
   0.005651401    -0.0023364    0.0010903     0.9944139   -0.0052713     0.9906873   -0.0008448    -0.0034173    0.0029662 
   0.005751426     0.0029426    0.0007444     1.0114180   -0.0072466     1.0030730   -0.0074251     0.0078195   -0.0023629 
   0.005851451     0.0014006    0.0018591     1.0045680    0.0034760     0.9987453   -0.0114166     0.0057148    0.0046154 
   0.005951476    -0.0017045    0.0017662     0.9863211    0.0013146     0.9962963   -0.0023582    -0.0059058    0.0095788 
   0.006051501     0.0001733   -0.0013472     0.9893283   -0.0147854     0.9945468   -0.0062238    -0.0086951   -0.0005944 
   0.006151526     0.0021157    0.0024684     1.0014270   -0.0053620     1.0034500   -0.0014623     0.0029400    0.0012719 
   0.006251551    -0.0016917    0.0009556     1.0037410   -0.0033188     0.9998094   -0.0073070     0.0044400    0.0017194 
   0.006351576     0.0007838    0.0022776     1.0056070    0.0002348     0.9971151   -0.0055695     0.0061635    0.0035223 
   0.006451601     0.0015310   -0.0004828     1.0060570   -0.0181975     0.9997756   -0.0049448     0.0008050   -0.0071777 
   0.006551626    -0.0004936   -0.0004475     1.0071220   -0.0113095     0.9994355   -0.0089089     0.0042348   -0.0044972 
   0.006651651     0.0006362   -0.0001369     1.0059450   -0.0094965     1.0025880   -0.0107052     0.0041100   -0.0032511 
   0.006751676     0.0003707    0.0004570     0.9994912   -0.0132825     1.0039360   -0.0039085    -0.0006105   -0.0023925 
   0.006851701    -0.0009501    0.0018189     0.9924026    0.0055659     1.0002950   -0.0045959     0.0007261    0.0103255 
   0.006951726     0.0048992   -0.0000644     1.0101550   -0.0281676     1.0005440   -0.0058703    -0.0007241   -0.0144591 
   0.007051751    -0.0001605    0.0037702     1.0095000    0.0083115     0.9994271   -0.0014036     0.0115155    0.0070610 
   0.007151776    -0.0012743    0.0023754     1.0058270    0.0040053     1.0001950   -0.0095795     0.0080665    0.0048732 
   0.007251801     0.0000663    0.0009614     1.0058340   -0.0099857     1.0013670   -0.0024905     0.0033383   -0.0022164 
   0.007351826    -0.0010358   -0.0007108     0.9887366   -0.0003498     0.9945695   -0.0098652    -0.0031539    0.0084192 
   0.007451851     0.0013859   -0.0005564     1.0106630   -0.0092098     1.0028410   -0.0085535     0.0067108   -0.0037596 
   0.007551876    -0.0044093    0.0005597     0.9824411    0.0026453     0.9941799   -0.0034043    -0.0056311    0.0133948 
   0.007651901     0.0009282    0.0008789     1.0028700   -0.0123811     0.9946291   -0.0075769     0.0002073   -0.0026429 
   0.007751926    -0.0008705    0.0006741     0.9891184   -0.0064568     0.9960957   -0.0073314    -0.0046831    0.0054378 
   0.007851951    -0.0013646   -0.0009925     0.9947035   -0.0141197     0.9997277   -0.0099023    -0.0040459   -0.0003884 
   0.007951976    -0.0015170    0.0026610     0.9956995    0.0184668     0.9968069   -0.0024896     0.0079690    0.0173678 
   0.008052001     0.0003257   -0.0013169     0.9900312   -0.0142428     0.9979617   -0.0080508    -0.0066827    0.0016282 
   0.008152026     0.0005668    0.0004324     1.0004980   -0.0186338     0.9978756   -0.0090850    -0.0027563   -0.0053413 
   0.008252051    -0.0003721    0.0005111     0.9973098    0.0017406     0.9996511   -0.0150910     0.0035967    0.0070271 
   0.008352076     0.0004540   -0.0010028     0.9979954   -0.0138651     0.9979305   -0.0087708    -0.0029927   -0.0011030 
   0.008452101    -0.0009571    0.0014095     1.0032710   -0.0123045     0.9986281   -0.0103371     0.0010151   -0.0023671 
   0.008552126     0.0009009   -0.0007392     1.0029250   -0.0096866     0.9989380   -0.0108509     0.0017838   -0.0007258 
   0.008652151     0.0003133    0.0009819     1.0055860   -0.0019491     0.9953542   -0.0076070     0.0063973    0.0025199 
   0.008752176     0.0003847   -0.0001383     0.9950883   -0.0079097     0.9977823   -0.0095815    -0.0010891    0.0031158 
   0.008852201     0.0008989   -0.0001193     0.9987800   -0.0144799     0.9992829   -0.0099922    -0.0021485   -0.0011335 
   0.008952226    -0.0009513   -0.0006535     0.9987200   -0.0080459     0.9960573   -0.0111334     0.0003380    0.0017152 
   0.009052251     0.0003232   -0.0001494     1.0063360   -0.0137944     0.9994682   -0.0133010     0.0027158   -0.0041403 
   0.009152276     0.0015730    0.0004098     1.0088660   -0.0125291     0.9983859   -0.0130607     0.0041656   -0.0049043 
   0.009252301    -0.0001168    0.0016081     1.0011830   -0.0092692     1.0026450   -0.0105172     0.0018196    0.0009523 
   0.009352326     0.0007891    0.0001513     0.9979657   -0.0096424     0.9993441   -0.0092994    -0.0002697    0.0023021 
   0.009452351     0.0019558    0.0002778     1.0027910   -0.0227160     1.0021530   -0.0095735    -0.0028240   -0.0063961 
   0.009552376     0.0018704    0.0005951     1.0046940   -0.0159027     1.0006950   -0.0114444     0.0004933   -0.0041960 
   0.009652401    -0.0006423    0.0018768     0.9943160   -0.0076706     0.9973247   -0.0085372    -0.0005289    0.0041895 
   0.009752426     0.0003329    0.0017414     0.9989576   -0.0040443     0.9988647   -0.0096850     0.0037612    0.0044233 
   0.009852451     0.0026555    0.0013490     1.0136070   -0.0091681     1.0035710   -0.0101050     0.0084887   -0.0045803 
   0.009952476     0.0014368    0.0007942     0.9994148   -0.0096822     1.0008650   -0.0081818     0.0008154    0.0015945 
   0.010052501     0.0005417    0.0017384     1.0058760   -0.0128598     0.9985337   -0.0078569     0.0022055   -0.0028708 
   0.010152526     0.0001906    0.0024743     1.0137050    0.0041561     0.9999196   -0.0090230     0.0138510    0.0012451 
   0.010252551    -0.0012033    0.0012601     0.9973544   -0.0024321     0.9933438   -0.0070733     0.0026633    0.0056037 
   0.010352576     0.0009177    0.0024364     1.0109100   -0.0084424     1.0015210   -0.0108159     0.0072168   -0.0031790 
   0.010452601    -0.0003648    0.0002501     1.0021150   -0.0051645     0.9985304   -0.0081617     0.0045201    0.0024038 
   0.010552626     0.0012093    0.0003887     1.0005280   -0.0106258     0.9987475   -0.0129757     0.0009701    0.0007306 
   0.010652651     0.0001524    0.0000249     0.9951383   -0.0144762     0.9945994   -0.0135838    -0.0032266    0.0013730 
   0.010752676    -0.0012257    0.0023845     0.9911871    0.0074656     0.9979534   -0.0092587     0.0057513    0.0134977 
   0.010852701     0.0008309    0.0033831     1.0024520   -0.0021142     0.9991385   -0.0084806     0.0060934    0.0037220 
   0.010952726    -0.0001696    0.0018655     1.0052720   -0.0113730     0.9956301   -0.0094552     0.0029929   -0.0018831 
   0.011052751     0.0009542    0.0017112     1.0011480   -0.0052998     1.0039310   -0.0109610     0.0045615    0.0031643 
   0.011152776     0.0008345    0.0009229     1.0056810   -0.0127960     0.9988508   -0.0085408     0.0023830   -0.0026609 
   0.011252801     0.0004210    0.0018414     1.0072400   -0.0084170     0.9996969   -0.0097316     0.0056549   -0.0017150 
   0.011352826     0.0017652    0.0000928     1.0009900   -0.0147807     0.9975629   -0.0100457    -0.0004546   -0.0010724 
   0.011452851     0.0008820    0.0008085     1.0056010   -0.0176640     0.9990796   -0.0143624     0.0000270   -0.0048197 
   0.011552876     0.0004125    0.0005730     0.9988742   -0.0030887     0.9993416   -0.0143979     0.0051927    0.0048709 
   0.011652901    -0.0000331    0.0000626     1.0021860   -0.0139283     1.0001670   -0.0132397     0.0006826   -0.0012343 
   0.011752926     0.0012540    0.0020529     1.0063540   -0.0038426     1.0007130   -0.0138102     0.0083298    0.0008620 
   0.011852951    -0.0014056    0.0021242     1.0015400    0.0004459     0.9970725   -0.0130048     0.0079196    0.0049686 
   0.011952976     0.0009363   -0.0002352     1.0011800   -0.0066283     1.0008750   -0.0110709     0.0039789    0.0023709 
   0.012053002     0.0012659    0.0002238     0.9991863   -0.0166664     1.0009310   -0.0106334    -0.0014690   -0.0000464 
   0.012153027     0.0002816    0.0004223     0.9953841   -0.0138807     1.0010670   -0.0176660    -0.0008872    0.0024749 
   0.012253052    -0.0001130    0.0017641     1.0035070   -0.0132812     0.9983968   -0.0128844     0.0016509   -0.0016689 
   0.012353077     0.0008128    0.0020500     1.0060100   -0.0081294     1.0001370   -0.0135328     0.0057379   -0.0001223 
   0.012453102     0.0007277    0.0016136     0.9908028   -0.0145072     1.0031390   -0.0105336    -0.0035154    0.0059265 
   0.012553127     0.0009435    0.0006531     1.0002520   -0.0171594     0.9960086   -0.0144891    -0.0012355   -0.0012311 
   0.012653152     0.0007786    0.0017039     1.0042860   -0.0087584     0.9968947   -0.0111859     0.0049888    0.0001180 
   0.012753177     0.0019081    0.0014128     1.0019840   -0.0130229     1.0017740   -0.0118541     0.0017409    0.0000372 
   0.012853202     0.0006969    0.0010273     0.9958401   -0.0190100     0.9955143   -0.0131251    -0.0035793    0.0009534 
   0.012953227     0.0026704    0.0012668     1.0105640   -0.0072787     1.0003900   -0.0134625     0.0079913   -0.0026321 
   0.013053252     0.0021509    0.0004359     1.0115840   -0.0204827     0.9962971   -0.0135641     0.0009381   -0.0081619 
   0.013153277     0.0001203    0.0013314     1.0073050   -0.0046375     0.9972733   -0.0138004     0.0080666   -0.0003854 
   0.013253302     0.0000032    0.0031167     1.0081190   -0.0073215     0.9983578   -0.0069053     0.0066511   -0.0010761 
   0.013353327    -0.0006873    0.0012474     0.9921783   -0.0160014     0.9973443   -0.0181982    -0.0026116    0.0042354 
   0.013453352    -0.0001287   -0.0006935     0.9894332   -0.0126000     1.0013700   -0.0157995    -0.0017338    0.0077561 
   0.013553377     0.0017405   -0.0008014     1.0001410   -0.0304133     0.9994734   -0.0169481    -0.0082256   -0.0052143 
   0.013653402     0.0009373    0.0013554     1.0026130   -0.0178058     0.9994180   -0.0135978    -0.0004329   -0.0016725 
   0.013753427    -0.0003781    0.0025524     0.9954917   -0.0079195     0.9945987   -0.0136207     0.0029195    0.0050668 
   0.013853452     0.0013662    0.0009349     1.0033230   -0.0162342     1.0018450   -0.0168500     0.0016063   -0.0018669 
   0.013953477     0.0023561   -0.0007741     0.9990618   -0.0322917     0.9995915   -0.0140805    -0.0096540   -0.0040213 
   0.014053502     0.0015540    0.0011673     1.0028890   -0.0217700     0.9997723   -0.0146085    -0.0024206   -0.0033760 
   0.014153527     0.0002819    0.0029945     1.0071620   -0.0066239     0.9961821   -0.0114754     0.0077298   -0.0005813 
   0.014253552     0.0018322    0.0030982     1.0223770   -0.0091337     0.9990689   -0.0169014     0.0108473   -0.0108167 
   0.014353577    -0.0000545    0.0013337     1.0007270   -0.0053133     0.9994038   -0.0139129     0.0068093    0.0038442 
   0.014453602    -0.0000812    0.0011305     1.0003630   -0.0085446     0.9986085   -0.0182852     0.0051843    0.0022867 
   0.014553627     0.0009861    0.0007236     0.9940192   -0.0189634     0.9973783   -0.0146540    -0.0031849    0.0031742 
   0.014653652     0.0002912    0.0020141     1.0008650    0.0058533     1.0042130   -0.0159942     0.0139281    0.0071007 
   0.014753677    -0.0008633   -0.0001553     0.9938853   -0.0100390     0.9992352   -0.0128696     0.0021965    0.0068428 
   0.014853702     0.0019797   -0.0003543     0.9975898   -0.0184988     1.0011620   -0.0119153    -0.0020036    0.0022505 
   0.014953727     0.0012077    0.0019957     0.9959691   -0.0209882     1.0001700   -0.0165051    -0.0035262    0.0018790 
   0.015053752     0.0020638    0.0019309     1.0033310   -0.0216327     1.0017800   -0.0146481    -0.0015105   -0.0023884 
   0.015153777     0.0014728    0.0014907     1.0026500   -0.0191660     1.0036060   -0.0139395    -0.0003585   -0.0012023 
   0.015253802     0.0019767    0.0011063     1.0018970   -0.0220906     0.9970175   -0.0145310    -0.0029264   -0.0019753 
   0.015353827     0.0011299    0.0022807     1.0111330   -0.0210085     0.9995620   -0.0145752     0.0007207   -0.0075718 
   0.015453852     0.0002791    0.0018398     1.0030550   -0.0135177     0.9989572   -0.0166193     0.0034682   -0.0006120 
   0.015553877     0.0009798   -0.0001443     1.0024850   -0.0206020     0.9979483   -0.0163003    -0.0011723   -0.0016462 
   0.015653902     0.0011433   -0.0003554     0.9939663   -0.0170212     0.9960009   -0.0162429    -0.0014114    0.0042701 
