! 19-Feb-26 1:12:34 PM
! E:\VNA_MEASUREMENTS\RECBLOCK\BANDPASSFILREV1.S2P
! CHANNEL.1
! TR.MEASUREMENT
! CORRECTED.DATA
# GHZ S RI R 50.0
! FREQ.GHZ         S11RE         S11IM         S21RE         S21IM         S12RE         S12IM         S22RE         S22IM         
!; PortSelection: Port_12
   0.000050000     0.1791957    0.2916443     1.7034560    0.6552831    -0.0007628   -0.0052313    -0.9738863   -0.0128243 
   0.000150025    -0.2430693    0.3873225    -0.3121861   -0.9581452     0.0002622   -0.0006738    -0.9922943    0.0073587 
   0.000250050     0.8881068   -0.0538781    -4.2256420   -2.1494030    -0.0001992    0.0014543    -0.9956547    0.0047262 
   0.000350075     0.9965082   -0.0329979    -0.0026027   -0.0123176    -0.0000672   -0.0001071    -1.0019430    0.0062788 
   0.000450100     1.0656400    0.0378069    -0.0023466   -0.0085068    -0.0002608   -0.0008825    -1.0065880    0.0136510 
   0.000550125     0.9554641   -0.0210452    -0.0061522   -0.0050133     0.0000147    0.0001938    -0.9932969    0.0063610 
   0.000650150     0.9600070    0.0266088    -0.0037778   -0.0077546    -0.0000885    0.0012488    -0.9956613    0.0124939 
   0.000750175     1.0569740   -0.0228060    -0.0080306   -0.0072853    -0.0001540   -0.0000223    -1.0030630    0.0091216 
   0.000850200     1.0109220    0.0096611    -0.0074450   -0.0060232    -0.0000909    0.0000784    -0.9912181    0.0177287 
   0.000950225     0.9978384   -0.0546364    -0.0111973   -0.0053461     0.0005870    0.0001597    -0.9954070    0.0201379 
   0.001050250     1.0593540   -0.0123232    -0.0108907   -0.0098848    -0.0001415    0.0001585    -0.9943914    0.0217702 
   0.001150275     0.9426543   -0.1011724    -0.0078151   -0.0079876     0.0004654    0.0005901    -0.9940079    0.0169919 
   0.001250300     0.9748568   -0.0165294    -0.0090905   -0.0043911    -0.0000164   -0.0005059    -0.9925297    0.0259141 
   0.001350325     0.9633334    0.0045249    -0.0081124   -0.0005433     0.0002720    0.0004128    -0.9985626    0.0201041 
   0.001450350     0.9659685   -0.0117293    -0.0077842    0.0003891    -0.0000795    0.0002211    -0.9975857    0.0208041 
   0.001550375     0.9643058   -0.0101491    -0.0083686   -0.0003890     0.0008191    0.0003276    -0.9935643    0.0271160 
   0.001650400     0.9807996   -0.0274521    -0.0049822   -0.0049600    -0.0009142    0.0005936    -0.9929781    0.0215334 
   0.001750425     0.9825208   -0.0895056    -0.0098283   -0.0019281     0.0002185   -0.0002453    -0.9969001    0.0305798 
   0.001850450     0.9932759   -0.0111637    -0.0069649    0.0007322     0.0001583    0.0007437    -0.9993311    0.0290144 
   0.001950475     1.0011980    0.0004642    -0.0077392    0.0042785    -0.0003510   -0.0003158    -0.9945425    0.0298802 
   0.002050500     1.0375420   -0.0614281    -0.0025920    0.0024760    -0.0000792    0.0000731    -1.0021910    0.0396700 
   0.002150525     0.9890795    0.0392662    -0.0067564    0.0026011     0.0002226   -0.0006847    -0.9949715    0.0330497 
   0.002250550     0.9963353   -0.0224048    -0.0011883    0.0006405     0.0000381   -0.0003963    -1.0015940    0.0376214 
   0.002350575     0.9754528    0.0152843    -0.0037784    0.0025539     0.0002118    0.0003078    -0.9995926    0.0315196 
   0.002450600     1.0170310   -0.0686781    -0.0039654    0.0030197    -0.0002571   -0.0004377    -0.9987872    0.0397560 
   0.002550625     0.9642397   -0.0430358    -0.0075936    0.0003617     0.0002576   -0.0001816    -1.0027910    0.0407901 
   0.002650650     1.0008980   -0.0598356    -0.0026804    0.0024627    -0.0000020   -0.0005388    -0.9924170    0.0406170 
   0.002750675     1.0036230   -0.0092604    -0.0003418    0.0015015    -0.0001561    0.0003617    -0.9980444    0.0431214 
   0.002850700     0.9546024   -0.0883304    -0.0036790    0.0017212    -0.0001968   -0.0004951    -0.9966798    0.0519907 
   0.002950725     0.9752995   -0.0541566    -0.0008310    0.0006418    -0.0003291    0.0008716    -0.9934776    0.0466134 
   0.003050750     0.9823492   -0.0773417    -0.0011267    0.0050570    -0.0002301    0.0010555    -0.9959327    0.0525728 
   0.003150775     0.9919220   -0.0342030    -0.0040037    0.0026047    -0.0000167    0.0004049    -0.9987214    0.0478428 
   0.003250800     1.0260370   -0.0082853    -0.0030950   -0.0015857     0.0002297    0.0003073    -0.9976467    0.0476568 
   0.003350825     0.9629015   -0.0536483    -0.0004658    0.0012918    -0.0000802    0.0004630    -0.9947104    0.0502144 
   0.003450850     0.9703042   -0.0523472     0.0004565    0.0014410    -0.0000133   -0.0000841    -0.9948753    0.0614992 
   0.003550875     1.0095190   -0.0439252    -0.0010241    0.0017235    -0.0007359   -0.0001794    -0.9952021    0.0558924 
   0.003650900     0.9767802   -0.0145808     0.0000360    0.0018545     0.0000709   -0.0001247    -0.9929863    0.0553072 
   0.003750925     0.9956262   -0.0580416     0.0009357    0.0030126     0.0001890   -0.0002513    -0.9906163    0.0585148 
   0.003850950     1.0342200   -0.0467436     0.0001771    0.0040028    -0.0000639    0.0004060    -0.9934994    0.0615929 
   0.003950975     0.9921445   -0.0962273    -0.0014178    0.0047072     0.0002410    0.0003628    -0.9968420    0.0646825 
   0.004051001     0.9993296   -0.0735399     0.0000891   -0.0001136     0.0003413    0.0008003    -0.9907832    0.0614595 
   0.004151026     0.9943305   -0.0688184    -0.0035415    0.0021526    -0.0003176   -0.0001329    -0.9869570    0.0719640 
   0.004251051     1.0034190   -0.0887016     0.0009942    0.0012296    -0.0001697   -0.0002835    -0.9947527    0.0643543 
   0.004351076     1.0092290   -0.0317204     0.0002145    0.0030591    -0.0000256    0.0001336    -0.9896965    0.0697778 
   0.004451101     0.9787759   -0.0495620     0.0007096    0.0012455    -0.0013320    0.0000290    -0.9906098    0.0680859 
   0.004551126     0.9814323   -0.0907236     0.0008566   -0.0009564    -0.0001220    0.0003843    -0.9869477    0.0773883 
   0.004651151     0.9744557   -0.0807550    -0.0009399    0.0001937     0.0000150   -0.0002139    -0.9911329    0.0726684 
   0.004751176     1.0171870   -0.0770928    -0.0003337    0.0014675    -0.0006658   -0.0000949    -0.9950142    0.0775537 
   0.004851201     0.9962389   -0.1152912    -0.0003719    0.0008384    -0.0003633    0.0002558    -0.9932414    0.0793077 
   0.004951226     1.0178090   -0.0881092    -0.0013988    0.0023067     0.0000129   -0.0001985    -0.9943783    0.0831341 
   0.005051251     1.0157370   -0.0567938    -0.0017916    0.0024752    -0.0004722    0.0001696    -0.9916172    0.0804078 
   0.005151276     1.0001800   -0.1149136    -0.0019950    0.0021776    -0.0007903   -0.0000986    -0.9958831    0.0806527 
   0.005251301     0.9761083   -0.0801350     0.0001667    0.0004197    -0.0005169    0.0002314    -0.9963457    0.0882062 
   0.005351326     1.0004530   -0.0765727    -0.0014568   -0.0011279     0.0000288   -0.0002192    -0.9889894    0.0892311 
   0.005451351     0.9808887   -0.0894764     0.0003581    0.0001173    -0.0008703   -0.0002069    -0.9874221    0.0854445 
   0.005551376     0.9907730   -0.0907387     0.0006143    0.0021730    -0.0003469    0.0003392    -0.9856542    0.0917073 
   0.005651401     0.9544547   -0.1011840    -0.0012087   -0.0008392    -0.0007009    0.0000593    -0.9890280    0.0903434 
   0.005751426     1.0261680   -0.1074365    -0.0011883   -0.0000696    -0.0007709    0.0000750    -0.9911847    0.0930702 
   0.005851451     0.9821730   -0.0530228    -0.0005996    0.0002219    -0.0003028    0.0001291    -0.9870158    0.0916221 
   0.005951476     0.9988315   -0.1028801     0.0011659   -0.0016924    -0.0003874   -0.0001875    -0.9868878    0.0939163 
   0.006051501     1.0188650   -0.0864672    -0.0018915    0.0012865    -0.0000462   -0.0002052    -0.9887536    0.0962471 
   0.006151526     0.9856420   -0.0812671    -0.0011191    0.0014212    -0.0005100   -0.0007102    -0.9929693    0.0986650 
   0.006251551     1.0001700   -0.1221304    -0.0010651    0.0002352     0.0000108    0.0001063    -0.9872312    0.1003915 
   0.006351576     1.0005890   -0.0972210    -0.0016683    0.0009858    -0.0005216   -0.0000121    -0.9892420    0.1014484 
   0.006451601     0.9963541   -0.0965429    -0.0008993   -0.0005911    -0.0007040   -0.0000904    -0.9852921    0.1035707 
   0.006551626     0.9969670   -0.0824359     0.0002460   -0.0005567    -0.0003905   -0.0001008    -0.9853550    0.1072627 
   0.006651651     0.9729508   -0.0928730    -0.0002392   -0.0012457    -0.0000333    0.0002227    -0.9863751    0.1076837 
   0.006751676     1.0085540   -0.1102580    -0.0008533   -0.0010882    -0.0003364    0.0002838    -0.9917720    0.1075301 
   0.006851701     0.9823091   -0.0964210    -0.0005279    0.0000987    -0.0005886    0.0005367    -0.9877424    0.1100263 
   0.006951726     0.9833692   -0.0840234     0.0001441   -0.0003148    -0.0008503    0.0001781    -0.9881526    0.1147697 
   0.007051751     0.9651616   -0.1122523    -0.0016245    0.0000271    -0.0011987   -0.0002655    -0.9866822    0.1099375 
   0.007151776     1.0099870   -0.0942000     0.0000279    0.0000836    -0.0006597    0.0002700    -0.9881958    0.1151339 
   0.007251801     0.9972445   -0.1212951    -0.0011371   -0.0004117    -0.0001284    0.0001991    -0.9895273    0.1181524 
   0.007351826     1.0070870   -0.1118882     0.0003040    0.0003545    -0.0003659   -0.0000750    -0.9870128    0.1194544 
   0.007451851     1.0132720   -0.1180676    -0.0025736    0.0002704    -0.0009546    0.0000460    -0.9863588    0.1179923 
   0.007551876     1.0134000   -0.1081773     0.0011106    0.0000474    -0.0009688    0.0001373    -0.9865648    0.1192393 
   0.007651901     0.9873037   -0.1518799    -0.0013023   -0.0000122    -0.0006238    0.0000764    -0.9879382    0.1219814 
   0.007751926     0.9733758   -0.0871175     0.0000622    0.0016364    -0.0005333    0.0005259    -0.9848610    0.1205526 
   0.007851951     0.9939183   -0.1325841    -0.0001247   -0.0015066    -0.0002828    0.0001017    -0.9815977    0.1234159 
   0.007951976     0.9804209   -0.1214504    -0.0009304    0.0011457    -0.0010683    0.0000057    -0.9848948    0.1271194 
   0.008052001     0.9823274   -0.1138066    -0.0006125    0.0010998    -0.0006780   -0.0001982    -0.9849474    0.1279904 
   0.008152026     0.9975126   -0.1383133    -0.0007980    0.0023670    -0.0006988    0.0004165    -0.9836231    0.1291865 
   0.008252051     1.0041770   -0.1108290     0.0004631   -0.0010803    -0.0013412    0.0002545    -0.9860159    0.1277846 
   0.008352076     0.9866868   -0.1244662    -0.0005113    0.0004736    -0.0005941    0.0001245    -0.9838431    0.1339596 
   0.008452101     0.9615364   -0.1330095     0.0000601    0.0011664    -0.0004241    0.0001045    -0.9831142    0.1337448 
   0.008552126     0.9782324   -0.1323818     0.0003784   -0.0006040    -0.0006023    0.0004523    -0.9846445    0.1355143 
   0.008652151     0.9753594   -0.1352680    -0.0025748   -0.0001532    -0.0009536    0.0000893    -0.9811614    0.1381550 
   0.008752176     0.9971975   -0.1503326    -0.0004996   -0.0004909    -0.0003611    0.0004666    -0.9843264    0.1387068 
   0.008852201     0.9867316   -0.1278177    -0.0012451    0.0008292    -0.0008045    0.0002632    -0.9849365    0.1397840 
   0.008952226     1.0062370   -0.1423794    -0.0000351    0.0006945    -0.0007460    0.0003248    -0.9823509    0.1436235 
   0.009052251     0.9826260   -0.1504917    -0.0007319   -0.0000906    -0.0011644   -0.0000148    -0.9819204    0.1469717 
   0.009152276     0.9946163   -0.1279079    -0.0012815    0.0001876    -0.0009807   -0.0000623    -0.9801100    0.1470969 
   0.009252301     1.0084250   -0.1396904    -0.0003700   -0.0009376    -0.0006895    0.0002632    -0.9832472    0.1477005 
   0.009352326     0.9831132   -0.1479824    -0.0007467   -0.0002860    -0.0010721    0.0002339    -0.9805842    0.1460159 
   0.009452351     0.9874045   -0.1402873    -0.0012895    0.0005762    -0.0010658    0.0002154    -0.9844305    0.1515464 
   0.009552376     0.9960407   -0.1607792    -0.0011075    0.0006908    -0.0009737    0.0001046    -0.9782434    0.1502055 
   0.009652401     1.0143030   -0.1518032    -0.0002605    0.0001918    -0.0008805    0.0000966    -0.9801675    0.1534012 
   0.009752426     0.9890081   -0.1475041    -0.0004142   -0.0001678    -0.0008278    0.0001848    -0.9802514    0.1542439 
   0.009852451     0.9855154   -0.1701407    -0.0001610    0.0000496    -0.0011458    0.0004417    -0.9818059    0.1572903 
   0.009952476     0.9794573   -0.1720627    -0.0008223    0.0000157    -0.0010298    0.0002467    -0.9814668    0.1568547 
   0.010052501     0.9976325   -0.1296205    -0.0007562    0.0002956    -0.0010400    0.0000571    -0.9790746    0.1588482 
   0.010152526     0.9876410   -0.1538916    -0.0012904   -0.0008202    -0.0010767    0.0001636    -0.9818336    0.1662275 
   0.010252551     0.9947028   -0.1489929    -0.0020235    0.0004057    -0.0011612    0.0003216    -0.9814143    0.1639228 
   0.010352576     0.9853885   -0.1782916    -0.0014788   -0.0000237    -0.0010435    0.0000757    -0.9807042    0.1629017 
   0.010452601     0.9911331   -0.1731361    -0.0010668    0.0010515    -0.0010288    0.0004186    -0.9801129    0.1654926 
   0.010552626     0.9651804   -0.1813993    -0.0011703   -0.0002553    -0.0008909    0.0003616    -0.9786918    0.1686391 
   0.010652651     0.9786822   -0.1726405    -0.0011546   -0.0006161    -0.0011928    0.0005139    -0.9748805    0.1686224 
   0.010752676     0.9907858   -0.1938686    -0.0028502   -0.0000668    -0.0011538    0.0001939    -0.9767891    0.1743950 
   0.010852701     1.0034730   -0.1735287    -0.0008063    0.0007221    -0.0011304    0.0004900    -0.9747797    0.1758067 
   0.010952726     1.0018820   -0.1676269    -0.0003969   -0.0004026    -0.0015431    0.0004118    -0.9747988    0.1764533 
   0.011052751     1.0182890   -0.1718393    -0.0013196    0.0005020    -0.0016145    0.0005007    -0.9754508    0.1757714 
   0.011152776     0.9828421   -0.1867944    -0.0002964   -0.0004288    -0.0012076    0.0004228    -0.9748185    0.1790138 
   0.011252801     0.9914708   -0.1733565    -0.0020196    0.0009936    -0.0014485    0.0004084    -0.9721735    0.1749503 
   0.011352826     0.9716664   -0.1876593    -0.0023877    0.0009174    -0.0016055    0.0002683    -0.9772301    0.1799646 
   0.011452851     0.9945021   -0.1832640    -0.0020401   -0.0010040    -0.0007967    0.0009173    -0.9772660    0.1845611 
   0.011552876     0.9860271   -0.1799243    -0.0009152    0.0012601    -0.0015908    0.0004730    -0.9750344    0.1834242 
   0.011652901     0.9944520   -0.1902602    -0.0010859    0.0004617    -0.0015704    0.0002805    -0.9756482    0.1884001 
   0.011752926     0.9824379   -0.2205234    -0.0019580   -0.0001461    -0.0012814    0.0002880    -0.9749587    0.1851364 
   0.011852951     0.9612723   -0.1799673    -0.0007863    0.0012388    -0.0016465    0.0003419    -0.9707980    0.1902262 
   0.011952976     0.9789361   -0.1817212    -0.0012713   -0.0008340    -0.0013978    0.0003025    -0.9738655    0.1893403 
   0.012053002     0.9672121   -0.1803275    -0.0013415   -0.0002001    -0.0017179    0.0005642    -0.9724154    0.1959984 
   0.012153027     0.9883487   -0.1779793    -0.0021630    0.0007409    -0.0014922    0.0003162    -0.9738177    0.1906851 
   0.012253052     0.9853507   -0.1839035    -0.0012514   -0.0001036    -0.0015351    0.0007689    -0.9728781    0.1937953 
   0.012353077     0.9872881   -0.1808497    -0.0013997    0.0002679    -0.0019426    0.0005790    -0.9742475    0.2014694 
   0.012453102     0.9861922   -0.1993131    -0.0025056    0.0005026    -0.0018028    0.0004076    -0.9752866    0.2025886 
   0.012553127     0.9747763   -0.1826575    -0.0018047   -0.0006965    -0.0017527    0.0006603    -0.9698392    0.2017323 
   0.012653152     1.0052360   -0.1955853    -0.0012779    0.0010302    -0.0016751    0.0002003    -0.9704703    0.2003668 
   0.012753177     0.9754142   -0.1985282    -0.0017150    0.0002371    -0.0016177    0.0005328    -0.9697082    0.2004007 
   0.012853202     0.9811696   -0.2127133    -0.0021170   -0.0007568    -0.0017843    0.0005011    -0.9718587    0.2062872 
   0.012953227     0.9705933   -0.1881667    -0.0017472   -0.0004711    -0.0019348    0.0008289    -0.9701220    0.2075607 
   0.013053252     0.9709053   -0.2113212    -0.0004162    0.0002848    -0.0020629    0.0005242    -0.9680725    0.2035271 
   0.013153277     0.9837865   -0.1858378    -0.0014403    0.0006661    -0.0013574    0.0005683    -0.9683067    0.2103446 
   0.013253302     0.9822003   -0.1943215    -0.0028880    0.0001399    -0.0019078    0.0002506    -0.9669912    0.2074180 
   0.013353327     0.9741940   -0.2153894    -0.0019837    0.0005156    -0.0018208    0.0005988    -0.9685231    0.2154616 
   0.013453352     0.9801667   -0.2153835    -0.0024624    0.0004555    -0.0015564    0.0003444    -0.9657706    0.2142458 
   0.013553377     0.9789041   -0.2118618    -0.0026144    0.0015476    -0.0019931    0.0004700    -0.9667117    0.2182718 
   0.013653402     0.9732203   -0.2102979    -0.0032701    0.0005766    -0.0022315    0.0008084    -0.9649873    0.2187854 
   0.013753427     0.9674800   -0.2017874    -0.0010317    0.0012331    -0.0017317    0.0005164    -0.9624110    0.2183314 
   0.013853452     0.9659606   -0.2196076    -0.0027391    0.0008457    -0.0020792    0.0003207    -0.9654618    0.2190032 
   0.013953477     0.9811711   -0.2204393    -0.0029114    0.0012124    -0.0022420    0.0003885    -0.9660127    0.2261610 
   0.014053502     0.9681779   -0.2042238    -0.0013647    0.0008704    -0.0020183    0.0006313    -0.9659447    0.2244720 
   0.014153527     0.9716600   -0.2194630    -0.0022429   -0.0000274    -0.0022823    0.0003745    -0.9635993    0.2285769 
   0.014253552     0.9779024   -0.2196529    -0.0038592    0.0015914    -0.0019772    0.0006300    -0.9666793    0.2270235 
   0.014353577     0.9753008   -0.2360816    -0.0020667    0.0003481    -0.0021491    0.0003141    -0.9639267    0.2292103 
   0.014453602     0.9538779   -0.2335967    -0.0014582    0.0012051    -0.0021913    0.0008062    -0.9630034    0.2322956 
   0.014553627     0.9648603   -0.2419354    -0.0025594    0.0007644    -0.0021315    0.0004069    -0.9622403    0.2325522 
   0.014653652     0.9647902   -0.2210885    -0.0022097    0.0006460    -0.0021196    0.0004813    -0.9620755    0.2348736 
   0.014753677     0.9743295   -0.2313891    -0.0022632    0.0006078    -0.0025258    0.0007556    -0.9641270    0.2368072 
   0.014853702     0.9830137   -0.2321127    -0.0031524    0.0014895    -0.0025016    0.0007619    -0.9627643    0.2381247 
   0.014953727     0.9584245   -0.2328125    -0.0021799    0.0000453    -0.0025375    0.0007136    -0.9610035    0.2382201 
   0.015053752     0.9777083   -0.2398636    -0.0020751    0.0016460    -0.0020680    0.0005846    -0.9635180    0.2402581 
   0.015153777     0.9704816   -0.2322063    -0.0024165    0.0013077    -0.0025772    0.0006330    -0.9583479    0.2431798 
   0.015253802     0.9692932   -0.2378779    -0.0033133    0.0016002    -0.0023517    0.0006933    -0.9617105    0.2458662 
   0.015353827     0.9652733   -0.2115178    -0.0024349    0.0007639    -0.0023114    0.0006620    -0.9590163    0.2487308 
   0.015453852     0.9657364   -0.2437670    -0.0030005    0.0012781    -0.0022021    0.0007791    -0.9581605    0.2470059 
   0.015553877     0.9744682   -0.2430781    -0.0027210   -0.0000320    -0.0027629    0.0008856    -0.9575887    0.2520879 
   0.015653902     0.9613268   -0.2367830    -0.0021652    0.0009330    -0.0026678    0.0007596    -0.9565262    0.2525006 
