! 19-Feb-26 1:06:25 PM
! E:\VNA_MEASUREMENTS\RECBLOCK\BANDPASSFIL0.S2P
! CHANNEL.1
! TR.MEASUREMENT
! CORRECTED.DATA
# GHZ S RI R 50.0
! FREQ.GHZ         S11RE         S11IM         S21RE         S21IM         S12RE         S12IM         S22RE         S22IM         
!; PortSelection: Port_12
   0.000050000     0.2843970    0.4970694     1.5365410    0.4412212     0.0041698    0.0025732     1.0226730   -0.0489539 
   0.000150025    -0.3069406   -1.2912170    -0.6718092   -0.8214318    -0.0002369   -0.0035855     1.0119240   -0.0015384 
   0.000250050     1.2083660   -0.0930188    -0.0031103    0.0940131     0.0007767   -0.0005836     1.0011790   -0.0149097 
   0.000350075    -0.9824786   -0.0009146    -0.0010821   -0.0010049     0.0000028    0.0001651     0.9854160   -0.0036367 
   0.000450100    -1.0069420    0.0147663    -0.0013105   -0.0021893     0.0004097    0.0001043     1.0128480   -0.0102683 
   0.000550125    -0.9961236    0.0104449    -0.0014076   -0.0015642    -0.0001567   -0.0001553     1.0006190   -0.0050634 
   0.000650150    -0.9948536    0.0128551    -0.0004286   -0.0025845    -0.0002668    0.0000032     1.0027530   -0.0119350 
   0.000750175    -0.9930595    0.0056021    -0.0016676   -0.0008492    -0.0000161    0.0001148     1.0057280   -0.0151300 
   0.000850200    -1.0022630    0.0056807    -0.0015262   -0.0013179    -0.0000202    0.0000212     0.9923941   -0.0153235 
   0.000950225    -0.9876605    0.0062056    -0.0015579   -0.0012097     0.0000689   -0.0001596     1.0107130   -0.0112969 
   0.001050250    -0.9970019    0.0134468    -0.0017725   -0.0014428     0.0000136    0.0002003     0.9993247   -0.0183605 
   0.001150275    -0.9837769    0.0191305    -0.0019566   -0.0015190     0.0000683    0.0000075     0.9992331   -0.0199934 
   0.001250300    -0.9992248    0.0148525    -0.0022247   -0.0008693    -0.0001616    0.0000191     1.0009290   -0.0229402 
   0.001350325    -0.9978226    0.0268646    -0.0020817   -0.0013023     0.0000491    0.0000649     0.9929143   -0.0326883 
   0.001450350    -0.9976003    0.0325571    -0.0016402   -0.0005901     0.0001187    0.0001520     1.0010330   -0.0176707 
   0.001550375    -0.9964555    0.0336302    -0.0016068    0.0008907     0.0000441   -0.0000388     0.9985993   -0.0181970 
   0.001650400    -0.9971493    0.0309542    -0.0017913   -0.0007776    -0.0001159    0.0000442     0.9940245   -0.0228684 
   0.001750425    -0.9988356    0.0143396    -0.0015601   -0.0001802     0.0000023   -0.0000744     1.0056060   -0.0280552 
   0.001850450    -0.9942333    0.0236643    -0.0013283   -0.0001971    -0.0001442   -0.0002428     0.9917795   -0.0256160 
   0.001950475    -0.9963905    0.0362934    -0.0008736   -0.0007404    -0.0000569   -0.0000730     0.9927924   -0.0269280 
   0.002050500    -1.0045450    0.0261460    -0.0008068   -0.0007055    -0.0001497   -0.0001801     1.0000750   -0.0315424 
   0.002150525    -0.9973311    0.0339498    -0.0021498   -0.0004188    -0.0001954   -0.0002162     1.0001710   -0.0339557 
   0.002250550    -0.9920641    0.0345390    -0.0017142   -0.0000796    -0.0001415    0.0001392     1.0022000   -0.0419355 
   0.002350575    -0.9981335    0.0410677    -0.0014451   -0.0000500    -0.0003336   -0.0000228     0.9990857   -0.0332665 
   0.002450600    -1.0036900    0.0334605    -0.0012902   -0.0001790    -0.0000739    0.0000597     1.0011110   -0.0290242 
   0.002550625    -1.0007260    0.0352813    -0.0019544    0.0006365     0.0000067   -0.0001118     1.0062990   -0.0404634 
   0.002650650    -0.9912305    0.0460634    -0.0020075   -0.0007191    -0.0000642   -0.0000431     1.0034950   -0.0412127 
   0.002750675    -0.9842328    0.0395218    -0.0012315    0.0001352    -0.0001438    0.0000121     0.9899200   -0.0368927 
   0.002850700    -1.0009750    0.0523449    -0.0010917   -0.0003463    -0.0003062   -0.0000511     1.0010880   -0.0452338 
   0.002950725    -0.9881780    0.0509250    -0.0015493   -0.0001559    -0.0000975   -0.0000586     0.9967995   -0.0410427 
   0.003050750    -0.9975900    0.0552215    -0.0011074    0.0005573    -0.0003043   -0.0000981     0.9983237   -0.0401258 
   0.003150775    -0.9949428    0.0520653    -0.0011893    0.0006417    -0.0002393    0.0000905     0.9962024   -0.0487747 
   0.003250800    -0.9866133    0.0550039    -0.0014972    0.0001690    -0.0001318    0.0001220     0.9998242   -0.0488151 
   0.003350825    -0.9967026    0.0629870    -0.0000258    0.0003631    -0.0000167   -0.0000532     0.9938682   -0.0499671 
   0.003450850    -0.9959613    0.0622729    -0.0008118   -0.0004331    -0.0002614    0.0001033     0.9992308   -0.0458118 
   0.003550875    -0.9843633    0.0507384    -0.0006646    0.0005155    -0.0000207   -0.0002194     1.0007520   -0.0613021 
   0.003650900    -0.9886833    0.0641028    -0.0011502    0.0000319    -0.0002363    0.0000930     0.9959239   -0.0638516 
   0.003750925    -0.9953076    0.0616518    -0.0008059   -0.0002604    -0.0000074    0.0001180     0.9965926   -0.0573910 
   0.003850950    -0.9983771    0.0588909    -0.0011144   -0.0003337    -0.0001958    0.0000322     1.0041690   -0.0561954 
   0.003950975    -0.9906380    0.0658946    -0.0006806    0.0004765    -0.0004158    0.0000299     0.9982815   -0.0591172 
   0.004051001    -0.9909223    0.0712890    -0.0008756    0.0003032     0.0000482    0.0000281     0.9943591   -0.0609515 
   0.004151026    -0.9990727    0.0743436    -0.0009503   -0.0001598    -0.0001105    0.0001110     0.9972441   -0.0662387 
   0.004251051    -0.9919887    0.0720350    -0.0009554   -0.0001114    -0.0001668    0.0002731     0.9971617   -0.0674134 
   0.004351076    -0.9958510    0.0702993    -0.0014818   -0.0000426    -0.0001855    0.0000233     1.0005620   -0.0707598 
   0.004451101    -0.9912416    0.0701435    -0.0007828    0.0004019    -0.0003808    0.0000610     1.0018300   -0.0706572 
   0.004551126    -0.9901238    0.0697099    -0.0005546    0.0004633    -0.0003716   -0.0000286     0.9994627   -0.0661924 
   0.004651151    -0.9954342    0.0751197    -0.0004008   -0.0002880    -0.0003158    0.0000568     0.9937024   -0.0727344 
   0.004751176    -1.0000440    0.0776412     0.0000495   -0.0001138    -0.0003104    0.0000230     0.9925473   -0.0746873 
   0.004851201    -0.9951375    0.0800645    -0.0009445   -0.0001363    -0.0002350   -0.0001702     0.9987713   -0.0784659 
   0.004951226    -0.9913782    0.0767382    -0.0002731   -0.0002880    -0.0001866    0.0000626     1.0003440   -0.0744503 
   0.005051251    -0.9910911    0.0801140    -0.0004353    0.0002532    -0.0003011    0.0001545     0.9938127   -0.0807805 
   0.005151276    -0.9932347    0.0857856    -0.0000178   -0.0002885    -0.0002910   -0.0000036     0.9915388   -0.0752697 
   0.005251301    -0.9974599    0.0783367    -0.0004566    0.0009301    -0.0003054   -0.0001659     0.9951242   -0.0803011 
   0.005351326    -0.9870434    0.0839835    -0.0007093    0.0000863    -0.0003464    0.0000511     0.9965384   -0.0853991 
   0.005451351    -0.9966834    0.0827972    -0.0005785    0.0003387    -0.0004490   -0.0000226     0.9975732   -0.0865552 
   0.005551376    -0.9910459    0.0876901     0.0001262   -0.0003250    -0.0001771   -0.0001467     0.9934823   -0.0870733 
   0.005651401    -0.9874942    0.0971728    -0.0005902    0.0003020    -0.0004513   -0.0000373     0.9882655   -0.0914287 
   0.005751426    -0.9969168    0.0980627    -0.0008320    0.0003312    -0.0004269   -0.0001725     0.9959219   -0.0832124 
   0.005851451    -0.9891475    0.0843885    -0.0005905    0.0001774    -0.0004460    0.0001827     0.9981782   -0.0849479 
   0.005951476    -0.9859838    0.0914712     0.0000119    0.0001461    -0.0005208    0.0002247     0.9951724   -0.0960285 
   0.006051501    -0.9902847    0.0952495    -0.0004783   -0.0001140    -0.0004992   -0.0000243     0.9906539   -0.0898778 
   0.006151526    -0.9913540    0.0950805    -0.0002150    0.0002772    -0.0003751    0.0001083     0.9932835   -0.0968227 
   0.006251551    -0.9860544    0.1028144    -0.0002036    0.0007706    -0.0003731    0.0003879     0.9919990   -0.0988425 
   0.006351576    -0.9861642    0.1010648    -0.0006145   -0.0001359    -0.0005717   -0.0000347     0.9994835   -0.0991115 
   0.006451601    -0.9881049    0.1063004    -0.0002340    0.0008568    -0.0003986    0.0002479     0.9957801   -0.1026443 
   0.006551626    -0.9902092    0.1098942    -0.0011568   -0.0001752    -0.0002984    0.0001074     0.9941800   -0.0989069 
   0.006651651    -0.9829832    0.1099225    -0.0013768    0.0004356    -0.0006845   -0.0000002     0.9942142   -0.1006773 
   0.006751676    -0.9955787    0.1109439    -0.0004835    0.0001985    -0.0005175    0.0000128     0.9927673   -0.1093790 
   0.006851701    -0.9918572    0.1219394    -0.0002832   -0.0005153    -0.0004689   -0.0000403     0.9976697   -0.1004278 
   0.006951726    -0.9876182    0.1143887    -0.0002920    0.0010249    -0.0007067   -0.0001007     0.9903586   -0.1016619 
   0.007051751    -0.9913557    0.1224920    -0.0009901   -0.0000811    -0.0005362    0.0002448     0.9961039   -0.1083904 
   0.007151776    -0.9979120    0.1158204    -0.0001505   -0.0002603    -0.0006287   -0.0000451     0.9916064   -0.1076147 
   0.007251801    -0.9859241    0.1103345    -0.0007460   -0.0003184    -0.0006177    0.0001054     0.9927368   -0.1130186 
   0.007351826    -0.9785636    0.1186326    -0.0004388    0.0004051    -0.0006286    0.0001574     0.9997641   -0.1069680 
   0.007451851    -0.9810421    0.1191967    -0.0001996    0.0000004    -0.0006460    0.0002570     0.9924302   -0.1139790 
   0.007551876    -0.9801432    0.1317631    -0.0013292    0.0003345    -0.0007916   -0.0000857     0.9919211   -0.1182802 
   0.007651901    -0.9883953    0.1281653    -0.0009750    0.0000007    -0.0006203   -0.0000122     0.9902601   -0.1214282 
   0.007751926    -0.9838483    0.1229670    -0.0007089    0.0007955    -0.0006684    0.0003822     0.9926502   -0.1181460 
   0.007851951    -0.9914997    0.1248478    -0.0009282   -0.0004170    -0.0006861    0.0002251     0.9935690   -0.1219403 
   0.007951976    -0.9836226    0.1315120    -0.0013206    0.0002310    -0.0009115    0.0002313     0.9922606   -0.1241078 
   0.008052001    -0.9846497    0.1264767    -0.0009294   -0.0000512    -0.0007349    0.0000014     0.9889773   -0.1208867 
   0.008152026    -0.9899877    0.1341019    -0.0004347    0.0001453    -0.0007303    0.0001315     0.9862252   -0.1282319 
   0.008252051    -0.9825669    0.1360079    -0.0007136    0.0003562    -0.0004448    0.0000552     0.9895232   -0.1230740 
   0.008352076    -0.9830906    0.1264297    -0.0013150    0.0007822    -0.0008249    0.0003804     0.9950593   -0.1295301 
   0.008452101    -0.9892775    0.1316595    -0.0005331   -0.0002899    -0.0007401    0.0001384     0.9923781   -0.1292724 
   0.008552126    -0.9865858    0.1367965    -0.0002887    0.0007964    -0.0010729    0.0002716     0.9919118   -0.1324842 
   0.008652151    -0.9817315    0.1355489    -0.0009496   -0.0000794    -0.0007942    0.0001319     0.9925073   -0.1344811 
   0.008752176    -0.9844553    0.1471802    -0.0013334    0.0004209    -0.0009163    0.0003389     0.9911524   -0.1382179 
   0.008852201    -0.9776282    0.1437684    -0.0008879    0.0002309    -0.0008152    0.0001439     0.9968447   -0.1377945 
   0.008952226    -0.9787683    0.1382042    -0.0011525    0.0001358    -0.0006654    0.0000887     0.9937337   -0.1416801 
   0.009052251    -0.9822736    0.1498062    -0.0007321    0.0002913    -0.0008313    0.0002551     0.9906982   -0.1409950 
   0.009152276    -0.9796794    0.1475629    -0.0007482   -0.0001248    -0.0010607    0.0002102     0.9932091   -0.1408570 
   0.009252301    -0.9864549    0.1489689    -0.0010898   -0.0006844    -0.0010874    0.0002898     0.9871517   -0.1426300 
   0.009352326    -0.9806725    0.1534627    -0.0015232    0.0005629    -0.0011226    0.0002591     0.9879861   -0.1442874 
   0.009452351    -0.9824627    0.1517425    -0.0007154   -0.0000143    -0.0011663    0.0003171     0.9895513   -0.1477005 
   0.009552376    -0.9795496    0.1523416    -0.0011519    0.0003437    -0.0008801    0.0000884     0.9865134   -0.1487103 
   0.009652401    -0.9857793    0.1580372    -0.0008302    0.0000727    -0.0011047    0.0001328     0.9903964   -0.1525488 
   0.009752426    -0.9825570    0.1549841    -0.0012316    0.0002023    -0.0009352    0.0002395     0.9899720   -0.1536107 
   0.009852451    -0.9802142    0.1562554    -0.0009305   -0.0000074    -0.0010845   -0.0000383     0.9858964   -0.1485273 
   0.009952476    -0.9842058    0.1586666    -0.0011708    0.0008282    -0.0010178    0.0002918     0.9858482   -0.1533304 
   0.010052501    -0.9906279    0.1552385    -0.0015492    0.0004207    -0.0010927    0.0002033     0.9907762   -0.1592577 
   0.010152526    -0.9881141    0.1593494    -0.0016027    0.0003396    -0.0009191    0.0003342     0.9856643   -0.1576201 
   0.010252551    -0.9884225    0.1627114    -0.0013953    0.0002064    -0.0009781    0.0002199     0.9843730   -0.1581745 
   0.010352576    -0.9716657    0.1626548    -0.0015971    0.0001199    -0.0012546    0.0002812     0.9902260   -0.1655124 
   0.010452601    -0.9783370    0.1778157    -0.0009957   -0.0000239    -0.0012141    0.0002076     0.9862860   -0.1624431 
   0.010552626    -0.9791153    0.1688040    -0.0017193    0.0000206    -0.0010855    0.0003713     0.9871289   -0.1686121 
   0.010652651    -0.9847072    0.1735279    -0.0014711    0.0004746    -0.0013473    0.0002601     0.9858369   -0.1624681 
   0.010752676    -0.9907458    0.1709599    -0.0011405    0.0007979    -0.0012140    0.0003417     0.9832116   -0.1706348 
   0.010852701    -0.9810808    0.1741826    -0.0008767    0.0000483    -0.0011651    0.0002910     0.9878083   -0.1677702 
   0.010952726    -0.9764031    0.1660123    -0.0005940   -0.0005042    -0.0013016    0.0003682     0.9822833   -0.1725261 
   0.011052751    -0.9765130    0.1655079    -0.0019250    0.0001797    -0.0011949    0.0001756     0.9847789   -0.1729497 
   0.011152776    -0.9721129    0.1838821    -0.0008739    0.0001278    -0.0012875    0.0003564     0.9855152   -0.1781149 
   0.011252801    -0.9792140    0.1751278    -0.0012706    0.0002572    -0.0013260    0.0005915     0.9802506   -0.1801022 
   0.011352826    -0.9767374    0.1808215    -0.0014789    0.0000333    -0.0013552    0.0001894     0.9815874   -0.1760918 
   0.011452851    -0.9821219    0.1767013    -0.0010121    0.0000791    -0.0015342    0.0004683     0.9829146   -0.1847384 
   0.011552876    -0.9764273    0.1866262    -0.0010444    0.0002397    -0.0016801    0.0003307     0.9828105   -0.1817919 
   0.011652901    -0.9724544    0.1896304    -0.0013203    0.0006272    -0.0015968    0.0002204     0.9847557   -0.1874884 
   0.011752926    -0.9799104    0.1859238    -0.0019323   -0.0001276    -0.0014769    0.0003216     0.9828455   -0.1840415 
   0.011852951    -0.9749626    0.1933485    -0.0016024    0.0005650    -0.0012824    0.0000851     0.9821283   -0.1863637 
   0.011952976    -0.9776667    0.1831969    -0.0011039    0.0011878    -0.0013409    0.0004584     0.9753492   -0.1849152 
   0.012053002    -0.9755132    0.1978312    -0.0005508    0.0009917    -0.0016648    0.0003070     0.9805606   -0.1850536 
   0.012153027    -0.9679270    0.1905472    -0.0026139   -0.0003061    -0.0014159    0.0006227     0.9806019   -0.1941927 
   0.012253052    -0.9756339    0.1969019    -0.0009830    0.0007653    -0.0016700    0.0005916     0.9806921   -0.1954339 
   0.012353077    -0.9695884    0.1947629    -0.0009120   -0.0002510    -0.0016407    0.0005020     0.9823206   -0.1967308 
   0.012453102    -0.9737967    0.2018990    -0.0015268    0.0003083    -0.0015468    0.0005161     0.9836723   -0.1963206 
   0.012553127    -0.9630462    0.1981784    -0.0016826    0.0003548    -0.0017914    0.0006949     0.9786959   -0.2006980 
   0.012653152    -0.9677550    0.1978188    -0.0018805   -0.0004646    -0.0017099    0.0004924     0.9779471   -0.2028085 
   0.012753177    -0.9804291    0.1993843    -0.0013628    0.0003853    -0.0017619    0.0005515     0.9793178   -0.2018050 
   0.012853202    -0.9769179    0.2117422    -0.0021378    0.0008249    -0.0019622    0.0005908     0.9781485   -0.2012265 
   0.012953227    -0.9760941    0.2078995    -0.0023758    0.0010119    -0.0018339    0.0003101     0.9782436   -0.2040285 
   0.013053252    -0.9751136    0.2184595    -0.0023191    0.0006860    -0.0016908    0.0004803     0.9758513   -0.2086035 
   0.013153277    -0.9642518    0.2026447    -0.0021171    0.0012565    -0.0017416    0.0006241     0.9761497   -0.2102960 
   0.013253302    -0.9691541    0.2131121    -0.0018943    0.0000427    -0.0019831    0.0005965     0.9771472   -0.2135557 
   0.013353327    -0.9715311    0.2147186    -0.0013043   -0.0013917    -0.0019700    0.0006988     0.9748905   -0.2102412 
   0.013453352    -0.9711165    0.2215716    -0.0020246    0.0002159    -0.0021309    0.0003788     0.9743564   -0.2073467 
   0.013553377    -0.9702084    0.2183943    -0.0021409    0.0007512    -0.0021505    0.0004482     0.9750715   -0.2160224 
   0.013653402    -0.9662520    0.2144004    -0.0031782   -0.0002882    -0.0020913    0.0003950     0.9764296   -0.2142484 
   0.013753427    -0.9660822    0.2108317    -0.0022005    0.0007415    -0.0020257    0.0009528     0.9746037   -0.2185596 
   0.013853452    -0.9598939    0.2160615    -0.0013670    0.0005639    -0.0022615    0.0006252     0.9766849   -0.2187046 
   0.013953477    -0.9580852    0.2217372    -0.0023338    0.0004456    -0.0021112    0.0007927     0.9758707   -0.2223121 
   0.014053502    -0.9681536    0.2249437    -0.0015167    0.0007383    -0.0023468    0.0005623     0.9747807   -0.2248106 
   0.014153527    -0.9632878    0.2169394    -0.0012750    0.0000976    -0.0021319    0.0006975     0.9723523   -0.2275897 
   0.014253552    -0.9639460    0.2289008    -0.0032993    0.0005923    -0.0021262    0.0007233     0.9743864   -0.2225882 
   0.014353577    -0.9667425    0.2320449    -0.0024868    0.0012458    -0.0022910    0.0008190     0.9712696   -0.2299515 
   0.014453602    -0.9556966    0.2288064    -0.0024033    0.0014794    -0.0024033    0.0005288     0.9713793   -0.2308613 
   0.014553627    -0.9696501    0.2237703    -0.0028392    0.0002248    -0.0022556    0.0007759     0.9718096   -0.2368858 
   0.014653652    -0.9579603    0.2496672    -0.0026002    0.0005751    -0.0024338    0.0007845     0.9705123   -0.2377307 
   0.014753677    -0.9558482    0.2339131    -0.0023749    0.0008796    -0.0026686    0.0008553     0.9689049   -0.2378449 
   0.014853702    -0.9680601    0.2333386    -0.0025275    0.0014262    -0.0023430    0.0004873     0.9706075   -0.2330885 
   0.014953727    -0.9559663    0.2316338    -0.0022177    0.0005837    -0.0023684    0.0010731     0.9749511   -0.2404191 
   0.015053752    -0.9770443    0.2483337    -0.0038300    0.0000357    -0.0024064    0.0007925     0.9676393   -0.2403042 
   0.015153777    -0.9517626    0.2388709    -0.0019512    0.0008118    -0.0023609    0.0008869     0.9747540   -0.2395764 
   0.015253802    -0.9646196    0.2560748    -0.0026507    0.0015240    -0.0024296    0.0006925     0.9688290   -0.2431547 
   0.015353827    -0.9655096    0.2408244    -0.0010577    0.0005053    -0.0026993    0.0009271     0.9693819   -0.2449358 
   0.015453852    -0.9674004    0.2499367    -0.0031407   -0.0006147    -0.0027335    0.0008255     0.9734897   -0.2442466 
   0.015553877    -0.9580506    0.2489377    -0.0023618    0.0016023    -0.0025649    0.0008013     0.9684694   -0.2492058 
   0.015653902    -0.9602998    0.2645027    -0.0038315    0.0015723    -0.0026542    0.0011681     0.9643235   -0.2502296 
