! 19-Feb-26 2:41:21 PM
! E:\VNA_MEASUREMENTS\RECBLOCK\BANDPASSFILREV3.S2P
! CHANNEL.1
! TR.MEASUREMENT
! CORRECTED.DATA
# GHZ S RI R 50.0
! FREQ.GHZ         S11RE         S11IM         S21RE         S21IM         S12RE         S12IM         S22RE         S22IM         
!; PortSelection: Port_12
   0.000050000     1.0002880    0.1336802    -1.3013610    1.1306020    -0.0100019    0.0034968    -0.9908283   -0.0212674 
   0.000150025    -2.0349860    8.7063890     7.2457610   -6.3802380     0.0026869   -0.0003927    -0.9974424    0.0048019 
   0.000250050     0.7442814   -0.2073103     0.3524412   -1.0596180    -0.0005991    0.0000861    -1.0019680    0.0056361 
   0.000350075     0.9513847   -0.0050445     0.0005195   -0.0103834     0.0010984   -0.0004048    -1.0036140    0.0039536 
   0.000450100     1.0470990    0.0185151    -0.0032070   -0.0081742     0.0004984   -0.0003819    -1.0010540    0.0115169 
   0.000550125     0.9165968    0.0352308    -0.0062577   -0.0076537     0.0012417    0.0000829    -0.9911664    0.0090803 
   0.000650150     0.9677955    0.0217742    -0.0022730   -0.0071337     0.0009278    0.0001668    -0.9958495    0.0137752 
   0.000750175     1.0390170   -0.0083175    -0.0028528   -0.0104056     0.0000870    0.0005084    -1.0008400    0.0116563 
   0.000850200     0.9460916   -0.0347195    -0.0009355   -0.0041223     0.0000746    0.0005260    -0.9964926    0.0131638 
   0.000950225     0.9709304   -0.0084877    -0.0095713   -0.0033010     0.0009433   -0.0003785    -1.0006710    0.0183555 
   0.001050250     1.0085870   -0.0156604    -0.0087243   -0.0031288     0.0007421   -0.0010432    -0.9892526    0.0186300 
   0.001150275     0.9865999   -0.0442453    -0.0066085   -0.0050644    -0.0000754   -0.0003015    -0.9913872    0.0174848 
   0.001250300     0.9753909   -0.0356817    -0.0053537   -0.0060496    -0.0006116   -0.0007244    -0.9940366    0.0230340 
   0.001350325     1.0054600   -0.0005375    -0.0068971   -0.0013767    -0.0001187    0.0000229    -1.0010080    0.0237992 
   0.001450350     0.9903732   -0.0274196    -0.0061468    0.0033977    -0.0006310   -0.0000577    -1.0007090    0.0227995 
   0.001550375     0.9992684   -0.0078176    -0.0070631    0.0003122    -0.0000943    0.0010802    -0.9949088    0.0215526 
   0.001650400     0.9936824    0.0096002    -0.0051016   -0.0031554    -0.0009454    0.0009900    -0.9928942    0.0223042 
   0.001750425     0.9538609   -0.0554059    -0.0095694    0.0023718     0.0004286   -0.0011132    -1.0018540    0.0315345 
   0.001850450     0.9876913   -0.0121573    -0.0041821    0.0004591    -0.0002507    0.0003479    -1.0029640    0.0273712 
   0.001950475     1.0079400   -0.0304565    -0.0074398    0.0042977    -0.0000019    0.0005878    -0.9927973    0.0336253 
   0.002050500     1.0254290   -0.0768839    -0.0048383    0.0011663    -0.0005398   -0.0001623    -0.9963266    0.0382540 
   0.002150525     1.0249010   -0.0010969    -0.0139496    0.0007432    -0.0000725   -0.0004981    -0.9978492    0.0367307 
   0.002250550     1.0082310   -0.0258691    -0.0064997    0.0013315     0.0002704   -0.0002482    -0.9985722    0.0433931 
   0.002350575     1.0217980   -0.0041201    -0.0024591    0.0031452    -0.0007125    0.0005166    -0.9955027    0.0349375 
   0.002450600     1.0290500   -0.0285860    -0.0043310    0.0046100     0.0001562   -0.0011022    -0.9981292    0.0413657 
   0.002550625     0.9457910   -0.0320866    -0.0053394    0.0060693    -0.0003299   -0.0006871    -0.9951025    0.0423983 
   0.002650650     1.0296850   -0.0527935    -0.0017556    0.0021687    -0.0005416    0.0002054    -0.9867505    0.0412029 
   0.002750675     0.9899018    0.0041786    -0.0045085    0.0015567    -0.0002373    0.0003119    -0.9941894    0.0496623 
   0.002850700     1.0087280   -0.0319679    -0.0041016    0.0020107     0.0002769    0.0002216    -0.9994369    0.0481582 
   0.002950725     0.9597712   -0.0738176    -0.0030487    0.0055784     0.0003311   -0.0004149    -0.9951415    0.0475943 
   0.003050750     0.9389375   -0.0771648    -0.0007244    0.0027735    -0.0006887    0.0007133    -0.9957513    0.0563125 
   0.003150775     0.9879017   -0.0447642    -0.0037172    0.0028324    -0.0002660    0.0000624    -0.9947592    0.0553467 
   0.003250800     1.0316620   -0.0070868    -0.0002831    0.0037127     0.0001985   -0.0007517    -0.9925880    0.0545482 
   0.003350825     0.9502720   -0.0303350    -0.0006675    0.0022223    -0.0000752    0.0000807    -0.9909124    0.0542686 
   0.003450850     0.9785389   -0.0179217    -0.0022388    0.0014422     0.0000889   -0.0004490    -0.9979903    0.0585210 
   0.003550875     1.0395150   -0.0374529    -0.0019920    0.0026991     0.0005039    0.0000084    -0.9929483    0.0574228 
   0.003650900     0.9981046   -0.0199318     0.0001387    0.0016773    -0.0005602    0.0001706    -0.9933692    0.0642886 
   0.003750925     0.9828795   -0.0710668    -0.0028992    0.0021148    -0.0005822   -0.0002058    -0.9912313    0.0610752 
   0.003850950     1.0411670   -0.0669153    -0.0015927    0.0041435    -0.0003925    0.0000217    -0.9932939    0.0598381 
   0.003950975     1.0021470   -0.0589739    -0.0023246    0.0005553    -0.0006239   -0.0001695    -0.9919322    0.0627483 
   0.004051001     1.0021850   -0.0576005    -0.0002221    0.0026140    -0.0005594    0.0000219    -0.9931305    0.0658629 
   0.004151026     0.9982008   -0.0670550    -0.0029446    0.0008176    -0.0002983    0.0008109    -0.9895877    0.0694925 
   0.004251051     0.9775171   -0.0522265    -0.0025828    0.0019921    -0.0001591   -0.0002575    -0.9921300    0.0633943 
   0.004351076     1.0110950   -0.0608602     0.0004608    0.0013598    -0.0002633   -0.0005923    -0.9882692    0.0697732 
   0.004451101     0.9948514   -0.0624064    -0.0004704   -0.0004780    -0.0004678   -0.0004843    -0.9938029    0.0725366 
   0.004551126     0.9943551   -0.0503210     0.0000693    0.0023448    -0.0004702   -0.0002556    -0.9870941    0.0768766 
   0.004651151     1.0001690   -0.1047546     0.0013403   -0.0006041    -0.0001156   -0.0001259    -0.9932667    0.0775535 
   0.004751176     1.0123910   -0.0967827    -0.0004903    0.0009031    -0.0003941   -0.0005608    -0.9907587    0.0775004 
   0.004851201     1.0307240   -0.0816601    -0.0005869    0.0009086    -0.0002110    0.0004667    -0.9889392    0.0784075 
   0.004951226     1.0307210   -0.0722981    -0.0008176   -0.0001190    -0.0003379   -0.0003850    -0.9902331    0.0847432 
   0.005051251     1.0285630   -0.0815044     0.0008286   -0.0003792    -0.0001505    0.0005606    -0.9929540    0.0807992 
   0.005151276     0.9980236   -0.0795753    -0.0007567    0.0017097    -0.0000693   -0.0004116    -0.9905327    0.0810027 
   0.005251301     1.0342750   -0.1037401    -0.0013439    0.0017887    -0.0004534   -0.0000101    -0.9949107    0.0861576 
   0.005351326     1.0146490   -0.1006641    -0.0003107   -0.0000650    -0.0000263   -0.0003721    -0.9909441    0.0884604 
   0.005451351     0.9768980   -0.0963477    -0.0019073    0.0019163    -0.0005217    0.0003070    -0.9923018    0.0899845 
   0.005551376     0.9950627   -0.1028600    -0.0007135   -0.0005185    -0.0004113   -0.0001373    -0.9836927    0.0900152 
   0.005651401     0.9727660   -0.0904702    -0.0002989    0.0009126    -0.0006211    0.0003571    -0.9897459    0.0900636 
   0.005751426     1.0072300   -0.0753907     0.0007285    0.0000337    -0.0004755    0.0001494    -0.9872081    0.0953665 
   0.005851451     0.9818795   -0.0493478     0.0000101   -0.0000749    -0.0000855    0.0001849    -0.9862248    0.0940834 
   0.005951476     1.0025730   -0.0705931    -0.0011759    0.0005089    -0.0000852    0.0011334    -0.9831729    0.0945362 
   0.006051501     1.0316640   -0.0862555     0.0005166   -0.0014016    -0.0001888    0.0000344    -0.9879618    0.0985402 
   0.006151526     1.0154210   -0.0631715    -0.0009767   -0.0008546    -0.0001670    0.0002459    -0.9936910    0.1005461 
   0.006251551     0.9976679   -0.1095640    -0.0013453    0.0002262    -0.0007264    0.0005632    -0.9845403    0.1012676 
   0.006351576     0.9820583   -0.0673992    -0.0009754    0.0023480    -0.0004550   -0.0002120    -0.9866459    0.1033370 
   0.006451601     0.9905626   -0.1124439    -0.0009887   -0.0003432    -0.0006027    0.0000406    -0.9854198    0.1054894 
   0.006551626     0.9956099   -0.0949860    -0.0001871   -0.0002354    -0.0004251    0.0002379    -0.9903282    0.1081832 
   0.006651651     0.9811807   -0.0959352    -0.0010699    0.0011803    -0.0010986   -0.0000293    -0.9877928    0.1075462 
   0.006751676     0.9947237   -0.1296342    -0.0001389    0.0002803    -0.0002476    0.0002092    -0.9891908    0.1084061 
   0.006851701     0.9754711   -0.0877002    -0.0014144    0.0013976    -0.0002206    0.0003846    -0.9881419    0.1092912 
   0.006951726     0.9867496   -0.0866662    -0.0002761    0.0004877    -0.0005045    0.0000840    -0.9906801    0.1152650 
   0.007051751     0.9844254   -0.1212629     0.0009530    0.0000589    -0.0003137    0.0004201    -0.9862999    0.1135511 
   0.007151776     0.9829475   -0.0895176    -0.0003878    0.0017594    -0.0003424    0.0001428    -0.9876673    0.1156992 
   0.007251801     1.0055870   -0.1231643     0.0012243    0.0014385    -0.0011038    0.0002267    -0.9866308    0.1176333 
   0.007351826     1.0106170   -0.0802887    -0.0002464    0.0002520    -0.0010072    0.0001315    -0.9872510    0.1254356 
   0.007451851     0.9893112   -0.1210300    -0.0001543   -0.0002915    -0.0007621   -0.0000381    -0.9840401    0.1195868 
   0.007551876     1.0025590   -0.0953411     0.0006942    0.0012933    -0.0007623   -0.0001730    -0.9877845    0.1232173 
   0.007651901     0.9995328   -0.1550877    -0.0005364    0.0005436    -0.0008018   -0.0000208    -0.9861645    0.1239564 
   0.007751926     0.9774289   -0.0826977    -0.0009275    0.0002253    -0.0008388    0.0003834    -0.9831575    0.1233477 
   0.007851951     1.0062280   -0.1310944     0.0002091   -0.0016041    -0.0004953    0.0003968    -0.9817581    0.1227703 
   0.007951976     0.9891699   -0.1241677    -0.0008308    0.0017669    -0.0009787    0.0004764    -0.9860179    0.1263217 
   0.008052001     0.9869963   -0.1118664     0.0006200    0.0012299    -0.0007566    0.0002467    -0.9843882    0.1250848 
   0.008152026     1.0021560   -0.1282673    -0.0009633    0.0005593    -0.0006515    0.0002274    -0.9853036    0.1308783 
   0.008252051     0.9989785   -0.1103014    -0.0028019    0.0011735    -0.0008781    0.0005706    -0.9850255    0.1270731 
   0.008352076     0.9944082   -0.1348782     0.0007106   -0.0003475    -0.0002716   -0.0000090    -0.9832618    0.1357883 
   0.008452101     0.9717087   -0.1203622    -0.0014889    0.0005160    -0.0009597   -0.0002349    -0.9843793    0.1336216 
   0.008552126     1.0013340   -0.1400268    -0.0019871    0.0009355    -0.0005992    0.0003411    -0.9858554    0.1346858 
   0.008652151     0.9967582   -0.1285873    -0.0003168   -0.0001595    -0.0009778    0.0005661    -0.9792631    0.1383214 
   0.008752176     0.9860369   -0.1357951    -0.0009404    0.0009466    -0.0010705    0.0000476    -0.9792302    0.1387163 
   0.008852201     0.9618344   -0.1414767    -0.0000345    0.0005779    -0.0009121    0.0003279    -0.9872936    0.1429936 
   0.008952226     1.0147160   -0.1528583    -0.0014985    0.0004097    -0.0013144    0.0003526    -0.9823271    0.1456293 
   0.009052251     1.0031610   -0.1187290     0.0001525    0.0010676    -0.0010005    0.0002794    -0.9806549    0.1481458 
   0.009152276     0.9813528   -0.1427849    -0.0007124    0.0005085    -0.0005698   -0.0001001    -0.9796221    0.1464275 
   0.009252301     0.9928679   -0.1525325    -0.0022845    0.0007505    -0.0010398    0.0002429    -0.9810927    0.1490751 
   0.009352326     0.9808635   -0.1424239    -0.0004449   -0.0000690    -0.0010239    0.0004102    -0.9811155    0.1500225 
   0.009452351     0.9841487   -0.1403367    -0.0013347    0.0006709    -0.0007476    0.0001366    -0.9825435    0.1509626 
   0.009552376     0.9840488   -0.1585328    -0.0014061    0.0005496    -0.0012133    0.0004409    -0.9776738    0.1520349 
   0.009652401     1.0011720   -0.1558160    -0.0009703    0.0002076    -0.0010337    0.0003434    -0.9813686    0.1552351 
   0.009752426     0.9872601   -0.1659440    -0.0010336   -0.0002558    -0.0010076    0.0005136    -0.9793987    0.1547176 
   0.009852451     0.9766616   -0.1541999    -0.0012064    0.0010421    -0.0005779    0.0001939    -0.9807573    0.1583736 
   0.009952476     0.9930956   -0.1786921    -0.0009088   -0.0000456    -0.0013194    0.0002786    -0.9783911    0.1602737 
   0.010052501     0.9869555   -0.1353007    -0.0013597    0.0000934    -0.0008620    0.0008433    -0.9770310    0.1591951 
   0.010152526     0.9858975   -0.1639510     0.0003805    0.0015707    -0.0005837    0.0002039    -0.9817283    0.1669486 
   0.010252551     0.9850965   -0.1452388    -0.0012334    0.0012092    -0.0014991    0.0001661    -0.9798828    0.1659337 
   0.010352576     0.9965581   -0.1715170    -0.0024550    0.0002731    -0.0014134    0.0003305    -0.9757019    0.1642381 
   0.010452601     1.0011160   -0.1688140    -0.0006923   -0.0007874    -0.0015785    0.0004049    -0.9782759    0.1668952 
   0.010552626     0.9864992   -0.1649178    -0.0012208    0.0002109    -0.0011327    0.0003049    -0.9771406    0.1689119 
   0.010652651     0.9711488   -0.1742591    -0.0024351    0.0002781    -0.0016701    0.0003277    -0.9743305    0.1684712 
   0.010752676     0.9895431   -0.1972675    -0.0018644    0.0019698    -0.0012247    0.0005549    -0.9750587    0.1734716 
   0.010852701     0.9810674   -0.1663559    -0.0027256    0.0006535    -0.0010993    0.0006410    -0.9743000    0.1756116 
   0.010952726     0.9986866   -0.1709168    -0.0011069    0.0012646    -0.0015581    0.0002842    -0.9750323    0.1755067 
   0.011052751     1.0017220   -0.1549322    -0.0002863   -0.0006393    -0.0012755    0.0004188    -0.9747456    0.1792464 
   0.011152776     0.9779118   -0.1787580    -0.0032300    0.0007185    -0.0014394    0.0007364    -0.9728065    0.1784035 
   0.011252801     0.9911554   -0.1708207    -0.0015052   -0.0004746    -0.0017344    0.0004350    -0.9720841    0.1793066 
   0.011352826     0.9611398   -0.1902837    -0.0018619    0.0008920    -0.0015697    0.0003711    -0.9721940    0.1832637 
   0.011452851     0.9860409   -0.1725956    -0.0022271    0.0004042    -0.0016331   -0.0001067    -0.9733952    0.1862739 
   0.011552876     0.9848158   -0.1679070    -0.0004259    0.0007660    -0.0016391    0.0000128    -0.9755189    0.1847513 
   0.011652901     1.0073550   -0.1874649    -0.0024616    0.0004432    -0.0010418    0.0005176    -0.9729216    0.1909569 
   0.011752926     0.9688812   -0.1775623    -0.0014010    0.0003654    -0.0014290    0.0001760    -0.9737915    0.1870151 
   0.011852951     0.9705853   -0.1762254    -0.0022912    0.0000990    -0.0017090    0.0001139    -0.9711986    0.1900585 
   0.011952976     0.9800393   -0.1743214    -0.0013494   -0.0006439    -0.0013357    0.0003946    -0.9692996    0.1899775 
   0.012053002     0.9859167   -0.1802618    -0.0012352   -0.0001976    -0.0015992    0.0002594    -0.9721542    0.1943139 
   0.012153027     0.9794635   -0.1952461    -0.0006274    0.0002018    -0.0016735    0.0004332    -0.9681346    0.1948824 
   0.012253052     0.9874432   -0.1907629    -0.0023121    0.0026668    -0.0016038    0.0004555    -0.9709505    0.1977230 
   0.012353077     0.9869571   -0.1903412    -0.0018608    0.0003434    -0.0015011    0.0007980    -0.9665775    0.2013059 
   0.012453102     0.9860436   -0.2005579    -0.0024349    0.0001848    -0.0018547    0.0007237    -0.9727433    0.2019088 
   0.012553127     0.9987697   -0.1976154    -0.0011877   -0.0009674    -0.0015709    0.0005561    -0.9690893    0.2003731 
   0.012653152     1.0052110   -0.1955372    -0.0031597    0.0010346    -0.0020048    0.0009146    -0.9695081    0.2032234 
   0.012753177     0.9782330   -0.2002204    -0.0005908    0.0001114    -0.0018707    0.0001252    -0.9690396    0.2017477 
   0.012853202     0.9808456   -0.2099694    -0.0016519    0.0008283    -0.0015381    0.0002346    -0.9692602    0.2055212 
   0.012953227     0.9695302   -0.1754660    -0.0021889    0.0004249    -0.0018425    0.0007018    -0.9671636    0.2080357 
   0.013053252     0.9726090   -0.1992821    -0.0015767    0.0008955    -0.0016425    0.0003864    -0.9676393    0.2121786 
   0.013153277     0.9870802   -0.1827376    -0.0016427    0.0010969    -0.0019935    0.0008499    -0.9666669    0.2105927 
   0.013253302     0.9825016   -0.2021453    -0.0021686   -0.0001779    -0.0017864    0.0005127    -0.9651850    0.2118302 
   0.013353327     0.9706815   -0.1844845    -0.0022914    0.0010349    -0.0018922    0.0005470    -0.9632247    0.2170011 
   0.013453352     0.9736223   -0.2070818    -0.0024042    0.0003131    -0.0017066    0.0003335    -0.9637191    0.2186686 
   0.013553377     0.9721932   -0.2097773    -0.0026012    0.0003210    -0.0021123    0.0004312    -0.9657082    0.2209107 
   0.013653402     0.9625583   -0.2086532    -0.0034168    0.0010584    -0.0024211    0.0006772    -0.9673842    0.2223091 
   0.013753427     0.9816815   -0.2131426    -0.0017190   -0.0003688    -0.0022609    0.0008574    -0.9642477    0.2206601 
   0.013853452     0.9683783   -0.2070601    -0.0022439    0.0000656    -0.0020093    0.0007909    -0.9638646    0.2222184 
   0.013953477     0.9617379   -0.2155271    -0.0027605    0.0010252    -0.0018978    0.0001609    -0.9648561    0.2239693 
   0.014053502     0.9536809   -0.2219751    -0.0015531    0.0002714    -0.0020181    0.0003713    -0.9655579    0.2275530 
   0.014153527     0.9816089   -0.2072181    -0.0030031    0.0008778    -0.0022998    0.0004085    -0.9659598    0.2295387 
   0.014253552     0.9710036   -0.2172774    -0.0023176    0.0013686    -0.0021416    0.0006740    -0.9621328    0.2302068 
   0.014353577     0.9751660   -0.2305767    -0.0024728    0.0004269    -0.0020748    0.0006499    -0.9628562    0.2310392 
   0.014453602     0.9514345   -0.2270322    -0.0026271    0.0012213    -0.0025936    0.0004223    -0.9601693    0.2333422 
   0.014553627     0.9626824   -0.2202199    -0.0025393    0.0009663    -0.0024109    0.0006793    -0.9662338    0.2316589 
   0.014653652     0.9776037   -0.2240491    -0.0022105    0.0008797    -0.0022048    0.0007364    -0.9602872    0.2364376 
   0.014753677     0.9730532   -0.2285098    -0.0025025    0.0014019    -0.0027006    0.0006275    -0.9618106    0.2405977 
   0.014853702     0.9780574   -0.2329104    -0.0016273    0.0009606    -0.0020743    0.0005762    -0.9593419    0.2408014 
   0.014953727     0.9695033   -0.2244619    -0.0024115    0.0005160    -0.0026301    0.0009848    -0.9605162    0.2401400 
   0.015053752     0.9761455   -0.2370943    -0.0039165   -0.0001090    -0.0021534    0.0009370    -0.9632648    0.2454027 
   0.015153777     0.9745202   -0.2331163    -0.0020320    0.0005934    -0.0023409    0.0011411    -0.9583878    0.2447831 
   0.015253802     0.9685510   -0.2417187    -0.0034035    0.0010843    -0.0025240    0.0009389    -0.9584328    0.2459583 
   0.015353827     0.9694790   -0.2179928    -0.0031400    0.0009472    -0.0023759    0.0007925    -0.9576023    0.2482622 
   0.015453852     0.9693649   -0.2352379    -0.0013071    0.0013453    -0.0028259    0.0006665    -0.9591237    0.2502598 
   0.015553877     0.9763534   -0.2443330    -0.0025718    0.0005113    -0.0024211    0.0007184    -0.9555182    0.2525471 
   0.015653902     0.9642910   -0.2392597    -0.0027778    0.0004482    -0.0028943    0.0004775    -0.9567755    0.2542506 
