! 19-Feb-26 1:10:40 PM
! E:\VNA_MEASUREMENTS\RECBLOCK\BANDPASSFIL1.S2P
! CHANNEL.1
! TR.MEASUREMENT
! CORRECTED.DATA
# GHZ S RI R 50.0
! FREQ.GHZ         S11RE         S11IM         S21RE         S21IM         S12RE         S12IM         S22RE         S22IM         
!; PortSelection: Port_12
   0.000050000    -0.1007934   -0.0331429     0.9167772   -1.2193650     0.0057582    0.0053327     0.9900072   -0.0005917 
   0.000150025    -0.3928556   -0.1560310     2.2379070   -5.8395430     0.0011511    0.0007131     1.0089490    0.0040646 
   0.000250050    -0.7762757   -3.8822010    -1.2373760    0.5346850    -0.0000400    0.0006892     1.0022430   -0.0100175 
   0.000350075    -0.9894286    0.0139484    -0.0010132   -0.0016226    -0.0002130   -0.0000356     0.9910706   -0.0019682 
   0.000450100    -0.9913925    0.0102822    -0.0011059   -0.0024294     0.0001120    0.0000465     1.0127310   -0.0115393 
   0.000550125    -0.9965909    0.0139863    -0.0014718   -0.0015039    -0.0000222    0.0000518     1.0021820   -0.0051999 
   0.000650150    -0.9969838    0.0082154    -0.0010398   -0.0023245     0.0001204    0.0003963     1.0012940   -0.0084283 
   0.000750175    -0.9915125    0.0142712    -0.0016949   -0.0022720    -0.0000807    0.0000501     0.9957836   -0.0164521 
   0.000850200    -0.9944673    0.0143663    -0.0018039   -0.0024643    -0.0001116    0.0002186     0.9985151   -0.0106168 
   0.000950225    -0.9941160    0.0130974    -0.0014566   -0.0021277    -0.0001654    0.0001138     1.0073910   -0.0044719 
   0.001050250    -0.9943070    0.0140677    -0.0019236   -0.0021856    -0.0000432   -0.0001582     1.0072410   -0.0185407 
   0.001150275    -0.9908316    0.0106721    -0.0016525   -0.0013901    -0.0001638    0.0000353     1.0064040   -0.0161034 
   0.001250300    -1.0006410    0.0168833    -0.0022336   -0.0010383     0.0000428    0.0000444     1.0011110   -0.0226537 
   0.001350325    -0.9955521    0.0257194    -0.0007275   -0.0014369    -0.0001451   -0.0000009     1.0026380   -0.0199082 
   0.001450350    -0.9897349    0.0272006    -0.0018906   -0.0006944     0.0000226    0.0001897     1.0093160   -0.0170937 
   0.001550375    -0.9986923    0.0294163    -0.0019262   -0.0012186     0.0000513   -0.0000992     1.0022310   -0.0266399 
   0.001650400    -0.9992169    0.0335463    -0.0021909   -0.0006009     0.0000265   -0.0000452     0.9965465   -0.0279225 
   0.001750425    -0.9970071    0.0185251    -0.0019986   -0.0002339    -0.0001577    0.0001539     0.9938253   -0.0229897 
   0.001850450    -0.9937724    0.0270090    -0.0016019   -0.0006494    -0.0000083    0.0001224     0.9940076   -0.0215431 
   0.001950475    -0.9936510    0.0361302    -0.0022003   -0.0013158    -0.0001887    0.0002409     0.9953804   -0.0270821 
   0.002050500    -0.9914982    0.0252666    -0.0016343    0.0004800    -0.0000909    0.0000969     1.0052730   -0.0286527 
   0.002150525    -0.9942763    0.0326693    -0.0012145   -0.0003702    -0.0001051   -0.0000732     1.0061640   -0.0385856 
   0.002250550    -0.9951851    0.0317516    -0.0015506    0.0004897    -0.0001143    0.0000241     1.0022910   -0.0324525 
   0.002350575    -0.9991403    0.0323177    -0.0010159    0.0004410     0.0000097    0.0000927     1.0044690   -0.0373309 
   0.002450600    -1.0057780    0.0414898    -0.0016541   -0.0000492     0.0000777    0.0000840     1.0018930   -0.0327018 
   0.002550625    -0.9975010    0.0405917    -0.0016771   -0.0003263    -0.0000094    0.0001274     1.0043770   -0.0430452 
   0.002650650    -0.9940501    0.0496769    -0.0015132    0.0012366     0.0000983    0.0000458     1.0030930   -0.0454533 
   0.002750675    -0.9898371    0.0446962    -0.0008382   -0.0001330    -0.0000921    0.0000111     0.9937293   -0.0336586 
   0.002850700    -0.9967116    0.0441551    -0.0017976    0.0006161    -0.0000379   -0.0000395     0.9977263   -0.0465663 
   0.002950725    -0.9878045    0.0505776    -0.0009264   -0.0002052     0.0000938    0.0000014     1.0030750   -0.0455632 
   0.003050750    -0.9899911    0.0509953    -0.0007982    0.0000277    -0.0003406   -0.0001374     0.9950488   -0.0467397 
   0.003150775    -0.9887671    0.0511046    -0.0005496    0.0007760    -0.0001416    0.0001724     0.9994727   -0.0521942 
   0.003250800    -0.9954655    0.0535512    -0.0012472    0.0004450    -0.0001154   -0.0001341     0.9962512   -0.0486316 
   0.003350825    -0.9997905    0.0673897    -0.0012087    0.0008825    -0.0002591    0.0000875     0.9975673   -0.0513629 
   0.003450850    -0.9884403    0.0601501    -0.0011554    0.0001132    -0.0001467   -0.0001614     1.0044620   -0.0482642 
   0.003550875    -0.9912354    0.0507225    -0.0014720    0.0007373    -0.0000713    0.0000802     0.9930638   -0.0566902 
   0.003650900    -0.9928294    0.0634034    -0.0003913    0.0001600    -0.0002096    0.0000934     0.9987981   -0.0620664 
   0.003750925    -0.9965600    0.0643193    -0.0018869   -0.0003180    -0.0002656    0.0000859     0.9973040   -0.0546150 
   0.003850950    -0.9980249    0.0601087    -0.0000447    0.0002028    -0.0002478   -0.0000394     0.9998543   -0.0548288 
   0.003950975    -0.9907455    0.0645267    -0.0009895    0.0008129    -0.0000617    0.0000245     1.0014860   -0.0600446 
   0.004051001    -0.9910429    0.0669056    -0.0012426    0.0009062     0.0000872    0.0000935     0.9982452   -0.0629803 
   0.004151026    -0.9978381    0.0733091    -0.0004667    0.0003834    -0.0001452    0.0001156     0.9942617   -0.0603540 
   0.004251051    -0.9890203    0.0646415    -0.0009386    0.0002341    -0.0003152    0.0001117     0.9952087   -0.0674913 
   0.004351076    -0.9959608    0.0751202    -0.0005722    0.0003537    -0.0002070    0.0003163     1.0004330   -0.0673323 
   0.004451101    -0.9903300    0.0705983    -0.0002548    0.0006549     0.0000957   -0.0000291     1.0047060   -0.0763545 
   0.004551126    -0.9945202    0.0675276    -0.0005396    0.0007343    -0.0002303    0.0002460     0.9981469   -0.0706977 
   0.004651151    -0.9883790    0.0688087    -0.0004896    0.0005959    -0.0001451   -0.0000011     0.9943608   -0.0722159 
   0.004751176    -0.9969709    0.0730643     0.0000123    0.0006313    -0.0003078   -0.0001512     0.9907459   -0.0747233 
   0.004851201    -0.9980157    0.0806468    -0.0004118    0.0000610    -0.0001779    0.0001594     1.0015370   -0.0749428 
   0.004951226    -0.9902806    0.0715062    -0.0008439   -0.0003671    -0.0002134    0.0000478     0.9993887   -0.0708274 
   0.005051251    -0.9896450    0.0860904    -0.0008473    0.0004479    -0.0002678    0.0000838     0.9967295   -0.0808483 
   0.005151276    -0.9895265    0.0831291    -0.0008189    0.0001216    -0.0003863    0.0000410     0.9942030   -0.0772838 
   0.005251301    -0.9949470    0.0835923    -0.0010297    0.0005638    -0.0001416   -0.0001564     0.9953408   -0.0847129 
   0.005351326    -0.9932227    0.0841292    -0.0001024    0.0000305    -0.0003726    0.0001357     0.9975652   -0.0823115 
   0.005451351    -0.9906785    0.0824784    -0.0002429    0.0007155    -0.0002666    0.0000332     0.9990228   -0.0798408 
   0.005551376    -0.9930369    0.0756055    -0.0004560   -0.0001945    -0.0002581   -0.0000179     0.9973794   -0.0876781 
   0.005651401    -0.9881463    0.0924659    -0.0001177   -0.0000910    -0.0001978   -0.0002259     0.9931443   -0.0917597 
   0.005751426    -0.9882327    0.0946766    -0.0000672    0.0005107    -0.0005043   -0.0000378     0.9947082   -0.0863573 
   0.005851451    -0.9894063    0.0956870    -0.0006124   -0.0002253    -0.0002736    0.0001286     1.0053480   -0.0870621 
   0.005951476    -0.9909441    0.0986627    -0.0007863   -0.0004583    -0.0006373    0.0002019     0.9902925   -0.0922870 
   0.006051501    -0.9846404    0.0925057    -0.0009285   -0.0001956    -0.0004445    0.0001263     0.9898274   -0.0895467 
   0.006151526    -0.9854530    0.0994490    -0.0003788    0.0005008    -0.0005090   -0.0000049     0.9943172   -0.0946211 
   0.006251551    -0.9920089    0.1023182    -0.0000281   -0.0002524    -0.0003912    0.0002462     0.9933890   -0.0997721 
   0.006351576    -0.9854983    0.1058078    -0.0009475    0.0003228    -0.0005872    0.0002414     0.9985563   -0.1004729 
   0.006451601    -0.9896058    0.1125595    -0.0011690    0.0008421    -0.0003481   -0.0001005     0.9931672   -0.1029289 
   0.006551626    -0.9925626    0.1067560    -0.0014771    0.0004381    -0.0004518    0.0001774     0.9937128   -0.1014001 
   0.006651651    -0.9898227    0.1042356    -0.0008534    0.0005127    -0.0004304   -0.0000391     0.9941540   -0.1054163 
   0.006751676    -0.9970815    0.1122725     0.0001474    0.0005145    -0.0004629   -0.0000800     0.9956518   -0.1088943 
   0.006851701    -0.9894935    0.1189823    -0.0003667    0.0006339    -0.0006797    0.0001013     0.9934335   -0.1010323 
   0.006951726    -0.9827453    0.1145436    -0.0005590    0.0008738    -0.0006877    0.0003102     0.9962420   -0.0992939 
   0.007051751    -0.9869890    0.1154121    -0.0005743    0.0003321    -0.0003941    0.0003414     0.9951597   -0.1103003 
   0.007151776    -0.9916798    0.1165221    -0.0010537   -0.0003490    -0.0004742    0.0000693     0.9935997   -0.1082068 
   0.007251801    -0.9792955    0.1156516     0.0000806    0.0006029    -0.0006735    0.0000251     0.9927210   -0.1118218 
   0.007351826    -0.9819382    0.1201130     0.0002149   -0.0001459    -0.0005757   -0.0000523     0.9962136   -0.1133758 
   0.007451851    -0.9866469    0.1188467    -0.0008899   -0.0000355    -0.0004950    0.0001538     0.9934473   -0.1164403 
   0.007551876    -0.9852378    0.1266924    -0.0004613    0.0010447    -0.0005810    0.0001792     0.9969934   -0.1162225 
   0.007651901    -0.9929598    0.1319234    -0.0004814    0.0011065    -0.0004546    0.0001931     0.9864259   -0.1202912 
   0.007751926    -0.9828252    0.1239456    -0.0011437    0.0006434    -0.0007614    0.0002098     0.9913148   -0.1153393 
   0.007851951    -0.9923202    0.1286664    -0.0010797   -0.0002165    -0.0003748    0.0001408     0.9975597   -0.1188459 
   0.007951976    -0.9771087    0.1377021    -0.0009526    0.0004207    -0.0006443    0.0002523     0.9903195   -0.1206402 
   0.008052001    -0.9884030    0.1263620    -0.0005307    0.0007219    -0.0008246    0.0001934     0.9926381   -0.1259326 
   0.008152026    -0.9871583    0.1261405    -0.0006923   -0.0002842    -0.0008852    0.0002440     0.9861684   -0.1284686 
   0.008252051    -0.9890749    0.1347787    -0.0007002    0.0006659    -0.0007863    0.0002446     0.9883873   -0.1275136 
   0.008352076    -0.9845405    0.1249424    -0.0011128    0.0005323    -0.0005282    0.0001590     0.9937741   -0.1284227 
   0.008452101    -0.9904079    0.1322335    -0.0012698    0.0004853    -0.0008205    0.0003823     0.9878500   -0.1340373 
   0.008552126    -0.9834107    0.1379790    -0.0009762    0.0000744    -0.0007234    0.0001419     0.9917566   -0.1339398 
   0.008652151    -0.9788949    0.1376619    -0.0016719   -0.0000856    -0.0009287    0.0002597     0.9883190   -0.1328460 
   0.008752176    -0.9803954    0.1479588    -0.0007439   -0.0003676    -0.0006666    0.0003194     0.9938279   -0.1379430 
   0.008852201    -0.9747227    0.1474776    -0.0014201    0.0003596    -0.0008604    0.0004499     0.9921093   -0.1368376 
   0.008952226    -0.9839508    0.1358261    -0.0009334   -0.0000578    -0.0008171    0.0002773     0.9915925   -0.1361584 
   0.009052251    -0.9881985    0.1468481    -0.0001182    0.0007334    -0.0009491    0.0004230     0.9949446   -0.1419307 
   0.009152276    -0.9866936    0.1435609    -0.0000905    0.0002343    -0.0009402    0.0002009     0.9921460   -0.1419695 
   0.009252301    -0.9775111    0.1482576    -0.0015892    0.0001450    -0.0009405    0.0000671     0.9889868   -0.1434102 
   0.009352326    -0.9756405    0.1511595    -0.0010879    0.0008211    -0.0009407    0.0005086     0.9871134   -0.1448295 
   0.009452351    -0.9877524    0.1501533    -0.0019779    0.0008431    -0.0009421    0.0004251     0.9901386   -0.1477621 
   0.009552376    -0.9810530    0.1574366    -0.0004471    0.0002179    -0.0010596    0.0001123     0.9879048   -0.1446817 
   0.009652401    -0.9941415    0.1467358    -0.0008078   -0.0000455    -0.0011101    0.0000511     0.9910493   -0.1492677 
   0.009752426    -0.9853907    0.1526319    -0.0003390    0.0000538    -0.0010364    0.0003003     0.9871874   -0.1513186 
   0.009852451    -0.9835907    0.1600487    -0.0012509    0.0004770    -0.0011552    0.0001799     0.9870646   -0.1480839 
   0.009952476    -0.9792336    0.1618134    -0.0008220    0.0002886    -0.0012810    0.0002656     0.9857988   -0.1543343 
   0.010052501    -0.9868726    0.1510530    -0.0008008    0.0002084    -0.0010582    0.0000576     0.9897994   -0.1598184 
   0.010152526    -0.9812827    0.1596330    -0.0009470    0.0004822    -0.0007845    0.0002245     0.9876181   -0.1574439 
   0.010252551    -0.9886105    0.1642835    -0.0003325    0.0007091    -0.0012728    0.0002190     0.9855075   -0.1587227 
   0.010352576    -0.9727431    0.1549104    -0.0005772    0.0002751    -0.0010397    0.0004413     0.9892066   -0.1674253 
   0.010452601    -0.9841375    0.1842514    -0.0013598   -0.0005202    -0.0011066    0.0003130     0.9845873   -0.1637348 
   0.010552626    -0.9790585    0.1729640    -0.0011336   -0.0001484    -0.0008316    0.0001439     0.9902723   -0.1703094 
   0.010652651    -0.9849882    0.1772019    -0.0015494   -0.0002964    -0.0012140    0.0003598     0.9862037   -0.1618105 
   0.010752676    -0.9882488    0.1643404    -0.0017996    0.0000565    -0.0011945    0.0004339     0.9841155   -0.1693146 
   0.010852701    -0.9838777    0.1719976    -0.0016017    0.0003464    -0.0011852    0.0003383     0.9869335   -0.1678480 
   0.010952726    -0.9822630    0.1667806    -0.0020131    0.0003482    -0.0010069    0.0003864     0.9811599   -0.1753037 
   0.011052751    -0.9757050    0.1716060    -0.0016689    0.0003490    -0.0011704    0.0004764     0.9827740   -0.1738755 
   0.011152776    -0.9749441    0.1759520    -0.0026647   -0.0006796    -0.0015354    0.0003566     0.9856424   -0.1755242 
   0.011252801    -0.9750729    0.1801835    -0.0012366    0.0006278    -0.0012741    0.0003091     0.9853755   -0.1788271 
   0.011352826    -0.9787992    0.1756806    -0.0017432    0.0011158    -0.0013608    0.0001838     0.9824800   -0.1808014 
   0.011452851    -0.9766620    0.1847536    -0.0005810    0.0011110    -0.0015178    0.0002780     0.9802676   -0.1790575 
   0.011552876    -0.9793425    0.1857672    -0.0011025    0.0000659    -0.0015687    0.0005185     0.9822700   -0.1827058 
   0.011652901    -0.9790527    0.1933512    -0.0023499    0.0001326    -0.0015428    0.0003458     0.9846686   -0.1852635 
   0.011752926    -0.9882383    0.1797828    -0.0006708    0.0003284    -0.0012834    0.0003279     0.9836056   -0.1867444 
   0.011852951    -0.9722446    0.1904357    -0.0016072   -0.0002730    -0.0016085    0.0002729     0.9815919   -0.1856233 
   0.011952976    -0.9806272    0.1884817    -0.0022688    0.0005838    -0.0014870    0.0002164     0.9776857   -0.1857160 
   0.012053002    -0.9784533    0.1875259    -0.0018699   -0.0001487    -0.0016332    0.0002108     0.9791570   -0.1872647 
   0.012153027    -0.9636748    0.1907200    -0.0014158    0.0002845    -0.0017891    0.0002824     0.9850913   -0.1915784 
   0.012253052    -0.9733282    0.1952530    -0.0013763    0.0010811    -0.0016841    0.0004475     0.9792923   -0.1938555 
   0.012353077    -0.9828688    0.1821166    -0.0031673    0.0010134    -0.0016967    0.0004545     0.9792478   -0.1948774 
   0.012453102    -0.9680011    0.2026610    -0.0014214    0.0006855    -0.0016601    0.0002682     0.9822279   -0.1963619 
   0.012553127    -0.9654672    0.2043080    -0.0019090   -0.0009299    -0.0016638    0.0004867     0.9759201   -0.1963105 
   0.012653152    -0.9710637    0.1902776    -0.0018033    0.0004940    -0.0015024    0.0004329     0.9773903   -0.2009974 
   0.012753177    -0.9725384    0.2022342    -0.0016726    0.0007970    -0.0016021    0.0002659     0.9813144   -0.2034005 
   0.012853202    -0.9795304    0.2056868    -0.0015324    0.0006998    -0.0017593    0.0005644     0.9780464   -0.2031990 
   0.012953227    -0.9640110    0.2052411    -0.0014779    0.0005804    -0.0021094    0.0005524     0.9799332   -0.2054307 
   0.013053252    -0.9799712    0.2075682    -0.0020670    0.0003824    -0.0019605    0.0005777     0.9771088   -0.2094142 
   0.013153277    -0.9714413    0.2109840    -0.0027794    0.0000327    -0.0018765    0.0004616     0.9755011   -0.2106108 
   0.013253302    -0.9631407    0.2171990    -0.0017008    0.0004169    -0.0017021    0.0007499     0.9769281   -0.2116927 
   0.013353327    -0.9633203    0.2122480    -0.0022320    0.0004527    -0.0018313    0.0005474     0.9748654   -0.2115795 
   0.013453352    -0.9769418    0.2116250    -0.0018031    0.0000792    -0.0020544    0.0006456     0.9755279   -0.2113960 
   0.013553377    -0.9715469    0.2165496    -0.0019729    0.0003512    -0.0019903    0.0005107     0.9759387   -0.2163746 
   0.013653402    -0.9642624    0.2117121    -0.0021325    0.0006348    -0.0020496    0.0006660     0.9762975   -0.2163763 
   0.013753427    -0.9766796    0.2244148    -0.0028120    0.0010409    -0.0020389    0.0004266     0.9772061   -0.2190097 
   0.013853452    -0.9574143    0.2173613    -0.0017809    0.0002462    -0.0021472    0.0008022     0.9777138   -0.2196849 
   0.013953477    -0.9729166    0.2257985    -0.0016737    0.0009329    -0.0021921    0.0005471     0.9734223   -0.2210424 
   0.014053502    -0.9629626    0.2241628    -0.0029718    0.0009540    -0.0018831    0.0003949     0.9728658   -0.2217928 
   0.014153527    -0.9608292    0.2217066    -0.0027682    0.0013705    -0.0022715    0.0008755     0.9757089   -0.2261498 
   0.014253552    -0.9649495    0.2227210    -0.0023443    0.0005727    -0.0021342    0.0007066     0.9740231   -0.2254506 
   0.014353577    -0.9766980    0.2235036    -0.0021898    0.0002649    -0.0022339    0.0005491     0.9723862   -0.2279344 
   0.014453602    -0.9672267    0.2258915    -0.0014916    0.0011353    -0.0019062    0.0006173     0.9724557   -0.2314904 
   0.014553627    -0.9614339    0.2369548    -0.0022992    0.0008673    -0.0023191    0.0008744     0.9704086   -0.2321122 
   0.014653652    -0.9699470    0.2466866    -0.0029670    0.0001476    -0.0023049    0.0008143     0.9693686   -0.2342215 
   0.014753677    -0.9600064    0.2379834    -0.0030056    0.0002354    -0.0024434    0.0008866     0.9698273   -0.2358434 
   0.014853702    -0.9733434    0.2333001    -0.0023970   -0.0003066    -0.0024133    0.0003804     0.9677136   -0.2340147 
   0.014953727    -0.9513057    0.2478196    -0.0018811    0.0015307    -0.0026518    0.0009388     0.9713016   -0.2409628 
   0.015053752    -0.9569541    0.2473215    -0.0017722    0.0016700    -0.0026383    0.0007716     0.9647217   -0.2402975 
   0.015153777    -0.9466261    0.2365924    -0.0023111    0.0001551    -0.0027085    0.0007042     0.9731128   -0.2403897 
   0.015253802    -0.9624161    0.2495953    -0.0018382    0.0006663    -0.0024497    0.0007380     0.9702047   -0.2448631 
   0.015353827    -0.9611381    0.2487020    -0.0030049   -0.0000364    -0.0028607    0.0006885     0.9675727   -0.2460790 
   0.015453852    -0.9546065    0.2431041    -0.0028134    0.0008770    -0.0023286    0.0011436     0.9712912   -0.2476749 
   0.015553877    -0.9666200    0.2421184    -0.0025692    0.0011063    -0.0025974    0.0009081     0.9687282   -0.2462199 
   0.015653902    -0.9634821    0.2682729    -0.0023073    0.0018634    -0.0028617    0.0007947     0.9641311   -0.2507419 
