! 19-Feb-26 2:37:44 PM
! E:\VNA_MEASUREMENTS\RECBLOCK\BANDPASSFIL3.S2P
! CHANNEL.1
! TR.MEASUREMENT
! CORRECTED.DATA
# GHZ S RI R 50.0
! FREQ.GHZ         S11RE         S11IM         S21RE         S21IM         S12RE         S12IM         S22RE         S22IM         
!; PortSelection: Port_12
   0.000050000     0.3650758    0.3176562     2.0753340   -0.0382425     0.0056492   -0.0011158     0.9405937   -0.0782122 
   0.000150025    -1.4404270    1.0474200     1.7244550   -0.1328182     0.0016421   -0.0000828     1.0024410   -0.0121943 
   0.000250050     1.4613060    0.6948700     0.7439988   -0.7166690     0.0008623   -0.0008892     1.0023820   -0.0164878 
   0.000350075    -0.9988505   -0.0030682    -0.0008284   -0.0020801     0.0000007    0.0000087     1.0008850   -0.0076264 
   0.000450100    -1.0052830    0.0157991    -0.0002680   -0.0016357     0.0001303   -0.0000503     1.0074060   -0.0126967 
   0.000550125    -0.9965282    0.0120750    -0.0017624   -0.0028141    -0.0001689   -0.0001800     0.9993751   -0.0043113 
   0.000650150    -0.9896712    0.0121448    -0.0018652   -0.0011337    -0.0001630    0.0002949     1.0110630   -0.0070499 
   0.000750175    -0.9957247    0.0027588    -0.0016554   -0.0025186    -0.0001582    0.0001785     0.9960461   -0.0229455 
   0.000850200    -1.0014380    0.0140199    -0.0014172   -0.0016500     0.0001721    0.0000337     0.9986308   -0.0188638 
   0.000950225    -0.9972277    0.0073970    -0.0004572   -0.0016948    -0.0001096    0.0000018     1.0044930   -0.0026553 
   0.001050250    -0.9929172    0.0099224    -0.0032718   -0.0011900     0.0000569   -0.0001347     0.9957659   -0.0221088 
   0.001150275    -0.9936533    0.0232376    -0.0016626   -0.0009518     0.0001550    0.0000386     0.9991193   -0.0185730 
   0.001250300    -1.0036330    0.0166608    -0.0022199   -0.0006026     0.0001136    0.0000062     0.9955097   -0.0201130 
   0.001350325    -1.0050080    0.0283977    -0.0025034   -0.0007011    -0.0000282   -0.0000150     0.9952232   -0.0360858 
   0.001450350    -0.9981534    0.0222983    -0.0016830   -0.0004965    -0.0001422   -0.0000256     0.9977186   -0.0164573 
   0.001550375    -0.9943946    0.0390668    -0.0015903   -0.0013863     0.0000445   -0.0000188     0.9953660   -0.0249484 
   0.001650400    -0.9998791    0.0336401    -0.0021149   -0.0011643    -0.0000940   -0.0000025     0.9889748   -0.0266900 
   0.001750425    -0.9945018    0.0158835    -0.0025795   -0.0006766    -0.0000295   -0.0001363     1.0033940   -0.0268453 
   0.001850450    -0.9951556    0.0230247    -0.0015005   -0.0007371    -0.0000172    0.0001277     0.9953005   -0.0357016 
   0.001950475    -0.9903788    0.0406976    -0.0014676   -0.0006532     0.0000754   -0.0000497     0.9981167   -0.0291131 
   0.002050500    -0.9936215    0.0312791    -0.0018434   -0.0006605    -0.0001037    0.0000799     1.0036400   -0.0247609 
   0.002150525    -0.9907244    0.0348361    -0.0012654   -0.0008211    -0.0003307   -0.0002101     1.0016830   -0.0341622 
   0.002250550    -0.9883726    0.0349888    -0.0013593   -0.0005385    -0.0001863   -0.0000217     1.0066570   -0.0290639 
   0.002350575    -0.9999189    0.0435881    -0.0008646   -0.0006240    -0.0000866    0.0000966     1.0017560   -0.0376215 
   0.002450600    -1.0087050    0.0329061    -0.0007473    0.0001104    -0.0002355    0.0001387     1.0012990   -0.0353354 
   0.002550625    -0.9979870    0.0379141    -0.0013964   -0.0003065    -0.0000093    0.0000432     1.0007170   -0.0372552 
   0.002650650    -0.9890095    0.0418173    -0.0015267    0.0004665    -0.0001844   -0.0000446     1.0067150   -0.0387613 
   0.002750675    -0.9886199    0.0427607    -0.0006875    0.0009927    -0.0001024    0.0001808     0.9919779   -0.0343549 
   0.002850700    -0.9943165    0.0542518    -0.0014208    0.0007568    -0.0000872   -0.0000453     1.0041440   -0.0474455 
   0.002950725    -0.9879320    0.0448118    -0.0015428    0.0009035     0.0000567   -0.0000173     1.0036710   -0.0455879 
   0.003050750    -0.9900384    0.0541223    -0.0010588    0.0006712    -0.0000638   -0.0001958     1.0009770   -0.0422436 
   0.003150775    -0.9959924    0.0500412    -0.0002156    0.0004020    -0.0002315   -0.0000428     0.9973016   -0.0515980 
   0.003250800    -0.9892157    0.0583718    -0.0008051    0.0001979     0.0000056   -0.0000716     0.9993585   -0.0546067 
   0.003350825    -0.9956830    0.0596646    -0.0007909    0.0003153    -0.0000767    0.0001118     0.9969158   -0.0542396 
   0.003450850    -0.9988413    0.0545141    -0.0013284   -0.0001660    -0.0000522   -0.0000597     1.0027080   -0.0505839 
   0.003550875    -0.9873886    0.0451879    -0.0012394    0.0002704    -0.0000176    0.0001523     0.9946430   -0.0588064 
   0.003650900    -0.9895242    0.0627855    -0.0007116    0.0003563    -0.0001681    0.0000277     0.9991153   -0.0610624 
   0.003750925    -0.9942260    0.0624352    -0.0010445    0.0003254    -0.0002519    0.0000834     1.0012120   -0.0565722 
   0.003850950    -0.9909794    0.0656404    -0.0004474    0.0000407    -0.0002047    0.0000442     0.9994584   -0.0562463 
   0.003950975    -0.9946343    0.0640717    -0.0004752   -0.0001329    -0.0000102   -0.0001892     1.0037060   -0.0561043 
   0.004051001    -0.9941770    0.0780924    -0.0001302   -0.0000946    -0.0000895   -0.0000434     0.9977256   -0.0636611 
   0.004151026    -0.9954638    0.0652313     0.0000415    0.0005263    -0.0001544    0.0000343     0.9948332   -0.0672655 
   0.004251051    -0.9859681    0.0662524    -0.0003970    0.0002832    -0.0000520    0.0001122     0.9978842   -0.0643905 
   0.004351076    -0.9901233    0.0734043    -0.0007271   -0.0002111    -0.0002617    0.0000729     0.9977815   -0.0716892 
   0.004451101    -0.9886931    0.0663612    -0.0012710    0.0003187    -0.0002903    0.0001405     1.0004110   -0.0737101 
   0.004551126    -0.9844038    0.0670921    -0.0014090   -0.0000673    -0.0001597   -0.0001820     1.0054410   -0.0663673 
   0.004651151    -0.9968187    0.0813607    -0.0001420   -0.0003307    -0.0001693    0.0001680     0.9930893   -0.0699834 
   0.004751176    -0.9963318    0.0755924    -0.0010723    0.0002447    -0.0003458    0.0000975     0.9936966   -0.0785223 
   0.004851201    -0.9996616    0.0866688    -0.0011330    0.0001782    -0.0003627    0.0000868     0.9960234   -0.0762999 
   0.004951226    -0.9942690    0.0740996    -0.0002417    0.0004272    -0.0003397   -0.0000263     0.9999707   -0.0725277 
   0.005051251    -0.9893043    0.0839420    -0.0009693    0.0002728    -0.0001544   -0.0000968     1.0000990   -0.0786804 
   0.005151276    -0.9931428    0.0794623    -0.0003784    0.0002767    -0.0002025    0.0000169     0.9938743   -0.0756932 
   0.005251301    -0.9937257    0.0853543    -0.0009995    0.0008425    -0.0003513    0.0001307     0.9960753   -0.0886760 
   0.005351326    -0.9868158    0.0846936     0.0000348    0.0002444    -0.0003868    0.0000741     0.9963803   -0.0867398 
   0.005451351    -0.9874573    0.0898414    -0.0002259    0.0001495    -0.0002910    0.0001424     0.9970662   -0.0790300 
   0.005551376    -0.9883024    0.0806422    -0.0008673    0.0013244    -0.0002700   -0.0000911     0.9940881   -0.0858023 
   0.005651401    -0.9923763    0.0997070    -0.0010562   -0.0002164    -0.0003508    0.0000355     0.9932650   -0.0900251 
   0.005751426    -0.9919489    0.0930487     0.0002965   -0.0001759    -0.0003888    0.0001551     0.9927925   -0.0832110 
   0.005851451    -0.9831224    0.0845856    -0.0003909    0.0000136    -0.0004110   -0.0000455     0.9999933   -0.0857878 
   0.005951476    -0.9877576    0.0914585    -0.0005111    0.0002704    -0.0003512   -0.0000550     0.9927693   -0.0933391 
   0.006051501    -0.9827548    0.0990455    -0.0005249   -0.0004466    -0.0004822    0.0002051     0.9904929   -0.0926259 
   0.006151526    -0.9846123    0.0904516     0.0000008   -0.0006886    -0.0003042    0.0000758     0.9919271   -0.0990432 
   0.006251551    -0.9877475    0.1061606    -0.0007430    0.0000115    -0.0005286    0.0001291     0.9939280   -0.0941768 
   0.006351576    -0.9901699    0.1032003    -0.0006906   -0.0000925    -0.0005559    0.0000784     0.9962491   -0.0987976 
   0.006451601    -0.9936935    0.1161796     0.0001778    0.0004571    -0.0005890    0.0000330     0.9918541   -0.1020876 
   0.006551626    -0.9936314    0.1110735    -0.0003326    0.0004981    -0.0004388    0.0001981     0.9945389   -0.1011838 
   0.006651651    -0.9913554    0.1065130    -0.0007939   -0.0000939    -0.0003157    0.0000541     0.9962151   -0.1046678 
   0.006751676    -0.9933607    0.1101496    -0.0003438   -0.0002988    -0.0005778    0.0000016     0.9922237   -0.1101315 
   0.006851701    -0.9836954    0.1193391    -0.0004677   -0.0006072    -0.0006057    0.0001760     0.9983780   -0.1023337 
   0.006951726    -0.9933202    0.1175012    -0.0013529    0.0007350    -0.0006830    0.0000557     0.9947484   -0.0991931 
   0.007051751    -0.9894633    0.1121809    -0.0007131    0.0009719    -0.0004753    0.0000494     0.9960940   -0.1077393 
   0.007151776    -0.9856585    0.1116089    -0.0004331   -0.0000929    -0.0006160    0.0002768     0.9900193   -0.1088103 
   0.007251801    -0.9855179    0.1147107    -0.0008153   -0.0001533    -0.0005800    0.0002562     0.9895273   -0.1134732 
   0.007351826    -0.9821525    0.1159562    -0.0008350   -0.0003390    -0.0004457    0.0001647     0.9944630   -0.1096629 
   0.007451851    -0.9855413    0.1255842    -0.0016478   -0.0000427    -0.0005717   -0.0000588     0.9912876   -0.1159980 
   0.007551876    -0.9944233    0.1275233    -0.0004922    0.0001221    -0.0006309   -0.0000745     0.9896213   -0.1192191 
   0.007651901    -0.9900538    0.1339664    -0.0005139    0.0001012    -0.0006646    0.0003159     0.9899702   -0.1188770 
   0.007751926    -0.9847555    0.1280966    -0.0010036    0.0000328    -0.0006237    0.0002044     0.9882524   -0.1161140 
   0.007851951    -0.9926894    0.1246246    -0.0006606    0.0002864    -0.0006459    0.0004504     0.9964130   -0.1211782 
   0.007951976    -0.9856306    0.1243348    -0.0008232   -0.0007413    -0.0004936    0.0000715     0.9927410   -0.1223456 
   0.008052001    -0.9885889    0.1351225    -0.0020630    0.0000176    -0.0008991    0.0001214     0.9853997   -0.1251357 
   0.008152026    -0.9827371    0.1366849    -0.0008527   -0.0004019    -0.0008169    0.0001602     0.9871741   -0.1288853 
   0.008252051    -0.9878743    0.1363516     0.0000048    0.0003131    -0.0006643    0.0000911     0.9856616   -0.1229010 
   0.008352076    -0.9842813    0.1324202    -0.0003158   -0.0004595    -0.0007859    0.0002572     0.9958595   -0.1300601 
   0.008452101    -0.9885358    0.1328977    -0.0016119    0.0004080    -0.0006829    0.0002762     0.9932159   -0.1341498 
   0.008552126    -0.9776752    0.1399561    -0.0007119   -0.0002544    -0.0008292    0.0001224     0.9882483   -0.1376415 
   0.008652151    -0.9791014    0.1436551    -0.0007648   -0.0003878    -0.0009521    0.0002633     0.9904974   -0.1354851 
   0.008752176    -0.9790370    0.1510684    -0.0007834   -0.0005135    -0.0010616   -0.0000098     0.9906677   -0.1383237 
   0.008852201    -0.9759085    0.1500983    -0.0011252    0.0002432    -0.0010404    0.0002127     0.9924387   -0.1390062 
   0.008952226    -0.9852270    0.1309046    -0.0005297    0.0003725    -0.0009894    0.0003716     0.9922013   -0.1373270 
   0.009052251    -0.9814479    0.1498242    -0.0006503    0.0001673    -0.0007770    0.0003886     0.9890185   -0.1416009 
   0.009152276    -0.9860650    0.1395552    -0.0014125    0.0007283    -0.0011132    0.0003118     0.9873816   -0.1405275 
   0.009252301    -0.9855512    0.1477703    -0.0016301    0.0007421    -0.0007894    0.0001763     0.9896429   -0.1451295 
   0.009352326    -0.9758974    0.1498520    -0.0006886    0.0002184    -0.0011705    0.0002862     0.9881451   -0.1406299 
   0.009452351    -0.9859670    0.1526174    -0.0021201    0.0002695    -0.0010707    0.0002302     0.9906595   -0.1480495 
   0.009552376    -0.9836874    0.1544445    -0.0013234    0.0010952    -0.0009899    0.0002995     0.9900450   -0.1437116 
   0.009652401    -0.9898897    0.1526132    -0.0009651    0.0001768    -0.0008793    0.0004275     0.9929886   -0.1503996 
   0.009752426    -0.9894906    0.1479084    -0.0016671    0.0004816    -0.0009489    0.0001205     0.9873217   -0.1551518 
   0.009852451    -0.9843063    0.1613132    -0.0009250    0.0001098    -0.0010245    0.0001791     0.9878511   -0.1514044 
   0.009952476    -0.9817810    0.1617785    -0.0017419   -0.0000181    -0.0011829    0.0002747     0.9868394   -0.1555656 
   0.010052501    -0.9846852    0.1532483    -0.0009298   -0.0000017    -0.0009514    0.0005582     0.9917551   -0.1604945 
   0.010152526    -0.9773147    0.1625579    -0.0013455    0.0004419    -0.0011435    0.0002251     0.9887099   -0.1622360 
   0.010252551    -0.9844524    0.1647590    -0.0013040   -0.0001891    -0.0011455    0.0003710     0.9864910   -0.1566923 
   0.010352576    -0.9824797    0.1647735    -0.0014143    0.0008544    -0.0011424    0.0003762     0.9872617   -0.1631243 
   0.010452601    -0.9827712    0.1742273    -0.0018284    0.0009883    -0.0010801    0.0003307     0.9877011   -0.1648235 
   0.010552626    -0.9790621    0.1706250    -0.0013386   -0.0004818    -0.0013845    0.0003308     0.9875100   -0.1677015 
   0.010652651    -0.9810059    0.1820794    -0.0020001    0.0001096    -0.0013753    0.0003055     0.9848201   -0.1624098 
   0.010752676    -0.9859469    0.1693157    -0.0016696    0.0010597    -0.0014225    0.0004445     0.9856110   -0.1704483 
   0.010852701    -0.9697015    0.1743833    -0.0014656    0.0004003    -0.0011743   -0.0000210     0.9863508   -0.1711994 
   0.010952726    -0.9822350    0.1672312    -0.0012665   -0.0006325    -0.0013463    0.0001509     0.9842361   -0.1743076 
   0.011052751    -0.9763616    0.1741702    -0.0013474    0.0004879    -0.0013565    0.0004158     0.9820484   -0.1736802 
   0.011152776    -0.9783784    0.1756102    -0.0012078   -0.0000029    -0.0013328    0.0003324     0.9856250   -0.1743850 
   0.011252801    -0.9775407    0.1755392    -0.0018242   -0.0001245    -0.0011709    0.0002087     0.9837335   -0.1794485 
   0.011352826    -0.9685652    0.1803874    -0.0004662    0.0017006    -0.0013721    0.0003762     0.9838449   -0.1802402 
   0.011452851    -0.9793652    0.1816440    -0.0012278    0.0000759    -0.0014870    0.0004346     0.9801805   -0.1795216 
   0.011552876    -0.9784830    0.1824687    -0.0019129    0.0001496    -0.0015432    0.0001123     0.9849156   -0.1812809 
   0.011652901    -0.9788834    0.1847199    -0.0018277    0.0004381    -0.0012692    0.0003016     0.9853315   -0.1831884 
   0.011752926    -0.9755142    0.1903959    -0.0008423   -0.0005385    -0.0014754    0.0002644     0.9840382   -0.1848027 
   0.011852951    -0.9681612    0.1888386    -0.0010359    0.0012045    -0.0013985    0.0004680     0.9778371   -0.1860558 
   0.011952976    -0.9729447    0.1991441    -0.0024080    0.0007647    -0.0013970    0.0004624     0.9751561   -0.1846021 
   0.012053002    -0.9797084    0.1903590    -0.0008704    0.0009264    -0.0017462    0.0004025     0.9800054   -0.1844842 
   0.012153027    -0.9694324    0.1876114    -0.0011843    0.0002098    -0.0017224    0.0002508     0.9828709   -0.1917243 
   0.012253052    -0.9722013    0.1939166    -0.0024015    0.0006640    -0.0014241    0.0002740     0.9792202   -0.1966980 
   0.012353077    -0.9776012    0.2019232    -0.0016286    0.0008344    -0.0016312    0.0002370     0.9831486   -0.1947558 
   0.012453102    -0.9608839    0.1994303    -0.0013879    0.0016076    -0.0015109    0.0005519     0.9799381   -0.1953792 
   0.012553127    -0.9681987    0.2066290    -0.0013689    0.0004957    -0.0018711    0.0000697     0.9796337   -0.1993658 
   0.012653152    -0.9698910    0.2034668    -0.0013412    0.0007804    -0.0019595    0.0002965     0.9765823   -0.2010379 
   0.012753177    -0.9777104    0.2057846    -0.0023712    0.0017237    -0.0021686    0.0003245     0.9789601   -0.2024645 
   0.012853202    -0.9679970    0.2111005    -0.0017127    0.0009816    -0.0017644    0.0004528     0.9792411   -0.2036510 
   0.012953227    -0.9661069    0.2153588    -0.0023618    0.0009156    -0.0017856    0.0005143     0.9797671   -0.2048103 
   0.013053252    -0.9693512    0.2050785    -0.0020752    0.0000082    -0.0018914    0.0004697     0.9733139   -0.2107248 
   0.013153277    -0.9665790    0.2098305    -0.0015003    0.0010246    -0.0017975    0.0006550     0.9769573   -0.2095531 
   0.013253302    -0.9632589    0.2142743    -0.0017904    0.0007678    -0.0018332    0.0007795     0.9767071   -0.2121966 
   0.013353327    -0.9716659    0.2149619    -0.0018806    0.0003890    -0.0017104    0.0005168     0.9752210   -0.2109874 
   0.013453352    -0.9657898    0.2224063    -0.0035490    0.0003931    -0.0020131    0.0004634     0.9725155   -0.2092113 
   0.013553377    -0.9727231    0.2106309    -0.0018939    0.0007117    -0.0021091    0.0009332     0.9742240   -0.2146558 
   0.013653402    -0.9647199    0.2216576    -0.0014240    0.0004011    -0.0018081    0.0004313     0.9766753   -0.2156722 
   0.013753427    -0.9729508    0.2160388    -0.0019117   -0.0003363    -0.0020255    0.0008518     0.9754471   -0.2200237 
   0.013853452    -0.9551483    0.2304290    -0.0029370    0.0003050    -0.0017586    0.0004974     0.9777116   -0.2181765 
   0.013953477    -0.9631564    0.2216166    -0.0019672    0.0006363    -0.0021116    0.0005322     0.9751741   -0.2213209 
   0.014053502    -0.9660341    0.2241863    -0.0025773    0.0019549    -0.0021255    0.0007066     0.9744213   -0.2246935 
   0.014153527    -0.9562901    0.2232083    -0.0017955   -0.0003841    -0.0018604    0.0005998     0.9732942   -0.2255259 
   0.014253552    -0.9598217    0.2257503    -0.0022528    0.0016116    -0.0022563    0.0005149     0.9740123   -0.2256814 
   0.014353577    -0.9673159    0.2239661    -0.0027709    0.0025223    -0.0021209    0.0003957     0.9750592   -0.2313041 
   0.014453602    -0.9599938    0.2232318    -0.0023507    0.0012809    -0.0024662    0.0005272     0.9747260   -0.2296793 
   0.014553627    -0.9688513    0.2335039    -0.0024491    0.0004145    -0.0023193    0.0007809     0.9697167   -0.2338018 
   0.014653652    -0.9638224    0.2401159    -0.0019460    0.0003133    -0.0023061    0.0008151     0.9709448   -0.2351482 
   0.014753677    -0.9620168    0.2400962    -0.0025854    0.0008926    -0.0024563    0.0006804     0.9714613   -0.2360268 
   0.014853702    -0.9580498    0.2327112    -0.0022673   -0.0001714    -0.0020497    0.0005390     0.9666890   -0.2340184 
   0.014953727    -0.9717612    0.2473921    -0.0029105    0.0017061    -0.0025605    0.0009130     0.9735606   -0.2396156 
   0.015053752    -0.9617213    0.2456135    -0.0025632    0.0009131    -0.0026181    0.0005289     0.9685315   -0.2390521 
   0.015153777    -0.9515391    0.2452763    -0.0030931    0.0009418    -0.0023670    0.0005147     0.9734436   -0.2391216 
   0.015253802    -0.9537302    0.2521653    -0.0031642    0.0014179    -0.0024916    0.0007822     0.9719498   -0.2457842 
   0.015353827    -0.9615463    0.2525447    -0.0034759    0.0004094    -0.0026256    0.0010723     0.9665162   -0.2463458 
   0.015453852    -0.9650277    0.2584624    -0.0033009    0.0007886    -0.0027967    0.0007759     0.9698741   -0.2457517 
   0.015553877    -0.9540994    0.2383269    -0.0037234    0.0000955    -0.0026089    0.0007750     0.9687506   -0.2486613 
   0.015653902    -0.9643575    0.2568563    -0.0026550    0.0006257    -0.0025468    0.0008332     0.9678037   -0.2485396 
