! 19-Feb-26 1:08:38 PM
! E:\VNA_MEASUREMENTS\RECBLOCK\BANDPASSFILREV0.S2P
! CHANNEL.1
! TR.MEASUREMENT
! CORRECTED.DATA
# GHZ S RI R 50.0
! FREQ.GHZ         S11RE         S11IM         S21RE         S21IM         S12RE         S12IM         S22RE         S22IM         
!; PortSelection: Port_12
   0.000050000     0.4636407    0.0777347     0.5925699    0.4210433     0.0003381    0.0119017    -1.0122170   -0.0267367 
   0.000150025    -0.8744990   -0.1581063     0.7517444    2.0887520    -0.0005174    0.0006090    -0.9937391    0.0024892 
   0.000250050     0.9172004    0.4381063    -0.2647614    1.5335950    -0.0014512    0.0000442    -1.0053180    0.0087753 
   0.000350075     0.9453171   -0.0550522     0.0027860   -0.0048222     0.0001559   -0.0009086    -0.9983097    0.0036192 
   0.000450100     1.1029970    0.0361033    -0.0044139   -0.0110178    -0.0007984    0.0016043    -1.0025430    0.0092136 
   0.000550125     0.9616672   -0.0866468    -0.0039576   -0.0074134     0.0007719    0.0000873    -0.9977906    0.0151588 
   0.000650150     0.9399815    0.0141006    -0.0049095   -0.0058229     0.0001921    0.0000265    -0.9919980    0.0167088 
   0.000750175     1.0025530   -0.0200429    -0.0047125   -0.0058661    -0.0002028    0.0014019    -1.0024210    0.0147071 
   0.000850200     0.9766059    0.0129494    -0.0046560   -0.0078624    -0.0004187   -0.0004207    -0.9879804    0.0138634 
   0.000950225     0.9732928   -0.0233269    -0.0094429   -0.0080164     0.0002971   -0.0002959    -0.9977491    0.0199131 
   0.001050250     1.0295600    0.0262245    -0.0099652   -0.0046811    -0.0002953    0.0004859    -0.9899391    0.0191066 
   0.001150275     0.9911438   -0.0405831    -0.0099260   -0.0026110     0.0004501    0.0000452    -0.9957094    0.0177229 
   0.001250300     0.9988235    0.0283218    -0.0078602   -0.0041011     0.0003719    0.0004610    -0.9907508    0.0244308 
   0.001350325     1.0204600   -0.0386480    -0.0081289   -0.0064374     0.0001653   -0.0009326    -0.9969440    0.0185781 
   0.001450350     0.9965075   -0.0041521    -0.0121526   -0.0052974     0.0005423    0.0003343    -0.9985862    0.0210823 
   0.001550375     0.9861257   -0.0117127    -0.0087041   -0.0005029     0.0002498   -0.0002803    -0.9920583    0.0233284 
   0.001650400     0.9702227    0.0007682    -0.0092098   -0.0051213     0.0005958   -0.0003504    -0.9955695    0.0281956 
   0.001750425     0.9545630   -0.0544725    -0.0072934   -0.0024184    -0.0004253   -0.0004627    -0.9989311    0.0323682 
   0.001850450     0.9737863    0.0021545    -0.0063635    0.0017222     0.0000591   -0.0002596    -1.0032350    0.0288682 
   0.001950475     0.9778327    0.0060568    -0.0067158   -0.0019430    -0.0001333   -0.0000912    -0.9921752    0.0299443 
   0.002050500     0.9820378   -0.0393915    -0.0107536    0.0001021    -0.0004840    0.0003046    -0.9969115    0.0324551 
   0.002150525     1.0484580   -0.0448772    -0.0036907    0.0039424    -0.0001494    0.0008139    -0.9979039    0.0372758 
   0.002250550     0.9955569   -0.0677222    -0.0055998   -0.0003385     0.0006369    0.0003774    -1.0002730    0.0352677 
   0.002350575     0.9848552   -0.0384409    -0.0059608    0.0023174     0.0000517    0.0001097    -0.9998047    0.0319657 
   0.002450600     1.0156850   -0.0568257    -0.0049971    0.0030808    -0.0009814    0.0001532    -0.9947003    0.0414129 
   0.002550625     0.9395533   -0.0341430    -0.0026455    0.0002935    -0.0003116    0.0002373    -1.0032990    0.0389878 
   0.002650650     1.0034160   -0.0464115    -0.0027537    0.0010500    -0.0002878   -0.0003443    -0.9896557    0.0430265 
   0.002750675     0.9978940   -0.0280846    -0.0020898    0.0014819    -0.0000166   -0.0003811    -0.9951804    0.0464099 
   0.002850700     0.9769977   -0.0194766    -0.0021533    0.0048559    -0.0002894    0.0000701    -1.0004020    0.0509595 
   0.002950725     0.9671828   -0.0478914    -0.0024444    0.0062197    -0.0003097   -0.0005235    -0.9874372    0.0447857 
   0.003050750     0.9718291   -0.0532668    -0.0015700    0.0035009     0.0005874    0.0003429    -0.9958294    0.0490858 
   0.003150775     0.9716598   -0.0391238     0.0001775    0.0020295    -0.0002152    0.0005563    -0.9898350    0.0472890 
   0.003250800     0.9948423   -0.0235401    -0.0006607    0.0011504    -0.0001679   -0.0005133    -0.9937872    0.0499135 
   0.003350825     0.9822584   -0.0671236    -0.0001884    0.0017369    -0.0001841    0.0002832    -0.9970249    0.0517835 
   0.003450850     0.9656124   -0.0527001    -0.0039771    0.0000219    -0.0000857    0.0000582    -0.9992427    0.0575741 
   0.003550875     0.9955862   -0.0535783    -0.0009141    0.0030450    -0.0006937    0.0008239    -0.9996230    0.0586209 
   0.003650900     1.0306310   -0.0471947    -0.0003044    0.0027808    -0.0005479   -0.0003149    -0.9938378    0.0580335 
   0.003750925     1.0357010   -0.0684559    -0.0013411   -0.0000610    -0.0003370   -0.0000526    -0.9880807    0.0616541 
   0.003850950     1.0234680   -0.0591161    -0.0008214   -0.0008956    -0.0001380   -0.0000213    -0.9932398    0.0632445 
   0.003950975     0.9854988   -0.0600400    -0.0001798    0.0012982    -0.0000493   -0.0003655    -0.9907417    0.0635851 
   0.004051001     1.0113640   -0.0971812    -0.0014293   -0.0015187     0.0000564   -0.0003379    -0.9932200    0.0626275 
   0.004151026     0.9816992   -0.0481592    -0.0018314    0.0025780    -0.0000687   -0.0005467    -0.9841053    0.0737915 
   0.004251051     0.9659035   -0.0403146    -0.0007601    0.0013948     0.0003262    0.0001052    -0.9966469    0.0603552 
   0.004351076     1.0102580   -0.0788841    -0.0011852    0.0024610    -0.0006804    0.0005131    -0.9872441    0.0721499 
   0.004451101     0.9783710   -0.0461066     0.0012338   -0.0001957     0.0002890    0.0000852    -0.9880655    0.0691020 
   0.004551126     1.0016100   -0.0591943    -0.0017371    0.0007603     0.0002922    0.0006850    -0.9872556    0.0763481 
   0.004651151     1.0177590   -0.0878777    -0.0004978    0.0023915     0.0001691   -0.0002819    -0.9929995    0.0747790 
   0.004751176     0.9899692   -0.0895489    -0.0006219    0.0015178     0.0003322   -0.0001498    -0.9919686    0.0795048 
   0.004851201     0.9985509   -0.0770536     0.0003000   -0.0000219    -0.0002874    0.0009114    -0.9925642    0.0784073 
   0.004951226     0.9948583   -0.0665439    -0.0017184    0.0016304     0.0000445    0.0004694    -0.9924906    0.0796303 
   0.005051251     1.0214970   -0.0551456    -0.0002312    0.0006910    -0.0003405   -0.0001653    -0.9907792    0.0788203 
   0.005151276     1.0156840   -0.0850947    -0.0022044    0.0005040     0.0000358    0.0003246    -0.9924569    0.0810474 
   0.005251301     1.0069040   -0.0962716    -0.0008351    0.0007830    -0.0004959    0.0001482    -0.9943295    0.0868818 
   0.005351326     1.0118150   -0.0712979    -0.0002183    0.0017127    -0.0009796   -0.0002897    -0.9894691    0.0872153 
   0.005451351     0.9890441   -0.0724207    -0.0010872    0.0013379     0.0000643   -0.0000832    -0.9891266    0.0897465 
   0.005551376     0.9840211   -0.1161664    -0.0012756   -0.0001895    -0.0003575   -0.0001198    -0.9829148    0.0906799 
   0.005651401     0.9806831   -0.1129658    -0.0010964    0.0006894    -0.0002581   -0.0004608    -0.9908790    0.0913779 
   0.005751426     1.0095700   -0.1000787     0.0011494   -0.0003947    -0.0006003   -0.0002488    -0.9894714    0.0890656 
   0.005851451     0.9821678   -0.0623537     0.0009267    0.0006342    -0.0004003    0.0000097    -0.9879493    0.0924291 
   0.005951476     0.9909844   -0.0850546    -0.0020920    0.0008780    -0.0006227   -0.0004605    -0.9879762    0.0920532 
   0.006051501     1.0050030   -0.0944436     0.0015668   -0.0010662    -0.0002211    0.0004914    -0.9900517    0.0976623 
   0.006151526     0.9861256   -0.0947283     0.0008424    0.0004505    -0.0001641    0.0003892    -0.9944020    0.1015557 
   0.006251551     0.9905192   -0.1292313    -0.0015264    0.0001494    -0.0002725   -0.0006615    -0.9889370    0.1001979 
   0.006351576     0.9982625   -0.0971467    -0.0009495   -0.0011493    -0.0002315   -0.0000455    -0.9874560    0.1031192 
   0.006451601     0.9921452   -0.1061199    -0.0013690    0.0018254    -0.0004889   -0.0001090    -0.9861584    0.1059265 
   0.006551626     0.9871242   -0.0897976     0.0006626    0.0004072    -0.0002602    0.0002048    -0.9875515    0.1053943 
   0.006651651     1.0018090   -0.0924794    -0.0005233    0.0017173    -0.0003494   -0.0002785    -0.9856734    0.1063474 
   0.006751676     1.0004350   -0.1369298    -0.0008366    0.0018478    -0.0007199   -0.0000160    -0.9887518    0.1076925 
   0.006851701     0.9812798   -0.0766095    -0.0018589    0.0002696    -0.0004853    0.0001914    -0.9889389    0.1123273 
   0.006951726     0.9791198   -0.0799346    -0.0003989   -0.0009567    -0.0004698   -0.0003940    -0.9910244    0.1154086 
   0.007051751     0.9536824   -0.1204870    -0.0019076   -0.0004961    -0.0004012   -0.0000490    -0.9863409    0.1114198 
   0.007151776     0.9934818   -0.1145762    -0.0014927    0.0010679    -0.0003902    0.0001591    -0.9869089    0.1163292 
   0.007251801     0.9817083   -0.1154325    -0.0012398   -0.0002240    -0.0004354   -0.0003217    -0.9859572    0.1175168 
   0.007351826     1.0133670   -0.1122610    -0.0015706    0.0018908    -0.0005579   -0.0002564    -0.9822546    0.1188638 
   0.007451851     0.9882289   -0.1069828    -0.0009358    0.0009382    -0.0001240    0.0001223    -0.9859740    0.1202653 
   0.007551876     1.0120010   -0.0948399    -0.0009400    0.0000464    -0.0007865    0.0003740    -0.9884943    0.1244063 
   0.007651901     0.9733796   -0.1513673    -0.0016604   -0.0001605    -0.0005782   -0.0003252    -0.9891798    0.1250930 
   0.007751926     0.9844507   -0.0863404    -0.0010481   -0.0005109    -0.0005052   -0.0001079    -0.9843006    0.1211213 
   0.007851951     0.9887055   -0.1402553    -0.0003108    0.0006506    -0.0005180    0.0002384    -0.9821694    0.1234605 
   0.007951976     0.9700871   -0.1366059    -0.0004339    0.0007475    -0.0004400    0.0000708    -0.9854776    0.1281565 
   0.008052001     0.9666509   -0.1220452    -0.0004822    0.0009494    -0.0008071    0.0002785    -0.9838014    0.1247174 
   0.008152026     1.0120950   -0.1268943    -0.0001935    0.0000852    -0.0007549   -0.0001457    -0.9859313    0.1293320 
   0.008252051     1.0047260   -0.1375994    -0.0016517   -0.0006456    -0.0008472    0.0002493    -0.9841773    0.1296098 
   0.008352076     0.9794980   -0.1269784    -0.0010095    0.0009647    -0.0011267   -0.0000157    -0.9829582    0.1324858 
   0.008452101     0.9653270   -0.1248357    -0.0018852   -0.0009016    -0.0007782   -0.0000308    -0.9817573    0.1343573 
   0.008552126     0.9935445   -0.1239840    -0.0008003   -0.0008533    -0.0009286   -0.0000518    -0.9825854    0.1356463 
   0.008652151     0.9957895   -0.1350332    -0.0006695   -0.0012031    -0.0006567   -0.0000569    -0.9831270    0.1358054 
   0.008752176     0.9714940   -0.1316974    -0.0008041   -0.0008366    -0.0006845    0.0003945    -0.9794781    0.1409888 
   0.008852201     0.9738960   -0.1301943    -0.0006710    0.0018160    -0.0004765    0.0003193    -0.9855332    0.1423502 
   0.008952226     0.9819491   -0.1391031    -0.0001078    0.0015107    -0.0011515    0.0002727    -0.9829856    0.1444126 
   0.009052251     1.0034430   -0.1252875    -0.0012122   -0.0007191    -0.0008431    0.0003626    -0.9833903    0.1466080 
   0.009152276     0.9755674   -0.1363917    -0.0025376    0.0006019    -0.0009357   -0.0001864    -0.9813158    0.1443540 
   0.009252301     0.9990562   -0.1542620     0.0000102    0.0005897    -0.0012300    0.0006600    -0.9799075    0.1464498 
   0.009352326     0.9857320   -0.1405052    -0.0001071    0.0006652    -0.0009506    0.0004073    -0.9813109    0.1455349 
   0.009452351     0.9886220   -0.1327908    -0.0006205   -0.0005157    -0.0011535    0.0005192    -0.9808522    0.1527636 
   0.009552376     0.9933357   -0.1420359    -0.0020069    0.0004201    -0.0012622    0.0001198    -0.9807470    0.1517811 
   0.009652401     0.9911684   -0.1606623    -0.0009419    0.0009594    -0.0013684    0.0000411    -0.9808744    0.1530144 
   0.009752426     0.9806981   -0.1588787    -0.0006542   -0.0003742    -0.0008741    0.0003602    -0.9806257    0.1550704 
   0.009852451     0.9821229   -0.1809460    -0.0015626    0.0007932    -0.0012113    0.0002926    -0.9816093    0.1566337 
   0.009952476     0.9725351   -0.1610670    -0.0015624    0.0003352    -0.0009775    0.0001249    -0.9807041    0.1594069 
   0.010052501     0.9852203   -0.1405666    -0.0014430    0.0004865    -0.0012999   -0.0001481    -0.9788505    0.1585846 
   0.010152526     0.9935414   -0.1629449     0.0003186   -0.0000055    -0.0009261   -0.0001452    -0.9791715    0.1638234 
   0.010252551     0.9946373   -0.1521018    -0.0011683   -0.0000918    -0.0011237    0.0001578    -0.9805043    0.1647955 
   0.010352576     0.9748815   -0.1728609    -0.0008085    0.0002828    -0.0011706    0.0006445    -0.9786407    0.1663976 
   0.010452601     0.9917006   -0.1576439    -0.0023310   -0.0000362    -0.0011897    0.0003561    -0.9811293    0.1641962 
   0.010552626     0.9870107   -0.1672204    -0.0012239   -0.0002514    -0.0012429    0.0002582    -0.9766069    0.1652979 
   0.010652651     0.9770533   -0.1648075    -0.0015860    0.0001211    -0.0011008    0.0003385    -0.9771520    0.1691867 
   0.010752676     0.9932784   -0.1977114    -0.0008944   -0.0005608    -0.0012321    0.0001426    -0.9763891    0.1710014 
   0.010852701     0.9804068   -0.1689616    -0.0007236    0.0004939    -0.0013273    0.0004859    -0.9744116    0.1724142 
   0.010952726     0.9978809   -0.1754998    -0.0019687    0.0004521    -0.0009956    0.0004096    -0.9738008    0.1781748 
   0.011052751     0.9911557   -0.1690197    -0.0008761    0.0013255    -0.0010300    0.0001706    -0.9740019    0.1766041 
   0.011152776     0.9811118   -0.1955549    -0.0001883    0.0009971    -0.0010548    0.0003162    -0.9752294    0.1786427 
   0.011252801     0.9911078   -0.1607921    -0.0021799    0.0007113    -0.0012680    0.0003686    -0.9747077    0.1772455 
   0.011352826     0.9627114   -0.1834968    -0.0016837    0.0006926    -0.0010090    0.0002573    -0.9757480    0.1790535 
   0.011452851     0.9934105   -0.1790050    -0.0021259    0.0011714    -0.0013553    0.0004044    -0.9751425    0.1831776 
   0.011552876     0.9756732   -0.1778798    -0.0011957    0.0007374    -0.0011109    0.0004074    -0.9763618    0.1849827 
   0.011652901     1.0032280   -0.1910329    -0.0021595    0.0000733    -0.0015283    0.0004410    -0.9733597    0.1904848 
   0.011752926     0.9842248   -0.2064735    -0.0008703   -0.0001788    -0.0017072    0.0006219    -0.9749578    0.1875772 
   0.011852951     0.9758333   -0.1675484    -0.0016617    0.0004166    -0.0014618    0.0005835    -0.9692825    0.1904123 
   0.011952976     1.0007690   -0.1802214    -0.0006922   -0.0000124    -0.0015734    0.0003321    -0.9702442    0.1886133 
   0.012053002     0.9878206   -0.1825572    -0.0010242    0.0007061    -0.0015770    0.0003203    -0.9695185    0.1943965 
   0.012153027     0.9881363   -0.1872022    -0.0020510    0.0000473    -0.0014330    0.0004615    -0.9725516    0.1936493 
   0.012253052     0.9854282   -0.1776844    -0.0015499    0.0019887    -0.0015978    0.0005299    -0.9731691    0.1968364 
   0.012353077     0.9929639   -0.1866145    -0.0022306    0.0011600    -0.0017027    0.0003955    -0.9689893    0.2023572 
   0.012453102     0.9872166   -0.1942509    -0.0019780   -0.0003834    -0.0021608    0.0006026    -0.9720820    0.1981022 
   0.012553127     0.9856416   -0.1757413    -0.0029962    0.0001828    -0.0017084    0.0005199    -0.9720255    0.2024353 
   0.012653152     0.9908550   -0.1877165    -0.0022670   -0.0002005    -0.0019997    0.0002861    -0.9724794    0.2029424 
   0.012753177     0.9697364   -0.2009290    -0.0004751   -0.0000548    -0.0018045    0.0006047    -0.9719194    0.2020488 
   0.012853202     0.9734615   -0.2049194    -0.0022032    0.0006574    -0.0016613    0.0003348    -0.9729491    0.2040430 
   0.012953227     0.9674820   -0.1842596    -0.0011180    0.0005888    -0.0019154    0.0002883    -0.9676170    0.2072704 
   0.013053252     0.9704391   -0.2078073    -0.0023937    0.0005015    -0.0016410    0.0003405    -0.9705304    0.2099428 
   0.013153277     0.9681793   -0.1953519    -0.0024727    0.0014178    -0.0016263    0.0002918    -0.9680192    0.2085068 
   0.013253302     0.9876421   -0.2016261    -0.0028120    0.0010928    -0.0017845    0.0006002    -0.9667521    0.2088629 
   0.013353327     0.9759888   -0.2157017    -0.0019918    0.0008854    -0.0021988    0.0008542    -0.9680189    0.2154269 
   0.013453352     0.9776137   -0.2071260    -0.0020764    0.0000533    -0.0022798    0.0005289    -0.9645444    0.2168905 
   0.013553377     0.9715340   -0.2024376    -0.0014252    0.0005308    -0.0020047    0.0002831    -0.9659508    0.2174546 
   0.013653402     0.9730375   -0.2157380    -0.0019822    0.0018195    -0.0020107    0.0008033    -0.9697267    0.2196251 
   0.013753427     0.9647422   -0.2217624    -0.0026561    0.0009000    -0.0023330    0.0005605    -0.9623314    0.2176701 
   0.013853452     0.9799473   -0.2194864    -0.0022397   -0.0000004    -0.0023568    0.0006516    -0.9647226    0.2202479 
   0.013953477     0.9782748   -0.2238735    -0.0021355    0.0004502    -0.0021908    0.0006067    -0.9632192    0.2221517 
   0.014053502     0.9505058   -0.2204957    -0.0022740    0.0012124    -0.0022309    0.0004261    -0.9648328    0.2250706 
   0.014153527     0.9803447   -0.2187150    -0.0024247    0.0007349    -0.0023378    0.0005799    -0.9663430    0.2300175 
   0.014253552     0.9727195   -0.2148246    -0.0023173    0.0001287    -0.0020136    0.0003215    -0.9623823    0.2264009 
   0.014353577     0.9838169   -0.2292317    -0.0013846    0.0013360    -0.0021453    0.0008164    -0.9638183    0.2333141 
   0.014453602     0.9444520   -0.2363101    -0.0019763    0.0011952    -0.0023004    0.0008041    -0.9623780    0.2321317 
   0.014553627     0.9718959   -0.2277801    -0.0027921    0.0011285    -0.0020766    0.0004611    -0.9612385    0.2296911 
   0.014653652     0.9728054   -0.2274006    -0.0027753    0.0012105    -0.0025105    0.0006890    -0.9624816    0.2347123 
   0.014753677     0.9555259   -0.2186255    -0.0028464    0.0006219    -0.0021861    0.0008132    -0.9635219    0.2384719 
   0.014853702     0.9705212   -0.2426231    -0.0010531    0.0009299    -0.0025195    0.0006519    -0.9586353    0.2398229 
   0.014953727     0.9690748   -0.2330173    -0.0027119    0.0007432    -0.0023916    0.0006531    -0.9607138    0.2391263 
   0.015053752     0.9884560   -0.2366937    -0.0037941    0.0016616    -0.0029574    0.0007224    -0.9612512    0.2428176 
   0.015153777     0.9754605   -0.2483520    -0.0021652    0.0007306    -0.0025598    0.0009903    -0.9596537    0.2417370 
   0.015253802     0.9599507   -0.2394752    -0.0037793    0.0006509    -0.0022365    0.0005847    -0.9604852    0.2455676 
   0.015353827     0.9766662   -0.2294271    -0.0029438    0.0004516    -0.0021373    0.0007257    -0.9578955    0.2455684 
   0.015453852     0.9764176   -0.2343895    -0.0031687    0.0012304    -0.0025666    0.0011396    -0.9574755    0.2518753 
   0.015553877     0.9743686   -0.2341293    -0.0036183    0.0016077    -0.0026447    0.0005543    -0.9581210    0.2525852 
   0.015653902     0.9604859   -0.2508813    -0.0028941    0.0001091    -0.0026859    0.0008682    -0.9562409    0.2515929 
