! 19-Feb-26 2:35:52 PM
! E:\VNA_MEASUREMENTS\RECBLOCK\BANDPASSFIL2.S2P
! CHANNEL.1
! TR.MEASUREMENT
! CORRECTED.DATA
# GHZ S RI R 50.0
! FREQ.GHZ         S11RE         S11IM         S21RE         S21IM         S12RE         S12IM         S22RE         S22IM         
!; PortSelection: Port_12
   0.000050000     0.0338965    0.1995226     1.5632320   -1.7522120     0.0038580    0.0010575     0.9460217   -0.0923946 
   0.000150025    -1.7238770    0.0832874    -2.8659600   -2.3573610     0.0005881   -0.0000385     1.0051360   -0.0122290 
   0.000250050     1.0729030    0.2491033    -0.1240814    0.0526849    -0.0008260    0.0003791     1.0005020   -0.0121076 
   0.000350075    -0.9923224    0.0072976    -0.0011848   -0.0017937     0.0000493    0.0001234     0.9894443   -0.0091155 
   0.000450100    -0.9997928    0.0137580    -0.0018343   -0.0013503     0.0000470   -0.0001018     1.0126440   -0.0124200 
   0.000550125    -0.9952862    0.0146643    -0.0009851   -0.0019737     0.0000671   -0.0000545     0.9969175   -0.0098685 
   0.000650150    -0.9964939    0.0124438    -0.0005871   -0.0024748     0.0001593    0.0000534     1.0044300   -0.0122077 
   0.000750175    -0.9968812    0.0137378    -0.0012704   -0.0016605     0.0000732    0.0000876     1.0025250   -0.0241247 
   0.000850200    -0.9964300    0.0099701    -0.0013739   -0.0008787    -0.0002395    0.0001023     1.0002500   -0.0190455 
   0.000950225    -0.9959664    0.0056636    -0.0021067   -0.0017902     0.0001639   -0.0001774     1.0095840   -0.0080881 
   0.001050250    -0.9956824    0.0159377    -0.0017416   -0.0012912    -0.0000380    0.0002100     1.0051730   -0.0175252 
   0.001150275    -0.9854159    0.0189641    -0.0020612   -0.0019512    -0.0001315   -0.0000742     0.9927074   -0.0179058 
   0.001250300    -1.0023300    0.0166837    -0.0018393   -0.0012304     0.0000902   -0.0001421     1.0061390   -0.0316151 
   0.001350325    -0.9979028    0.0277371    -0.0015209   -0.0009037    -0.0000060   -0.0001151     0.9943789   -0.0221276 
   0.001450350    -0.9974629    0.0239212    -0.0024160   -0.0017769     0.0001820   -0.0000463     1.0069300   -0.0315797 
   0.001550375    -0.9959854    0.0369786    -0.0023618   -0.0010689    -0.0001696   -0.0000546     0.9944582   -0.0276570 
   0.001650400    -0.9922074    0.0360830    -0.0022798   -0.0008330     0.0000618    0.0001384     0.9888546   -0.0309023 
   0.001750425    -0.9959314    0.0199688    -0.0024497    0.0001079    -0.0001178    0.0001786     0.9966783   -0.0201956 
   0.001850450    -0.9956048    0.0231056    -0.0016376   -0.0007752    -0.0001558   -0.0000551     1.0012920   -0.0232812 
   0.001950475    -0.9914936    0.0283391    -0.0016184    0.0001200    -0.0002726    0.0000268     0.9949437   -0.0258447 
   0.002050500    -0.9973559    0.0302903    -0.0015144   -0.0002637    -0.0001263   -0.0001836     1.0051580   -0.0274974 
   0.002150525    -0.9860257    0.0396382    -0.0016043   -0.0000577    -0.0002274   -0.0000792     0.9957392   -0.0385856 
   0.002250550    -0.9967266    0.0305652    -0.0002921   -0.0002464     0.0000628    0.0000874     1.0054450   -0.0390505 
   0.002350575    -0.9934015    0.0421415    -0.0023130    0.0005230     0.0000498   -0.0000655     1.0060120   -0.0399303 
   0.002450600    -1.0092950    0.0436494    -0.0011946   -0.0000961    -0.0000446   -0.0000519     1.0058690   -0.0282089 
   0.002550625    -0.9950128    0.0435468    -0.0012778   -0.0008223    -0.0002742    0.0000178     0.9993806   -0.0413136 
   0.002650650    -0.9956294    0.0505014    -0.0006227    0.0001485    -0.0001433    0.0000029     1.0060970   -0.0417310 
   0.002750675    -0.9825996    0.0443694    -0.0001509    0.0002010    -0.0002242   -0.0000887     0.9976409   -0.0295840 
   0.002850700    -0.9960459    0.0479970    -0.0009795    0.0006253    -0.0002253   -0.0002727     0.9984393   -0.0410328 
   0.002950725    -0.9914910    0.0531010    -0.0012764   -0.0008738    -0.0001501   -0.0000041     1.0019220   -0.0397690 
   0.003050750    -0.9931217    0.0571353    -0.0016475    0.0002247    -0.0001826   -0.0000466     0.9963087   -0.0452813 
   0.003150775    -0.9863653    0.0512296    -0.0002945    0.0000698    -0.0001980    0.0001090     0.9907706   -0.0491764 
   0.003250800    -0.9897414    0.0503549    -0.0009730    0.0008542    -0.0000370    0.0000298     0.9943083   -0.0509370 
   0.003350825    -0.9990427    0.0595086    -0.0007230    0.0002593    -0.0000481   -0.0000611     0.9944670   -0.0539101 
   0.003450850    -0.9867241    0.0510357    -0.0010194    0.0007926    -0.0002339   -0.0001391     1.0072140   -0.0482771 
   0.003550875    -0.9977384    0.0537390    -0.0006216    0.0002144    -0.0000477    0.0000237     0.9950143   -0.0640489 
   0.003650900    -0.9869191    0.0623703    -0.0009814    0.0003551    -0.0000592    0.0001513     0.9984175   -0.0631855 
   0.003750925    -0.9963359    0.0619236    -0.0003419    0.0008728    -0.0000919    0.0000321     0.9928792   -0.0593121 
   0.003850950    -1.0017850    0.0690280     0.0001733   -0.0000928    -0.0000556    0.0001932     1.0033560   -0.0535975 
   0.003950975    -0.9889274    0.0703486    -0.0005098    0.0002963    -0.0001800    0.0000367     1.0047990   -0.0607872 
   0.004051001    -0.9956290    0.0693288    -0.0003684    0.0002440    -0.0001439    0.0000829     0.9979488   -0.0684038 
   0.004151026    -1.0006250    0.0723557    -0.0005669   -0.0000943    -0.0000836   -0.0001481     0.9977460   -0.0649624 
   0.004251051    -0.9965367    0.0677966    -0.0001328    0.0003539    -0.0003851    0.0000074     0.9953091   -0.0662635 
   0.004351076    -0.9888178    0.0722786    -0.0008205   -0.0000127    -0.0003710   -0.0000245     1.0017220   -0.0685903 
   0.004451101    -0.9880182    0.0744319    -0.0013807   -0.0000795    -0.0002288    0.0000868     0.9973209   -0.0706430 
   0.004551126    -0.9898983    0.0798534    -0.0003736   -0.0001465    -0.0004288    0.0000150     0.9976540   -0.0687029 
   0.004651151    -0.9933714    0.0737991    -0.0002984   -0.0001464    -0.0003264    0.0000266     0.9925061   -0.0663822 
   0.004751176    -0.9951476    0.0777531    -0.0017578   -0.0002322    -0.0003212    0.0000630     0.9923391   -0.0701843 
   0.004851201    -1.0010500    0.0852079    -0.0008916    0.0009520    -0.0001822   -0.0000222     0.9979797   -0.0778324 
   0.004951226    -0.9957858    0.0840842    -0.0004533   -0.0002896    -0.0001853   -0.0000492     0.9983531   -0.0739428 
   0.005051251    -0.9889853    0.0770055    -0.0007225    0.0006401    -0.0003325   -0.0000637     1.0004950   -0.0788138 
   0.005151276    -0.9959289    0.0822709    -0.0003193    0.0004671    -0.0003833    0.0001083     0.9947547   -0.0823082 
   0.005251301    -0.9908727    0.0810007    -0.0007019    0.0004066    -0.0001783    0.0001139     0.9968940   -0.0840280 
   0.005351326    -0.9884146    0.0800701    -0.0010101    0.0000661    -0.0002680    0.0001351     0.9989415   -0.0867975 
   0.005451351    -0.9909047    0.0791363    -0.0001313   -0.0003072    -0.0003467    0.0001365     0.9974236   -0.0814114 
   0.005551376    -0.9923660    0.0930503    -0.0011705    0.0006237    -0.0003937    0.0000164     0.9970041   -0.0855807 
   0.005651401    -0.9880668    0.0932011    -0.0007780    0.0003958    -0.0002406    0.0000213     0.9941565   -0.0883973 
   0.005751426    -0.9837506    0.0887990    -0.0010570   -0.0002960    -0.0001773    0.0002228     0.9929644   -0.0874946 
   0.005851451    -0.9856730    0.0893619    -0.0005559    0.0003915    -0.0003764    0.0001694     1.0003950   -0.0879975 
   0.005951476    -0.9960889    0.0917890    -0.0013085    0.0000299    -0.0002265    0.0001246     0.9930857   -0.0894692 
   0.006051501    -0.9779348    0.0941910    -0.0006439    0.0006638    -0.0003316    0.0002354     0.9957744   -0.0909268 
   0.006151526    -0.9923931    0.0960214    -0.0001759   -0.0000053    -0.0005505    0.0001479     0.9943724   -0.0964586 
   0.006251551    -0.9946064    0.1113466     0.0000786   -0.0002441    -0.0005569    0.0001246     0.9940105   -0.0973402 
   0.006351576    -0.9948464    0.1090956    -0.0000831   -0.0003357    -0.0002594    0.0000486     0.9951487   -0.0965069 
   0.006451601    -0.9920019    0.1084023    -0.0001888    0.0005177    -0.0005017    0.0002195     0.9907951   -0.1021115 
   0.006551626    -0.9888077    0.1105115    -0.0006710   -0.0003056    -0.0005027    0.0000788     0.9936110   -0.1016028 
   0.006651651    -0.9883965    0.1078157    -0.0009121    0.0005803    -0.0005897    0.0000403     0.9941198   -0.1001315 
   0.006751676    -0.9886759    0.1118172    -0.0008012    0.0002196    -0.0006041    0.0001340     0.9923628   -0.1066123 
   0.006851701    -0.9847256    0.1195372    -0.0002604    0.0001278    -0.0003137    0.0001408     1.0003160   -0.1026684 
   0.006951726    -0.9844065    0.1153518    -0.0009321    0.0002386    -0.0004806    0.0001256     0.9930614   -0.1001403 
   0.007051751    -0.9895431    0.1166242    -0.0006013    0.0007406    -0.0004632   -0.0000014     0.9953659   -0.1082319 
   0.007151776    -0.9932367    0.1141410    -0.0004694    0.0003488    -0.0008003    0.0001654     0.9915917   -0.1072757 
   0.007251801    -0.9839897    0.1202332    -0.0006208   -0.0002231    -0.0004961    0.0001318     0.9895588   -0.1107881 
   0.007351826    -0.9833993    0.1291224    -0.0003222   -0.0002239    -0.0006988    0.0002078     0.9994656   -0.1109089 
   0.007451851    -0.9950761    0.1230189    -0.0004016   -0.0000074    -0.0006023    0.0000321     0.9928560   -0.1159184 
   0.007551876    -0.9871900    0.1321519    -0.0008773    0.0009124    -0.0005089    0.0001614     0.9925018   -0.1189702 
   0.007651901    -0.9879262    0.1300539    -0.0010876   -0.0000525    -0.0008294   -0.0000359     0.9891808   -0.1201521 
   0.007751926    -0.9830210    0.1260010    -0.0009712    0.0000981    -0.0005308    0.0002084     0.9873039   -0.1182658 
   0.007851951    -0.9962528    0.1261489     0.0001027    0.0000577    -0.0006167    0.0001286     0.9953008   -0.1192850 
   0.007951976    -0.9792974    0.1250772    -0.0019341   -0.0008819    -0.0008275    0.0000999     0.9944007   -0.1211762 
   0.008052001    -0.9881924    0.1387839    -0.0011605   -0.0001571    -0.0007927    0.0002229     0.9883215   -0.1224665 
   0.008152026    -0.9844791    0.1309686    -0.0006267    0.0005259    -0.0004968    0.0000905     0.9876685   -0.1273586 
   0.008252051    -0.9844469    0.1372371    -0.0007162    0.0006539    -0.0008435    0.0002512     0.9861963   -0.1271164 
   0.008352076    -0.9872580    0.1270884    -0.0008340   -0.0001803    -0.0006925    0.0001044     0.9947301   -0.1291385 
   0.008452101    -0.9873456    0.1326907    -0.0004552    0.0009425    -0.0006821    0.0001987     0.9930689   -0.1362100 
   0.008552126    -0.9776387    0.1325274    -0.0012733    0.0000170    -0.0007039    0.0000361     0.9925627   -0.1361461 
   0.008652151    -0.9796866    0.1371232    -0.0011648    0.0001302    -0.0008879    0.0003356     0.9880170   -0.1326786 
   0.008752176    -0.9772897    0.1455056    -0.0020222   -0.0003755    -0.0009686    0.0004225     0.9935226   -0.1362073 
   0.008852201    -0.9792034    0.1385994     0.0002456    0.0000730    -0.0009391    0.0000795     0.9946265   -0.1390893 
   0.008952226    -0.9775468    0.1420266    -0.0007556   -0.0002761    -0.0008312    0.0003542     0.9933346   -0.1382491 
   0.009052251    -0.9803101    0.1479018    -0.0007953    0.0001344    -0.0009325    0.0003567     0.9936602   -0.1418089 
   0.009152276    -0.9834074    0.1462777    -0.0010208    0.0000382    -0.0010934   -0.0000637     0.9902712   -0.1443729 
   0.009252301    -0.9756405    0.1443000    -0.0007706    0.0005264    -0.0010199    0.0003421     0.9908748   -0.1451379 
   0.009352326    -0.9799370    0.1524361    -0.0012963    0.0000188    -0.0008851    0.0004180     0.9902092   -0.1460270 
   0.009452351    -0.9858280    0.1531474    -0.0006946    0.0006293    -0.0010496    0.0000713     0.9914104   -0.1452441 
   0.009552376    -0.9782287    0.1551747    -0.0013881    0.0005387    -0.0011786    0.0001760     0.9870738   -0.1499890 
   0.009652401    -0.9900292    0.1554989    -0.0012432   -0.0002693    -0.0010509    0.0001387     0.9925472   -0.1476482 
   0.009752426    -0.9838135    0.1569763    -0.0012120    0.0002304    -0.0010213    0.0002136     0.9884627   -0.1551844 
   0.009852451    -0.9761230    0.1651315    -0.0012990    0.0001669    -0.0010563    0.0004855     0.9863446   -0.1522706 
   0.009952476    -0.9847104    0.1575874    -0.0014629    0.0003872    -0.0011260    0.0003932     0.9858878   -0.1548375 
   0.010052501    -0.9795513    0.1585683    -0.0011605    0.0010612    -0.0009384    0.0003358     0.9916455   -0.1613737 
   0.010152526    -0.9795429    0.1575493    -0.0012678   -0.0004758    -0.0009132    0.0004116     0.9909999   -0.1546528 
   0.010252551    -0.9859039    0.1580298    -0.0008272    0.0000522    -0.0013094    0.0002300     0.9860741   -0.1588627 
   0.010352576    -0.9711655    0.1665728    -0.0009765   -0.0002571    -0.0012314    0.0003782     0.9873338   -0.1635977 
   0.010452601    -0.9799811    0.1666491    -0.0004241   -0.0002813    -0.0010478    0.0004115     0.9882537   -0.1662637 
   0.010552626    -0.9738188    0.1745217    -0.0019941    0.0006139    -0.0014321    0.0002162     0.9852899   -0.1694021 
   0.010652651    -0.9840443    0.1729699    -0.0010800    0.0006573    -0.0013213    0.0000774     0.9872128   -0.1620207 
   0.010752676    -0.9836135    0.1762538    -0.0013634    0.0007641    -0.0014172    0.0001759     0.9864222   -0.1714963 
   0.010852701    -0.9768348    0.1725800    -0.0015663    0.0001972    -0.0012901    0.0004714     0.9863985   -0.1710273 
   0.010952726    -0.9775006    0.1606905    -0.0011381   -0.0001547    -0.0015003    0.0004430     0.9783407   -0.1732313 
   0.011052751    -0.9800301    0.1751588    -0.0014217   -0.0003441    -0.0015770    0.0002432     0.9834906   -0.1733419 
   0.011152776    -0.9721323    0.1814944    -0.0010507    0.0006497    -0.0013354    0.0002441     0.9839254   -0.1775894 
   0.011252801    -0.9833124    0.1823677    -0.0011684    0.0003584    -0.0013442    0.0003541     0.9837675   -0.1783771 
   0.011352826    -0.9818813    0.1829190    -0.0018355    0.0006730    -0.0013026    0.0004435     0.9833737   -0.1825701 
   0.011452851    -0.9703413    0.1759319    -0.0017934    0.0004305    -0.0013797    0.0003536     0.9827940   -0.1802917 
   0.011552876    -0.9779388    0.1851113    -0.0010039    0.0001464    -0.0012919    0.0004069     0.9830078   -0.1829988 
   0.011652901    -0.9688879    0.1879140    -0.0021737    0.0002165    -0.0014954    0.0002425     0.9867059   -0.1850134 
   0.011752926    -0.9763672    0.1879212    -0.0020532    0.0001145    -0.0013789    0.0002948     0.9834045   -0.1826486 
   0.011852951    -0.9720972    0.1834010    -0.0010500   -0.0005921    -0.0015098    0.0004234     0.9782268   -0.1830175 
   0.011952976    -0.9765630    0.1911790    -0.0010727    0.0005771    -0.0015191    0.0003728     0.9759250   -0.1841443 
   0.012053002    -0.9702643    0.1883924    -0.0016360    0.0001776    -0.0014280    0.0004688     0.9803523   -0.1829790 
   0.012153027    -0.9664130    0.1889283    -0.0022746    0.0003115    -0.0015950    0.0001241     0.9849439   -0.1921586 
   0.012253052    -0.9670274    0.1971931    -0.0011981    0.0014631    -0.0017196    0.0005459     0.9800683   -0.1951988 
   0.012353077    -0.9820150    0.1917645    -0.0016781    0.0001915    -0.0018231    0.0002196     0.9830057   -0.1959092 
   0.012453102    -0.9669238    0.2140738    -0.0016148    0.0003889    -0.0015044    0.0005757     0.9797419   -0.1997621 
   0.012553127    -0.9707775    0.2025253    -0.0014731   -0.0002486    -0.0018193    0.0005421     0.9770548   -0.1989515 
   0.012653152    -0.9757168    0.1982479    -0.0012041    0.0003401    -0.0014382    0.0004981     0.9765297   -0.2031403 
   0.012753177    -0.9740528    0.1963867    -0.0018614    0.0007348    -0.0017286    0.0001602     0.9807736   -0.2014396 
   0.012853202    -0.9772514    0.2010858    -0.0012765    0.0012797    -0.0018180    0.0004274     0.9773453   -0.2026958 
   0.012953227    -0.9796081    0.2134931    -0.0015410    0.0005103    -0.0019256    0.0006082     0.9815050   -0.2022270 
   0.013053252    -0.9695948    0.2145833    -0.0024139    0.0005036    -0.0017956    0.0004207     0.9751250   -0.2110743 
   0.013153277    -0.9699247    0.2165988    -0.0016153    0.0013979    -0.0017561    0.0004605     0.9777279   -0.2119700 
   0.013253302    -0.9676071    0.2119779    -0.0024400    0.0011474    -0.0018510    0.0005941     0.9730062   -0.2144675 
   0.013353327    -0.9718520    0.2186879    -0.0010409    0.0006568    -0.0016713    0.0006495     0.9768727   -0.2099600 
   0.013453352    -0.9694293    0.2134612    -0.0025401    0.0003672    -0.0017318    0.0008461     0.9755899   -0.2097486 
   0.013553377    -0.9728883    0.2192367    -0.0021632    0.0002758    -0.0020098    0.0002695     0.9749436   -0.2173233 
   0.013653402    -0.9641026    0.2205100    -0.0029624    0.0005533    -0.0018392    0.0004126     0.9784531   -0.2182288 
   0.013753427    -0.9692371    0.2137687    -0.0019747    0.0013048    -0.0021939    0.0005702     0.9756522   -0.2182002 
   0.013853452    -0.9654297    0.2200758    -0.0014240    0.0013109    -0.0019646    0.0008379     0.9747493   -0.2167602 
   0.013953477    -0.9650327    0.2274571    -0.0024807   -0.0000425    -0.0022100    0.0007639     0.9757649   -0.2221154 
   0.014053502    -0.9620370    0.2142503    -0.0020969    0.0004992    -0.0021552    0.0005632     0.9756086   -0.2230023 
   0.014153527    -0.9591008    0.2230248    -0.0014549    0.0008509    -0.0022891    0.0007932     0.9708744   -0.2250984 
   0.014253552    -0.9573010    0.2329906    -0.0029059    0.0006428    -0.0022206    0.0007047     0.9727430   -0.2262119 
   0.014353577    -0.9749159    0.2177652    -0.0012324    0.0004853    -0.0023286    0.0006544     0.9754595   -0.2304987 
   0.014453602    -0.9609611    0.2377387    -0.0018849    0.0005068    -0.0019393    0.0005224     0.9734027   -0.2322091 
   0.014553627    -0.9649933    0.2361663    -0.0018386    0.0004549    -0.0023867    0.0006247     0.9677183   -0.2325751 
   0.014653652    -0.9616405    0.2475439    -0.0019223    0.0006240    -0.0026284    0.0008450     0.9701155   -0.2356903 
   0.014753677    -0.9541916    0.2255082    -0.0029602    0.0003239    -0.0027304    0.0006911     0.9702561   -0.2352195 
   0.014853702    -0.9654527    0.2291638    -0.0030328    0.0010400    -0.0025213    0.0009646     0.9687067   -0.2355226 
   0.014953727    -0.9563863    0.2438710    -0.0019860    0.0005594    -0.0025829    0.0008385     0.9749741   -0.2403986 
   0.015053752    -0.9647552    0.2523877    -0.0024567    0.0009480    -0.0023906    0.0008029     0.9690810   -0.2392500 
   0.015153777    -0.9576407    0.2401928    -0.0020138    0.0012327    -0.0024176    0.0009058     0.9740285   -0.2396879 
   0.015253802    -0.9661356    0.2481566    -0.0027494    0.0006199    -0.0026963    0.0007360     0.9720460   -0.2430713 
   0.015353827    -0.9595723    0.2503645    -0.0032346    0.0017731    -0.0027747    0.0008611     0.9666314   -0.2477463 
   0.015453852    -0.9597437    0.2407738    -0.0021690    0.0009944    -0.0024062    0.0007717     0.9710111   -0.2473197 
   0.015553877    -0.9685732    0.2457409    -0.0036101    0.0015493    -0.0023908    0.0005817     0.9681041   -0.2486234 
   0.015653902    -0.9569271    0.2622134    -0.0026468    0.0016966    -0.0027267    0.0008079     0.9682702   -0.2499990 
