! 19-Feb-26 2:39:29 PM
! E:\VNA_MEASUREMENTS\RECBLOCK\BANDPASSFILREV2.S2P
! CHANNEL.1
! TR.MEASUREMENT
! CORRECTED.DATA
# GHZ S RI R 50.0
! FREQ.GHZ         S11RE         S11IM         S21RE         S21IM         S12RE         S12IM         S22RE         S22IM         
!; PortSelection: Port_12
   0.000050000     0.1999576    0.4903715     0.6795287   -0.4724708     0.0034031    0.0013954    -0.9723485    0.0054775 
   0.000150025     0.3805890    0.9387982     0.2029104   -1.9261180    -0.0004190   -0.0006058    -0.9938118    0.0066346 
   0.000250050     0.6705148   -0.2331325     2.3992340    1.5859740     0.0005903    0.0001883    -0.9947642    0.0112733 
   0.000350075     1.0064870   -0.0094193     0.0010215   -0.0119951     0.0008310   -0.0008146    -0.9966726    0.0048479 
   0.000450100     1.1059770    0.0358831    -0.0070118   -0.0112118    -0.0003926   -0.0003738    -1.0031020    0.0127900 
   0.000550125     0.9520292   -0.0690045    -0.0026254   -0.0086654    -0.0001431   -0.0001936    -0.9905266    0.0104352 
   0.000650150     0.9968541   -0.0338471    -0.0076281   -0.0151878     0.0001082   -0.0001074    -0.9948301    0.0172606 
   0.000750175     1.0219350    0.0041631    -0.0052079   -0.0103697    -0.0000921    0.0007153    -0.9953599    0.0110195 
   0.000850200     0.9688399    0.0503878    -0.0088454   -0.0091475     0.0003143    0.0003322    -0.9934533    0.0167627 
   0.000950225     0.9697054   -0.0214900    -0.0041402   -0.0022447    -0.0006035   -0.0006572    -0.9948295    0.0179680 
   0.001050250     1.0097700   -0.0075320    -0.0097799   -0.0050240    -0.0002997   -0.0003239    -0.9921648    0.0210481 
   0.001150275     0.9913366   -0.0485441    -0.0082881   -0.0068359    -0.0001370   -0.0006122    -0.9930505    0.0185918 
   0.001250300     0.9799153   -0.0072935    -0.0053144   -0.0061021     0.0005856    0.0006496    -0.9955990    0.0213995 
   0.001350325     1.0258090   -0.0501818    -0.0100033   -0.0027352     0.0002867   -0.0006673    -0.9972476    0.0231676 
   0.001450350     0.9694731   -0.0353514    -0.0106325   -0.0002967    -0.0006651    0.0006438    -1.0055260    0.0252214 
   0.001550375     0.9749990   -0.0079620    -0.0062424    0.0012159     0.0000148   -0.0001406    -0.9956837    0.0263037 
   0.001650400     0.9862986   -0.0193296    -0.0102082   -0.0014705     0.0001122   -0.0002159    -0.9971735    0.0279356 
   0.001750425     0.9959345   -0.0116671    -0.0093746   -0.0007129     0.0009008    0.0001055    -0.9985536    0.0365870 
   0.001850450     1.0238780    0.0107968    -0.0059002    0.0024629    -0.0002845    0.0013383    -0.9997581    0.0270134 
   0.001950475     0.9866694   -0.0181657    -0.0033682    0.0019152     0.0004975   -0.0005508    -0.9930933    0.0316970 
   0.002050500     1.0049100   -0.0025040    -0.0054874    0.0015000    -0.0001974    0.0005789    -0.9946895    0.0383875 
   0.002150525     0.9909513    0.0202989    -0.0055893    0.0024278    -0.0004794    0.0008277    -0.9972405    0.0365917 
   0.002250550     1.0496920   -0.0473458    -0.0050923    0.0056962     0.0004087   -0.0002278    -0.9994249    0.0371365 
   0.002350575     0.9829170   -0.0391529    -0.0059281    0.0039241    -0.0005002    0.0002446    -0.9987859    0.0316732 
   0.002450600     1.0495250   -0.0601939    -0.0057600    0.0014267    -0.0001141   -0.0003223    -0.9936312    0.0441587 
   0.002550625     0.9357944   -0.0461550    -0.0042309    0.0043431    -0.0004407   -0.0002997    -0.9957982    0.0401691 
   0.002650650     1.0149090   -0.0715796    -0.0032651    0.0009605    -0.0004923    0.0002122    -0.9884487    0.0422650 
   0.002750675     0.9469700   -0.0242978    -0.0026051    0.0048150    -0.0004553   -0.0001619    -0.9938716    0.0452914 
   0.002850700     1.0055690   -0.0751011    -0.0015802    0.0026731    -0.0009719   -0.0001800    -0.9964738    0.0469515 
   0.002950725     0.9479572   -0.0267175    -0.0028262    0.0031670    -0.0002046    0.0007735    -0.9930436    0.0456508 
   0.003050750     0.9672740   -0.0502022    -0.0049882    0.0040891     0.0002960    0.0003009    -0.9939451    0.0520142 
   0.003150775     0.9584109   -0.0268750    -0.0008937    0.0017136     0.0000740   -0.0006363    -0.9969766    0.0544677 
   0.003250800     1.0231920   -0.0094227    -0.0017350    0.0018998    -0.0003905    0.0001570    -0.9938011    0.0526132 
   0.003350825     0.9520588   -0.0614176    -0.0031930    0.0007713     0.0000172    0.0003667    -0.9893494    0.0496894 
   0.003450850     1.0032180   -0.0365274    -0.0000398    0.0015790    -0.0005534    0.0005632    -0.9933810    0.0613687 
   0.003550875     1.0371640   -0.0744203     0.0014852    0.0006592    -0.0003234    0.0006002    -0.9943207    0.0542813 
   0.003650900     0.9726853   -0.0228079    -0.0008238    0.0017091    -0.0002457   -0.0002251    -0.9940782    0.0629460 
   0.003750925     1.0089190   -0.0598972    -0.0010002    0.0002858    -0.0001819   -0.0000805    -0.9908364    0.0606607 
   0.003850950     1.0291760   -0.0438179    -0.0011431    0.0019810     0.0004562    0.0002258    -0.9956067    0.0606267 
   0.003950975     0.9888310   -0.0284321    -0.0022370    0.0009472    -0.0004435   -0.0003855    -0.9918582    0.0597803 
   0.004051001     1.0382680   -0.0798987     0.0002641    0.0024776     0.0008894    0.0004521    -0.9925687    0.0633923 
   0.004151026     1.0244120   -0.0597408    -0.0000726    0.0027061    -0.0003339   -0.0004827    -0.9843827    0.0693719 
   0.004251051     0.9602908   -0.0474409    -0.0002010    0.0005590     0.0000380   -0.0002020    -0.9885020    0.0658004 
   0.004351076     1.0115640   -0.0309161    -0.0003768    0.0008667     0.0004381    0.0001624    -0.9886110    0.0694156 
   0.004451101     1.0120980   -0.0785689    -0.0017990    0.0022572    -0.0003747    0.0000470    -0.9910824    0.0689830 
   0.004551126     0.9903220   -0.0301876    -0.0013319    0.0021166     0.0003746    0.0002125    -0.9891758    0.0752953 
   0.004651151     0.9720571   -0.0864328    -0.0019717   -0.0002227    -0.0004125   -0.0000286    -0.9930741    0.0779045 
   0.004751176     1.0406940   -0.0795769     0.0000286   -0.0001253    -0.0010080   -0.0004788    -0.9909415    0.0774213 
   0.004851201     1.0100910   -0.0786428    -0.0002242    0.0017405    -0.0002902   -0.0003389    -0.9888859    0.0791211 
   0.004951226     1.0297670   -0.0801450    -0.0003837    0.0011022    -0.0004513   -0.0001631    -0.9903224    0.0771736 
   0.005051251     1.0177800   -0.0838826    -0.0015417   -0.0001316    -0.0006667    0.0001077    -0.9902268    0.0807180 
   0.005151276     1.0021710   -0.0781782    -0.0012767   -0.0006114    -0.0003625    0.0003610    -0.9888868    0.0817650 
   0.005251301     0.9986525   -0.0987293     0.0006098    0.0020707    -0.0006649    0.0001295    -0.9937655    0.0883149 
   0.005351326     0.9879923   -0.0600397    -0.0006902    0.0014833    -0.0011320    0.0002173    -0.9918647    0.0869153 
   0.005451351     0.9823263   -0.1029653     0.0000755    0.0014954    -0.0006360   -0.0003775    -0.9894552    0.0881058 
   0.005551376     0.9863045   -0.0950864    -0.0028918    0.0026547    -0.0005048   -0.0001338    -0.9832135    0.0912898 
   0.005651401     0.9866204   -0.1089307    -0.0021038   -0.0002485    -0.0005915    0.0009698    -0.9915676    0.0900860 
   0.005751426     0.9998625   -0.0773006    -0.0018850   -0.0002765    -0.0000702   -0.0000003    -0.9932058    0.0913822 
   0.005851451     0.9703292   -0.0685007    -0.0000171    0.0022959    -0.0007865   -0.0004401    -0.9849919    0.0941149 
   0.005951476     1.0055460   -0.0892810    -0.0003893    0.0000286    -0.0004299   -0.0001542    -0.9865050    0.0916591 
   0.006051501     1.0184960   -0.0836033    -0.0013010    0.0005736    -0.0005515   -0.0001759    -0.9864107    0.1030366 
   0.006151526     0.9973157   -0.0977451    -0.0003575    0.0013012    -0.0003010   -0.0001041    -0.9904816    0.1009359 
   0.006251551     1.0021890   -0.1123054    -0.0006468   -0.0003084    -0.0004746    0.0004476    -0.9874164    0.1018447 
   0.006351576     1.0045930   -0.0919285    -0.0011596   -0.0003823    -0.0007107   -0.0004882    -0.9886483    0.1023489 
   0.006451601     0.9970613   -0.1211744    -0.0003602    0.0007411    -0.0007456    0.0006743    -0.9862104    0.1040739 
   0.006551626     0.9932222   -0.1198755    -0.0011324    0.0002242    -0.0001290   -0.0002290    -0.9875770    0.1076394 
   0.006651651     0.9801114   -0.0934639     0.0015449   -0.0008116    -0.0007229    0.0004268    -0.9834841    0.1055325 
   0.006751676     0.9817613   -0.1202376    -0.0008404    0.0006963    -0.0003933   -0.0000348    -0.9887245    0.1087537 
   0.006851701     0.9771351   -0.0887336    -0.0006987    0.0007379    -0.0007613    0.0003695    -0.9877712    0.1152578 
   0.006951726     0.9834746   -0.1004113    -0.0011362    0.0011019    -0.0002615    0.0000808    -0.9881288    0.1118784 
   0.007051751     0.9734086   -0.1139956    -0.0007758   -0.0002741    -0.0005067   -0.0004091    -0.9855256    0.1095209 
   0.007151776     0.9934520   -0.0833538    -0.0015505   -0.0003621    -0.0008219    0.0002303    -0.9854439    0.1156644 
   0.007251801     0.9719715   -0.1057155    -0.0009825   -0.0004241    -0.0005391   -0.0002349    -0.9863194    0.1159099 
   0.007351826     1.0070160   -0.1122119    -0.0004802    0.0009705    -0.0008911   -0.0000489    -0.9828962    0.1223058 
   0.007451851     1.0000660   -0.1399211    -0.0016498   -0.0004924    -0.0006565   -0.0000347    -0.9842877    0.1205876 
   0.007551876     0.9868104   -0.1152453    -0.0006415    0.0017192    -0.0005887    0.0004877    -0.9889206    0.1258833 
   0.007651901     0.9859189   -0.1435776    -0.0000448    0.0001722    -0.0006825    0.0000100    -0.9899017    0.1236660 
   0.007751926     0.9944038   -0.0811626    -0.0003617    0.0009715    -0.0009866    0.0000490    -0.9832337    0.1207539 
   0.007851951     0.9620810   -0.1487671    -0.0001105    0.0004525    -0.0004008    0.0004288    -0.9849064    0.1238492 
   0.007951976     0.9790821   -0.1545096    -0.0019954    0.0004186    -0.0003952    0.0001201    -0.9827582    0.1302308 
   0.008052001     0.9749501   -0.1286728    -0.0003589   -0.0002910    -0.0000966   -0.0001394    -0.9855604    0.1259145 
   0.008152026     1.0112580   -0.1357671    -0.0000116    0.0007652    -0.0006668    0.0002025    -0.9830282    0.1307780 
   0.008252051     0.9947498   -0.1128229    -0.0014652    0.0003734    -0.0010553   -0.0000754    -0.9868022    0.1282901 
   0.008352076     0.9906526   -0.1230795    -0.0012963    0.0008950    -0.0002119    0.0002813    -0.9804580    0.1339511 
   0.008452101     0.9812679   -0.1291462    -0.0012559   -0.0003360    -0.0006653    0.0001321    -0.9805754    0.1353338 
   0.008552126     0.9947400   -0.1222584    -0.0004652    0.0008038    -0.0007660    0.0003568    -0.9819496    0.1340216 
   0.008652151     0.9822145   -0.1148156     0.0002850    0.0016385    -0.0002753    0.0000770    -0.9829220    0.1391777 
   0.008752176     1.0075520   -0.1502865    -0.0014776   -0.0006298    -0.0006306    0.0006080    -0.9791758    0.1389309 
   0.008852201     0.9838349   -0.1383022    -0.0016750   -0.0014280    -0.0008400    0.0001502    -0.9857862    0.1445685 
   0.008952226     1.0001900   -0.1417375    -0.0001524   -0.0000898    -0.0009440   -0.0000208    -0.9797380    0.1436439 
   0.009052251     1.0046980   -0.1250420    -0.0032372   -0.0008801    -0.0011706   -0.0000277    -0.9801857    0.1499732 
   0.009152276     0.9850051   -0.1471580    -0.0021301    0.0017417    -0.0006039    0.0000095    -0.9811360    0.1462619 
   0.009252301     0.9918784   -0.1513220    -0.0002558    0.0013986    -0.0011139    0.0004459    -0.9791871    0.1471542 
   0.009352326     0.9827663   -0.1490891    -0.0005904    0.0003727    -0.0010976   -0.0000137    -0.9813167    0.1496212 
   0.009452351     0.9744494   -0.1364567    -0.0024234    0.0003848    -0.0009061    0.0004207    -0.9819133    0.1521749 
   0.009552376     0.9977708   -0.1440271     0.0000982    0.0001213    -0.0006766    0.0006651    -0.9777012    0.1522756 
   0.009652401     1.0035630   -0.1593020    -0.0006865    0.0012218    -0.0011428    0.0003580    -0.9802548    0.1522003 
   0.009752426     0.9876202   -0.1557407    -0.0009076   -0.0000067    -0.0011743    0.0001885    -0.9803542    0.1561428 
   0.009852451     0.9729204   -0.1581137    -0.0008801    0.0007529    -0.0012960    0.0002367    -0.9802428    0.1581240 
   0.009952476     0.9758989   -0.1709423    -0.0016756    0.0006370    -0.0009027    0.0002677    -0.9794447    0.1599352 
   0.010052501     1.0050380   -0.1320820    -0.0021143    0.0008455    -0.0009769    0.0002768    -0.9791536    0.1571419 
   0.010152526     1.0031600   -0.1683107    -0.0013605    0.0000858    -0.0013087    0.0006597    -0.9806684    0.1640472 
   0.010252551     1.0050330   -0.1541924    -0.0009476   -0.0000719    -0.0014025    0.0007350    -0.9787557    0.1647708 
   0.010352576     0.9879366   -0.1648353    -0.0015235    0.0000631    -0.0012783   -0.0000037    -0.9775541    0.1654230 
   0.010452601     0.9863335   -0.1600820    -0.0010705    0.0003859    -0.0010102   -0.0000169    -0.9766951    0.1648914 
   0.010552626     0.9806423   -0.1737445    -0.0008824   -0.0009728    -0.0015391    0.0000951    -0.9768121    0.1688962 
   0.010652651     0.9600572   -0.1662018    -0.0015209    0.0006296    -0.0009843    0.0002679    -0.9744263    0.1714215 
   0.010752676     1.0076010   -0.1967778    -0.0010012    0.0010218    -0.0013972    0.0003468    -0.9793515    0.1729832 
   0.010852701     0.9989871   -0.1734918    -0.0012100    0.0010895    -0.0009598    0.0000544    -0.9737197    0.1741382 
   0.010952726     0.9909970   -0.1822919    -0.0018803    0.0005015    -0.0013983    0.0004346    -0.9736885    0.1777397 
   0.011052751     0.9948459   -0.1616950    -0.0024899    0.0010197    -0.0010888    0.0001414    -0.9716574    0.1764503 
   0.011152776     1.0024150   -0.1769377    -0.0012124    0.0013323    -0.0011548    0.0003990    -0.9731721    0.1783328 
   0.011252801     0.9878416   -0.1713871    -0.0009229   -0.0001395    -0.0019364    0.0002779    -0.9743821    0.1793038 
   0.011352826     0.9713111   -0.1801056    -0.0030822    0.0001271    -0.0011433    0.0001007    -0.9752693    0.1803644 
   0.011452851     0.9997941   -0.1615333    -0.0022763    0.0003431    -0.0012096    0.0004363    -0.9733233    0.1854931 
   0.011552876     0.9855900   -0.1744362    -0.0017890    0.0017136    -0.0015016    0.0003119    -0.9735487    0.1865469 
   0.011652901     1.0061630   -0.1961811    -0.0014570   -0.0005589    -0.0013426    0.0006473    -0.9729425    0.1890058 
   0.011752926     0.9869094   -0.2007946    -0.0003482    0.0004897    -0.0013471    0.0002490    -0.9718685    0.1862250 
   0.011852951     0.9990636   -0.1845850    -0.0011190    0.0002870    -0.0015471    0.0004275    -0.9704846    0.1915165 
   0.011952976     0.9849885   -0.1730456    -0.0024165    0.0002493    -0.0014756    0.0004193    -0.9724007    0.1888344 
   0.012053002     0.9768127   -0.1894911    -0.0035263    0.0002587    -0.0017395    0.0009244    -0.9700572    0.1941464 
   0.012153027     0.9849460   -0.1931131    -0.0013445    0.0007204    -0.0012111    0.0005239    -0.9724986    0.1920974 
   0.012253052     0.9862140   -0.1914781    -0.0026309    0.0008695    -0.0013038    0.0005424    -0.9724747    0.1963727 
   0.012353077     0.9902704   -0.1917488    -0.0016977   -0.0003746    -0.0018830    0.0002662    -0.9695613    0.2007625 
   0.012453102     0.9818695   -0.2140365    -0.0011527    0.0016539    -0.0015431    0.0002214    -0.9730284    0.2025077 
   0.012553127     0.9873564   -0.1927183    -0.0017708   -0.0004678    -0.0019295    0.0005843    -0.9702219    0.2015536 
   0.012653152     0.9985252   -0.1876058    -0.0016646    0.0008318    -0.0016900    0.0005013    -0.9710180    0.2043364 
   0.012753177     0.9673294   -0.1995462    -0.0025694   -0.0010490    -0.0018310    0.0004715    -0.9709370    0.2011970 
   0.012853202     0.9872944   -0.2070687    -0.0026875    0.0004008    -0.0021604    0.0007530    -0.9677538    0.2066301 
   0.012953227     0.9658008   -0.1754963    -0.0017658    0.0005930    -0.0016900    0.0003629    -0.9681427    0.2055054 
   0.013053252     0.9644355   -0.2044657    -0.0029398    0.0001174    -0.0016298    0.0005743    -0.9701531    0.2105821 
   0.013153277     0.9785324   -0.1990181    -0.0030435    0.0007661    -0.0020798    0.0003404    -0.9677578    0.2079013 
   0.013253302     0.9953817   -0.1884331    -0.0016850    0.0006354    -0.0015919    0.0006372    -0.9662983    0.2095885 
   0.013353327     0.9739012   -0.2036723    -0.0009562    0.0014071    -0.0018541    0.0005360    -0.9654568    0.2186486 
   0.013453352     0.9701421   -0.2049571    -0.0029656    0.0001632    -0.0018425    0.0004510    -0.9645991    0.2196561 
   0.013553377     0.9733788   -0.2048735    -0.0022834    0.0007354    -0.0020195    0.0007094    -0.9650752    0.2180275 
   0.013653402     0.9736004   -0.2049416    -0.0015484    0.0004334    -0.0020811    0.0005403    -0.9672632    0.2179111 
   0.013753427     0.9627903   -0.2138996    -0.0019806    0.0012169    -0.0020207    0.0004288    -0.9642121    0.2206389 
   0.013853452     0.9636659   -0.2254886    -0.0023838    0.0017783    -0.0021823    0.0005772    -0.9647595    0.2189178 
   0.013953477     0.9613059   -0.2150147    -0.0017628    0.0010983    -0.0022437    0.0006020    -0.9647996    0.2236797 
   0.014053502     0.9506084   -0.2189176    -0.0019329    0.0000355    -0.0017117    0.0004652    -0.9659576    0.2264397 
   0.014153527     0.9798351   -0.2146604    -0.0016543    0.0009526    -0.0019585    0.0006559    -0.9628004    0.2309913 
   0.014253552     0.9764562   -0.2253836    -0.0025424    0.0005461    -0.0023190    0.0002451    -0.9627843    0.2279245 
   0.014353577     0.9853288   -0.2414409    -0.0014986    0.0013021    -0.0022261    0.0003770    -0.9625536    0.2312500 
   0.014453602     0.9565919   -0.2205786    -0.0028478    0.0001677    -0.0023845    0.0008158    -0.9643878    0.2334094 
   0.014553627     0.9690385   -0.2291281    -0.0015167    0.0006327    -0.0025642    0.0005837    -0.9637669    0.2323185 
   0.014653652     0.9759442   -0.2264588    -0.0028639    0.0006662    -0.0025073    0.0007001    -0.9603038    0.2337432 
   0.014753677     0.9589443   -0.2115413    -0.0027452    0.0008898    -0.0023760    0.0006285    -0.9634060    0.2371731 
   0.014853702     0.9690496   -0.2361564    -0.0018218    0.0012262    -0.0024258    0.0008149    -0.9590279    0.2414640 
   0.014953727     0.9612437   -0.2394083    -0.0022594    0.0010378    -0.0026941    0.0009463    -0.9599333    0.2405857 
   0.015053752     0.9600838   -0.2339666    -0.0032215    0.0009862    -0.0026607    0.0004995    -0.9622775    0.2450181 
   0.015153777     0.9897169   -0.2312736    -0.0018278    0.0018031    -0.0025384    0.0005210    -0.9584987    0.2441497 
   0.015253802     0.9657823   -0.2340894    -0.0025018    0.0008113    -0.0022413    0.0009160    -0.9591091    0.2485661 
   0.015353827     0.9762287   -0.2248316    -0.0030599    0.0002443    -0.0025841    0.0005627    -0.9575365    0.2468638 
   0.015453852     0.9619262   -0.2343632    -0.0026723    0.0012441    -0.0025659    0.0011348    -0.9580944    0.2506613 
   0.015553877     0.9736021   -0.2395887    -0.0029326    0.0009959    -0.0025556    0.0008326    -0.9573743    0.2537844 
   0.015653902     0.9631969   -0.2362480    -0.0023124    0.0013724    -0.0023934    0.0006848    -0.9561313    0.2532771 
