! 19-Feb-26 1:03:45 PM
! E:\VNA_MEASUREMENTS\RECBLOCK\FMNOTCH1REV.S2P
! CHANNEL.1
! TR.MEASUREMENT
! CORRECTED.DATA
# GHZ S RI R 50.0
! FREQ.GHZ         S11RE         S11IM         S21RE         S21IM         S12RE         S12IM         S22RE         S22IM         
!; PortSelection: Port_12
   0.000050000    -0.3468894    0.1984402    -0.6286355   -0.3972654     0.8541833   -0.2541707     0.1233498   -1.3705290 
   0.000150025     0.5826416   -0.3734600    -2.6392220   -0.5327229     1.4929640   -0.0843900    -2.2815070   -1.4482590 
   0.000250050    -0.7972276    1.4346220     2.2088970   -1.2624170     0.2075647    0.8600718     1.0469790   -0.6674232 
   0.000350075     0.0054008   -0.0052766     0.9995618   -0.0224384     0.9965464   -0.0100484     0.0158148   -0.0114560 
   0.000450100     0.0090369    0.0013437     0.9998204    0.0037767     0.9839156   -0.0004976     0.0124061    0.0112483 
   0.000550125     0.0101195    0.0015222     0.9998367   -0.0136230     0.9883442   -0.0064130     0.0115080   -0.0001505 
   0.000650150     0.0009659   -0.0031562     0.9758635   -0.0341258     0.9916753   -0.0188304    -0.0036426   -0.0145369 
   0.000750175     0.0073988    0.0039501     0.9838786    0.0037734     0.9980973   -0.0172138     0.0023353    0.0124890 
   0.000850200     0.0073293   -0.0015368     0.9994145   -0.0303081     0.9919168   -0.0196579     0.0129299   -0.0097367 
   0.000950225     0.0074613    0.0010629     0.9928115   -0.0200173     0.9925005   -0.0246517     0.0081842   -0.0003670 
   0.001050250    -0.0011925   -0.0050222     0.9543670   -0.0727091     0.9802845   -0.0300103    -0.0209197   -0.0330611 
   0.001150275     0.0115582    0.0032963     0.9987329    0.0244940     0.9908507   -0.0214259     0.0131497    0.0327132 
   0.001250300     0.0044556    0.0006514     0.9672077   -0.0151892     0.9879262   -0.0320541    -0.0095414    0.0096166 
   0.001350325     0.0059298    0.0046461     0.9934533    0.0099754     0.9830394   -0.0259870     0.0112140    0.0261771 
   0.001450350     0.0073993   -0.0022564     1.0001540   -0.0342889     0.9938934   -0.0366710     0.0135339   -0.0037031 
   0.001550375     0.0089937    0.0005094     0.9683017   -0.0370836     0.9928477   -0.0246054    -0.0072782   -0.0002807 
   0.001650400     0.0096044   -0.0011083     0.9881352   -0.0386122     0.9976948   -0.0326963     0.0053946   -0.0023849 
   0.001750425     0.0071483   -0.0004335     0.9853922   -0.0477145     0.9928271   -0.0380448     0.0032709   -0.0071349 
   0.001850450     0.0108939   -0.0011518     1.0013320   -0.0620866     0.9914362   -0.0430251     0.0119158   -0.0165559 
   0.001950475     0.0079957    0.0012583     0.9884386   -0.0241327     0.9924131   -0.0403370     0.0085513    0.0106325 
   0.002050500     0.0138482   -0.0011197     1.0260910   -0.0619973     0.9936226   -0.0455776     0.0284098   -0.0171008 
   0.002150525     0.0105849   -0.0005915     0.9964226   -0.0717105     0.9988655   -0.0429546     0.0089614   -0.0178593 
   0.002250550     0.0081905    0.0025339     0.9759837   -0.0111377     0.9981784   -0.0440357     0.0043360    0.0265259 
   0.002350575     0.0096858   -0.0001818     1.0044030   -0.0637583     0.9892451   -0.0464352     0.0152591   -0.0112251 
   0.002450600     0.0077448   -0.0011606     0.9809661   -0.0482417     0.9930418   -0.0516988     0.0023966    0.0034662 
   0.002550625     0.0098614    0.0046120     0.9979742   -0.0157113     0.9911529   -0.0545508     0.0185793    0.0228838 
   0.002650650     0.0096197   -0.0005104     0.9912044   -0.0712160     0.9910213   -0.0534360     0.0060009   -0.0096782 
   0.002750675     0.0063262    0.0031600     0.9797787   -0.0469561     0.9932724   -0.0477547     0.0038290    0.0103441 
   0.002850700     0.0055320    0.0016975     0.9553256   -0.0471759     0.9907158   -0.0544988    -0.0127160    0.0145212 
   0.002950725     0.0085072    0.0034134     1.0071780   -0.0425874     0.9907106   -0.0558859     0.0227540    0.0096591 
   0.003050750     0.0082268    0.0018649     0.9851609   -0.0669891     0.9914631   -0.0588789     0.0051250   -0.0012756 
   0.003150775     0.0101702    0.0010531     0.9906648   -0.0853027     0.9944171   -0.0672724     0.0060501   -0.0127435 
   0.003250800     0.0102791    0.0021013     0.9781255   -0.0779313     0.9967025   -0.0695169    -0.0005913   -0.0046395 
   0.003350825     0.0064833   -0.0019525     0.9603400   -0.0796587     0.9849591   -0.0720016    -0.0122499   -0.0005425 
   0.003450850     0.0067207   -0.0015300     0.9770254   -0.0918100     0.9803736   -0.0742706    -0.0047037   -0.0101868 
   0.003550875     0.0091718   -0.0001126     0.9994764   -0.0539600     0.9840537   -0.0788985     0.0186472    0.0091338 
   0.003650900     0.0081142    0.0006539     0.9774824   -0.0852887     0.9898354   -0.0696265    -0.0005346   -0.0022960 
   0.003750925     0.0088625    0.0008103     0.9947169   -0.0806738     0.9798056   -0.0702131     0.0111724   -0.0027074 
   0.003850950     0.0109050   -0.0018024     0.9820328   -0.0999151     0.9884141   -0.0833666    -0.0004369   -0.0106398 
   0.003950975     0.0086640    0.0045160     0.9868519   -0.0655912     0.9930134   -0.0768907     0.0122915    0.0110214 
   0.004051001     0.0108595    0.0018465     0.9899054   -0.0997242     0.9905027   -0.0798628     0.0062153   -0.0092440 
   0.004151026     0.0066333    0.0009752     0.9777506   -0.0964433     0.9877491   -0.0796507    -0.0001181   -0.0036211 
   0.004251051     0.0091382    0.0003309     0.9991486   -0.0921998     0.9875968   -0.0858841     0.0141482   -0.0043426 
   0.004351076     0.0053156   -0.0037797     0.9613013   -0.1036164     0.9846908   -0.0899861    -0.0115627   -0.0014632 
   0.004451101     0.0118314   -0.0040280     1.0012520   -0.1242682     0.9951839   -0.0970559     0.0088501   -0.0230384 
   0.004551126     0.0078875    0.0015705     0.9822778   -0.0915886     0.9914227   -0.0903677     0.0065081    0.0030396 
   0.004651151     0.0087162   -0.0033515     0.9794779   -0.1139101     0.9860060   -0.0989016    -0.0007281   -0.0084967 
   0.004751176     0.0106617    0.0029009     0.9926651   -0.0998583     0.9848064   -0.0920968     0.0115266   -0.0022442 
   0.004851201     0.0109706    0.0033776     0.9902136   -0.0832221     0.9833066   -0.0956465     0.0158830    0.0097612 
   0.004951226     0.0086475    0.0002937     0.9899423   -0.1151740     0.9894920   -0.1003138     0.0078256   -0.0082290 
   0.005051251     0.0089997   -0.0002239     0.9962651   -0.1019898     0.9867745   -0.1048159     0.0155875   -0.0013975 
   0.005151276     0.0106794    0.0019745     1.0067780   -0.1071847     0.9834566   -0.1033586     0.0206310   -0.0068352 
   0.005251301     0.0060299   -0.0003095     0.9609490   -0.1087219     0.9819615   -0.1117588    -0.0055300    0.0070130 
   0.005351326     0.0085124    0.0013464     0.9721522   -0.0991322     0.9839118   -0.1026861     0.0042678    0.0108783 
   0.005451351     0.0079920    0.0014586     0.9537773   -0.1068999     0.9867529   -0.1095639    -0.0065113    0.0139838 
   0.005551376     0.0095706    0.0028715     0.9852975   -0.1008232     0.9843708   -0.1135383     0.0132865    0.0075412 
   0.005651401     0.0077923    0.0048904     0.9832830   -0.0983207     0.9827987   -0.1091576     0.0140778    0.0115088 
   0.005751426     0.0091147    0.0017969     0.9801477   -0.1135648     0.9847171   -0.1157480     0.0082656    0.0049578 
   0.005851451     0.0115459    0.0019438     0.9902478   -0.1185739     0.9844573   -0.1193222     0.0126827   -0.0004373 
   0.005951476     0.0069808    0.0043609     0.9766473   -0.0912501     0.9857843   -0.1153351     0.0162491    0.0209968 
   0.006051501     0.0077070    0.0013259     0.9687689   -0.1159918     0.9794913   -0.1236005     0.0032459    0.0106446 
   0.006151526     0.0085164    0.0028394     0.9714948   -0.1200598     0.9847401   -0.1157825     0.0053905    0.0089865 
   0.006251551     0.0068853    0.0025005     0.9862206   -0.1247254     0.9767682   -0.1258397     0.0118673    0.0007232 
   0.006351576     0.0097521    0.0021938     0.9817598   -0.1321665     0.9812925   -0.1276647     0.0081901    0.0002387 
   0.006451601     0.0096014    0.0011878     0.9909335   -0.1305404     0.9802159   -0.1315671     0.0144821   -0.0014544 
   0.006551626     0.0080241    0.0012765     0.9875293   -0.1289541     0.9817862   -0.1316321     0.0152428    0.0014153 
   0.006651651     0.0100337    0.0009745     0.9706655   -0.1443309     0.9842529   -0.1364273     0.0005993    0.0002646 
   0.006751676     0.0104280    0.0023907     0.9868891   -0.1368310     0.9818903   -0.1353895     0.0130778   -0.0010814 
   0.006851701     0.0083095    0.0017604     0.9801981   -0.1280036     0.9793119   -0.1360939     0.0133520    0.0070660 
   0.006951726     0.0124762    0.0005538     0.9891725   -0.1610089     0.9814030   -0.1409610     0.0064937   -0.0123806 
   0.007051751     0.0103047    0.0036178     0.9923476   -0.1350950     0.9789725   -0.1358101     0.0188276    0.0007922 
   0.007151776     0.0080961    0.0019757     0.9864697   -0.1500762     0.9807618   -0.1494361     0.0113991   -0.0048828 
   0.007251801     0.0081072    0.0026687     0.9773297   -0.1456486     0.9761630   -0.1419891     0.0091437    0.0027665 
   0.007351826     0.0086302    0.0006429     0.9737543   -0.1561760     0.9735556   -0.1467021     0.0034206    0.0003476 
   0.007451851     0.0109025    0.0014971     0.9899866   -0.1501242     0.9801680   -0.1515454     0.0162978   -0.0027685 
   0.007551876     0.0077320    0.0054698     0.9779505   -0.1328316     0.9796467   -0.1493549     0.0185679    0.0113447 
   0.007651901     0.0093586    0.0027873     0.9743519   -0.1577400     0.9732919   -0.1565092     0.0063286    0.0014386 
   0.007751926     0.0083070    0.0020117     0.9741917   -0.1430879     0.9768161   -0.1536018     0.0140843    0.0102333 
   0.007851951     0.0098907    0.0005507     0.9879389   -0.1675907     0.9771290   -0.1599385     0.0115529   -0.0073699 
   0.007951976     0.0108743    0.0024576     0.9749219   -0.1447082     0.9771978   -0.1557339     0.0159084    0.0107608 
   0.008052001     0.0083586    0.0015996     0.9682329   -0.1600070     0.9767720   -0.1625859     0.0079388    0.0069064 
   0.008152026     0.0101660    0.0032907     0.9870102   -0.1608956     0.9792483   -0.1626494     0.0173934   -0.0018735 
   0.008252051     0.0081276    0.0054775     0.9777613   -0.1418794     0.9743866   -0.1680500     0.0227456    0.0116872 
   0.008352076     0.0095477    0.0008403     0.9717942   -0.1660367     0.9745302   -0.1688296     0.0097474    0.0048534 
   0.008452101     0.0099619    0.0018020     0.9766982   -0.1645613     0.9744946   -0.1709891     0.0142519    0.0030977 
   0.008552126     0.0088374    0.0020070     0.9808310   -0.1722078     0.9730882   -0.1715850     0.0135690   -0.0010777 
   0.008652151     0.0105751    0.0014191     0.9783424   -0.1742497     0.9701278   -0.1731998     0.0116570    0.0000471 
   0.008752176     0.0097215    0.0004806     0.9648350   -0.1785857     0.9711187   -0.1756171     0.0055175    0.0048366 
   0.008852201     0.0107724    0.0019299     0.9700126   -0.1823303     0.9717500   -0.1776253     0.0071217    0.0016312 
   0.008952226     0.0097905    0.0011362     0.9740148   -0.1748991     0.9729954   -0.1802627     0.0140029    0.0042687 
   0.009052251     0.0096646    0.0023316     0.9752498   -0.1847075     0.9732541   -0.1845905     0.0106561   -0.0004948 
   0.009152276     0.0100182    0.0001032     0.9782950   -0.1961650     0.9697727   -0.1853707     0.0076815   -0.0069117 
   0.009252301     0.0114918    0.0027789     0.9724731   -0.1836864     0.9764782   -0.1881368     0.0129624    0.0026341 
   0.009352326     0.0081205    0.0025619     0.9647149   -0.1848914     0.9701181   -0.1884315     0.0098258    0.0063854 
   0.009452351     0.0114326    0.0016154     0.9708429   -0.2017389     0.9722843   -0.1888666     0.0050103   -0.0028176 
   0.009552376     0.0108098    0.0000983     0.9693068   -0.1996172     0.9719837   -0.1929219     0.0071335   -0.0006415 
   0.009652401     0.0100607    0.0022624     0.9655291   -0.1950458     0.9683272   -0.1959906     0.0091002    0.0026540 
   0.009752426     0.0104681    0.0026855     0.9755812   -0.1976581     0.9661214   -0.1959071     0.0131854   -0.0030909 
   0.009852451     0.0117972    0.0024770     0.9739197   -0.1987220     0.9712226   -0.2001451     0.0131819   -0.0015077 
   0.009952476     0.0105377    0.0017035     0.9653774   -0.1986039     0.9699128   -0.1973416     0.0111799    0.0043934 
   0.010052501     0.0105707    0.0024753     0.9760760   -0.2005211     0.9673064   -0.2007333     0.0147891   -0.0016719 
   0.010152526     0.0114754    0.0019572     0.9656926   -0.1937639     0.9665826   -0.2006296     0.0158496    0.0071151 
   0.010252551     0.0106604    0.0049493     0.9708236   -0.1929809     0.9671255   -0.2033731     0.0190951    0.0040189 
   0.010352576     0.0105345    0.0018266     0.9750448   -0.2101269     0.9695162   -0.2062106     0.0139457   -0.0032117 
   0.010452601     0.0100008    0.0033231     0.9614198   -0.1926844     0.9701459   -0.2093664     0.0199295    0.0105442 
   0.010552626     0.0115461    0.0022247     0.9725043   -0.2120256     0.9671061   -0.2136849     0.0141471   -0.0023740 
   0.010652651     0.0108284    0.0013139     0.9760172   -0.2114226     0.9648820   -0.2142634     0.0167008   -0.0032246 
   0.010752676     0.0122284    0.0022381     0.9701075   -0.2121343     0.9646206   -0.2169654     0.0154800   -0.0002001 
   0.010852701     0.0123580    0.0011708     0.9664295   -0.2296814     0.9615712   -0.2210694     0.0055799   -0.0040236 
   0.010952726     0.0092805    0.0022978     0.9610038   -0.2077131     0.9619855   -0.2187109     0.0183110    0.0074159 
   0.011052751     0.0118984    0.0027352     0.9593468   -0.2207533     0.9677948   -0.2185982     0.0109422    0.0047575 
   0.011152776     0.0104395    0.0012204     0.9561234   -0.2233241     0.9628939   -0.2223621     0.0097229    0.0056735 
   0.011252801     0.0123296    0.0019473     0.9630732   -0.2340461     0.9625754   -0.2269828     0.0072230   -0.0017564 
   0.011352826     0.0113977    0.0009004     0.9579899   -0.2235920     0.9579887   -0.2303982     0.0133136    0.0046490 
   0.011452851     0.0110468    0.0017518     0.9647764   -0.2352134     0.9601433   -0.2294657     0.0098317   -0.0019238 
   0.011552876     0.0119223    0.0011463     0.9633015   -0.2367800     0.9595126   -0.2343808     0.0099966   -0.0017311 
   0.011652901     0.0116196    0.0027549     0.9654950   -0.2331065     0.9606566   -0.2334947     0.0137767   -0.0014878 
   0.011752926     0.0118441    0.0005165     0.9571339   -0.2417603     0.9602623   -0.2385174     0.0082670    0.0014219 
   0.011852951     0.0097293    0.0015747     0.9464728   -0.2398252     0.9546277   -0.2369591     0.0071700    0.0074840 
   0.011952976     0.0107370   -0.0000692     0.9526793   -0.2356818     0.9588206   -0.2414323     0.0130042    0.0059601 
   0.012053002     0.0121367    0.0010491     0.9563723   -0.2478775     0.9586480   -0.2416411     0.0088473    0.0008493 
   0.012153027     0.0119566    0.0004840     0.9566447   -0.2487538     0.9556724   -0.2485182     0.0099788   -0.0000221 
   0.012253052     0.0109103    0.0027613     0.9706582   -0.2415165     0.9544194   -0.2470675     0.0181622   -0.0060049 
   0.012353077     0.0124356   -0.0000411     0.9448218   -0.2504303     0.9550921   -0.2461232     0.0075492    0.0076880 
   0.012453102     0.0119422    0.0009909     0.9455001   -0.2613955     0.9560583   -0.2485165     0.0032708    0.0049743 
   0.012553127     0.0133875    0.0017183     0.9615715   -0.2583728     0.9551476   -0.2540421     0.0101572   -0.0045902 
   0.012653152     0.0126958    0.0021721     0.9659314   -0.2567427     0.9530312   -0.2566367     0.0136755   -0.0065499 
   0.012753177     0.0108845    0.0017958     0.9498782   -0.2470826     0.9547280   -0.2552729     0.0166989    0.0060626 
   0.012853202     0.0135651    0.0008934     0.9506404   -0.2653705     0.9509456   -0.2555717     0.0075552    0.0013287 
   0.012953227     0.0126496    0.0010012     0.9525030   -0.2512116     0.9519903   -0.2608092     0.0175141    0.0033386 
   0.013053252     0.0135885    0.0008866     0.9664963   -0.2721795     0.9513251   -0.2631973     0.0096014   -0.0095823 
   0.013153277     0.0120228   -0.0000826     0.9548044   -0.2663571     0.9489639   -0.2656843     0.0112757   -0.0013277 
   0.013253302     0.0107295    0.0010415     0.9471446   -0.2610824     0.9543542   -0.2643124     0.0148833    0.0046729 
   0.013353327     0.0113096    0.0022493     0.9429975   -0.2656672     0.9508883   -0.2690825     0.0131559    0.0059028 
   0.013453352     0.0110714    0.0019268     0.9557953   -0.2677430     0.9548855   -0.2679560     0.0153784   -0.0017829 
   0.013553377     0.0109757    0.0007820     0.9439644   -0.2835273     0.9495983   -0.2686539     0.0044428    0.0021282 
   0.013653402     0.0124829    0.0007024     0.9387974   -0.2766859     0.9449105   -0.2746770     0.0087593    0.0062660 
   0.013753427     0.0111527    0.0027350     0.9406344   -0.2743540     0.9482847   -0.2753556     0.0128615    0.0057804 
   0.013853452     0.0128199    0.0021155     0.9504504   -0.2718558     0.9481172   -0.2788557     0.0173728   -0.0006357 
   0.013953477     0.0119511   -0.0015971     0.9423503   -0.2940053     0.9458550   -0.2789961     0.0035944    0.0017475 
   0.014053502     0.0122647    0.0017554     0.9449221   -0.2809152     0.9455938   -0.2806975     0.0135840    0.0013805 
   0.014153527     0.0121516    0.0012807     0.9437422   -0.2781633     0.9460228   -0.2848705     0.0171384    0.0026624 
   0.014253552     0.0128645    0.0007392     0.9561329   -0.2861954     0.9394844   -0.2924314     0.0146135   -0.0069045 
   0.014353577     0.0115856    0.0011122     0.9417906   -0.2825190     0.9424812   -0.2854961     0.0162106    0.0029772 
   0.014453602     0.0136667    0.0002431     0.9496928   -0.2929681     0.9419582   -0.2945235     0.0120436   -0.0037100 
   0.014553627     0.0129046    0.0016925     0.9427783   -0.2921046     0.9376307   -0.2921756     0.0126623   -0.0001221 
   0.014653652     0.0103165    0.0009001     0.9398119   -0.2758892     0.9442811   -0.2960289     0.0249985    0.0039753 
   0.014753677     0.0103723    0.0003801     0.9281931   -0.2948853     0.9399528   -0.2948899     0.0127610    0.0092879 
   0.014853702     0.0138047    0.0007922     0.9515367   -0.2993999     0.9378680   -0.2948379     0.0130651   -0.0062296 
   0.014953727     0.0105638    0.0007971     0.9310634   -0.2968794     0.9421022   -0.3008252     0.0145222    0.0067245 
   0.015053752     0.0138018    0.0014171     0.9356229   -0.3117603     0.9354169   -0.3040480     0.0065999    0.0018355 
   0.015153777     0.0142973    0.0008385     0.9391400   -0.3049531     0.9401094   -0.3032429     0.0127643   -0.0000189 
   0.015253802     0.0128773    0.0008585     0.9392158   -0.3130639     0.9346814   -0.3077373     0.0090510   -0.0014510 
   0.015353827     0.0140914    0.0015706     0.9397277   -0.3148188     0.9365937   -0.3088704     0.0096403   -0.0024778 
   0.015453852     0.0136826    0.0022117     0.9426644   -0.3106922     0.9380096   -0.3104587     0.0137842   -0.0036148 
   0.015553877     0.0125120   -0.0004113     0.9340373   -0.3145841     0.9323290   -0.3125739     0.0113640    0.0007894 
   0.015653902     0.0114167    0.0009127     0.9303600   -0.3115849     0.9308086   -0.3140624     0.0151514    0.0030769 
