! 19-Feb-26 2:28:40 PM
! E:\VNA_MEASUREMENTS\RECBLOCK\FMNOTCH3.S2P
! CHANNEL.1
! TR.MEASUREMENT
! CORRECTED.DATA
# GHZ S RI R 50.0
! FREQ.GHZ         S11RE         S11IM         S21RE         S21IM         S12RE         S12IM         S22RE         S22IM         
!; PortSelection: Port_12
   0.000050000    -0.0816948    1.6421280    -0.5437022    0.9568990    -0.2155956    0.1792944    -0.9453676   -1.0144780 
   0.000150025    -0.0142650    0.1049414    -0.4002435   -0.1771698     0.9423788    0.0580988    -0.8757152   -0.5311480 
   0.000250050    -0.9972617    1.0199840     2.3537370   -0.8206500     0.1445799    0.5369980     1.0575870   -0.3580747 
   0.000350075     0.0066108   -0.0019755     0.9961879   -0.0074343     0.9978701   -0.0006185     0.0118739   -0.0007006 
   0.000450100     0.0084529   -0.0027667     0.9985853   -0.0193456     0.9928415    0.0015653     0.0143428   -0.0049079 
   0.000550125     0.0135269   -0.0032413     1.0336420   -0.0284735     0.9936592   -0.0196216     0.0345902   -0.0109937 
   0.000650150     0.0040564    0.0028282     0.9704853   -0.0232914     0.9928693   -0.0100866    -0.0076463   -0.0062770 
   0.000750175     0.0106971    0.0007193     0.9920468    0.0045382     1.0013810   -0.0204947     0.0079383    0.0127569 
   0.000850200     0.0126892    0.0002934     1.0322980   -0.0059604     0.9990324   -0.0207910     0.0356670    0.0058540 
   0.000950225     0.0088456    0.0018865     0.9958726   -0.0261981     0.9871578   -0.0179114     0.0095891   -0.0033950 
   0.001050250     0.0008226   -0.0061148     0.9359504   -0.0700796     0.9951584   -0.0302676    -0.0316814   -0.0312214 
   0.001150275     0.0058746    0.0055103     0.9637961   -0.0057156     0.9818601   -0.0159709    -0.0112418    0.0148371 
   0.001250300     0.0074904   -0.0037410     1.0063820   -0.0314192     0.9875822   -0.0364969     0.0149423   -0.0051012 
   0.001350325     0.0077148   -0.0018835     1.0179060   -0.0264293     0.9926050   -0.0333670     0.0252606    0.0002425 
   0.001450350     0.0063771    0.0007035     0.9953697   -0.0183047     0.9973196   -0.0303216     0.0112643    0.0076641 
   0.001550375     0.0083993   -0.0020897     0.9713424   -0.0278023     0.9910022   -0.0273370    -0.0052791    0.0060561 
   0.001650400     0.0084263    0.0004539     0.9906676   -0.0186475     0.9975235   -0.0329088     0.0095778    0.0110301 
   0.001750425     0.0043377   -0.0011271     0.9776579   -0.0615249     0.9890004   -0.0370842    -0.0040710   -0.0155277 
   0.001850450     0.0122403   -0.0011603     1.0161820   -0.0673257     0.9948981   -0.0412628     0.0216685   -0.0219454 
   0.001950475     0.0092793   -0.0002631     0.9916208   -0.0362439     0.9937913   -0.0434536     0.0089912    0.0028120 
   0.002050500     0.0090744    0.0013069     1.0113960   -0.0367662     0.9918677   -0.0410571     0.0216714    0.0018658 
   0.002150525     0.0107849   -0.0042848     0.9954698   -0.0594907     0.9936876   -0.0488529     0.0095324   -0.0101851 
   0.002250550     0.0043814    0.0027710     0.9672583   -0.0345216     0.9950464   -0.0406064    -0.0048391    0.0113266 
   0.002350575     0.0077056    0.0010740     1.0014700   -0.0583639     0.9854349   -0.0443912     0.0131124   -0.0071716 
   0.002450600     0.0075369    0.0010644     1.0039950   -0.0408192     0.9897410   -0.0522233     0.0185400    0.0046857 
   0.002550625     0.0121687   -0.0017450     0.9961230   -0.0461924     0.9964603   -0.0556064     0.0138041    0.0036135 
   0.002650650     0.0090656   -0.0003328     0.9964074   -0.0664383     0.9950482   -0.0523832     0.0112404   -0.0073805 
   0.002750675     0.0070049    0.0002076     0.9970117   -0.0753947     0.9914469   -0.0539919     0.0100255   -0.0116316 
   0.002850700     0.0058348   -0.0005227     0.9806643   -0.0586486     0.9846078   -0.0575291     0.0012501    0.0028559 
   0.002950725     0.0060067    0.0035525     0.9901317   -0.0418928     0.9889035   -0.0528789     0.0118669    0.0134522 
   0.003050750     0.0079575   -0.0010735     0.9780850   -0.0812823     0.9953886   -0.0651851    -0.0015974   -0.0097538 
   0.003150775     0.0063564    0.0020716     0.9723477   -0.0770734     0.9893243   -0.0690098    -0.0052260   -0.0039201 
   0.003250800     0.0103213    0.0043641     0.9801997   -0.0654608     0.9949706   -0.0667322     0.0027986    0.0033288 
   0.003350825     0.0078223   -0.0002719     0.9742914   -0.0727575     0.9902161   -0.0729941    -0.0021237    0.0015428 
   0.003450850     0.0061914   -0.0007841     0.9918582   -0.0736648     0.9827237   -0.0744404     0.0093217   -0.0014710 
   0.003550875     0.0105489    0.0024662     1.0088650   -0.0385968     0.9881189   -0.0798109     0.0276962    0.0166758 
   0.003650900     0.0099868    0.0007298     0.9976271   -0.0953426     0.9908702   -0.0751919     0.0094711   -0.0143086 
   0.003750925     0.0067034    0.0021231     0.9833537   -0.0658351     0.9845715   -0.0724191     0.0080370    0.0094662 
   0.003850950     0.0087399    0.0001485     0.9732612   -0.0853886     0.9862649   -0.0774864    -0.0030261    0.0015734 
   0.003950975     0.0082962    0.0036671     0.9852944   -0.0657658     0.9904101   -0.0768004     0.0112308    0.0118783 
   0.004051001     0.0100385    0.0038729     0.9855105   -0.0668422     0.9898728   -0.0785448     0.0114166    0.0123597 
   0.004151026     0.0084478    0.0016322     0.9898297   -0.1021528     0.9857891   -0.0817873     0.0045573   -0.0100247 
   0.004251051     0.0112464   -0.0010756     1.0039050   -0.0951937     0.9946684   -0.0869405     0.0171246   -0.0078573 
   0.004351076     0.0057104   -0.0012745     0.9639955   -0.0915196     0.9880812   -0.0896339    -0.0060442    0.0060013 
   0.004451101     0.0099182   -0.0007825     1.0056290   -0.0961655     0.9890084   -0.0938603     0.0185236   -0.0073065 
   0.004551126     0.0092014    0.0009534     0.9925050   -0.0942873     0.9899868   -0.0896711     0.0120563   -0.0016211 
   0.004651151     0.0090149   -0.0006486     0.9823052   -0.0997119     0.9850506   -0.0976276     0.0048072   -0.0004918 
   0.004751176     0.0107900    0.0020349     0.9977047   -0.1018060     0.9833589   -0.0952831     0.0138981   -0.0050120 
   0.004851201     0.0097906    0.0020854     0.9893706   -0.0871633     0.9821186   -0.1024344     0.0147287    0.0068882 
   0.004951226     0.0084075   -0.0001403     0.9816878   -0.0974820     0.9849741   -0.1022087     0.0072346    0.0048308 
   0.005051251     0.0081146    0.0032099     1.0012070   -0.0968679     0.9849653   -0.0986371     0.0193891    0.0004670 
   0.005151276     0.0112300    0.0017571     0.9973406   -0.1087368     0.9840848   -0.1006414     0.0143566   -0.0042042 
   0.005251301     0.0069635    0.0017413     0.9728562   -0.1087384     0.9785757   -0.1088011     0.0007001    0.0040866 
   0.005351326     0.0093883   -0.0007000     0.9873689   -0.1199691     0.9825115   -0.1100919     0.0063352   -0.0063836 
   0.005451351     0.0108015    0.0025797     0.9710284   -0.1036888     0.9862812   -0.1073712     0.0034256    0.0103414 
   0.005551376     0.0091513    0.0017383     0.9809632   -0.1119350     0.9841979   -0.1154099     0.0073147    0.0030499 
   0.005651401     0.0075005    0.0038799     0.9774562   -0.0927056     0.9823052   -0.1127534     0.0122688    0.0162487 
   0.005751426     0.0109499    0.0000812     0.9834178   -0.1370750     0.9889196   -0.1197167     0.0023377   -0.0091686 
   0.005851451     0.0102081    0.0028281     0.9856687   -0.1123806     0.9790535   -0.1189913     0.0119008    0.0042803 
   0.005951476     0.0076086    0.0029730     0.9733753   -0.1021453     0.9842080   -0.1159728     0.0098249    0.0159188 
   0.006051501     0.0081161    0.0011304     0.9694580   -0.1180985     0.9799302   -0.1232894     0.0024505    0.0088237 
   0.006151526     0.0068292    0.0016543     0.9608120   -0.1171668     0.9825616   -0.1213962     0.0006810    0.0140576 
   0.006251551     0.0101609    0.0007592     0.9899557   -0.1348561     0.9840909   -0.1294798     0.0110777   -0.0051564 
   0.006351576     0.0107503    0.0004190     0.9772493   -0.1402014     0.9835551   -0.1277266     0.0027225   -0.0019369 
   0.006451601     0.0096827    0.0024874     0.9847825   -0.1366022     0.9797207   -0.1255972     0.0083101   -0.0019193 
   0.006551626     0.0098590   -0.0001465     0.9874144   -0.1442398     0.9804485   -0.1327269     0.0087570   -0.0067143 
   0.006651651     0.0086082    0.0014498     0.9708413   -0.1407558     0.9850377   -0.1343815     0.0022506    0.0023703 
   0.006751676     0.0100425    0.0005714     0.9930936   -0.1386869     0.9829453   -0.1385933     0.0158490   -0.0044237 
   0.006851701     0.0093361    0.0031170     0.9853481   -0.1343268     0.9839116   -0.1343297     0.0143543    0.0022206 
   0.006951726     0.0106775   -0.0002356     0.9806861   -0.1539688     0.9758898   -0.1415533     0.0040871   -0.0052555 
   0.007051751     0.0112916    0.0025984     0.9945338   -0.1425189     0.9823183   -0.1399621     0.0169569   -0.0039656 
   0.007151776     0.0091661    0.0023320     0.9833143   -0.1385395     0.9823776   -0.1451466     0.0142457    0.0032754 
   0.007251801     0.0098427    0.0028600     0.9829682   -0.1519024     0.9768287   -0.1432283     0.0093772   -0.0027022 
   0.007351826     0.0094455    0.0003423     0.9683771   -0.1449093     0.9767217   -0.1453204     0.0056858    0.0085919 
   0.007451851     0.0104412    0.0004728     0.9891024   -0.1600211     0.9769837   -0.1519229     0.0108773   -0.0077803 
   0.007551876     0.0086825    0.0023141     0.9686686   -0.1423051     0.9796550   -0.1504752     0.0098940    0.0112635 
   0.007651901     0.0093236    0.0021967     0.9873201   -0.1571394     0.9750878   -0.1499439     0.0123884   -0.0029256 
   0.007751926     0.0099285    0.0039731     0.9789688   -0.1412111     0.9806831   -0.1536872     0.0171224    0.0089091 
   0.007851951     0.0085100    0.0012570     0.9835626   -0.1492910     0.9796009   -0.1595923     0.0177871    0.0036093 
   0.007951976     0.0095850    0.0022147     0.9699881   -0.1476559     0.9750390   -0.1587494     0.0115392    0.0109979 
   0.008052001     0.0096370    0.0006189     0.9669623   -0.1670743     0.9760252   -0.1658497     0.0038266    0.0039054 
   0.008152026     0.0094988    0.0008226     0.9712414   -0.1653478     0.9733306   -0.1658111     0.0072562    0.0033203 
   0.008252051     0.0082703    0.0039270     0.9770709   -0.1336743     0.9765750   -0.1705676     0.0266462    0.0158747 
   0.008352076     0.0095122    0.0006581     0.9715140   -0.1620372     0.9725345   -0.1683475     0.0107640    0.0063029 
   0.008452101     0.0081689    0.0002638     0.9649085   -0.1759778     0.9752085   -0.1726764     0.0037913    0.0038098 
   0.008552126     0.0097525    0.0000639     0.9766083   -0.1749029     0.9720058   -0.1762456     0.0102504   -0.0003250 
   0.008652151     0.0090417    0.0025887     0.9825552   -0.1688786     0.9698358   -0.1723029     0.0157673    0.0003257 
   0.008752176     0.0095911    0.0010973     0.9734876   -0.1757994     0.9689268   -0.1767987     0.0102526    0.0015736 
   0.008852201     0.0108947    0.0014315     0.9791593   -0.1803202     0.9740884   -0.1819021     0.0125609   -0.0022481 
   0.008952226     0.0095709    0.0003502     0.9653064   -0.1801444     0.9699140   -0.1791737     0.0069637    0.0056758 
   0.009052251     0.0087609    0.0024216     0.9647822   -0.1706729     0.9701915   -0.1835149     0.0134675    0.0107893 
   0.009152276     0.0100387   -0.0000325     0.9724926   -0.1864460     0.9658742   -0.1877122     0.0096998    0.0002849 
   0.009252301     0.0118774    0.0026219     0.9674981   -0.1847173     0.9752802   -0.1869247     0.0097041    0.0050163 
   0.009352326     0.0094826    0.0010895     0.9550174   -0.1863902     0.9707554   -0.1888063     0.0049523    0.0110938 
   0.009452351     0.0110513   -0.0000783     0.9703367   -0.2019467     0.9726032   -0.1920257     0.0051622   -0.0024274 
   0.009552376     0.0109134    0.0002240     0.9724220   -0.2082511     0.9705294   -0.1948219     0.0038751   -0.0061282 
   0.009652401     0.0102104    0.0027291     0.9633832   -0.1896573     0.9683995   -0.1981180     0.0108814    0.0059567 
   0.009752426     0.0121510    0.0029456     0.9766933   -0.1998069     0.9678131   -0.1963402     0.0121698   -0.0037680 
   0.009852451     0.0123509    0.0019721     0.9747095   -0.2030032     0.9693314   -0.2019520     0.0108441   -0.0033359 
   0.009952476     0.0107768    0.0011158     0.9637687   -0.2042302     0.9683423   -0.1989636     0.0072810    0.0033063 
   0.010052501     0.0107923    0.0026440     0.9744290   -0.1978593     0.9671341   -0.2026859     0.0155007    0.0003009 
   0.010152526     0.0104873    0.0007883     0.9700139   -0.2087039     0.9638850   -0.2025096     0.0091990   -0.0012653 
   0.010252551     0.0106138    0.0022013     0.9659869   -0.2016583     0.9645125   -0.2059038     0.0125938    0.0037423 
   0.010352576     0.0134261    0.0029147     0.9827701   -0.2087235     0.9717952   -0.2104863     0.0175654   -0.0074377 
   0.010452601     0.0101440    0.0017261     0.9590917   -0.2067968     0.9690819   -0.2086560     0.0104136    0.0074050 
   0.010552626     0.0103450    0.0021561     0.9632955   -0.2044503     0.9621195   -0.2119761     0.0142005    0.0055060 
   0.010652651     0.0098300    0.0011657     0.9693292   -0.2113572     0.9628438   -0.2146929     0.0141381    0.0004151 
   0.010752676     0.0124917    0.0012510     0.9680389   -0.2136238     0.9656674   -0.2191883     0.0142212    0.0007306 
   0.010852701     0.0117508    0.0005438     0.9616941   -0.2229606     0.9638016   -0.2204965     0.0076319    0.0021056 
   0.010952726     0.0097914    0.0027459     0.9614055   -0.2153079     0.9612069   -0.2168242     0.0138509    0.0042863 
   0.011052751     0.0119137    0.0046164     0.9793442   -0.2142950     0.9669422   -0.2221742     0.0208094   -0.0043207 
   0.011152776     0.0098750    0.0002160     0.9622566   -0.2204819     0.9636835   -0.2241101     0.0135467    0.0031097 
   0.011252801     0.0100889    0.0025816     0.9593320   -0.2246181     0.9591972   -0.2251434     0.0112405    0.0036207 
   0.011352826     0.0098126   -0.0000037     0.9482829   -0.2232354     0.9575445   -0.2262922     0.0101179    0.0108149 
   0.011452851     0.0118181    0.0009436     0.9613065   -0.2359387     0.9588212   -0.2304599     0.0076487   -0.0001028 
   0.011552876     0.0114461    0.0007558     0.9637659   -0.2343343     0.9592936   -0.2348695     0.0109006   -0.0007231 
   0.011652901     0.0119197    0.0013997     0.9603243   -0.2241565     0.9611034   -0.2330558     0.0173807    0.0049152 
   0.011752926     0.0115495    0.0034984     0.9729018   -0.2241742     0.9573348   -0.2361406     0.0224667   -0.0029543 
   0.011852951     0.0103429    0.0016640     0.9547016   -0.2431609     0.9570581   -0.2404901     0.0076380    0.0021457 
   0.011952976     0.0112501    0.0007088     0.9635071   -0.2335340     0.9587246   -0.2408499     0.0170746    0.0000294 
   0.012053002     0.0130820    0.0001105     0.9559522   -0.2464021     0.9593496   -0.2431183     0.0093543    0.0018710 
   0.012153027     0.0115559    0.0020324     0.9613041   -0.2411187     0.9587309   -0.2482594     0.0151729   -0.0006915 
   0.012253052     0.0094665    0.0004448     0.9458406   -0.2451104     0.9541032   -0.2466006     0.0094030    0.0084394 
   0.012353077     0.0123290    0.0006043     0.9514520   -0.2444485     0.9547592   -0.2473877     0.0125954    0.0053868 
   0.012453102     0.0098323    0.0008381     0.9367469   -0.2474186     0.9557132   -0.2482256     0.0093737    0.0138792 
   0.012553127     0.0121998    0.0040420     0.9656564   -0.2479583     0.9534346   -0.2521383     0.0169700   -0.0045721 
   0.012653152     0.0112813    0.0027594     0.9580550   -0.2454859     0.9499938   -0.2579122     0.0182554    0.0007811 
   0.012753177     0.0129582    0.0008402     0.9572210   -0.2585242     0.9540604   -0.2569555     0.0114289   -0.0006938 
   0.012853202     0.0131765    0.0023520     0.9605295   -0.2590891     0.9522547   -0.2560393     0.0133062   -0.0030402 
   0.012953227     0.0118980    0.0015640     0.9517495   -0.2462761     0.9517338   -0.2591353     0.0199852    0.0052482 
   0.013053252     0.0132740    0.0010755     0.9679285   -0.2612213     0.9533972   -0.2628346     0.0161829   -0.0077160 
   0.013153277     0.0133634    0.0006209     0.9508722   -0.2613803     0.9512997   -0.2667178     0.0135844    0.0023449 
   0.013253302     0.0124826    0.0016538     0.9569634   -0.2694474     0.9526757   -0.2651395     0.0112861   -0.0029046 
   0.013353327     0.0105940    0.0024067     0.9448838   -0.2651859     0.9495394   -0.2677212     0.0132484    0.0051590 
   0.013453352     0.0105572    0.0007055     0.9431950   -0.2676903     0.9506877   -0.2708814     0.0127665    0.0058119 
   0.013553377     0.0127010    0.0012324     0.9421741   -0.2879342     0.9502076   -0.2697842     0.0011263    0.0033152 
   0.013653402     0.0128592    0.0015963     0.9443752   -0.2752149     0.9496296   -0.2751775     0.0108602    0.0035498 
   0.013753427     0.0129162    0.0034165     0.9461671   -0.2793706     0.9484986   -0.2753952     0.0101080    0.0016694 
   0.013853452     0.0128484    0.0004881     0.9474207   -0.2791528     0.9461684   -0.2830375     0.0119925    0.0002345 
   0.013953477     0.0120911    0.0001175     0.9416958   -0.2902843     0.9419289   -0.2791526     0.0051794    0.0024142 
   0.014053502     0.0128606    0.0016588     0.9472029   -0.2774666     0.9452487   -0.2803637     0.0155745    0.0008217 
   0.014153527     0.0120683    0.0016903     0.9497135   -0.2739748     0.9452477   -0.2833371     0.0202075   -0.0003290 
   0.014253552     0.0142180    0.0005297     0.9527376   -0.2911707     0.9440095   -0.2885660     0.0105158   -0.0044257 
   0.014353577     0.0124734   -0.0001767     0.9351306   -0.2895769     0.9402661   -0.2875538     0.0105423    0.0064714 
   0.014453602     0.0139566   -0.0004173     0.9428604   -0.2983561     0.9422156   -0.2927167     0.0073131    0.0004652 
   0.014553627     0.0131473    0.0023373     0.9453619   -0.2943957     0.9379160   -0.2899050     0.0108971   -0.0018448 
   0.014653652     0.0122963    0.0021561     0.9434099   -0.2800595     0.9447092   -0.2933364     0.0219332    0.0016337 
   0.014753677     0.0103808   -0.0009305     0.9225487   -0.2950777     0.9396483   -0.2969281     0.0117342    0.0128497 
   0.014853702     0.0142895   -0.0005327     0.9441143   -0.3091024     0.9394616   -0.2981199     0.0058214   -0.0018884 
   0.014953727     0.0143572   -0.0000907     0.9276756   -0.3147925     0.9409671   -0.3001514     0.0017685    0.0075325 
   0.015053752     0.0139160   -0.0009358     0.9281409   -0.3090490     0.9364682   -0.3044251     0.0075513    0.0076878 
   0.015153777     0.0142231    0.0005531     0.9444971   -0.3113862     0.9401765   -0.3059072     0.0086707   -0.0039374 
   0.015253802     0.0135790   -0.0002605     0.9361194   -0.3173633     0.9327995   -0.3066899     0.0054299    0.0006229 
   0.015353827     0.0144928    0.0007615     0.9414806   -0.3195384     0.9369697   -0.3068181     0.0056165   -0.0031983 
   0.015453852     0.0138593    0.0016401     0.9430028   -0.3108247     0.9371401   -0.3128946     0.0133582   -0.0035449 
   0.015553877     0.0129999   -0.0009497     0.9351941   -0.3189686     0.9336727   -0.3112077     0.0079544    0.0004620 
   0.015653902     0.0136814    0.0005265     0.9392416   -0.3214490     0.9326835   -0.3131316     0.0083077   -0.0023982 
