! 19-Feb-26 2:32:25 PM
! E:\VNA_MEASUREMENTS\RECBLOCK\FMNOTCH3REV.S2P
! CHANNEL.1
! TR.MEASUREMENT
! CORRECTED.DATA
# GHZ S RI R 50.0
! FREQ.GHZ         S11RE         S11IM         S21RE         S21IM         S12RE         S12IM         S22RE         S22IM         
!; PortSelection: Port_12
   0.000050000    -0.4020002    1.1121690    -1.0993900    0.6553786     0.1382817   -0.1421785    -0.6673073   -1.5681570 
   0.000150025    -0.4001917    0.2031727     0.1729284    1.2065940     0.6528400    0.0071003    -0.9032139    0.5690044 
   0.000250050    -1.2033860   -3.8716010     0.8594727    4.9662870     0.7539836   -2.8594350    -0.8544366    3.4041510 
   0.000350075     0.0087307   -0.0015680     0.9940868    0.0097839     1.0030690   -0.0023363     0.0098297    0.0107577 
   0.000450100     0.0076565    0.0018739     0.9989703    0.0058472     0.9852726    0.0010054     0.0119507    0.0133621 
   0.000550125     0.0132817   -0.0060751     1.0353030   -0.0467675     0.9940433   -0.0202968     0.0367227   -0.0227650 
   0.000650150     0.0011857   -0.0032954     0.9763821   -0.0418955     0.9860756   -0.0165407    -0.0035671   -0.0188273 
   0.000750175     0.0024300    0.0027386     0.9566844   -0.0066137     0.9928852   -0.0145920    -0.0158013    0.0063481 
   0.000850200     0.0139322   -0.0002944     1.0185400   -0.0142406     0.9994147   -0.0194046     0.0258285    0.0007549 
   0.000950225     0.0084669    0.0008903     1.0146830   -0.0169458     0.9946948   -0.0244259     0.0235216    0.0011765 
   0.001050250     0.0026876   -0.0020391     0.9494780   -0.0408062     0.9915588   -0.0276701    -0.0216513   -0.0113569 
   0.001150275     0.0050897    0.0044275     0.9679255    0.0099533     0.9844574   -0.0248612    -0.0082972    0.0236799 
   0.001250300     0.0075397   -0.0021103     0.9938260   -0.0223153     0.9865565   -0.0390009     0.0072610    0.0015309 
   0.001350325     0.0054528   -0.0043929     0.9812751   -0.0419768     0.9851240   -0.0299111    -0.0003141   -0.0072236 
   0.001450350     0.0117476   -0.0022279     1.0106750   -0.0302390     0.9943382   -0.0292438     0.0207429   -0.0000219 
   0.001550375     0.0081378    0.0002403     0.9736184   -0.0404303     0.9894026   -0.0328931    -0.0051833   -0.0039447 
   0.001650400     0.0055758   -0.0043718     0.9684382   -0.0405846     0.9950446   -0.0405500    -0.0072854   -0.0023466 
   0.001750425     0.0033541   -0.0015391     0.9800098   -0.0558706     0.9868355   -0.0398569    -0.0015928   -0.0118882 
   0.001850450     0.0138997   -0.0011666     1.0177120   -0.0673767     0.9977146   -0.0402267     0.0230998   -0.0211277 
   0.001950475     0.0102608   -0.0005954     0.9957364   -0.0447555     0.9891661   -0.0420670     0.0104014   -0.0026804 
   0.002050500     0.0108663   -0.0000944     1.0070350   -0.0694410     0.9919463   -0.0397267     0.0147168   -0.0185962 
   0.002150525     0.0105883   -0.0017735     1.0048320   -0.0565447     0.9893793   -0.0471145     0.0149477   -0.0090250 
   0.002250550     0.0100853    0.0001244     1.0000310   -0.0389680     1.0031900   -0.0415095     0.0170546    0.0048051 
   0.002350575     0.0056826    0.0010822     0.9807135   -0.0384453     0.9884354   -0.0460602     0.0029739    0.0090987 
   0.002450600     0.0053083   -0.0023139     0.9589794   -0.0615971     0.9862348   -0.0542779    -0.0144536   -0.0015437 
   0.002550625     0.0099800   -0.0021889     1.0072910   -0.0434712     0.9903530   -0.0537150     0.0209858    0.0037231 
   0.002650650     0.0098852    0.0006239     1.0095010   -0.0505462     0.9895388   -0.0600137     0.0210806   -0.0003976 
   0.002750675     0.0076730    0.0009488     0.9899641   -0.0706778     0.9923905   -0.0533556     0.0061916   -0.0078084 
   0.002850700     0.0054233   -0.0010079     0.9465361   -0.0715288     0.9900466   -0.0543302    -0.0221677    0.0009525 
   0.002950725     0.0095702    0.0018560     1.0191250   -0.0516097     0.9899331   -0.0562507     0.0286487    0.0025774 
   0.003050750     0.0075906   -0.0007851     0.9733855   -0.0823054     0.9934804   -0.0629950    -0.0054462   -0.0087933 
   0.003150775     0.0084296    0.0033998     0.9970965   -0.0621085     0.9890697   -0.0668141     0.0138618    0.0005720 
   0.003250800     0.0111051    0.0003911     0.9917761   -0.0814833     0.9952757   -0.0687962     0.0069656   -0.0088226 
   0.003350825     0.0056465    0.0003277     0.9564028   -0.0830179     0.9858818   -0.0734541    -0.0153323   -0.0015046 
   0.003450850     0.0091630    0.0023282     1.0067110   -0.0595750     0.9860386   -0.0743189     0.0213199    0.0040239 
   0.003550875     0.0080734    0.0014399     0.9893813   -0.0587120     0.9872052   -0.0798278     0.0111325    0.0083342 
   0.003650900     0.0096869    0.0006735     1.0029630   -0.0892127     0.9873731   -0.0678914     0.0144382   -0.0101657 
   0.003750925     0.0072733   -0.0013258     0.9923491   -0.0887596     0.9853569   -0.0775856     0.0084491   -0.0078734 
   0.003850950     0.0094386    0.0023977     0.9833834   -0.0858278     0.9868810   -0.0772547     0.0028709   -0.0018119 
   0.003950975     0.0078977    0.0009895     0.9772022   -0.0865008     0.9891032   -0.0767924     0.0009879    0.0008498 
   0.004051001     0.0114394    0.0016698     0.9891052   -0.0889425     0.9947289   -0.0832605     0.0084536   -0.0022880 
   0.004151026     0.0056708    0.0006636     0.9692397   -0.1013664     0.9808596   -0.0791764    -0.0073058   -0.0042549 
   0.004251051     0.0068189    0.0024169     0.9889058   -0.0747048     0.9871751   -0.0825894     0.0126374    0.0086697 
   0.004351076     0.0087169   -0.0014086     0.9902792   -0.0887102     0.9872533   -0.0904550     0.0105224   -0.0004081 
   0.004451101     0.0090325    0.0006014     0.9916391   -0.0905890     0.9910983   -0.0891027     0.0122572    0.0005732 
   0.004551126     0.0056971    0.0009137     0.9714224   -0.0991317     0.9887372   -0.0883216    -0.0022004    0.0013198 
   0.004651151     0.0086602    0.0000534     0.9882965   -0.1029826     0.9817593   -0.0942539     0.0070089   -0.0041961 
   0.004751176     0.0099943    0.0010371     0.9927872   -0.1057211     0.9819939   -0.0901896     0.0095378   -0.0053632 
   0.004851201     0.0105762    0.0039932     0.9926990   -0.0781086     0.9831809   -0.0965719     0.0188693    0.0119374 
   0.004951226     0.0079301    0.0001999     0.9873801   -0.1001257     0.9849141   -0.1024651     0.0100786    0.0010857 
   0.005051251     0.0081996    0.0021023     0.9854918   -0.0948000     0.9845036   -0.1043520     0.0110938    0.0061514 
   0.005151276     0.0103033    0.0001121     0.9898293   -0.1095440     0.9840251   -0.1082562     0.0102888   -0.0030094 
   0.005251301     0.0080411    0.0016946     0.9774460   -0.1044249     0.9812727   -0.1117380     0.0049786    0.0045264 
   0.005351326     0.0099476   -0.0008997     0.9801146   -0.1145602     0.9860358   -0.1077497     0.0046576   -0.0003838 
   0.005451351     0.0097352    0.0013924     0.9803268   -0.1136917     0.9897169   -0.1071801     0.0059954    0.0021056 
   0.005551376     0.0093708    0.0024799     0.9859153   -0.1036940     0.9837441   -0.1133322     0.0122337    0.0062100 
   0.005651401     0.0066795    0.0050071     0.9850856   -0.1032651     0.9798040   -0.1095723     0.0132892    0.0082182 
   0.005751426     0.0095405   -0.0005313     0.9785486   -0.1347823     0.9842126   -0.1239995     0.0001502   -0.0063320 
   0.005851451     0.0087147    0.0019948     0.9687327   -0.1142615     0.9792365   -0.1211733     0.0017771    0.0089569 
   0.005951476     0.0096362    0.0027953     0.9865597   -0.1248050     0.9837708   -0.1156926     0.0094438   -0.0013707 
   0.006051501     0.0065759    0.0022376     0.9603104   -0.1243238     0.9777721   -0.1168344    -0.0048065    0.0097582 
   0.006151526     0.0097872    0.0005693     0.9786096   -0.1306657     0.9824045   -0.1216685     0.0054722   -0.0001343 
   0.006251551     0.0084731    0.0014369     0.9872706   -0.1212507     0.9858968   -0.1282626     0.0151855    0.0030309 
   0.006351576     0.0069639    0.0019390     0.9760498   -0.1263705     0.9815313   -0.1290793     0.0077525    0.0053217 
   0.006451601     0.0081919    0.0011433     0.9866628   -0.1287176     0.9782777   -0.1278858     0.0127654    0.0014768 
   0.006551626     0.0090208    0.0036928     0.9884692   -0.1312765     0.9810774   -0.1295462     0.0141711   -0.0000513 
   0.006651651     0.0093002    0.0015826     0.9748460   -0.1409918     0.9826934   -0.1345315     0.0041350    0.0008386 
   0.006751676     0.0094516   -0.0012999     0.9700755   -0.1457235     0.9825000   -0.1375020     0.0010523    0.0012241 
   0.006851701     0.0081510    0.0017906     0.9809031   -0.1430290     0.9825613   -0.1357924     0.0086125   -0.0005868 
   0.006951726     0.0115884   -0.0011181     0.9805365   -0.1695495     0.9809009   -0.1430762    -0.0016442   -0.0129371 
   0.007051751     0.0104075    0.0045111     0.9894676   -0.1307919     0.9817443   -0.1386602     0.0191807    0.0040005 
   0.007151776     0.0103033    0.0037706     1.0017220   -0.1354429     0.9815565   -0.1477965     0.0247638   -0.0034980 
   0.007251801     0.0089085    0.0018657     0.9844104   -0.1509540     0.9756814   -0.1453121     0.0106828   -0.0026092 
   0.007351826     0.0093314    0.0009111     0.9736638   -0.1448387     0.9732679   -0.1497411     0.0085785    0.0054964 
   0.007451851     0.0106511    0.0010885     0.9881734   -0.1565559     0.9758562   -0.1486875     0.0118317   -0.0047578 
   0.007551876     0.0079146    0.0024733     0.9664806   -0.1495820     0.9780118   -0.1502138     0.0058070    0.0087574 
   0.007651901     0.0088674    0.0022109     0.9743133   -0.1546293     0.9698170   -0.1558839     0.0074740    0.0033228 
   0.007751926     0.0086110    0.0023797     0.9647846   -0.1541229     0.9794835   -0.1555016     0.0050827    0.0089994 
   0.007851951     0.0099693    0.0010830     0.9897163   -0.1604942     0.9813513   -0.1602993     0.0160228   -0.0048700 
   0.007951976     0.0081247    0.0025749     0.9723826   -0.1401167     0.9727561   -0.1570370     0.0165612    0.0137127 
   0.008052001     0.0096762    0.0002745     0.9694571   -0.1676280     0.9736584   -0.1632471     0.0048215    0.0024157 
   0.008152026     0.0097323    0.0009235     0.9727021   -0.1672001     0.9729714   -0.1656471     0.0073376    0.0015543 
   0.008252051     0.0083286    0.0011860     0.9622144   -0.1522943     0.9749482   -0.1714773     0.0113780    0.0142802 
   0.008352076     0.0089042    0.0016550     0.9680700   -0.1626885     0.9748065   -0.1680807     0.0098040    0.0080037 
   0.008452101     0.0093959    0.0017000     0.9817692   -0.1714458     0.9743279   -0.1745859     0.0133805   -0.0023228 
   0.008552126     0.0096003    0.0000527     0.9798416   -0.1811827     0.9758299   -0.1723972     0.0091144   -0.0045677 
   0.008652151     0.0105921    0.0010079     0.9703956   -0.1751720     0.9712715   -0.1732042     0.0081087    0.0036570 
   0.008752176     0.0098839    0.0018104     0.9625130   -0.1721091     0.9702755   -0.1790712     0.0082536    0.0084640 
   0.008852201     0.0096077    0.0007913     0.9604615   -0.1805103     0.9720463   -0.1783611     0.0044173    0.0072975 
   0.008952226     0.0092793    0.0024783     0.9664394   -0.1714164     0.9688056   -0.1802814     0.0126716    0.0088066 
   0.009052251     0.0114370    0.0006173     0.9793524   -0.1993198     0.9742503   -0.1838804     0.0058183   -0.0084349 
   0.009152276     0.0106748    0.0012211     0.9873010   -0.1892290     0.9724029   -0.1889531     0.0151007   -0.0084920 
   0.009252301     0.0102776    0.0042770     0.9661483   -0.1662141     0.9722975   -0.1874381     0.0189717    0.0132878 
   0.009352326     0.0092159    0.0019321     0.9618927   -0.1853464     0.9728420   -0.1906365     0.0089005    0.0083696 
   0.009452351     0.0109991    0.0017115     0.9785290   -0.1958186     0.9727994   -0.1901672     0.0119083   -0.0043910 
   0.009552376     0.0102514    0.0024923     0.9747550   -0.1889964     0.9752456   -0.1928815     0.0153529    0.0011714 
   0.009652401     0.0109345    0.0022849     0.9674621   -0.1961522     0.9719530   -0.1958840     0.0093958    0.0021984 
   0.009752426     0.0110811    0.0022668     0.9710643   -0.2015546     0.9662778   -0.1961382     0.0091484   -0.0009921 
   0.009852451     0.0127167    0.0010442     0.9728510   -0.2028105     0.9722650   -0.2014261     0.0113517   -0.0017001 
   0.009952476     0.0100509    0.0010916     0.9626343   -0.1995283     0.9676819   -0.1998504     0.0096726    0.0052459 
   0.010052501     0.0104754    0.0019555     0.9669676   -0.1978310     0.9670033   -0.2012534     0.0131739    0.0043708 
   0.010152526     0.0110260    0.0024089     0.9675025   -0.2005340     0.9635943   -0.2020173     0.0130051    0.0036503 
   0.010252551     0.0105745    0.0038438     0.9705222   -0.1984491     0.9663849   -0.2015191     0.0164472    0.0027647 
   0.010352576     0.0111382    0.0027536     0.9805304   -0.2075795     0.9663628   -0.2124223     0.0175923   -0.0060203 
   0.010452601     0.0112756    0.0018929     0.9613098   -0.2002758     0.9685795   -0.2085054     0.0158213    0.0082630 
   0.010552626     0.0105437    0.0007622     0.9637542   -0.2152576     0.9627184   -0.2164792     0.0090024    0.0011567 
   0.010652651     0.0120058    0.0006337     0.9708327   -0.2106937     0.9628718   -0.2161167     0.0155343   -0.0002940 
   0.010752676     0.0110897    0.0020261     0.9730085   -0.2070140     0.9659230   -0.2156960     0.0195916   -0.0000314 
   0.010852701     0.0113133    0.0014407     0.9615858   -0.2188707     0.9626036   -0.2180397     0.0104689    0.0031620 
   0.010952726     0.0099654    0.0034981     0.9629056   -0.2131118     0.9564819   -0.2177505     0.0149524    0.0042611 
   0.011052751     0.0116907    0.0051267     0.9685398   -0.2088184     0.9664037   -0.2223509     0.0209765    0.0027315 
   0.011152776     0.0124597    0.0014625     0.9689763   -0.2302904     0.9631574   -0.2248371     0.0101470   -0.0036855 
   0.011252801     0.0108813    0.0028365     0.9563280   -0.2261580     0.9616373   -0.2279754     0.0103288    0.0048629 
   0.011352826     0.0095799    0.0005643     0.9571338   -0.2232538     0.9596006   -0.2286205     0.0133008    0.0055118 
   0.011452851     0.0127587    0.0005867     0.9691099   -0.2384725     0.9574919   -0.2327933     0.0094068   -0.0060746 
   0.011552876     0.0100803    0.0010691     0.9572489   -0.2265671     0.9586207   -0.2352833     0.0140898    0.0047730 
   0.011652901     0.0118142    0.0025942     0.9613264   -0.2348393     0.9628174   -0.2328386     0.0119594    0.0013496 
   0.011752926     0.0100981    0.0027381     0.9658997   -0.2261334     0.9569378   -0.2366180     0.0197590    0.0004297 
   0.011852951     0.0109875    0.0012956     0.9460052   -0.2471117     0.9558689   -0.2417485     0.0030052    0.0057030 
   0.011952976     0.0114220    0.0014194     0.9663981   -0.2336189     0.9609351   -0.2423514     0.0183053   -0.0014367 
   0.012053002     0.0124200    0.0004270     0.9594980   -0.2424079     0.9575588   -0.2445709     0.0131644    0.0008545 
   0.012153027     0.0110272    0.0021566     0.9518061   -0.2476649     0.9560691   -0.2467466     0.0089377    0.0032939 
   0.012253052     0.0107027    0.0021133     0.9593808   -0.2463396     0.9586079   -0.2437536     0.0125693    0.0000824 
   0.012353077     0.0134864   -0.0000511     0.9504280   -0.2575895     0.9556451   -0.2515033     0.0052405    0.0024909 
   0.012453102     0.0117882    0.0014376     0.9480423   -0.2497208     0.9595119   -0.2473503     0.0113492    0.0065874 
   0.012553127     0.0130030    0.0023422     0.9573033   -0.2556134     0.9521439   -0.2521970     0.0110222   -0.0013217 
   0.012653152     0.0130256    0.0017933     0.9583881   -0.2608918     0.9529894   -0.2571095     0.0093769   -0.0027170 
   0.012753177     0.0126867    0.0014012     0.9508724   -0.2559540     0.9590343   -0.2582262     0.0124177    0.0034200 
   0.012853202     0.0114453    0.0012628     0.9560379   -0.2594589     0.9525427   -0.2573236     0.0127938   -0.0006521 
   0.012953227     0.0125713    0.0010065     0.9473918   -0.2521048     0.9543939   -0.2619315     0.0168527    0.0062553 
   0.013053252     0.0129380    0.0010175     0.9614195   -0.2675796     0.9506456   -0.2615800     0.0118041   -0.0051246 
   0.013153277     0.0127866    0.0012218     0.9467727   -0.2600076     0.9507900   -0.2637169     0.0142131    0.0055169 
   0.013253302     0.0110672    0.0012254     0.9474343   -0.2645121     0.9518631   -0.2655579     0.0128320    0.0040536 
   0.013353327     0.0120670    0.0019037     0.9436970   -0.2704469     0.9505722   -0.2678193     0.0102909    0.0046398 
   0.013453352     0.0116368    0.0007463     0.9458428   -0.2678671     0.9487755   -0.2719014     0.0139664    0.0039323 
   0.013553377     0.0113761   -0.0002582     0.9431652   -0.2798513     0.9501644   -0.2743472     0.0074921    0.0036317 
   0.013653402     0.0131198    0.0016988     0.9423683   -0.2850128     0.9464527   -0.2769935     0.0049794    0.0028533 
   0.013753427     0.0115969    0.0032486     0.9414417   -0.2746953     0.9500635   -0.2796395     0.0134269    0.0048731 
   0.013853452     0.0123857    0.0017143     0.9519563   -0.2763203     0.9462106   -0.2778421     0.0147747   -0.0017951 
   0.013953477     0.0122267    0.0000225     0.9415225   -0.2965919     0.9434246   -0.2775843     0.0017370    0.0018967 
   0.014053502     0.0133966    0.0015049     0.9501331   -0.2859058     0.9486576   -0.2824358     0.0114466   -0.0021233 
   0.014153527     0.0131011    0.0020694     0.9462066   -0.2792212     0.9461218   -0.2810737     0.0164329    0.0010321 
   0.014253552     0.0137473    0.0012297     0.9603240   -0.2941200     0.9463279   -0.2881270     0.0103331   -0.0099308 
   0.014353577     0.0126490    0.0010453     0.9443458   -0.2893186     0.9450981   -0.2852681     0.0122667    0.0009315 
   0.014453602     0.0123083    0.0001610     0.9360324   -0.2816684     0.9430309   -0.2900582     0.0176975    0.0070191 
   0.014553627     0.0139015    0.0012011     0.9443245   -0.2982026     0.9412842   -0.2940973     0.0097606   -0.0017187 
   0.014653652     0.0117614    0.0012577     0.9385598   -0.2812260     0.9444809   -0.2926506     0.0210307    0.0050887 
   0.014753677     0.0098194    0.0014932     0.9366845   -0.2901925     0.9406492   -0.2977732     0.0168935    0.0041867 
   0.014853702     0.0145020   -0.0002127     0.9426763   -0.3038344     0.9384053   -0.2951814     0.0091659   -0.0006325 
   0.014953727     0.0119557    0.0003235     0.9345126   -0.3026248     0.9420694   -0.3028319     0.0114930    0.0042544 
   0.015053752     0.0152615   -0.0003848     0.9422274   -0.3145112     0.9340330   -0.3041905     0.0056079   -0.0025297 
   0.015153777     0.0134093    0.0005803     0.9427941   -0.2994015     0.9423573   -0.3027959     0.0168607   -0.0015177 
   0.015253802     0.0129207    0.0007290     0.9429738   -0.3113629     0.9358026   -0.3082207     0.0108869   -0.0036585 
   0.015353827     0.0124950    0.0007846     0.9417903   -0.3081808     0.9369710   -0.3084146     0.0140299   -0.0029048 
   0.015453852     0.0138788    0.0013042     0.9475430   -0.3088335     0.9401425   -0.3100699     0.0152009   -0.0069317 
   0.015553877     0.0123275   -0.0021917     0.9229515   -0.3150874     0.9313489   -0.3139355     0.0110493    0.0082903 
   0.015653902     0.0116280    0.0021788     0.9445589   -0.3051510     0.9333435   -0.3124874     0.0198728   -0.0057564 
