! 19-Feb-26 12:57:59 PM
! E:\VNA_MEASUREMENTS\RECBLOCK\FMNOTCH0.S2P
! CHANNEL.1
! TR.MEASUREMENT
! CORRECTED.DATA
# GHZ S RI R 50.0
! FREQ.GHZ         S11RE         S11IM         S21RE         S21IM         S12RE         S12IM         S22RE         S22IM         
!; PortSelection: Port_12
   0.000050000     0.3984961    1.0765110     0.1847313    0.8585289     0.2626438    0.4368032    -0.7212430   -0.4615777 
   0.000150025     0.1191256   -2.8939390   -21.3405800   10.2866300     1.9382030   -1.9248790   -18.1465600    0.2336783 
   0.000250050    -2.3642230    4.5809260     4.7270590   -5.4936830    -1.3362880    2.7808790     3.4027250   -3.2075300 
   0.000350075     0.0100421   -0.0012236     1.0129470   -0.0076226     1.0003590   -0.0029842     0.0235309   -0.0008893 
   0.000450100     0.0088376    0.0048833     0.9873800    0.0244785     0.9828066   -0.0030504     0.0020363    0.0244533 
   0.000550125     0.0104759   -0.0033762     1.0025300   -0.0264060     0.9903281   -0.0164900     0.0134661   -0.0097997 
   0.000650150    -0.0011740   -0.0027825     0.9545696   -0.0279640     0.9913631   -0.0099353    -0.0178526   -0.0094822 
   0.000750175     0.0047139    0.0039605     0.9613941    0.0045450     0.9971851   -0.0170599    -0.0120715    0.0126653 
   0.000850200     0.0093964   -0.0037016     1.0205700   -0.0289335     0.9974219   -0.0228593     0.0281306   -0.0101049 
   0.000950225     0.0120298    0.0034288     1.0013210   -0.0164911     0.9970435   -0.0168726     0.0145574    0.0030719 
   0.001050250     0.0013038    0.0000819     0.9584492   -0.0331899     0.9874197   -0.0209777    -0.0153745   -0.0054181 
   0.001150275     0.0075972    0.0019263     1.0021680   -0.0097841     0.9894416   -0.0280080     0.0138522    0.0084446 
   0.001250300     0.0040072    0.0009706     0.9724182   -0.0155414     0.9883460   -0.0300966    -0.0059522    0.0083975 
   0.001350325     0.0060922   -0.0040044     1.0149600   -0.0255835     0.9841903   -0.0313526     0.0224490    0.0005119 
   0.001450350     0.0083658   -0.0002186     1.0009020   -0.0351420     0.9903420   -0.0304267     0.0127936   -0.0032346 
   0.001550375     0.0115382    0.0013909     0.9828280   -0.0250439     0.9918252   -0.0296708     0.0019783    0.0059017 
   0.001650400     0.0098047   -0.0016643     0.9715373   -0.0337352     0.9960822   -0.0351370    -0.0049102    0.0022403 
   0.001750425     0.0058689    0.0018165     0.9811631   -0.0356672     0.9987895   -0.0360419     0.0017658    0.0017110 
   0.001850450     0.0078137   -0.0019657     0.9888104   -0.0528644     0.9926364   -0.0426624     0.0042748   -0.0093383 
   0.001950475     0.0104915   -0.0041313     0.9950356   -0.0548462     0.9914629   -0.0441410     0.0084716   -0.0099186 
   0.002050500     0.0136488   -0.0010366     1.0252480   -0.0642673     0.9902759   -0.0385526     0.0269102   -0.0177150 
   0.002150525     0.0126500   -0.0006284     1.0060010   -0.0545760     0.9933832   -0.0426559     0.0162332   -0.0070833 
   0.002250550     0.0087109    0.0042262     0.9954613   -0.0205791     0.9964153   -0.0423029     0.0154666    0.0165965 
   0.002350575     0.0107838    0.0019266     1.0164670   -0.0484920     0.9875611   -0.0451905     0.0242332   -0.0026351 
   0.002450600     0.0048528   -0.0013641     0.9573270   -0.0586998     0.9914564   -0.0539720    -0.0144448   -0.0002395 
   0.002550625     0.0102843   -0.0010442     1.0079010   -0.0432962     0.9895998   -0.0614471     0.0206664    0.0030199 
   0.002650650     0.0109415   -0.0005312     1.0221800   -0.0655204     0.9875949   -0.0529291     0.0265160   -0.0109883 
   0.002750675     0.0062379    0.0018374     0.9786891   -0.0753975     0.9949116   -0.0532087    -0.0025151   -0.0091062 
   0.002850700     0.0068179   -0.0007317     0.9721996   -0.0605754     0.9897580   -0.0594046    -0.0041488    0.0028149 
   0.002950725     0.0091726    0.0035164     1.0021920   -0.0531540     0.9988840   -0.0634411     0.0187495    0.0027675 
   0.003050750     0.0058700   -0.0005908     0.9623261   -0.0725858     0.9869502   -0.0589439    -0.0110643   -0.0001194 
   0.003150775     0.0085314    0.0025316     0.9996083   -0.0679931     0.9952580   -0.0681384     0.0150327   -0.0037522 
   0.003250800     0.0084578    0.0010312     0.9641477   -0.0776117     0.9957135   -0.0669701    -0.0096202   -0.0013851 
   0.003350825     0.0094871   -0.0002075     0.9906083   -0.0756204     0.9890093   -0.0671767     0.0074883   -0.0028234 
   0.003450850     0.0100700   -0.0034818     1.0044860   -0.0929588     0.9885231   -0.0724303     0.0128558   -0.0157734 
   0.003550875     0.0086772    0.0005522     0.9977631   -0.0600341     0.9893706   -0.0747464     0.0162211    0.0063405 
   0.003650900     0.0078387    0.0001222     0.9829147   -0.0851054     0.9833118   -0.0722471     0.0017750   -0.0041719 
   0.003750925     0.0062536    0.0029810     0.9979075   -0.0634085     0.9828344   -0.0764463     0.0168795    0.0064709 
   0.003850950     0.0100714    0.0012855     0.9852449   -0.1014860     0.9848750   -0.0794092    -0.0003114   -0.0119728 
   0.003950975     0.0076826    0.0054759     0.9849269   -0.0588138     0.9870725   -0.0764781     0.0120669    0.0156500 
   0.004051001     0.0095525    0.0027009     0.9769221   -0.0803886     0.9903533   -0.0853033     0.0023113    0.0045103 
   0.004151026     0.0063144    0.0021279     0.9827456   -0.0917046     0.9862924   -0.0805099     0.0035951   -0.0018361 
   0.004251051     0.0105525    0.0004142     0.9991457   -0.0787708     0.9915280   -0.0831824     0.0183110    0.0032394 
   0.004351076     0.0087046   -0.0010423     0.9836100   -0.0871637     0.9878195   -0.0892851     0.0064136    0.0028712 
   0.004451101     0.0069426   -0.0006082     0.9878928   -0.0933295     0.9884447   -0.0934863     0.0085839   -0.0014182 
   0.004551126     0.0071326   -0.0008209     0.9756241   -0.0997436     0.9848306   -0.0919397    -0.0008197   -0.0010365 
   0.004651151     0.0099758   -0.0001050     0.9937075   -0.0945237     0.9866036   -0.0973343     0.0131568   -0.0010216 
   0.004751176     0.0094143    0.0024202     0.9843671   -0.0966893     0.9819558   -0.0982307     0.0072755    0.0014699 
   0.004851201     0.0083626    0.0045057     0.9880838   -0.0739322     0.9814214   -0.0997175     0.0170837    0.0150650 
   0.004951226     0.0100912    0.0011641     0.9891310   -0.1006331     0.9881682   -0.1003626     0.0105749    0.0009828 
   0.005051251     0.0082428    0.0021189     0.9943238   -0.0964211     0.9867000   -0.0998106     0.0155934    0.0026014 
   0.005151276     0.0088630    0.0005703     0.9953614   -0.0990689     0.9853360   -0.1048281     0.0170508    0.0011252 
   0.005251301     0.0094729    0.0022038     0.9751698   -0.1028715     0.9868689   -0.1096282     0.0038165    0.0058938 
   0.005351326     0.0087705    0.0017036     0.9925087   -0.1064583     0.9811236   -0.1054663     0.0133830   -0.0001589 
   0.005451351     0.0122893    0.0006337     0.9760785   -0.1273297     0.9907628   -0.1113139    -0.0009858   -0.0049605 
   0.005551376     0.0104768    0.0008697     0.9866717   -0.1062222     0.9905885   -0.1135261     0.0128172    0.0048582 
   0.005651401     0.0060090    0.0034770     0.9711022   -0.0959334     0.9792424   -0.1111349     0.0080118    0.0165281 
   0.005751426     0.0107207    0.0005036     0.9930167   -0.1289977     0.9862735   -0.1162018     0.0102648   -0.0077591 
   0.005851451     0.0094400    0.0003888     0.9762546   -0.1228674     0.9824178   -0.1198731     0.0029197    0.0019889 
   0.005951476     0.0064870    0.0019495     0.9728065   -0.1187776     0.9824010   -0.1166617     0.0038215    0.0066922 
   0.006051501     0.0050766    0.0009451     0.9589035   -0.1200634     0.9772041   -0.1215403    -0.0039182    0.0116904 
   0.006151526     0.0081857    0.0000054     0.9649968   -0.1350520     0.9837928   -0.1232442    -0.0038730    0.0028897 
   0.006251551     0.0083789    0.0014643     0.9798115   -0.1278031     0.9819728   -0.1268661     0.0078926    0.0023568 
   0.006351576     0.0102148    0.0019674     0.9902406   -0.1295245     0.9833610   -0.1271262     0.0137263   -0.0012872 
   0.006451601     0.0089934    0.0001946     0.9779015   -0.1406072     0.9818052   -0.1268821     0.0031183   -0.0016209 
   0.006551626     0.0093762    0.0018761     0.9873431   -0.1339091     0.9853213   -0.1321037     0.0127406   -0.0012357 
   0.006651651     0.0087751    0.0015045     0.9738898   -0.1354009     0.9839727   -0.1349447     0.0057689    0.0034970 
   0.006751676     0.0105849    0.0014448     0.9886442   -0.1383555     0.9798349   -0.1383278     0.0128296   -0.0025508 
   0.006851701     0.0084415    0.0028389     0.9782407   -0.1231046     0.9821903   -0.1349537     0.0148269    0.0104887 
   0.006951726     0.0120173   -0.0000809     0.9779575   -0.1644323     0.9795682   -0.1418946    -0.0013082   -0.0097084 
   0.007051751     0.0113804    0.0014635     1.0040230   -0.1492133     0.9837778   -0.1423969     0.0191872   -0.0115461 
   0.007151776     0.0091225    0.0026013     0.9842928   -0.1463401     0.9828763   -0.1505564     0.0112246   -0.0024793 
   0.007251801     0.0091836    0.0033836     0.9825924   -0.1450421     0.9763700   -0.1403738     0.0118031    0.0013767 
   0.007351826     0.0073996    0.0018227     0.9653383   -0.1313776     0.9743940   -0.1489634     0.0100712    0.0158840 
   0.007451851     0.0103371    0.0012735     0.9900322   -0.1455876     0.9794847   -0.1530299     0.0177418   -0.0010961 
   0.007551876     0.0082793    0.0032727     0.9733565   -0.1424465     0.9783111   -0.1524097     0.0116333    0.0087075 
   0.007651901     0.0095943    0.0019238     0.9825826   -0.1556137     0.9735389   -0.1522337     0.0107872   -0.0004536 
   0.007751926     0.0088626    0.0017394     0.9770821   -0.1473921     0.9753771   -0.1564099     0.0132743    0.0059307 
   0.007851951     0.0089894    0.0008497     0.9801459   -0.1651462     0.9753749   -0.1643191     0.0085627   -0.0032017 
   0.007951976     0.0107282    0.0023556     0.9810050   -0.1462524     0.9785407   -0.1591933     0.0182140    0.0074025 
   0.008052001     0.0089991    0.0023540     0.9614768   -0.1540432     0.9766283   -0.1643457     0.0072866    0.0127517 
   0.008152026     0.0092984    0.0020459     0.9688153   -0.1683097     0.9760427   -0.1638553     0.0053818    0.0030517 
   0.008252051     0.0108843    0.0027337     0.9819533   -0.1596545     0.9734983   -0.1709920     0.0163642    0.0014911 
   0.008352076     0.0101237    0.0003497     0.9723356   -0.1660867     0.9762638   -0.1719124     0.0100950    0.0041625 
   0.008452101     0.0084598    0.0019649     0.9737712   -0.1752162     0.9732906   -0.1705965     0.0071520   -0.0003182 
   0.008552126     0.0106083    0.0003991     0.9812776   -0.1854735     0.9752380   -0.1725840     0.0073087   -0.0073830 
   0.008652151     0.0081183    0.0026124     0.9707687   -0.1627717     0.9710673   -0.1702112     0.0135465    0.0089865 
   0.008752176     0.0108145    0.0005751     0.9588073   -0.1830421     0.9737306   -0.1762547     0.0005760    0.0058205 
   0.008852201     0.0103249    0.0001146     0.9684739   -0.1877719     0.9741514   -0.1796923     0.0038040    0.0004266 
   0.008952226     0.0092752    0.0011870     0.9716036   -0.1763665     0.9680507   -0.1796108     0.0112058    0.0043424 
   0.009052251     0.0104650    0.0025854     0.9743185   -0.1838697     0.9753547   -0.1823184     0.0108982    0.0005237 
   0.009152276     0.0088325    0.0022178     0.9768880   -0.1798955     0.9688095   -0.1817968     0.0148117    0.0010445 
   0.009252301     0.0114770    0.0023675     0.9690365   -0.1786443     0.9754043   -0.1908624     0.0134044    0.0058898 
   0.009352326     0.0087928   -0.0000086     0.9511003   -0.1949348     0.9692509   -0.1883172    -0.0013078    0.0099368 
   0.009452351     0.0118269    0.0009799     0.9744846   -0.2005290     0.9718946   -0.1928389     0.0072502   -0.0042358 
   0.009552376     0.0105636    0.0007896     0.9753247   -0.1929430     0.9738005   -0.1915497     0.0127869   -0.0006936 
   0.009652401     0.0106587    0.0029801     0.9687082   -0.1893526     0.9703509   -0.1949544     0.0128929    0.0037933 
   0.009752426     0.0116682    0.0026163     0.9779349   -0.1993817     0.9704332   -0.1969392     0.0130266   -0.0039659 
   0.009852451     0.0122994    0.0020808     0.9750897   -0.1961362     0.9693932   -0.2046743     0.0145817   -0.0011321 
   0.009952476     0.0092526    0.0029753     0.9672541   -0.1883401     0.9695630   -0.1974515     0.0169469    0.0070701 
   0.010052501     0.0100289    0.0034605     0.9691401   -0.1997030     0.9669994   -0.2018736     0.0123648    0.0023633 
   0.010152526     0.0101764    0.0027381     0.9703903   -0.1942914     0.9696010   -0.1990205     0.0170739    0.0048874 
   0.010252551     0.0090710    0.0040767     0.9595319   -0.1888727     0.9646506   -0.2027935     0.0168214    0.0115010 
   0.010352576     0.0112684    0.0028746     0.9751366   -0.2037496     0.9675463   -0.2087291     0.0172703   -0.0009929 
   0.010452601     0.0110619    0.0021621     0.9671437   -0.1954623     0.9699650   -0.2077816     0.0197777    0.0070034 
   0.010552626     0.0127706    0.0026521     0.9769089   -0.2153519     0.9655373   -0.2172154     0.0128400   -0.0060571 
   0.010652651     0.0127227    0.0010706     0.9694147   -0.2132083     0.9643376   -0.2192039     0.0134451   -0.0004521 
   0.010752676     0.0109042    0.0006124     0.9558863   -0.2081288     0.9626965   -0.2137602     0.0123259    0.0096073 
   0.010852701     0.0125576    0.0018903     0.9641908   -0.2184209     0.9634508   -0.2193138     0.0109091    0.0023389 
   0.010952726     0.0098787    0.0033662     0.9587733   -0.2129536     0.9613603   -0.2175403     0.0140089    0.0072332 
   0.011052751     0.0107391    0.0030484     0.9566314   -0.2123019     0.9692593   -0.2183651     0.0145728    0.0092459 
   0.011152776     0.0120469    0.0016767     0.9708361   -0.2171998     0.9622962   -0.2217692     0.0175901   -0.0009464 
   0.011252801     0.0129743    0.0016464     0.9615465   -0.2320855     0.9642575   -0.2236765     0.0074052    0.0006653 
   0.011352826     0.0102396   -0.0001583     0.9474846   -0.2287876     0.9606578   -0.2290225     0.0065736    0.0099542 
   0.011452851     0.0140674    0.0004473     0.9664910   -0.2456210     0.9588114   -0.2316800     0.0036982   -0.0066777 
   0.011552876     0.0120306    0.0002646     0.9614898   -0.2415619     0.9608675   -0.2359431     0.0059208   -0.0020807 
   0.011652901     0.0147392    0.0027227     0.9842468   -0.2477919     0.9612765   -0.2342919     0.0102846   -0.0161430 
   0.011752926     0.0113307    0.0027498     0.9644212   -0.2253002     0.9602889   -0.2360787     0.0192399    0.0021337 
   0.011852951     0.0119244    0.0016623     0.9632120   -0.2477810     0.9563605   -0.2405921     0.0066957   -0.0041542 
   0.011952976     0.0113332    0.0011973     0.9596075   -0.2347904     0.9606801   -0.2381738     0.0145576    0.0024356 
   0.012053002     0.0114410    0.0010833     0.9628839   -0.2414520     0.9604152   -0.2412895     0.0140123   -0.0013489 
   0.012153027     0.0119792    0.0010424     0.9511006   -0.2503939     0.9572971   -0.2472070     0.0065533    0.0035975 
   0.012253052     0.0089493    0.0010138     0.9523593   -0.2413279     0.9586540   -0.2480721     0.0138571    0.0056340 
   0.012353077     0.0138309    0.0015673     0.9546688   -0.2512091     0.9593633   -0.2475514     0.0092052    0.0021317 
   0.012453102     0.0127433    0.0015583     0.9452507   -0.2560613     0.9580518   -0.2497658     0.0058826    0.0066852 
   0.012553127     0.0112542    0.0012815     0.9532794   -0.2520188     0.9539014   -0.2509913     0.0113068    0.0024027 
   0.012653152     0.0134436    0.0009174     0.9605787   -0.2574254     0.9526945   -0.2568780     0.0111616   -0.0030044 
   0.012753177     0.0109888    0.0002134     0.9518922   -0.2519126     0.9561529   -0.2543885     0.0139882    0.0044406 
   0.012853202     0.0131156    0.0004020     0.9495422   -0.2663790     0.9478809   -0.2588491     0.0059409    0.0019493 
   0.012953227     0.0119830    0.0005330     0.9560416   -0.2477855     0.9554479   -0.2613302     0.0201716    0.0023625 
   0.013053252     0.0125674    0.0001489     0.9601849   -0.2654066     0.9500847   -0.2624936     0.0116617   -0.0041475 
   0.013153277     0.0115092   -0.0007246     0.9442793   -0.2581779     0.9492462   -0.2680795     0.0140577    0.0072016 
   0.013253302     0.0106717    0.0007886     0.9510852   -0.2677331     0.9502652   -0.2646902     0.0107133    0.0005071 
   0.013353327     0.0129673    0.0004924     0.9403871   -0.2819067     0.9522251   -0.2727281     0.0022704    0.0049719 
   0.013453352     0.0110610    0.0005011     0.9510934   -0.2744879     0.9459893   -0.2714785     0.0096168   -0.0009955 
   0.013553377     0.0117474    0.0007289     0.9435873   -0.2813216     0.9501518   -0.2710764     0.0055177    0.0030609 
   0.013653402     0.0122066    0.0014097     0.9519047   -0.2767056     0.9476466   -0.2765358     0.0112378   -0.0013521 
   0.013753427     0.0125700    0.0022890     0.9421844   -0.2727903     0.9498085   -0.2790387     0.0136638    0.0051391 
   0.013853452     0.0140185    0.0021674     0.9564596   -0.2733797     0.9496532   -0.2807802     0.0168182   -0.0041606 
   0.013953477     0.0124532   -0.0001065     0.9535402   -0.2948896     0.9452597   -0.2803147     0.0043280   -0.0056546 
   0.014053502     0.0153713    0.0021671     0.9571585   -0.2835295     0.9481543   -0.2823072     0.0129704   -0.0060972 
   0.014153527     0.0133136    0.0026794     0.9579025   -0.2752120     0.9468824   -0.2877674     0.0203898   -0.0057693 
   0.014253552     0.0119443    0.0006574     0.9445890   -0.2816579     0.9440668   -0.2880868     0.0153589    0.0018348 
   0.014353577     0.0126102    0.0010382     0.9427532   -0.2838419     0.9428396   -0.2883688     0.0151187    0.0023862 
   0.014453602     0.0134943    0.0022024     0.9501506   -0.2805705     0.9433575   -0.2912154     0.0192115   -0.0017955 
   0.014553627     0.0142275    0.0007835     0.9431635   -0.2920184     0.9421501   -0.2921652     0.0126413    0.0003741 
   0.014653652     0.0120095    0.0011769     0.9414960   -0.2817035     0.9444380   -0.2943605     0.0205649    0.0026104 
   0.014753677     0.0101175    0.0006681     0.9349468   -0.2843254     0.9424701   -0.2934129     0.0194744    0.0065434 
   0.014853702     0.0134434    0.0000638     0.9419923   -0.3101014     0.9422254   -0.2959567     0.0049421   -0.0002318 
   0.014953727     0.0123474    0.0017368     0.9366308   -0.2998832     0.9406075   -0.3032925     0.0127986    0.0031350 
   0.015053752     0.0121749    0.0000473     0.9296293   -0.2998922     0.9373717   -0.3020051     0.0129765    0.0073235 
   0.015153777     0.0133906   -0.0007680     0.9350120   -0.3081343     0.9422229   -0.3063803     0.0103463    0.0029658 
   0.015253802     0.0132430    0.0003232     0.9426927   -0.3126212     0.9347776   -0.3067926     0.0088854   -0.0031720 
   0.015353827     0.0132270    0.0014589     0.9422888   -0.3073930     0.9373822   -0.3068429     0.0134233   -0.0024888 
   0.015453852     0.0134535    0.0027631     0.9424968   -0.3049807     0.9374751   -0.3105908     0.0164819   -0.0030878 
   0.015553877     0.0131379   -0.0007749     0.9333464   -0.3126975     0.9314772   -0.3120172     0.0120282    0.0021347 
   0.015653902     0.0125421    0.0013748     0.9366665   -0.3054220     0.9322995   -0.3120520     0.0180750   -0.0003211 
