! 19-Feb-26 2:26:53 PM
! E:\VNA_MEASUREMENTS\RECBLOCK\FMNOTCH2.S2P
! CHANNEL.1
! TR.MEASUREMENT
! CORRECTED.DATA
# GHZ S RI R 50.0
! FREQ.GHZ         S11RE         S11IM         S21RE         S21IM         S12RE         S12IM         S22RE         S22IM         
!; PortSelection: Port_12
   0.000050000    -0.4141017    1.2590550    -0.8227261    0.2709827     0.0170159   -0.1338490    -0.4099404   -1.3578830 
   0.000150025     0.5054930    0.5585604    -2.8909130   -0.8904407     1.1684620    0.5253075    -2.3563420   -1.7829920 
   0.000250050    -0.7311639   -0.4810723     2.2350600    0.8593066     0.5498607   -0.4566039     0.7313660    0.7784594 
   0.000350075     0.0068865   -0.0025384     1.0033380   -0.0257609     0.9949830   -0.0025202     0.0177265   -0.0113112 
   0.000450100     0.0074625    0.0017959     0.9987819    0.0117718     0.9921667   -0.0009367     0.0122998    0.0159757 
   0.000550125     0.0107132    0.0018683     1.0125990   -0.0116727     0.9907526   -0.0082845     0.0211302    0.0015700 
   0.000650150     0.0062450   -0.0046624     0.9881769   -0.0344456     0.9959620   -0.0135552     0.0052614   -0.0131383 
   0.000750175     0.0064498    0.0027650     0.9686902    0.0093164     0.9940675   -0.0172797    -0.0079683    0.0158506 
   0.000850200     0.0101215   -0.0023403     1.0108330   -0.0211422     0.9915993   -0.0222377     0.0194519   -0.0038324 
   0.000950225     0.0082288    0.0042056     0.9974729   -0.0048714     0.9864182   -0.0125204     0.0112726    0.0113187 
   0.001050250     0.0055122   -0.0001957     0.9694147   -0.0377728     0.9942015   -0.0241370    -0.0073116   -0.0098622 
   0.001150275     0.0094011    0.0018092     0.9902110   -0.0031755     0.9865829   -0.0319247     0.0054979    0.0132633 
   0.001250300     0.0061706   -0.0006688     0.9822821   -0.0143767     0.9835202   -0.0334845     0.0000992    0.0082335 
   0.001350325     0.0088255    0.0007714     1.0067910   -0.0119308     0.9900998   -0.0275836     0.0187763    0.0105956 
   0.001450350     0.0071442    0.0029326     0.9932498   -0.0082599     0.9862971   -0.0320110     0.0091600    0.0142431 
   0.001550375     0.0098801   -0.0005765     0.9703672   -0.0298826     0.9908662   -0.0259409    -0.0058414    0.0051373 
   0.001650400     0.0067974   -0.0029706     0.9789712   -0.0486114     0.9964058   -0.0374060    -0.0016694   -0.0091366 
   0.001750425     0.0062133   -0.0004993     0.9850993   -0.0603318     0.9878156   -0.0329874     0.0012340   -0.0147254 
   0.001850450     0.0094050   -0.0014426     0.9950721   -0.0535428     0.9970111   -0.0452930     0.0088907   -0.0114164 
   0.001950475     0.0079998    0.0000385     0.9906116   -0.0570597     0.9919537   -0.0422300     0.0055770   -0.0112053 
   0.002050500     0.0079456    0.0004657     0.9838629   -0.0565057     0.9898469   -0.0398062     0.0008805   -0.0076039 
   0.002150525     0.0120173   -0.0020374     1.0104730   -0.0486922     0.9967619   -0.0482156     0.0205817   -0.0051355 
   0.002250550     0.0064303    0.0041455     0.9909744   -0.0237181     0.9935625   -0.0390828     0.0109634    0.0156217 
   0.002350575     0.0089153   -0.0012126     0.9839368   -0.0600281     0.9884877   -0.0465767     0.0019023   -0.0060182 
   0.002450600     0.0089591    0.0014225     0.9853641   -0.0442515     0.9940208   -0.0492379     0.0058019    0.0057677 
   0.002550625     0.0084357    0.0028376     1.0032430   -0.0164733     0.9941691   -0.0543514     0.0229912    0.0212232 
   0.002650650     0.0085545   -0.0009450     0.9928437   -0.0885601     0.9875629   -0.0487624     0.0041747   -0.0203205 
   0.002750675     0.0076826    0.0008744     0.9880950   -0.0567288     0.9946108   -0.0516558     0.0073954    0.0015740 
   0.002850700     0.0089340    0.0016100     0.9926217   -0.0522674     0.9893820   -0.0597503     0.0102749    0.0046463 
   0.002950725     0.0076335    0.0001430     0.9926184   -0.0617460     0.9945074   -0.0608930     0.0105918   -0.0004342 
   0.003050750     0.0090610    0.0027611     0.9808825   -0.0549582     0.9907948   -0.0602670     0.0041748    0.0074569 
   0.003150775     0.0081900    0.0041115     0.9935680   -0.0616573     0.9900596   -0.0646609     0.0113177    0.0017560 
   0.003250800     0.0087651    0.0015634     0.9769716   -0.0767067     0.9887618   -0.0691783    -0.0017988   -0.0035449 
   0.003350825     0.0070748   -0.0013437     0.9609207   -0.0792749     0.9843874   -0.0726921    -0.0121266    0.0003879 
   0.003450850     0.0086404   -0.0033027     0.9951113   -0.0907650     0.9803332   -0.0785016     0.0069399   -0.0135804 
   0.003550875     0.0083800    0.0017595     1.0048640   -0.0477741     0.9859934   -0.0730463     0.0228675    0.0128066 
   0.003650900     0.0103821   -0.0005707     0.9952475   -0.1011673     0.9868557   -0.0769326     0.0063720   -0.0176826 
   0.003750925     0.0049834   -0.0001244     0.9734637   -0.0835807     0.9836743   -0.0748033    -0.0027876   -0.0003027 
   0.003850950     0.0113647    0.0010332     0.9971580   -0.0829866     0.9877668   -0.0818940     0.0115132   -0.0037976 
   0.003950975     0.0058798    0.0030618     0.9702008   -0.0657894     0.9893005   -0.0738637     0.0017052    0.0154942 
   0.004051001     0.0114601    0.0010676     0.9939787   -0.0861940     0.9942784   -0.0816679     0.0120008   -0.0018947 
   0.004151026     0.0064326    0.0018014     0.9837500   -0.0810991     0.9830180   -0.0802136     0.0063715    0.0043049 
   0.004251051     0.0109870   -0.0005954     1.0029140   -0.0984430     0.9924372   -0.0891111     0.0155740   -0.0100589 
   0.004351076     0.0086786   -0.0001485     0.9874125   -0.0867269     0.9887888   -0.0862079     0.0090127    0.0026623 
   0.004451101     0.0080301   -0.0007080     0.9953886   -0.1127355     0.9907792   -0.0956133     0.0084486   -0.0146855 
   0.004551126     0.0101662    0.0033648     0.9995154   -0.0863782     0.9850107   -0.0844279     0.0174089    0.0015103 
   0.004651151     0.0090783   -0.0024686     0.9808192   -0.1111835     0.9879782   -0.0962057     0.0006502   -0.0063175 
   0.004751176     0.0111810    0.0021616     0.9880934   -0.0968128     0.9860775   -0.0936633     0.0094903    0.0007469 
   0.004851201     0.0103938    0.0031845     0.9879347   -0.0898826     0.9836941   -0.0971431     0.0122424    0.0061498 
   0.004951226     0.0071750   -0.0002256     0.9791678   -0.1001218     0.9840273   -0.1010106     0.0051391    0.0041060 
   0.005051251     0.0071115    0.0002429     0.9802399   -0.1028759     0.9845476   -0.1021776     0.0056286    0.0033495 
   0.005151276     0.0110404    0.0013672     0.9957068   -0.1028216     0.9865113   -0.1050476     0.0160575   -0.0004743 
   0.005251301     0.0068161    0.0039250     0.9752680   -0.0965025     0.9810944   -0.1066433     0.0061189    0.0103530 
   0.005351326     0.0090089    0.0023870     0.9843081   -0.1010535     0.9837103   -0.1075968     0.0105687    0.0061096 
   0.005451351     0.0084892   -0.0004361     0.9603538   -0.1228289     0.9876263   -0.1123843    -0.0081930    0.0030125 
   0.005551376     0.0101262    0.0023464     0.9816855   -0.1027668     0.9886631   -0.1140777     0.0109411    0.0083008 
   0.005651401     0.0093918    0.0075743     1.0049740   -0.0935384     0.9846462   -0.1088115     0.0276077    0.0061938 
   0.005751426     0.0094061    0.0000145     0.9862855   -0.1333720     0.9835893   -0.1166289     0.0046530   -0.0081046 
   0.005851451     0.0083206    0.0015019     0.9755651   -0.1139739     0.9790645   -0.1161937     0.0052478    0.0072696 
   0.005951476     0.0067693    0.0029732     0.9801642   -0.1184420     0.9849423   -0.1170348     0.0081684    0.0037879 
   0.006051501     0.0078693    0.0003675     0.9673414   -0.1260763     0.9797297   -0.1253275    -0.0014310    0.0050510 
   0.006151526     0.0108380    0.0022366     0.9744133   -0.1286464     0.9837356   -0.1206359     0.0035050    0.0026874 
   0.006251551     0.0085139    0.0010805     0.9815165   -0.1269291     0.9847952   -0.1285076     0.0094881    0.0022139 
   0.006351576     0.0100760    0.0012584     0.9829941   -0.1362947     0.9793992   -0.1294170     0.0067542   -0.0023697 
   0.006451601     0.0075015    0.0008220     0.9715433   -0.1335998     0.9804412   -0.1237066     0.0027093    0.0051561 
   0.006551626     0.0081082    0.0025389     0.9787285   -0.1329657     0.9825091   -0.1298635     0.0090470    0.0029293 
   0.006651651     0.0088443    0.0008139     0.9712607   -0.1419202     0.9823723   -0.1340912     0.0012857    0.0016831 
   0.006751676     0.0102914    0.0014742     0.9883339   -0.1386264     0.9828553   -0.1368752     0.0127602   -0.0023291 
   0.006851701     0.0084445    0.0034119     0.9752647   -0.1220475     0.9822521   -0.1372735     0.0136582    0.0122034 
   0.006951726     0.0118502    0.0003130     0.9850855   -0.1704159     0.9786489   -0.1450082     0.0006924   -0.0158852 
   0.007051751     0.0094030    0.0022329     0.9833674   -0.1403744     0.9819555   -0.1402780     0.0125946    0.0016650 
   0.007151776     0.0082686    0.0022993     0.9889231   -0.1443423     0.9797270   -0.1485992     0.0141188   -0.0026237 
   0.007251801     0.0103667    0.0018943     0.9891500   -0.1530895     0.9768898   -0.1419376     0.0117156   -0.0053217 
   0.007351826     0.0089065    0.0016028     0.9709853   -0.1530721     0.9748160   -0.1472254     0.0035442    0.0027073 
   0.007451851     0.0122671    0.0017352     0.9918939   -0.1502384     0.9776043   -0.1525948     0.0165605   -0.0033286 
   0.007551876     0.0085062    0.0015360     0.9649484   -0.1417178     0.9762349   -0.1534320     0.0078548    0.0129925 
   0.007651901     0.0096857    0.0040947     0.9948818   -0.1551473     0.9723500   -0.1550022     0.0170436   -0.0058155 
   0.007751926     0.0084041    0.0021478     0.9701492   -0.1503226     0.9772803   -0.1532503     0.0089097    0.0085216 
   0.007851951     0.0097223    0.0002719     0.9860736   -0.1657305     0.9804308   -0.1625938     0.0115672   -0.0057013 
   0.007951976     0.0098222    0.0025976     0.9676600   -0.1559350     0.9748811   -0.1568772     0.0070736    0.0088781 
   0.008052001     0.0096819    0.0008670     0.9675570   -0.1623738     0.9753876   -0.1612604     0.0063416    0.0064364 
   0.008152026     0.0094639    0.0005717     0.9708406   -0.1678023     0.9719411   -0.1674242     0.0062515    0.0021365 
   0.008252051     0.0089734    0.0036662     0.9767243   -0.1455789     0.9741728   -0.1716059     0.0207438    0.0102553 
   0.008352076     0.0091388    0.0004840     0.9643432   -0.1686287     0.9757834   -0.1686650     0.0053058    0.0074471 
   0.008452101     0.0103494    0.0019948     0.9843296   -0.1749429     0.9771650   -0.1711142     0.0127381   -0.0047212 
   0.008552126     0.0100853    0.0012332     0.9761338   -0.1806395     0.9747197   -0.1734930     0.0074209   -0.0023891 
   0.008652151     0.0090877    0.0021663     0.9702030   -0.1639489     0.9714943   -0.1733014     0.0132124    0.0082562 
   0.008752176     0.0103957    0.0021772     0.9738482   -0.1712217     0.9742839   -0.1787982     0.0133605    0.0036154 
   0.008852201     0.0100913   -0.0010659     0.9517906   -0.1850854     0.9726874   -0.1793793    -0.0019011    0.0097436 
   0.008952226     0.0091107    0.0003850     0.9661831   -0.1749011     0.9683157   -0.1774350     0.0099365    0.0080176 
   0.009052251     0.0095737    0.0011518     0.9583324   -0.1843212     0.9695042   -0.1827647     0.0032439    0.0085674 
   0.009152276     0.0107922    0.0017377     0.9814730   -0.1904326     0.9709979   -0.1853447     0.0117011   -0.0057819 
   0.009252301     0.0107202    0.0059029     0.9770046   -0.1742464     0.9724577   -0.1853293     0.0188285    0.0041434 
   0.009352326     0.0100386    0.0034628     0.9720935   -0.1867070     0.9726930   -0.1879790     0.0119218    0.0026571 
   0.009452351     0.0115998    0.0026869     0.9760037   -0.1881729     0.9721956   -0.1927635     0.0144694   -0.0003740 
   0.009552376     0.0100282    0.0006129     0.9700452   -0.1965530     0.9700724   -0.1915906     0.0087609    0.0006760 
   0.009652401     0.0104026    0.0018614     0.9715567   -0.1926283     0.9709560   -0.1932775     0.0122823    0.0015101 
   0.009752426     0.0110481    0.0017912     0.9763092   -0.1983022     0.9680734   -0.1956886     0.0126658   -0.0025717 
   0.009852451     0.0117711    0.0013046     0.9711313   -0.1975678     0.9711732   -0.1998200     0.0125824    0.0009238 
   0.009952476     0.0096730    0.0017218     0.9579999   -0.1987916     0.9692421   -0.1973820     0.0071953    0.0087244 
   0.010052501     0.0095120    0.0032692     0.9626886   -0.1907285     0.9673207   -0.2002985     0.0147364    0.0094382 
   0.010152526     0.0106150    0.0032135     0.9715109   -0.1946256     0.9664597   -0.1999474     0.0172596    0.0033346 
   0.010252551     0.0108383    0.0043882     0.9746857   -0.1964419     0.9658999   -0.2038164     0.0185816    0.0007502 
   0.010352576     0.0111131    0.0024811     0.9772972   -0.2099192     0.9674372   -0.2051395     0.0146721   -0.0041184 
   0.010452601     0.0113548    0.0016388     0.9693084   -0.2076113     0.9668015   -0.2099040     0.0140056    0.0012991 
   0.010552626     0.0122005    0.0015569     0.9670505   -0.2030740     0.9647311   -0.2121510     0.0165520    0.0042017 
   0.010652651     0.0119178    0.0017154     0.9740633   -0.2084485     0.9633015   -0.2160503     0.0175563   -0.0011459 
   0.010752676     0.0133807    0.0014279     0.9741293   -0.2197326     0.9648252   -0.2170027     0.0123079   -0.0046559 
   0.010852701     0.0109876    0.0009582     0.9561063   -0.2095614     0.9652677   -0.2188311     0.0136241    0.0095677 
   0.010952726     0.0094944    0.0042878     0.9669430   -0.2091021     0.9601075   -0.2157929     0.0186376    0.0037981 
   0.011052751     0.0131551    0.0047157     0.9745600   -0.2239924     0.9692894   -0.2203722     0.0134592   -0.0048820 
   0.011152776     0.0121746   -0.0000330     0.9599971   -0.2323580     0.9627929   -0.2265412     0.0059027    0.0004878 
   0.011252801     0.0117552    0.0027839     0.9608990   -0.2221166     0.9627256   -0.2243644     0.0133236    0.0040944 
   0.011352826     0.0099115    0.0016139     0.9549572   -0.2213403     0.9563316   -0.2278956     0.0132510    0.0070364 
   0.011452851     0.0120391    0.0010138     0.9624462   -0.2354678     0.9599084   -0.2315800     0.0083895   -0.0006692 
   0.011552876     0.0123336    0.0010734     0.9621958   -0.2354316     0.9583163   -0.2352467     0.0103491   -0.0009200 
   0.011652901     0.0120757    0.0025572     0.9661499   -0.2287101     0.9595373   -0.2314466     0.0160508    0.0002526 
   0.011752926     0.0112884    0.0020519     0.9626212   -0.2302937     0.9591399   -0.2343846     0.0155066    0.0017378 
   0.011852951     0.0098205    0.0007248     0.9467608   -0.2453891     0.9547672   -0.2421968     0.0043431    0.0059491 
   0.011952976     0.0116305    0.0003817     0.9588512   -0.2396110     0.9552910   -0.2406773     0.0115297    0.0012239 
   0.012053002     0.0138786    0.0010764     0.9662847   -0.2464218     0.9580681   -0.2441966     0.0120895   -0.0045312 
   0.012153027     0.0119858    0.0006322     0.9522803   -0.2484760     0.9572781   -0.2447633     0.0083585    0.0032849 
   0.012253052     0.0095626    0.0006549     0.9473602   -0.2491544     0.9528987   -0.2484764     0.0075132    0.0060559 
   0.012353077     0.0126638    0.0006876     0.9476717   -0.2473318     0.9569587   -0.2497693     0.0101342    0.0070470 
   0.012453102     0.0123246    0.0014854     0.9476092   -0.2584867     0.9559734   -0.2494856     0.0054998    0.0045877 
   0.012553127     0.0133141    0.0015859     0.9600738   -0.2600258     0.9524743   -0.2521534     0.0082087   -0.0039377 
   0.012653152     0.0118290    0.0029773     0.9646702   -0.2423526     0.9512052   -0.2518786     0.0213547   -0.0017483 
   0.012753177     0.0110917    0.0012286     0.9526168   -0.2481295     0.9576100   -0.2553177     0.0166527    0.0044091 
   0.012853202     0.0122956    0.0015341     0.9548989   -0.2573137     0.9505832   -0.2589781     0.0131481    0.0004865 
   0.012953227     0.0129184    0.0015723     0.9568157   -0.2524599     0.9543409   -0.2600428     0.0175662    0.0008720 
   0.013053252     0.0136386    0.0008345     0.9695287   -0.2666579     0.9502136   -0.2649969     0.0133201   -0.0099247 
   0.013153277     0.0128524    0.0010772     0.9508782   -0.2550074     0.9517095   -0.2642268     0.0173808    0.0043257 
   0.013253302     0.0119091    0.0013480     0.9545058   -0.2664457     0.9540283   -0.2643851     0.0126586   -0.0003709 
   0.013353327     0.0121181    0.0008574     0.9349509   -0.2713835     0.9486463   -0.2679732     0.0072063    0.0100105 
   0.013453352     0.0129199    0.0003575     0.9480481   -0.2790357     0.9471822   -0.2709168     0.0066034    0.0006477 
   0.013553377     0.0106881    0.0011873     0.9516841   -0.2814948     0.9520020   -0.2686631     0.0072404   -0.0013182 
   0.013653402     0.0142084    0.0009590     0.9465415   -0.2840756     0.9466917   -0.2768812     0.0058400    0.0006853 
   0.013753427     0.0120320    0.0017745     0.9477329   -0.2764124     0.9460812   -0.2779813     0.0125153    0.0006034 
   0.013853452     0.0113583   -0.0002026     0.9381214   -0.2686736     0.9481138   -0.2763497     0.0168694    0.0082139 
   0.013953477     0.0117842   -0.0010516     0.9338987   -0.2931503     0.9419504   -0.2779820     0.0019896    0.0067141 
   0.014053502     0.0130536    0.0012682     0.9467466   -0.2823184     0.9484423   -0.2807592     0.0127090    0.0008925 
   0.014153527     0.0131883    0.0017716     0.9464398   -0.2838597     0.9447615   -0.2842090     0.0132686    0.0007744 
   0.014253552     0.0136270    0.0004949     0.9573208   -0.2878462     0.9445415   -0.2892539     0.0133163   -0.0073862 
   0.014353577     0.0118609    0.0011513     0.9463583   -0.2800282     0.9437417   -0.2864789     0.0180969    0.0008769 
   0.014453602     0.0131327    0.0006273     0.9455507   -0.2912940     0.9398734   -0.2926918     0.0119460   -0.0006551 
   0.014553627     0.0129377    0.0010446     0.9388559   -0.2913017     0.9414571   -0.2915988     0.0128768    0.0032320 
   0.014653652     0.0126561    0.0013165     0.9442834   -0.2842849     0.9443419   -0.2923281     0.0193370    0.0009902 
   0.014753677     0.0103425    0.0001998     0.9298736   -0.2894811     0.9400221   -0.2945850     0.0155447    0.0089895 
   0.014853702     0.0140381   -0.0000300     0.9430631   -0.3020793     0.9401421   -0.2961353     0.0100458   -0.0007116 
   0.014953727     0.0124280    0.0019512     0.9417008   -0.3078253     0.9399145   -0.2989247     0.0079330   -0.0009209 
   0.015053752     0.0132047    0.0011938     0.9421257   -0.2966477     0.9362352   -0.3005731     0.0162657   -0.0006161 
   0.015153777     0.0140546    0.0007173     0.9376394   -0.3082914     0.9421504   -0.3032854     0.0101553    0.0011951 
   0.015253802     0.0124800    0.0004313     0.9437168   -0.3119162     0.9339474   -0.3069002     0.0097050   -0.0041194 
   0.015353827     0.0144925    0.0011573     0.9434352   -0.3119336     0.9407185   -0.3089614     0.0110645   -0.0037028 
   0.015453852     0.0140699    0.0012832     0.9335411   -0.3085131     0.9352761   -0.3113130     0.0137199    0.0026169 
   0.015553877     0.0130344   -0.0010553     0.9342579   -0.3205251     0.9318035   -0.3126463     0.0068866    0.0009285 
   0.015653902     0.0124889   -0.0001201     0.9333964   -0.3161489     0.9340247   -0.3124397     0.0115904    0.0015275 
