! 19-Feb-26 2:30:33 PM
! E:\VNA_MEASUREMENTS\RECBLOCK\FMNOTCH2REV.S2P
! CHANNEL.1
! TR.MEASUREMENT
! CORRECTED.DATA
# GHZ S RI R 50.0
! FREQ.GHZ         S11RE         S11IM         S21RE         S21IM         S12RE         S12IM         S22RE         S22IM         
!; PortSelection: Port_12
   0.000050000    -0.4904506   -0.0527672    -0.5519062   -1.1698200     0.9419218   -0.3645510     0.6277801   -1.2629800 
   0.000150025     0.1469764   -0.8106884    -0.2161020   -2.0057910     1.3361350   -0.5006668    -0.1903517   -1.7145210 
   0.000250050    -0.4831321    0.3453672     1.8804890   -0.0241777     0.5964273    0.1530683     0.6168640    0.1219634 
   0.000350075     0.0101045   -0.0033396     1.0090330    0.0011248     0.9962548   -0.0055333     0.0195684    0.0064034 
   0.000450100     0.0023993    0.0065205     0.9566368    0.0129511     0.9734923    0.0005270    -0.0194477    0.0153436 
   0.000550125     0.0102209    0.0029060     1.0067140    0.0027490     0.9858133   -0.0106933     0.0151042    0.0096898 
   0.000650150     0.0053301   -0.0044121     0.9903181   -0.0401320     0.9917895   -0.0118842     0.0075979   -0.0164252 
   0.000750175     0.0104547    0.0020269     0.9840557    0.0078092     1.0037250   -0.0196698     0.0039169    0.0149621 
   0.000850200     0.0120274   -0.0014263     1.0247420   -0.0317909     0.9957660   -0.0228466     0.0291814   -0.0106499 
   0.000950225     0.0071527    0.0058499     0.9841791   -0.0018564     0.9926262   -0.0153274     0.0027164    0.0133494 
   0.001050250     0.0022631   -0.0013974     0.9518975   -0.0479649     0.9840373   -0.0221169    -0.0207612   -0.0153393 
   0.001150275     0.0069672    0.0043888     0.9742095    0.0152691     0.9874799   -0.0211183    -0.0034605    0.0272355 
   0.001250300     0.0079549   -0.0014629     0.9861078   -0.0061672     0.9916183   -0.0339884     0.0045500    0.0134369 
   0.001350325     0.0057743    0.0001718     0.9868295   -0.0260602     0.9866135   -0.0242919     0.0045108    0.0026034 
   0.001450350     0.0094426   -0.0007102     0.9975510   -0.0333932     0.9964833   -0.0327584     0.0116195   -0.0026064 
   0.001550375     0.0157681   -0.0005484     1.0105590   -0.0317271     0.9988717   -0.0267642     0.0210369    0.0001530 
   0.001650400     0.0106548   -0.0005367     1.0025650   -0.0345110     0.9923502   -0.0285466     0.0157037    0.0001434 
   0.001750425     0.0066488    0.0020032     0.9791704   -0.0366864     0.9889006   -0.0325718    -0.0008931    0.0016885 
   0.001850450     0.0076531   -0.0013484     0.9992102   -0.0504681     0.9911104   -0.0422747     0.0117256   -0.0086090 
   0.001950475     0.0094486   -0.0001932     1.0052280   -0.0444265     0.9935378   -0.0433642     0.0170395   -0.0050674 
   0.002050500     0.0106856   -0.0018938     1.0017060   -0.0608949     0.9908488   -0.0433602     0.0124492   -0.0128773 
   0.002150525     0.0096286   -0.0012314     0.9909233   -0.0472215     0.9930192   -0.0421719     0.0081749   -0.0004573 
   0.002250550     0.0075385    0.0023674     0.9828541   -0.0284743     0.9907195   -0.0456353     0.0050905    0.0130773 
   0.002350575     0.0111140    0.0004831     1.0118830   -0.0738428     0.9917099   -0.0423720     0.0183657   -0.0184131 
   0.002450600     0.0051185   -0.0041411     0.9640371   -0.0673847     0.9965863   -0.0516651    -0.0103642   -0.0065930 
   0.002550625     0.0088655   -0.0012448     1.0039990   -0.0503028     0.9918764   -0.0538853     0.0181704   -0.0004423 
   0.002650650     0.0057384   -0.0021816     0.9781535   -0.0760542     0.9856892   -0.0513245    -0.0033566   -0.0107148 
   0.002750675     0.0079457    0.0004729     1.0065800   -0.0641180     0.9929773   -0.0538458     0.0185849   -0.0065503 
   0.002850700     0.0046294   -0.0014787     0.9611524   -0.0590870     0.9892030   -0.0559089    -0.0105289    0.0058306 
   0.002950725     0.0087507    0.0012768     0.9981757   -0.0543797     0.9912953   -0.0601993     0.0155615    0.0036888 
   0.003050750     0.0077444    0.0012569     0.9743730   -0.0513967     0.9890270   -0.0602367     0.0006198    0.0106849 
   0.003150775     0.0066572    0.0037674     0.9831363   -0.0507772     0.9927896   -0.0624047     0.0072360    0.0110612 
   0.003250800     0.0124166    0.0047209     1.0087700   -0.0598643     0.9933498   -0.0676585     0.0222843    0.0009552 
   0.003350825     0.0068789   -0.0008042     0.9634801   -0.0816439     0.9858431   -0.0713137    -0.0110228   -0.0015304 
   0.003450850     0.0073868    0.0004477     0.9816790   -0.0787270     0.9835607   -0.0760958     0.0017386   -0.0027427 
   0.003550875     0.0069568   -0.0013884     0.9932632   -0.0600454     0.9856749   -0.0822575     0.0132714    0.0064726 
   0.003650900     0.0085872    0.0003127     0.9895732   -0.0897147     0.9849121   -0.0711755     0.0056231   -0.0080210 
   0.003750925     0.0074765    0.0010621     0.9913924   -0.0749567     0.9806482   -0.0777474     0.0100304    0.0005832 
   0.003850950     0.0127481    0.0013791     0.9943200   -0.0816530     0.9913427   -0.0802764     0.0106571   -0.0017748 
   0.003950975     0.0096561    0.0045289     0.9927819   -0.0653060     0.9881459   -0.0780864     0.0155400    0.0096924 
   0.004051001     0.0114726    0.0020626     0.9959679   -0.0786289     0.9931306   -0.0843919     0.0151454    0.0020141 
   0.004151026     0.0060299    0.0005814     0.9776123   -0.0950722     0.9853593   -0.0838153    -0.0005660   -0.0030946 
   0.004251051     0.0099350    0.0008238     1.0087720   -0.0841197     0.9929119   -0.0850756     0.0229865   -0.0019896 
   0.004351076     0.0075721   -0.0024196     0.9724650   -0.0990242     0.9856479   -0.0894688    -0.0032208   -0.0007907 
   0.004451101     0.0078715    0.0007904     0.9940524   -0.0836141     0.9876277   -0.0905109     0.0151198    0.0037525 
   0.004551126     0.0076234    0.0030542     0.9650320   -0.0847407     0.9865189   -0.0831116    -0.0026214    0.0123174 
   0.004651151     0.0093812    0.0004837     0.9910911   -0.1037956     0.9838231   -0.0930859     0.0086563   -0.0049398 
   0.004751176     0.0102935    0.0010341     0.9970236   -0.1135191     0.9836756   -0.0976275     0.0099973   -0.0119480 
   0.004851201     0.0103512    0.0042099     0.9944155   -0.0815462     0.9836825   -0.1002665     0.0190216    0.0091706 
   0.004951226     0.0084218    0.0027246     0.9860926   -0.0970404     0.9848292   -0.1015865     0.0103468    0.0032006 
   0.005051251     0.0086449    0.0006414     0.9869642   -0.1004860     0.9885236   -0.1026984     0.0108590    0.0026574 
   0.005151276     0.0099001    0.0016715     1.0030800   -0.1173785     0.9794707   -0.1053659     0.0151616   -0.0118681 
   0.005251301     0.0077088    0.0030661     0.9708868   -0.1002376     0.9816444   -0.1103248     0.0026032    0.0092074 
   0.005351326     0.0079594    0.0022501     0.9890289   -0.1030163     0.9873785   -0.1045495     0.0135295    0.0036812 
   0.005451351     0.0089635    0.0022891     0.9695702   -0.0968164     0.9845160   -0.1046680     0.0049955    0.0151301 
   0.005551376     0.0088872   -0.0009940     0.9729244   -0.1180274     0.9808937   -0.1174837     0.0004072    0.0020092 
   0.005651401     0.0093918    0.0049490     0.9980507   -0.1047861     0.9821361   -0.1135134     0.0203500    0.0025480 
   0.005751426     0.0093608    0.0002521     0.9825418   -0.1152883     0.9847792   -0.1194854     0.0090580    0.0030370 
   0.005851451     0.0082109    0.0012998     0.9684512   -0.1107000     0.9819537   -0.1214684     0.0032600    0.0108664 
   0.005951476     0.0090939    0.0027495     0.9797695   -0.1035920     0.9834265   -0.1145871     0.0131968    0.0127144 
   0.006051501     0.0089646    0.0021840     0.9774975   -0.1223134     0.9810156   -0.1212598     0.0055212    0.0042153 
   0.006151526     0.0079376    0.0016255     0.9662179   -0.1301430     0.9817455   -0.1249191    -0.0010400    0.0043461 
   0.006251551     0.0095284    0.0025052     0.9884039   -0.1274349     0.9800022   -0.1242312     0.0121413   -0.0004820 
   0.006351576     0.0109554    0.0038809     0.9936604   -0.1244168     0.9841361   -0.1258530     0.0179984    0.0001016 
   0.006451601     0.0096736   -0.0001397     0.9865297   -0.1318574     0.9833804   -0.1307084     0.0121836   -0.0003266 
   0.006551626     0.0096293    0.0022454     0.9880144   -0.1329982     0.9820985   -0.1302836     0.0133823   -0.0007345 
   0.006651651     0.0087532    0.0002365     0.9708273   -0.1446143     0.9830300   -0.1353479     0.0006197    0.0004437 
   0.006751676     0.0098715    0.0017702     0.9874114   -0.1401660     0.9842201   -0.1394300     0.0125807   -0.0030287 
   0.006851701     0.0099370    0.0026581     0.9930018   -0.1326180     0.9819443   -0.1376165     0.0186339   -0.0005907 
   0.006951726     0.0105545    0.0018051     0.9812791   -0.1530858     0.9819181   -0.1399128     0.0055044   -0.0046699 
   0.007051751     0.0100802    0.0018894     0.9896749   -0.1344328     0.9813585   -0.1394010     0.0180051    0.0026705 
   0.007151776     0.0082877    0.0003911     0.9746162   -0.1504613     0.9796215   -0.1460876     0.0050188    0.0007895 
   0.007251801     0.0097294    0.0033639     0.9845716   -0.1402404     0.9756132   -0.1426682     0.0147597    0.0026117 
   0.007351826     0.0069242    0.0020271     0.9618930   -0.1239656     0.9751532   -0.1453913     0.0116672    0.0215684 
   0.007451851     0.0080224    0.0004268     0.9790409   -0.1435187     0.9771918   -0.1508693     0.0130565    0.0051245 
   0.007551876     0.0068004    0.0011264     0.9560843   -0.1478616     0.9784483   -0.1512118     0.0015324    0.0144550 
   0.007651901     0.0097660    0.0020379     0.9807427   -0.1580903     0.9727578   -0.1557367     0.0091394   -0.0012458 
   0.007751926     0.0085701    0.0023691     0.9742848   -0.1408147     0.9771975   -0.1538578     0.0156950    0.0112996 
   0.007851951     0.0077883    0.0011137     0.9765742   -0.1546129     0.9778747   -0.1603934     0.0124566    0.0040951 
   0.007951976     0.0104287    0.0035561     0.9749414   -0.1427195     0.9798884   -0.1579331     0.0171975    0.0120326 
   0.008052001     0.0092413    0.0019700     0.9621580   -0.1553396     0.9742335   -0.1617843     0.0068842    0.0117513 
   0.008152026     0.0102219    0.0005685     0.9757747   -0.1688537     0.9790450   -0.1675736     0.0090170   -0.0005640 
   0.008252051     0.0081191    0.0048555     0.9744515   -0.1395256     0.9730976   -0.1692729     0.0227941    0.0141993 
   0.008352076     0.0100105    0.0010583     0.9752755   -0.1641522     0.9745867   -0.1688375     0.0121542    0.0039688 
   0.008452101     0.0089808    0.0012118     0.9757374   -0.1685925     0.9735989   -0.1746090     0.0119670    0.0014095 
   0.008552126     0.0097404    0.0013164     0.9773399   -0.1704989     0.9752359   -0.1723481     0.0129257    0.0015202 
   0.008652151     0.0081253    0.0018791     0.9816226   -0.1642770     0.9710599   -0.1730650     0.0185515    0.0026791 
   0.008752176     0.0108918    0.0014415     0.9745511   -0.1862618     0.9728565   -0.1788108     0.0059777   -0.0033447 
   0.008852201     0.0108967    0.0008701     0.9684297   -0.1902821     0.9743335   -0.1796199     0.0024694   -0.0007756 
   0.008952226     0.0089075    0.0018386     0.9726600   -0.1741930     0.9693943   -0.1807514     0.0135403    0.0044004 
   0.009052251     0.0106689    0.0018073     0.9696339   -0.1830337     0.9752038   -0.1851773     0.0097937    0.0031627 
   0.009152276     0.0095543    0.0008745     0.9675773   -0.1916870     0.9687985   -0.1855065     0.0051653    0.0007019 
   0.009252301     0.0099162    0.0031843     0.9667957   -0.1745889     0.9763622   -0.1893314     0.0155126    0.0089296 
   0.009352326     0.0107415    0.0011487     0.9612552   -0.1999741     0.9700693   -0.1900839     0.0008474    0.0021261 
   0.009452351     0.0105426    0.0028083     0.9750245   -0.1950124     0.9725355   -0.1903407     0.0107193   -0.0024503 
   0.009552376     0.0117836    0.0005729     0.9701205   -0.2018183     0.9708936   -0.1934251     0.0061239   -0.0016778 
   0.009652401     0.0117859    0.0021183     0.9756860   -0.2025969     0.9720938   -0.1983445     0.0099995   -0.0053263 
   0.009752426     0.0101281    0.0034045     0.9715514   -0.1956577     0.9679435   -0.1945325     0.0128467    0.0010449 
   0.009852451     0.0129200    0.0016778     0.9764728   -0.1983428     0.9710145   -0.2015398     0.0144062   -0.0022122 
   0.009952476     0.0095714    0.0018934     0.9658769   -0.1942155     0.9667715   -0.1982945     0.0138672    0.0054287 
   0.010052501     0.0097409    0.0011364     0.9669177   -0.2064876     0.9671997   -0.2020842     0.0082779    0.0010110 
   0.010152526     0.0115387    0.0032817     0.9754325   -0.1946120     0.9673572   -0.1995802     0.0194643    0.0012213 
   0.010252551     0.0099290    0.0033865     0.9612284   -0.1991834     0.9647624   -0.2030184     0.0125001    0.0074011 
   0.010352576     0.0127229    0.0029160     0.9856430   -0.2134769     0.9708717   -0.2110575     0.0162071   -0.0106945 
   0.010452601     0.0105086    0.0029469     0.9744912   -0.2046614     0.9693651   -0.2078591     0.0177140   -0.0003872 
   0.010552626     0.0118068    0.0002824     0.9646069   -0.2160566     0.9644378   -0.2167156     0.0090359    0.0002941 
   0.010652651     0.0112450    0.0015964     0.9724280   -0.2112547     0.9625531   -0.2120832     0.0151281   -0.0009720 
   0.010752676     0.0115243    0.0015875     0.9620736   -0.2117982     0.9663574   -0.2162422     0.0134585    0.0047503 
   0.010852701     0.0124230    0.0030834     0.9632164   -0.2124268     0.9659565   -0.2205638     0.0147326    0.0042434 
   0.010952726     0.0108447    0.0027016     0.9612415   -0.2196919     0.9593331   -0.2205248     0.0111637    0.0029323 
   0.011052751     0.0101401    0.0029162     0.9571602   -0.2105477     0.9661604   -0.2194806     0.0163100    0.0086577 
   0.011152776     0.0121173    0.0006657     0.9651310   -0.2323371     0.9637065   -0.2249174     0.0075531   -0.0024936 
   0.011252801     0.0123610    0.0030624     0.9623693   -0.2266452     0.9622186   -0.2274829     0.0118339    0.0008977 
   0.011352826     0.0094237    0.0013210     0.9583421   -0.2210197     0.9580704   -0.2266690     0.0147440    0.0051233 
   0.011452851     0.0097784    0.0007740     0.9578345   -0.2244036     0.9581434   -0.2299970     0.0141583    0.0051040 
   0.011552876     0.0116405    0.0002135     0.9634597   -0.2365587     0.9592937   -0.2357495     0.0100124   -0.0018272 
   0.011652901     0.0116339    0.0034618     0.9659112   -0.2378708     0.9611244   -0.2347065     0.0113464   -0.0032905 
   0.011752926     0.0102875    0.0020082     0.9626627   -0.2266081     0.9579627   -0.2356200     0.0182166    0.0020529 
   0.011852951     0.0096445    0.0010713     0.9480377   -0.2393081     0.9575320   -0.2396584     0.0082548    0.0068294 
   0.011952976     0.0117896    0.0002499     0.9577844   -0.2354749     0.9591822   -0.2390679     0.0146443    0.0028157 
   0.012053002     0.0129071    0.0016775     0.9604270   -0.2427999     0.9582622   -0.2430897     0.0126849   -0.0002443 
   0.012153027     0.0116652    0.0018968     0.9573876   -0.2437077     0.9587203   -0.2488674     0.0134247    0.0009468 
   0.012253052     0.0099259    0.0013053     0.9584302   -0.2400015     0.9555843   -0.2472854     0.0162189    0.0018945 
   0.012353077     0.0126967    0.0022741     0.9570311   -0.2455106     0.9550460   -0.2479031     0.0139626    0.0015781 
   0.012453102     0.0112414    0.0032502     0.9499367   -0.2479876     0.9571310   -0.2490265     0.0125369    0.0055248 
   0.012553127     0.0109080    0.0020846     0.9555912   -0.2497804     0.9514375   -0.2533244     0.0141016    0.0008274 
   0.012653152     0.0116009    0.0036146     0.9612331   -0.2472416     0.9534473   -0.2524203     0.0181366   -0.0011564 
   0.012753177     0.0129455    0.0011828     0.9559700   -0.2596090     0.9541450   -0.2568615     0.0106024   -0.0005620 
   0.012853202     0.0127673    0.0011778     0.9541379   -0.2667070     0.9517565   -0.2567569     0.0072197   -0.0010392 
   0.012953227     0.0134790    0.0023302     0.9625815   -0.2519088     0.9540498   -0.2598717     0.0194181   -0.0028204 
   0.013053252     0.0121679    0.0013582     0.9569857   -0.2567975     0.9486377   -0.2641250     0.0172910   -0.0005560 
   0.013153277     0.0127731    0.0015498     0.9573505   -0.2589282     0.9521126   -0.2658806     0.0167144   -0.0011308 
   0.013253302     0.0124704    0.0032174     0.9584658   -0.2628684     0.9548255   -0.2615068     0.0159883   -0.0025609 
   0.013353327     0.0125367    0.0016906     0.9462872   -0.2770413     0.9484789   -0.2699695     0.0065021    0.0019182 
   0.013453352     0.0117077    0.0012498     0.9512516   -0.2689558     0.9472464   -0.2730697     0.0141989    0.0000879 
   0.013553377     0.0105328    0.0004665     0.9401045   -0.2805733     0.9509700   -0.2699530     0.0057847    0.0055037 
   0.013653402     0.0133960    0.0026331     0.9475021   -0.2796561     0.9473420   -0.2744899     0.0090296    0.0005584 
   0.013753427     0.0126786    0.0031960     0.9503367   -0.2795140     0.9458911   -0.2738725     0.0107275   -0.0015255 
   0.013853452     0.0124753    0.0008424     0.9458143   -0.2781757     0.9493187   -0.2815994     0.0130983    0.0016611 
   0.013953477     0.0110063    0.0008018     0.9408692   -0.2830758     0.9448991   -0.2788532     0.0104198    0.0043060 
   0.014053502     0.0137847    0.0007291     0.9502102   -0.2903675     0.9459680   -0.2804872     0.0081322   -0.0030894 
   0.014153527     0.0121114    0.0025432     0.9507734   -0.2751260     0.9441646   -0.2858505     0.0196926   -0.0019406 
   0.014253552     0.0128884    0.0013728     0.9534044   -0.2904130     0.9439796   -0.2917734     0.0118834   -0.0055582 
   0.014353577     0.0116407    0.0026123     0.9447740   -0.2802618     0.9425068   -0.2870421     0.0178047    0.0012381 
   0.014453602     0.0121944    0.0016114     0.9479315   -0.2790925     0.9427283   -0.2900673     0.0204837   -0.0005633 
   0.014553627     0.0123043    0.0014642     0.9462548   -0.2879828     0.9410509   -0.2918635     0.0164803   -0.0011664 
   0.014653652     0.0110276    0.0024137     0.9458883   -0.2745382     0.9449897   -0.2938486     0.0262977    0.0007517 
   0.014753677     0.0118209    0.0011343     0.9417316   -0.2959701     0.9383790   -0.2942358     0.0130552    0.0005363 
   0.014853702     0.0133151   -0.0009338     0.9395297   -0.3037404     0.9393991   -0.2976564     0.0093947    0.0010984 
   0.014953727     0.0131614    0.0008857     0.9329512   -0.3025428     0.9403986   -0.3023022     0.0111572    0.0050746 
   0.015053752     0.0139885    0.0013028     0.9449481   -0.3082015     0.9368300   -0.3011635     0.0099839   -0.0033115 
   0.015153777     0.0133040    0.0017132     0.9425449   -0.3024129     0.9413025   -0.3010844     0.0146398   -0.0020900 
   0.015253802     0.0127314   -0.0009469     0.9309999   -0.3151114     0.9347106   -0.3061496     0.0074104    0.0041435 
   0.015353827     0.0143523    0.0006667     0.9399525   -0.3143757     0.9358367   -0.3082787     0.0094294   -0.0020677 
   0.015453852     0.0141640    0.0019672     0.9450570   -0.3058556     0.9365898   -0.3110189     0.0170424   -0.0051673 
   0.015553877     0.0132997   -0.0010511     0.9276066   -0.3162916     0.9348962   -0.3123534     0.0102948    0.0051575 
   0.015653902     0.0125991    0.0017376     0.9390604   -0.3126739     0.9321610   -0.3134511     0.0146291   -0.0028081 
