! 19-Feb-26 12:59:52 PM
! E:\VNA_MEASUREMENTS\RECBLOCK\FMNOTCH0REV.S2P
! CHANNEL.1
! TR.MEASUREMENT
! CORRECTED.DATA
# GHZ S RI R 50.0
! FREQ.GHZ         S11RE         S11IM         S21RE         S21IM         S12RE         S12IM         S22RE         S22IM         
!; PortSelection: Port_12
   0.000050000    -0.6942434    1.3428060    -0.8613221   -0.0058041    -0.0888409   -0.3232884    -0.2512639   -1.3702800 
   0.000150025     0.1749939    0.2385767     2.2868240    0.7004757     1.0387520    0.2039122     0.6707353    0.8619547 
   0.000250050     0.0802636   -3.0181410    -0.2310007    3.9451290     1.5266290   -2.0660370    -1.4695150    2.5269550 
   0.000350075     0.0087339   -0.0019133     1.0037020    0.0076574     0.9973239   -0.0033786     0.0148989    0.0108232 
   0.000450100     0.0103596   -0.0038151     1.0082050   -0.0061966     0.9931767   -0.0049105     0.0191970    0.0045340 
   0.000550125     0.0138087   -0.0027305     1.0260820   -0.0109418     0.9895084   -0.0134459     0.0285250    0.0020058 
   0.000650150     0.0053049   -0.0001684     0.9841611   -0.0153242     0.9906679   -0.0149070     0.0014053   -0.0006658 
   0.000750175     0.0020339   -0.0005910     0.9722969   -0.0197752     0.9957964   -0.0179949    -0.0045913   -0.0023725 
   0.000850200     0.0064393    0.0019172     0.9910464   -0.0334641     0.9967229   -0.0174387     0.0074007   -0.0116450 
   0.000950225     0.0038914    0.0001559     0.9937965   -0.0269772     0.9859204   -0.0208694     0.0077120   -0.0050748 
   0.001050250    -0.0001835    0.0003461     0.9496087   -0.0359012     0.9802915   -0.0254167    -0.0225449   -0.0077617 
   0.001150275     0.0077101    0.0034208     0.9799382    0.0084995     0.9866385   -0.0263769     0.0001993    0.0221919 
   0.001250300     0.0094951   -0.0003428     0.9922899   -0.0174760     0.9878328   -0.0356356     0.0065517    0.0055695 
   0.001350325     0.0058219    0.0005001     0.9927264   -0.0398105     0.9819657   -0.0261400     0.0065704   -0.0066219 
   0.001450350     0.0057355   -0.0003334     0.9830683   -0.0326508     0.9865943   -0.0302224     0.0008708   -0.0004030 
   0.001550375     0.0075442    0.0004902     0.9697845   -0.0114469     0.9879999   -0.0316467    -0.0052292    0.0161756 
   0.001650400     0.0070567    0.0003260     0.9713851   -0.0226366     0.9976447   -0.0292540    -0.0035080    0.0097620 
   0.001750425     0.0058189    0.0030561     0.9792515   -0.0331705     0.9906786   -0.0343764     0.0004528    0.0028461 
   0.001850450     0.0131684   -0.0019437     1.0109030   -0.0559437     1.0030350   -0.0426394     0.0198454   -0.0136282 
   0.001950475     0.0100536   -0.0031924     1.0111260   -0.0525928     0.9932374   -0.0425523     0.0202706   -0.0100516 
   0.002050500     0.0116891   -0.0028415     1.0015940   -0.0690631     0.9923060   -0.0454572     0.0109790   -0.0181018 
   0.002150525     0.0128717   -0.0010462     1.0246900   -0.0376297     1.0021780   -0.0456238     0.0327301    0.0003363 
   0.002250550     0.0057126    0.0064910     0.9932242   -0.0211912     0.9907659   -0.0375041     0.0131212    0.0175153 
   0.002350575     0.0082957    0.0006702     1.0044860   -0.0487630     0.9880084   -0.0468481     0.0163998   -0.0021864 
   0.002450600     0.0066218   -0.0004645     0.9735088   -0.0577268     0.9951330   -0.0524701    -0.0033840   -0.0013732 
   0.002550625     0.0117520    0.0023930     1.0035620   -0.0240102     1.0013600   -0.0571815     0.0226621    0.0165070 
   0.002650650     0.0088654    0.0006170     1.0078110   -0.0498147     0.9909407   -0.0560426     0.0201585    0.0002782 
   0.002750675     0.0075013    0.0030773     0.9813516   -0.0562840     0.9959099   -0.0488112     0.0035085    0.0033881 
   0.002850700     0.0058708    0.0005573     0.9745908   -0.0691596     0.9859432   -0.0576846    -0.0043951   -0.0025117 
   0.002950725     0.0107123    0.0026726     1.0112010   -0.0563128     0.9938129   -0.0566190     0.0233273    0.0001711 
   0.003050750     0.0085044    0.0007302     0.9702610   -0.0697809     0.9864503   -0.0583054    -0.0058568    0.0001072 
   0.003150775     0.0084774    0.0009569     1.0021390   -0.0839848     0.9908445   -0.0717976     0.0129898   -0.0145271 
   0.003250800     0.0114293    0.0021567     0.9993266   -0.0809754     0.9957193   -0.0657315     0.0120844   -0.0105299 
   0.003350825     0.0085819   -0.0009185     0.9775679   -0.0743818     0.9911756   -0.0762324    -0.0001277   -0.0006233 
   0.003450850     0.0062377   -0.0022581     0.9914425   -0.0929467     0.9799396   -0.0779518     0.0037954   -0.0139048 
   0.003550875     0.0081703    0.0017725     0.9985791   -0.0491685     0.9882256   -0.0750323     0.0192969    0.0126797 
   0.003650900     0.0120898   -0.0027386     1.0036060   -0.0974419     0.9889612   -0.0769242     0.0128460   -0.0171822 
   0.003750925     0.0063312    0.0021447     0.9861622   -0.0679265     0.9865435   -0.0704518     0.0096128    0.0072918 
   0.003850950     0.0072036   -0.0021031     0.9632553   -0.0927535     0.9864996   -0.0787144    -0.0113316   -0.0012051 
   0.003950975     0.0080786    0.0046175     0.9786754   -0.0610522     0.9872764   -0.0763828     0.0079038    0.0156916 
   0.004051001     0.0094811    0.0003041     0.9757978   -0.0848482     0.9904795   -0.0827491     0.0007929    0.0033939 
   0.004151026     0.0065069   -0.0007703     0.9672688   -0.1064764     0.9848602   -0.0842806    -0.0095781   -0.0072820 
   0.004251051     0.0086379    0.0006860     0.9997885   -0.0812518     0.9926499   -0.0787824     0.0186446    0.0031223 
   0.004351076     0.0093493    0.0000851     0.9899415   -0.0921249     0.9905639   -0.0909044     0.0093789   -0.0014930 
   0.004451101     0.0083621   -0.0015073     0.9922414   -0.1122806     0.9899668   -0.0951549     0.0066156   -0.0136899 
   0.004551126     0.0074618    0.0017404     0.9706023   -0.0794558     0.9889885   -0.0896002     0.0024917    0.0132042 
   0.004651151     0.0109205   -0.0000668     0.9963724   -0.1033495     0.9868509   -0.0964572     0.0120248   -0.0069053 
   0.004751176     0.0082080    0.0018722     0.9687665   -0.1067284     0.9815990   -0.0919242    -0.0044175    0.0006526 
   0.004851201     0.0103241    0.0036548     0.9966374   -0.0797363     0.9820204   -0.1013645     0.0207226    0.0090551 
   0.004951226     0.0089432    0.0013658     0.9941361   -0.0968026     0.9814711   -0.0970508     0.0143301    0.0017137 
   0.005051251     0.0098622    0.0004139     1.0010530   -0.1044694     0.9905820   -0.1012487     0.0178990   -0.0040513 
   0.005151276     0.0120694   -0.0003625     1.0072640   -0.1218719     0.9845639   -0.1039456     0.0163340   -0.0153031 
   0.005251301     0.0077610    0.0015448     0.9733377   -0.1000367     0.9834852   -0.1079612     0.0041244    0.0083419 
   0.005351326     0.0088895    0.0004243     0.9732589   -0.1058349     0.9842671   -0.1066223     0.0036034    0.0064279 
   0.005451351     0.0083896    0.0009502     0.9634333   -0.1118986     0.9862917   -0.1106334    -0.0035139    0.0075227 
   0.005551376     0.0103874    0.0025502     0.9974975   -0.0965236     0.9886253   -0.1133349     0.0215369    0.0059837 
   0.005651401     0.0075064    0.0059910     0.9897575   -0.0971380     0.9806302   -0.1097616     0.0176164    0.0094256 
   0.005751426     0.0103235    0.0004516     0.9786455   -0.1331281     0.9851831   -0.1180033     0.0006478   -0.0052174 
   0.005851451     0.0084511    0.0016916     0.9761568   -0.1084821     0.9815938   -0.1191965     0.0079474    0.0096217 
   0.005951476     0.0066910    0.0025658     0.9726925   -0.1087626     0.9825605   -0.1160961     0.0070948    0.0118548 
   0.006051501     0.0074099    0.0008792     0.9652742   -0.1256101     0.9787177   -0.1237034    -0.0023508    0.0060717 
   0.006151526     0.0081454    0.0012230     0.9708421   -0.1207058     0.9814413   -0.1192494     0.0044739    0.0086380 
   0.006251551     0.0080064    0.0018774     0.9732695   -0.1281562     0.9813092   -0.1248207     0.0035968    0.0042677 
   0.006351576     0.0100711    0.0012434     0.9806836   -0.1358455     0.9865209   -0.1286083     0.0067623   -0.0013267 
   0.006451601     0.0071102    0.0015501     0.9709258   -0.1268176     0.9792480   -0.1273018     0.0048731    0.0082942 
   0.006551626     0.0072940    0.0032126     0.9862368   -0.1286249     0.9811605   -0.1298182     0.0144363    0.0023631 
   0.006651651     0.0089080   -0.0003907     0.9745975   -0.1461167     0.9829385   -0.1364259     0.0016379   -0.0019524 
   0.006751676     0.0108043    0.0003963     0.9814962   -0.1488184     0.9860880   -0.1370720     0.0052878   -0.0048650 
   0.006851701     0.0099125    0.0049749     0.9898493   -0.1331724     0.9815601   -0.1345288     0.0165018    0.0003038 
   0.006951726     0.0105041    0.0031072     0.9837214   -0.1486423     0.9806400   -0.1391027     0.0084052   -0.0039627 
   0.007051751     0.0082923    0.0035905     0.9873032   -0.1354360     0.9817852   -0.1399633     0.0164660    0.0023866 
   0.007151776     0.0086962    0.0010306     0.9809050   -0.1452871     0.9787162   -0.1501547     0.0097053    0.0000002 
   0.007251801     0.0078896    0.0013055     0.9786175   -0.1488639     0.9764055   -0.1466195     0.0086271    0.0004239 
   0.007351826     0.0072107    0.0020059     0.9681250   -0.1405524     0.9727335   -0.1418588     0.0072699    0.0104794 
   0.007451851     0.0104584    0.0006128     0.9866405   -0.1519289     0.9802529   -0.1502388     0.0135727   -0.0019725 
   0.007551876     0.0074240    0.0030007     0.9768174   -0.1426130     0.9774475   -0.1479922     0.0134468    0.0074464 
   0.007651901     0.0097607    0.0027490     0.9817992   -0.1477305     0.9755284   -0.1506278     0.0143677    0.0038062 
   0.007751926     0.0097949    0.0010065     0.9798138   -0.1532103     0.9779454   -0.1563242     0.0128772    0.0021253 
   0.007851951     0.0098944    0.0006844     0.9854184   -0.1610284     0.9757521   -0.1622188     0.0123648   -0.0032488 
   0.007951976     0.0100427    0.0026371     0.9840233   -0.1476841     0.9752136   -0.1588427     0.0186555    0.0047039 
   0.008052001     0.0094876    0.0022560     0.9730800   -0.1590947     0.9800160   -0.1625852     0.0103623    0.0049778 
   0.008152026     0.0094931    0.0004465     0.9644484   -0.1730984     0.9774371   -0.1648830     0.0014280    0.0031042 
   0.008252051     0.0104873    0.0039276     0.9793037   -0.1509616     0.9729908   -0.1729245     0.0193637    0.0063808 
   0.008352076     0.0092142   -0.0002993     0.9742419   -0.1711880     0.9753645   -0.1728205     0.0085164    0.0007047 
   0.008452101     0.0096498    0.0027346     0.9812992   -0.1706164     0.9749486   -0.1703607     0.0129538   -0.0016741 
   0.008552126     0.0087261    0.0014315     0.9774540   -0.1671656     0.9729607   -0.1701370     0.0138573    0.0028089 
   0.008652151     0.0099702    0.0012482     0.9740456   -0.1723188     0.9714295   -0.1716707     0.0105891    0.0028524 
   0.008752176     0.0096530    0.0004261     0.9683370   -0.1785179     0.9732236   -0.1772173     0.0074119    0.0028681 
   0.008852201     0.0099471    0.0011159     0.9705197   -0.1762924     0.9718457   -0.1784555     0.0100343    0.0042958 
   0.008952226     0.0109343    0.0011870     0.9698317   -0.1802343     0.9707677   -0.1803965     0.0095220    0.0038269 
   0.009052251     0.0089834    0.0025764     0.9684011   -0.1794607     0.9685356   -0.1809418     0.0099958    0.0052923 
   0.009152276     0.0101998    0.0024217     0.9729449   -0.1767759     0.9706175   -0.1844392     0.0151828    0.0043745 
   0.009252301     0.0101438    0.0033185     0.9714222   -0.1736105     0.9763897   -0.1873294     0.0177500    0.0076425 
   0.009352326     0.0093673    0.0014018     0.9653467   -0.1902325     0.9725211   -0.1912262     0.0076049    0.0042774 
   0.009452351     0.0120157    0.0011430     0.9855004   -0.2016418     0.9702032   -0.1938343     0.0115517   -0.0107034 
   0.009552376     0.0103088    0.0017238     0.9677174   -0.1930575     0.9719773   -0.1898306     0.0093488    0.0028282 
   0.009652401     0.0103883    0.0027621     0.9725673   -0.1963923     0.9702082   -0.1953618     0.0110791   -0.0011721 
   0.009752426     0.0098958    0.0018200     0.9717063   -0.1911447     0.9679971   -0.1926921     0.0150193    0.0026267 
   0.009852451     0.0114811    0.0012544     0.9654607   -0.1959518     0.9681519   -0.2026701     0.0113079    0.0041206 
   0.009952476     0.0097326    0.0014371     0.9614776   -0.1957422     0.9674051   -0.1965926     0.0109278    0.0074976 
   0.010052501     0.0092133    0.0031673     0.9678715   -0.1953386     0.9663358   -0.2002736     0.0146970    0.0048453 
   0.010152526     0.0116778    0.0030587     0.9751681   -0.2004250     0.9675677   -0.2011637     0.0155911   -0.0007998 
   0.010252551     0.0086038    0.0028556     0.9600858   -0.1889702     0.9660184   -0.2010970     0.0172915    0.0119094 
   0.010352576     0.0109638    0.0032461     0.9765337   -0.2067604     0.9683123   -0.2103612     0.0160146   -0.0032899 
   0.010452601     0.0106889    0.0024199     0.9577242   -0.2042565     0.9681612   -0.2084583     0.0121619    0.0089242 
   0.010552626     0.0119107    0.0016531     0.9685104   -0.2144394     0.9640780   -0.2160896     0.0103721   -0.0011622 
   0.010652651     0.0120191    0.0014175     0.9676018   -0.2124655     0.9647578   -0.2166565     0.0134366    0.0007571 
   0.010752676     0.0126577    0.0032231     0.9767536   -0.2076429     0.9681064   -0.2155576     0.0202688   -0.0023293 
   0.010852701     0.0111460    0.0016579     0.9608958   -0.2186378     0.9653986   -0.2195724     0.0102493    0.0034569 
   0.010952726     0.0113144    0.0011266     0.9609946   -0.2256240     0.9598629   -0.2244639     0.0078435    0.0012100 
   0.011052751     0.0117276    0.0042256     0.9622107   -0.2143353     0.9687790   -0.2194241     0.0152305    0.0051504 
   0.011152776     0.0102827    0.0007549     0.9656640   -0.2260231     0.9617779   -0.2254729     0.0113273   -0.0010093 
   0.011252801     0.0116876    0.0036873     0.9629438   -0.2266396     0.9639319   -0.2229070     0.0112125    0.0011871 
   0.011352826     0.0102815    0.0026466     0.9625739   -0.2153622     0.9580345   -0.2269970     0.0188178    0.0043791 
   0.011452851     0.0123690    0.0008686     0.9684178   -0.2393234     0.9579163   -0.2298062     0.0079013   -0.0058602 
   0.011552876     0.0109215    0.0002858     0.9592137   -0.2402725     0.9568049   -0.2340243     0.0061290   -0.0005789 
   0.011652901     0.0108367    0.0025362     0.9618250   -0.2320840     0.9604937   -0.2336827     0.0134876    0.0012293 
   0.011752926     0.0116996    0.0017247     0.9589657   -0.2393822     0.9590622   -0.2372257     0.0101349    0.0006862 
   0.011852951     0.0104298    0.0005493     0.9531405   -0.2501383     0.9569932   -0.2403223     0.0029044    0.0012314 
   0.011952976     0.0122274    0.0000950     0.9667354   -0.2426371     0.9601810   -0.2423687     0.0127731   -0.0042613 
   0.012053002     0.0127409   -0.0005444     0.9528273   -0.2529539     0.9589353   -0.2417369     0.0045060    0.0016629 
   0.012153027     0.0101849    0.0022434     0.9610621   -0.2397279     0.9582520   -0.2478480     0.0164873   -0.0003310 
   0.012253052     0.0087527    0.0025830     0.9542987   -0.2376051     0.9571614   -0.2435305     0.0163465    0.0054274 
   0.012353077     0.0118871    0.0007080     0.9540319   -0.2449324     0.9544445   -0.2490693     0.0136667    0.0033327 
   0.012453102     0.0107775    0.0015483     0.9465854   -0.2494344     0.9557958   -0.2489754     0.0104205    0.0070322 
   0.012553127     0.0142018    0.0028211     0.9645121   -0.2532036     0.9510112   -0.2528324     0.0135923   -0.0054834 
   0.012653152     0.0124308    0.0004766     0.9572719   -0.2583170     0.9510703   -0.2556886     0.0100813   -0.0014854 
   0.012753177     0.0121832    0.0015697     0.9551688   -0.2563935     0.9569638   -0.2547187     0.0121768    0.0009972 
   0.012853202     0.0118156    0.0012716     0.9477973   -0.2577477     0.9515419   -0.2571989     0.0117909    0.0050084 
   0.012953227     0.0126552    0.0015107     0.9494482   -0.2484168     0.9531946   -0.2577373     0.0184547    0.0061212 
   0.013053252     0.0127769    0.0022690     0.9695746   -0.2648393     0.9522109   -0.2634712     0.0146821   -0.0102002 
   0.013153277     0.0115258    0.0007770     0.9460081   -0.2574911     0.9482992   -0.2646534     0.0149944    0.0062799 
   0.013253302     0.0107818    0.0021443     0.9518703   -0.2582430     0.9542319   -0.2623287     0.0170810    0.0023460 
   0.013353327     0.0117345    0.0023862     0.9496842   -0.2628970     0.9527773   -0.2669214     0.0158731    0.0025620 
   0.013453352     0.0115728    0.0021761     0.9523885   -0.2786075     0.9506875   -0.2727520     0.0081952   -0.0021026 
   0.013553377     0.0110989    0.0006804     0.9416473   -0.2782935     0.9524409   -0.2690949     0.0075852    0.0050427 
   0.013653402     0.0131712    0.0005741     0.9471822   -0.2775807     0.9457940   -0.2760103     0.0100966    0.0010523 
   0.013753427     0.0127848    0.0025088     0.9450719   -0.2813374     0.9503663   -0.2780406     0.0093951    0.0019484 
   0.013853452     0.0121372    0.0009443     0.9476012   -0.2776779     0.9482307   -0.2815771     0.0133874    0.0006674 
   0.013953477     0.0120673   -0.0006751     0.9386240   -0.2905286     0.9452568   -0.2784121     0.0049935    0.0044751 
   0.014053502     0.0134284    0.0018413     0.9461358   -0.2803843     0.9472507   -0.2825053     0.0144225    0.0006277 
   0.014153527     0.0120876    0.0027585     0.9487372   -0.2736685     0.9438782   -0.2824386     0.0202640    0.0002082 
   0.014253552     0.0128984    0.0008127     0.9519345   -0.2850916     0.9416982   -0.2877938     0.0147184   -0.0038323 
   0.014353577     0.0127749    0.0007979     0.9425858   -0.2875778     0.9433887   -0.2879069     0.0130708    0.0021059 
   0.014453602     0.0133224    0.0002811     0.9430078   -0.2874644     0.9415442   -0.2908524     0.0144449    0.0012437 
   0.014553627     0.0123983    0.0028098     0.9525526   -0.2860511     0.9462447   -0.2915005     0.0181263   -0.0048318 
   0.014653652     0.0119594    0.0026051     0.9515747   -0.2836953     0.9452485   -0.2956276     0.0212720   -0.0041173 
   0.014753677     0.0100715    0.0005538     0.9321147   -0.2895743     0.9404187   -0.2969185     0.0166013    0.0071127 
   0.014853702     0.0118538   -0.0004149     0.9395013   -0.3004674     0.9413623   -0.2947435     0.0112559    0.0018306 
   0.014953727     0.0120900    0.0009031     0.9297963   -0.3049043     0.9391444   -0.3005153     0.0086255    0.0064568 
   0.015053752     0.0136182    0.0015543     0.9452023   -0.3074718     0.9361061   -0.3021661     0.0101126   -0.0038886 
   0.015153777     0.0126805    0.0007933     0.9392439   -0.3037986     0.9366547   -0.3041487     0.0135081   -0.0002720 
   0.015253802     0.0130293   -0.0002730     0.9381320   -0.3152875     0.9358213   -0.3054399     0.0072369   -0.0005688 
   0.015353827     0.0145868    0.0007434     0.9488568   -0.3170171     0.9390945   -0.3094040     0.0084866   -0.0079553 
   0.015453852     0.0136999    0.0005660     0.9387962   -0.3076417     0.9385750   -0.3097260     0.0148099   -0.0008930 
   0.015553877     0.0111117    0.0002690     0.9354255   -0.3073415     0.9336013   -0.3145961     0.0164598    0.0004279 
   0.015653902     0.0123818    0.0017503     0.9418343   -0.3101927     0.9312573   -0.3137684     0.0164438   -0.0042312 
