! 19-Feb-26 1:01:41 PM
! E:\VNA_MEASUREMENTS\RECBLOCK\FMNOTCH1.S2P
! CHANNEL.1
! TR.MEASUREMENT
! CORRECTED.DATA
# GHZ S RI R 50.0
! FREQ.GHZ         S11RE         S11IM         S21RE         S21IM         S12RE         S12IM         S22RE         S22IM         
!; PortSelection: Port_12
   0.000050000    -0.2701702    0.4943810    -0.2510556    0.1929840     0.6048065   -0.1176320    -0.2483515   -0.8958054 
   0.000150025     0.2372820    0.4280095     1.1177430    0.3307047     1.0167810    0.3554966    -0.0089145    0.2638934 
   0.000250050     0.4491452   -1.3861090     0.1152293    1.7867230     1.5113060   -0.8891634    -0.8769963    1.0986520 
   0.000350075     0.0102843   -0.0060830     1.0276650   -0.0133132     1.0028870   -0.0040639     0.0348128   -0.0025236 
   0.000450100     0.0072465    0.0052572     0.9913378    0.0110663     0.9853961    0.0075904     0.0066965    0.0177636 
   0.000550125     0.0102988   -0.0024796     1.0325750   -0.0135097     0.9863320   -0.0205718     0.0326630   -0.0009189 
   0.000650150     0.0081024    0.0016715     0.9794128   -0.0003155     0.9969118   -0.0110436    -0.0006612    0.0091685 
   0.000750175     0.0037427   -0.0014218     0.9770932   -0.0181829     0.9963291   -0.0249455    -0.0022930   -0.0029305 
   0.000850200     0.0140061   -0.0020517     1.0230020   -0.0187237     0.9983100   -0.0248102     0.0295652   -0.0033808 
   0.000950225     0.0052712    0.0036663     0.9849352    0.0002727     0.9871135   -0.0178886     0.0028881    0.0147162 
   0.001050250     0.0050471    0.0020735     0.9660452   -0.0327337     0.9924420   -0.0177826    -0.0104888   -0.0059952 
   0.001150275     0.0100755   -0.0009092     0.9973923   -0.0116279     0.9911790   -0.0293484     0.0116154    0.0076203 
   0.001250300     0.0100673   -0.0021565     0.9822308   -0.0329720     0.9915613   -0.0341986    -0.0003576   -0.0040209 
   0.001350325     0.0043505   -0.0010662     0.9845668   -0.0309841     0.9795241   -0.0264537     0.0021095    0.0005345 
   0.001450350     0.0079542    0.0027915     0.9981227   -0.0098277     0.9899371   -0.0302278     0.0138996    0.0137911 
   0.001550375     0.0093096    0.0023675     0.9564447   -0.0275285     0.9888431   -0.0248447    -0.0149308    0.0067549 
   0.001650400     0.0070068   -0.0009930     0.9806463   -0.0440147     0.9936325   -0.0369361     0.0001838   -0.0056600 
   0.001750425     0.0103246    0.0015024     1.0075280   -0.0455700     0.9908822   -0.0357688     0.0171468   -0.0077975 
   0.001850450     0.0066032    0.0022643     0.9868602   -0.0240932     0.9953277   -0.0420090     0.0073831    0.0101239 
   0.001950475     0.0094560   -0.0016505     1.0004390   -0.0451641     0.9922485   -0.0448987     0.0137737   -0.0046206 
   0.002050500     0.0100024   -0.0004994     0.9955452   -0.0586889     0.9881397   -0.0387751     0.0083614   -0.0099307 
   0.002150525     0.0120365   -0.0005751     1.0005760   -0.0494350     0.9930316   -0.0474446     0.0135888   -0.0035792 
   0.002250550     0.0071155    0.0014301     0.9800839   -0.0372633     0.9922962   -0.0417639     0.0017159    0.0081168 
   0.002350575     0.0071459    0.0011010     0.9893975   -0.0630261     0.9879535   -0.0429793     0.0047840   -0.0076788 
   0.002450600     0.0060905    0.0007592     0.9868488   -0.0396926     0.9911398   -0.0555012     0.0071516    0.0074862 
   0.002550625     0.0112780   -0.0003792     1.0117660   -0.0226685     0.9975661   -0.0565928     0.0279636    0.0164432 
   0.002650650     0.0085232   -0.0025690     0.9995291   -0.0668974     0.9875836   -0.0561273     0.0122200   -0.0089747 
   0.002750675     0.0062491    0.0020856     0.9868814   -0.0632737     0.9910718   -0.0520137     0.0056781   -0.0024570 
   0.002850700     0.0065628   -0.0005565     0.9642188   -0.0601383     0.9949182   -0.0575951    -0.0088109    0.0047340 
   0.002950725     0.0090395    0.0027591     0.9960914   -0.0655324     0.9956485   -0.0584669     0.0118565   -0.0031222 
   0.003050750     0.0092760   -0.0001989     0.9897551   -0.0717164     0.9913024   -0.0648163     0.0075909   -0.0053332 
   0.003150775     0.0116020    0.0009517     0.9956781   -0.0780378     0.9974691   -0.0687674     0.0099189   -0.0093114 
   0.003250800     0.0113320    0.0023799     0.9978156   -0.0705606     0.9928113   -0.0669856     0.0125618   -0.0033027 
   0.003350825     0.0052696    0.0011396     0.9638910   -0.0577360     0.9846559   -0.0666843    -0.0052270    0.0136559 
   0.003450850     0.0081070   -0.0039032     0.9920325   -0.1072765     0.9824913   -0.0779491     0.0019164   -0.0234219 
   0.003550875     0.0079306    0.0007468     1.0000440   -0.0610913     0.9806198   -0.0773837     0.0165933    0.0050804 
   0.003650900     0.0093583    0.0015395     0.9875966   -0.0767960     0.9907975   -0.0752627     0.0076990   -0.0005969 
   0.003750925     0.0059516    0.0011502     0.9924864   -0.0790556     0.9838990   -0.0756989     0.0105783   -0.0023909 
   0.003850950     0.0093505   -0.0013054     0.9788026   -0.1084853     0.9835503   -0.0803435    -0.0062298   -0.0143981 
   0.003950975     0.0084623    0.0044286     0.9765518   -0.0591914     0.9851981   -0.0774900     0.0064912    0.0172020 
   0.004051001     0.0097476    0.0016601     0.9766277   -0.0812091     0.9917988   -0.0831806     0.0025321    0.0051692 
   0.004151026     0.0066339    0.0012443     0.9898216   -0.0989524     0.9868286   -0.0808318     0.0060066   -0.0081355 
   0.004251051     0.0110738    0.0006216     1.0180620   -0.0897076     0.9926260   -0.0822656     0.0263847   -0.0078567 
   0.004351076     0.0092420   -0.0026421     0.9773243   -0.0988430     0.9894398   -0.0904732    -0.0002227   -0.0023973 
   0.004451101     0.0101430    0.0016412     1.0079180   -0.1060922     0.9915478   -0.0904304     0.0173511   -0.0134294 
   0.004551126     0.0075630    0.0023608     0.9715593   -0.0904820     0.9889241   -0.0887666    -0.0002360    0.0062624 
   0.004651151     0.0086871   -0.0007844     0.9764037   -0.0928375     0.9848216   -0.0933993     0.0028577    0.0055027 
   0.004751176     0.0094851    0.0023718     0.9899396   -0.1057999     0.9820467   -0.0979097     0.0072380   -0.0055383 
   0.004851201     0.0112803    0.0026410     0.9972105   -0.0838682     0.9831322   -0.0988269     0.0198605    0.0070872 
   0.004951226     0.0096885    0.0006787     0.9968830   -0.1058923     0.9880661   -0.1015350     0.0141675   -0.0050446 
   0.005051251     0.0072423    0.0004022     0.9801161   -0.0943662     0.9854133   -0.0991161     0.0082521    0.0087276 
   0.005151276     0.0096919    0.0001501     1.0008960   -0.1071561     0.9866380   -0.1057395     0.0175663   -0.0049834 
   0.005251301     0.0066669    0.0014973     0.9781436   -0.1017389     0.9830638   -0.1067858     0.0064446    0.0059940 
   0.005351326     0.0092420    0.0023873     0.9876193   -0.0996865     0.9854465   -0.1053925     0.0135595    0.0059389 
   0.005451351     0.0089233    0.0018294     0.9797232   -0.1114028     0.9842351   -0.1097819     0.0058851    0.0024477 
   0.005551376     0.0083445    0.0032984     0.9852466   -0.0980349     0.9858989   -0.1112911     0.0138625    0.0094987 
   0.005651401     0.0085618    0.0045422     0.9897241   -0.0977340     0.9834430   -0.1132715     0.0178700    0.0089714 
   0.005751426     0.0102951    0.0008569     0.9877628   -0.1245801     0.9861530   -0.1181179     0.0087124   -0.0040173 
   0.005851451     0.0095877    0.0022240     0.9778658   -0.1034087     0.9808698   -0.1224845     0.0109953    0.0113958 
   0.005951476     0.0101084    0.0019667     0.9901590   -0.1249465     0.9848070   -0.1170050     0.0114425   -0.0029058 
   0.006051501     0.0055966    0.0003331     0.9579032   -0.1207081     0.9768853   -0.1186392    -0.0040455    0.0124251 
   0.006151526     0.0089305    0.0030731     0.9809040   -0.1202983     0.9849506   -0.1204199     0.0110572    0.0049589 
   0.006251551     0.0079555    0.0018882     0.9781398   -0.1295121     0.9798530   -0.1258595     0.0061171    0.0018987 
   0.006351576     0.0112933    0.0021041     0.9825106   -0.1281439     0.9861311   -0.1265245     0.0102840    0.0029719 
   0.006451601     0.0087175    0.0015169     0.9845307   -0.1381026     0.9777980   -0.1299084     0.0077212   -0.0033404 
   0.006551626     0.0092236    0.0025920     0.9861957   -0.1247971     0.9830015   -0.1312253     0.0153719    0.0040544 
   0.006651651     0.0096359    0.0016737     0.9812247   -0.1358996     0.9845980   -0.1390409     0.0095741    0.0004502 
   0.006751676     0.0104383    0.0016041     0.9851241   -0.1347429     0.9846253   -0.1365712     0.0134485    0.0011796 
   0.006851701     0.0079597    0.0020064     0.9739929   -0.1318549     0.9794576   -0.1346733     0.0089199    0.0077760 
   0.006951726     0.0106161    0.0000585     0.9819294   -0.1575771     0.9773942   -0.1402822     0.0035999   -0.0077418 
   0.007051751     0.0099557    0.0027104     0.9871287   -0.1441784     0.9789559   -0.1391575     0.0122181   -0.0012328 
   0.007151776     0.0098084    0.0011005     0.9790622   -0.1469893     0.9794084   -0.1474334     0.0085822    0.0003455 
   0.007251801     0.0083472    0.0023704     0.9820207   -0.1391155     0.9786580   -0.1445774     0.0142537    0.0041815 
   0.007351826     0.0088542    0.0024740     0.9732561   -0.1346834     0.9765259   -0.1449507     0.0126786    0.0115304 
   0.007451851     0.0110663    0.0007856     0.9926295   -0.1475079     0.9786460   -0.1495364     0.0179063   -0.0020910 
   0.007551876     0.0088303    0.0025253     0.9689427   -0.1458213     0.9797017   -0.1501454     0.0082328    0.0096772 
   0.007651901     0.0081439    0.0017318     0.9706777   -0.1469629     0.9727434   -0.1554597     0.0094892    0.0087920 
   0.007751926     0.0094867    0.0026143     0.9725863   -0.1539336     0.9751158   -0.1527990     0.0080943    0.0054404 
   0.007851951     0.0090178    0.0023607     0.9764845   -0.1527757     0.9816567   -0.1602973     0.0126204    0.0051043 
   0.007951976     0.0102371    0.0035261     0.9845060   -0.1546758     0.9764476   -0.1574215     0.0154147    0.0012606 
   0.008052001     0.0082333    0.0010294     0.9682920   -0.1609908     0.9756994   -0.1636972     0.0075015    0.0064245 
   0.008152026     0.0095282   -0.0006621     0.9687498   -0.1683984     0.9784442   -0.1667999     0.0053849    0.0031137 
   0.008252051     0.0098094    0.0049312     0.9871850   -0.1450963     0.9749734   -0.1701080     0.0258832    0.0056214 
   0.008352076     0.0092991    0.0006109     0.9680648   -0.1629846     0.9767619   -0.1681564     0.0099846    0.0079025 
   0.008452101     0.0099992    0.0010195     0.9766475   -0.1725575     0.9726762   -0.1731234     0.0100631   -0.0004847 
   0.008552126     0.0102749    0.0009696     0.9747283   -0.1758974     0.9765484   -0.1706692     0.0087361    0.0006990 
   0.008652151     0.0092695    0.0008155     0.9770833   -0.1704910     0.9718278   -0.1746012     0.0134346    0.0019588 
   0.008752176     0.0110720    0.0008718     0.9675830   -0.1840876     0.9739055   -0.1772217     0.0041628    0.0011931 
   0.008852201     0.0103044    0.0026190     0.9741770   -0.1718683     0.9738377   -0.1768306     0.0143484    0.0044798 
   0.008952226     0.0101211    0.0009600     0.9668446   -0.1812319     0.9703129   -0.1791126     0.0073222    0.0045573 
   0.009052251     0.0107471    0.0031236     0.9751186   -0.1853280     0.9693480   -0.1854692     0.0105437   -0.0009567 
   0.009152276     0.0090367    0.0029915     0.9729235   -0.1669378     0.9713026   -0.1828558     0.0201307    0.0087741 
   0.009252301     0.0108353    0.0033064     0.9709793   -0.1792634     0.9749204   -0.1861753     0.0140811    0.0052157 
   0.009352326     0.0101154    0.0016633     0.9579679   -0.1934179     0.9736844   -0.1875075     0.0026550    0.0071111 
   0.009452351     0.0118886    0.0017231     0.9792089   -0.2011032     0.9718705   -0.1917133     0.0088545   -0.0069805 
   0.009552376     0.0112908    0.0005551     0.9727450   -0.1986814     0.9717786   -0.1925431     0.0088831   -0.0021098 
   0.009652401     0.0117896    0.0027738     0.9710929   -0.2010529     0.9705530   -0.1946529     0.0079263   -0.0018315 
   0.009752426     0.0110686    0.0032212     0.9709521   -0.1944737     0.9689172   -0.1940483     0.0127811    0.0015354 
   0.009852451     0.0130292    0.0029082     0.9843529   -0.2021428     0.9721243   -0.1995541     0.0153091   -0.0079046 
   0.009952476     0.0111852    0.0011237     0.9664422   -0.1980231     0.9652150   -0.1968461     0.0112743    0.0043094 
   0.010052501     0.0112482    0.0014500     0.9704314   -0.1998863     0.9689175   -0.2014635     0.0130666    0.0020369 
   0.010152526     0.0111815    0.0043310     0.9826756   -0.1955261     0.9679347   -0.1982654     0.0209843   -0.0027055 
   0.010252551     0.0101431    0.0037744     0.9740924   -0.1913532     0.9642273   -0.2040834     0.0211848    0.0029975 
   0.010352576     0.0107519    0.0029107     0.9758727   -0.2032781     0.9689466   -0.2099088     0.0182047   -0.0015153 
   0.010452601     0.0118291    0.0020546     0.9652181   -0.2069123     0.9684419   -0.2079981     0.0129590    0.0036078 
   0.010552626     0.0107529    0.0019578     0.9632745   -0.2083120     0.9641512   -0.2129802     0.0121991    0.0043152 
   0.010652651     0.0126837    0.0013291     0.9780474   -0.2108822     0.9648127   -0.2174044     0.0175007   -0.0041156 
   0.010752676     0.0125239    0.0012286     0.9630672   -0.2140829     0.9656177   -0.2154096     0.0118923    0.0036943 
   0.010852701     0.0120391    0.0011430     0.9670850   -0.2192824     0.9646534   -0.2148843     0.0113507    0.0002014 
   0.010952726     0.0110962    0.0021407     0.9603688   -0.2184770     0.9614487   -0.2196420     0.0117025    0.0042051 
   0.011052751     0.0104412    0.0032441     0.9586082   -0.2096930     0.9670672   -0.2202238     0.0172064    0.0086714 
   0.011152776     0.0113938    0.0003667     0.9647680   -0.2256592     0.9638742   -0.2248976     0.0114711   -0.0002161 
   0.011252801     0.0118605    0.0024992     0.9667162   -0.2261362     0.9599083   -0.2277010     0.0127557   -0.0014195 
   0.011352826     0.0095058    0.0019561     0.9539560   -0.2253509     0.9563616   -0.2264795     0.0102008    0.0067076 
   0.011452851     0.0123205    0.0000170     0.9554431   -0.2391913     0.9577689   -0.2295838     0.0038591    0.0021564 
   0.011552876     0.0109896    0.0005274     0.9541009   -0.2318013     0.9607872   -0.2335953     0.0096775    0.0054022 
   0.011652901     0.0126861    0.0033471     0.9717439   -0.2301454     0.9608673   -0.2330935     0.0169493   -0.0039260 
   0.011752926     0.0113263    0.0028491     0.9702815   -0.2253103     0.9574791   -0.2343356     0.0207849   -0.0016863 
   0.011852951     0.0122369    0.0020338     0.9617036   -0.2477916     0.9568498   -0.2408915     0.0065537   -0.0033937 
   0.011952976     0.0112504    0.0008889     0.9646952   -0.2367026     0.9567289   -0.2384213     0.0151241   -0.0013745 
   0.012053002     0.0120770    0.0006159     0.9622782   -0.2444512     0.9590969   -0.2406457     0.0118734   -0.0015886 
   0.012153027     0.0114557    0.0016749     0.9578120   -0.2440229     0.9588369   -0.2466602     0.0127537    0.0012035 
   0.012253052     0.0114937    0.0010830     0.9554304   -0.2563160     0.9547496   -0.2449148     0.0050478   -0.0000659 
   0.012353077     0.0136214    0.0006928     0.9589583   -0.2519563     0.9569212   -0.2507342     0.0103747   -0.0010998 
   0.012453102     0.0135033    0.0024466     0.9498879   -0.2633294     0.9574482   -0.2489223     0.0026715    0.0018720 
   0.012553127     0.0121386    0.0005207     0.9555759   -0.2558194     0.9528992   -0.2541830     0.0100167   -0.0001614 
   0.012653152     0.0125932    0.0009492     0.9691424   -0.2520768     0.9518558   -0.2570097     0.0171060   -0.0071757 
   0.012753177     0.0115600    0.0013539     0.9514284   -0.2517773     0.9552773   -0.2547966     0.0140874    0.0042725 
   0.012853202     0.0138447    0.0007803     0.9567993   -0.2723151     0.9518865   -0.2606694     0.0044532   -0.0037168 
   0.012953227     0.0141618    0.0028363     0.9628890   -0.2527186     0.9536878   -0.2620837     0.0185640   -0.0031572 
   0.013053252     0.0132665    0.0000610     0.9554441   -0.2693197     0.9506514   -0.2617859     0.0082272   -0.0018178 
   0.013153277     0.0136247    0.0007181     0.9548236   -0.2582887     0.9510984   -0.2630838     0.0163610    0.0011131 
   0.013253302     0.0112047    0.0005217     0.9439150   -0.2650379     0.9521452   -0.2620912     0.0114541    0.0063159 
   0.013353327     0.0124330    0.0019949     0.9457141   -0.2715087     0.9482275   -0.2703855     0.0094506    0.0033354 
   0.013453352     0.0104959    0.0006703     0.9390600   -0.2637443     0.9467037   -0.2691216     0.0143368    0.0087463 
   0.013553377     0.0119073    0.0016290     0.9517929   -0.2864515     0.9512688   -0.2718338     0.0040983   -0.0030733 
   0.013653402     0.0114413   -0.0002109     0.9404564   -0.2690710     0.9481331   -0.2750194     0.0141099    0.0074833 
   0.013753427     0.0130310    0.0038283     0.9477568   -0.2740581     0.9504811   -0.2769794     0.0141140    0.0016210 
   0.013853452     0.0120681    0.0011792     0.9433180   -0.2731034     0.9470035   -0.2796620     0.0148456    0.0042757 
   0.013953477     0.0135545   -0.0009089     0.9380681   -0.3001296     0.9467955   -0.2789219    -0.0014199    0.0043144 
   0.014053502     0.0137933    0.0012091     0.9428671   -0.2799196     0.9455702   -0.2800255     0.0131217    0.0029852 
   0.014153527     0.0134204    0.0014592     0.9474005   -0.2790758     0.9430081   -0.2872969     0.0165634    0.0002367 
   0.014253552     0.0120372    0.0002009     0.9471576   -0.2810117     0.9432435   -0.2879212     0.0161730    0.0003727 
   0.014353577     0.0129198    0.0006821     0.9405563   -0.2802515     0.9427565   -0.2854061     0.0171858    0.0047061 
   0.014453602     0.0142993    0.0004988     0.9482161   -0.2849605     0.9434251   -0.2918510     0.0164306   -0.0014097 
   0.014553627     0.0132866    0.0016704     0.9353119   -0.2927639     0.9438056   -0.2933754     0.0113421    0.0053126 
   0.014653652     0.0128984    0.0001385     0.9382759   -0.2888958     0.9434364   -0.2924768     0.0157218    0.0040032 
   0.014753677     0.0107760    0.0001110     0.9280268   -0.2962879     0.9394877   -0.2951741     0.0116402    0.0096773 
   0.014853702     0.0146459   -0.0020870     0.9393852   -0.3058415     0.9409242   -0.2985679     0.0078181    0.0020371 
   0.014953727     0.0121422    0.0004846     0.9347911   -0.3033255     0.9381521   -0.3010466     0.0098465    0.0037991 
   0.015053752     0.0138004    0.0006350     0.9406605   -0.3093271     0.9365182   -0.3011391     0.0078138   -0.0003795 
   0.015153777     0.0126772    0.0014039     0.9443561   -0.2969694     0.9404044   -0.3028984     0.0178766   -0.0025992 
   0.015253802     0.0128536    0.0002951     0.9368898   -0.3095375     0.9336259   -0.3060299     0.0105078    0.0007722 
   0.015353827     0.0137981    0.0010000     0.9452363   -0.3096609     0.9378603   -0.3108338     0.0126255   -0.0050584 
   0.015453852     0.0137993    0.0027858     0.9502080   -0.3106944     0.9360143   -0.3105977     0.0134301   -0.0087651 
   0.015553877     0.0128989   -0.0009472     0.9314848   -0.3141839     0.9315854   -0.3137446     0.0110237    0.0027041 
   0.015653902     0.0130826    0.0011267     0.9391645   -0.3122525     0.9334754   -0.3142179     0.0141201   -0.0021701 
