! 19-Feb-26 1:19:09 PM
! E:\VNA_MEASUREMENTS\RECBLOCK\LNA0.S2P
! CHANNEL.1
! TR.MEASUREMENT
! CORRECTED.DATA
# GHZ S RI R 50.0
! FREQ.GHZ         S11RE         S11IM         S21RE         S21IM         S12RE         S12IM         S22RE         S22IM         
!; PortSelection: Port_12
   0.000050000     0.4877598    0.2172569    -4.8719260   -1.8941590     0.0105721    0.0039048     0.9183455   -0.4307363 
   0.000150025     0.5015553   -0.4276543     0.6401058   -1.8539070    -0.0002603    0.0000465     0.4291030   -0.7508668 
   0.000250050     0.5436462    0.0648062    -6.7532630  -63.5956300    -0.0025075    0.0028408     0.1281834   -0.4230554 
   0.000350075     0.0719717   -0.2908486     5.8559250   32.5592600     0.0005131    0.0047961    -0.0657136   -0.3918975 
   0.000450100     0.0760908   -0.2754472    16.8535200   32.9097000     0.0010788    0.0039683    -0.0998940   -0.3421540 
   0.000550125     0.0467318   -0.2226821    23.2211900   29.9340900     0.0033397    0.0035973    -0.1117859   -0.2470293 
   0.000650150     0.0320228   -0.2028316    28.6067600   26.8978500     0.0044183    0.0036334    -0.1150763   -0.1900556 
   0.000750175     0.0130609   -0.1794567    29.8440300   24.0782400     0.0041558    0.0030249    -0.1323387   -0.1844193 
   0.000850200     0.0029971   -0.1628534    33.4393000   22.4761500     0.0037576    0.0026232    -0.1386953   -0.1715557 
   0.000950225    -0.0068729   -0.1471493    34.1440700   19.7765500     0.0041440    0.0031095    -0.1507443   -0.1369575 
   0.001050250    -0.0141266   -0.1472409    35.9547900   15.8676600     0.0045754    0.0022206    -0.1317787   -0.1380361 
   0.001150275    -0.0140984   -0.1214537    36.0938100   17.3607000     0.0044437    0.0017667    -0.1405409   -0.1303364 
   0.001250300    -0.0159987   -0.1219467    37.6174100   15.7550900     0.0044814    0.0012541    -0.1416936   -0.1302515 
   0.001350325    -0.0246539   -0.1097707    38.5874800   14.4731200     0.0047591    0.0023851    -0.1433305   -0.0858376 
   0.001450350    -0.0202885   -0.1002115    37.9820000   13.4884600     0.0049851    0.0016015    -0.1399711   -0.0989555 
   0.001550375    -0.0205836   -0.0896181    37.4938900   13.1979100     0.0048824    0.0019199    -0.1489684   -0.0828337 
   0.001650400    -0.0240395   -0.0944833    38.6887700   11.6336300     0.0052843    0.0012595    -0.1317093   -0.0899312 
   0.001750425    -0.0269669   -0.0855431    38.7275400   10.3554900     0.0047328    0.0013831    -0.1501812   -0.0865837 
   0.001850450    -0.0223731   -0.0831971    40.0992200   10.2098200     0.0052560    0.0008712    -0.1311978   -0.0892410 
   0.001950475    -0.0314408   -0.0735466    38.9885100    9.6407130     0.0046596    0.0010496    -0.1542265   -0.0815482 
   0.002050500    -0.0323104   -0.0687480    39.7603600    8.9855780     0.0050894    0.0012228    -0.1424536   -0.0702000 
   0.002150525    -0.0273046   -0.0721265    40.4047700    9.0055200     0.0048129    0.0012329    -0.1487554   -0.0637894 
   0.002250550    -0.0283141   -0.0630064    39.9131800    9.3355190     0.0052072    0.0015892    -0.1443293   -0.0459353 
   0.002350575    -0.0299764   -0.0615508    39.7071700    7.4385050     0.0054720    0.0014257    -0.1357350   -0.0515268 
   0.002450600    -0.0348036   -0.0615162    38.7803200    7.0344780     0.0056928    0.0012992    -0.1342646   -0.0512501 
   0.002550625    -0.0287040   -0.0573202    39.6494900    8.3312830     0.0055471    0.0010382    -0.1344431   -0.0492422 
   0.002650650    -0.0352775   -0.0566546    39.6851800    7.1081050     0.0054145    0.0009057    -0.1383242   -0.0545794 
   0.002750675    -0.0310615   -0.0544445    39.7570000    6.1977960     0.0055862    0.0013367    -0.1327668   -0.0435392 
   0.002850700    -0.0280560   -0.0520084    39.3358000    6.2053540     0.0060312    0.0010052    -0.1252028   -0.0471328 
   0.002950725    -0.0310766   -0.0495121    40.7123700    6.3281650     0.0055134    0.0007978    -0.1335595   -0.0501795 
   0.003050750    -0.0294206   -0.0485524    40.3047000    5.5119010     0.0056141    0.0009221    -0.1336590   -0.0455626 
   0.003150775    -0.0329087   -0.0472883    39.8164400    5.2143860     0.0052892    0.0007934    -0.1436636   -0.0456303 
   0.003250800    -0.0332681   -0.0452956    39.3835400    5.3807990     0.0055744    0.0011768    -0.1380278   -0.0333463 
   0.003350825    -0.0342600   -0.0471253    39.1136000    4.4237050     0.0054500    0.0005746    -0.1443941   -0.0495596 
   0.003450850    -0.0317130   -0.0422155    40.2929500    4.9334680     0.0056435    0.0009713    -0.1328436   -0.0355802 
   0.003550875    -0.0330946   -0.0368829    40.1372100    6.3413810     0.0059243    0.0012179    -0.1249397   -0.0220915 
   0.003650900    -0.0346923   -0.0395264    40.3510600    3.9932800     0.0051522    0.0013205    -0.1440928   -0.0238798 
   0.003750925    -0.0348590   -0.0384009    39.9873100    4.7050150     0.0053086    0.0008480    -0.1437589   -0.0322485 
   0.003850950    -0.0351655   -0.0412208    40.0119200    3.8809710     0.0053296    0.0006833    -0.1446262   -0.0382784 
   0.003950975    -0.0369790   -0.0373079    39.8833000    4.6908450     0.0054713    0.0006328    -0.1400836   -0.0341828 
   0.004051001    -0.0324252   -0.0381955    40.4326600    4.0333290     0.0052437    0.0004573    -0.1467150   -0.0396184 
   0.004151026    -0.0356575   -0.0352394    40.2107100    3.5179160     0.0052653    0.0006700    -0.1457933   -0.0333189 
   0.004251051    -0.0340955   -0.0331340    41.1547100    4.1105060     0.0054903    0.0007719    -0.1356637   -0.0298321 
   0.004351076    -0.0357386   -0.0341000    39.8486700    3.9832390     0.0055820    0.0006037    -0.1383164   -0.0311517 
   0.004451101    -0.0351775   -0.0330326    40.4490700    3.5850220     0.0051443    0.0004004    -0.1513464   -0.0348000 
   0.004551126    -0.0346440   -0.0314015    39.9098600    3.8251860     0.0053812    0.0006440    -0.1440771   -0.0267609 
   0.004651151    -0.0350160   -0.0306021    40.2241200    3.3217650     0.0053271    0.0006427    -0.1436203   -0.0279719 
   0.004751176    -0.0313717   -0.0286695    40.9028300    3.5908780     0.0055716    0.0009567    -0.1316511   -0.0194074 
   0.004851201    -0.0330633   -0.0289300    40.8793200    3.8705610     0.0057498    0.0005964    -0.1298375   -0.0277478 
   0.004951226    -0.0380092   -0.0310366    40.3640000    3.2176010     0.0052197    0.0004659    -0.1486136   -0.0281965 
   0.005051251    -0.0344843   -0.0289149    40.6357200    3.7527270     0.0055291    0.0005888    -0.1377583   -0.0244789 
   0.005151276    -0.0338476   -0.0265160    41.2237600    3.3153490     0.0057839    0.0006027    -0.1285182   -0.0275935 
   0.005251301    -0.0375360   -0.0267455    40.0553000    2.8894690     0.0051731    0.0007417    -0.1485227   -0.0178720 
   0.005351326    -0.0345394   -0.0261712    40.5392800    3.8003780     0.0055249    0.0007241    -0.1362717   -0.0170231 
   0.005451351    -0.0356549   -0.0253168    39.7933700    1.8765790     0.0055160    0.0006309    -0.1434083   -0.0250358 
   0.005551376    -0.0351752   -0.0260106    39.9637300    3.1211660     0.0056176    0.0004356    -0.1381290   -0.0250660 
   0.005651401    -0.0353560   -0.0247181    39.9460000    3.1558740     0.0054188    0.0005710    -0.1420363   -0.0201664 
   0.005751426    -0.0337407   -0.0233784    41.2602100    1.8629850     0.0055288    0.0005710    -0.1370989   -0.0255884 
   0.005851451    -0.0329630   -0.0249013    40.4621700    2.8092260     0.0055057    0.0002865    -0.1418935   -0.0274294 
   0.005951476    -0.0374846   -0.0199386    39.8247200    2.7602000     0.0053565    0.0007636    -0.1432654   -0.0133635 
   0.006051501    -0.0354936   -0.0227255    39.9990000    2.3259270     0.0054641    0.0006600    -0.1407177   -0.0172375 
   0.006151526    -0.0358151   -0.0215550    39.8304500    2.4825250     0.0054659    0.0005862    -0.1426080   -0.0177850 
   0.006251551    -0.0379425   -0.0207890    40.5896600    2.3705990     0.0054374    0.0005701    -0.1406116   -0.0188900 
   0.006351576    -0.0340115   -0.0220603    40.8511800    1.8992970     0.0057815    0.0002531    -0.1344266   -0.0312202 
   0.006451601    -0.0358573   -0.0193521    40.8164000    1.9879380     0.0057119    0.0006746    -0.1312197   -0.0198673 
   0.006551626    -0.0360966   -0.0208611    40.7459700    2.1252280     0.0054274    0.0004268    -0.1404127   -0.0208141 
   0.006651651    -0.0332049   -0.0202874    40.3349200    1.4939630     0.0054898    0.0004414    -0.1422292   -0.0214257 
   0.006751676    -0.0336866   -0.0189891    41.0804000    1.7146080     0.0057742    0.0004789    -0.1316949   -0.0236213 
   0.006851701    -0.0351036   -0.0173328    40.3833300    2.3846850     0.0057703    0.0008606    -0.1292263   -0.0109981 
   0.006951726    -0.0353071   -0.0176943    40.6875300    1.4482190     0.0052021    0.0005962    -0.1461028   -0.0134207 
   0.007051751    -0.0362334   -0.0186431    40.5053700    2.0148340     0.0057900    0.0007061    -0.1291333   -0.0152369 
   0.007151776    -0.0344603   -0.0190302    40.2508400    1.8208260     0.0056817    0.0002607    -0.1391925   -0.0240741 
   0.007251801    -0.0339002   -0.0186364    40.8738600    1.4380770     0.0054559    0.0005010    -0.1393478   -0.0174536 
   0.007351826    -0.0360369   -0.0183502    39.8574100    1.7431270     0.0058829    0.0004430    -0.1330190   -0.0206945 
   0.007451851    -0.0354123   -0.0169743    40.7943000    2.0861850     0.0056592    0.0003718    -0.1345851   -0.0191233 
   0.007551876    -0.0376869   -0.0167202    40.0129500    1.9355870     0.0052227    0.0005043    -0.1464474   -0.0091272 
   0.007651901    -0.0370806   -0.0159572    40.6999100    1.5264600     0.0056266    0.0001156    -0.1405561   -0.0266652 
   0.007751926    -0.0363764   -0.0176169    40.4189600    1.7881660     0.0055589    0.0002856    -0.1401782   -0.0198753 
   0.007851951    -0.0367215   -0.0156919    40.5131000    0.8895342     0.0055669    0.0005331    -0.1374831   -0.0165416 
   0.007951976    -0.0369217   -0.0165798    40.0064800    1.9045710     0.0057949    0.0003537    -0.1349132   -0.0198946 
   0.008052001    -0.0361736   -0.0140815    40.2813500    2.0003800     0.0054210    0.0004537    -0.1409464   -0.0109316 
   0.008152026    -0.0360176   -0.0167434    40.3721500    0.9957908     0.0057660    0.0002838    -0.1371229   -0.0231031 
   0.008252051    -0.0345349   -0.0153520    40.8212700    1.8457780     0.0055226    0.0005388    -0.1351026   -0.0114821 
   0.008352076    -0.0362765   -0.0143370    40.3480600    1.5340750     0.0056078    0.0004701    -0.1374136   -0.0140261 
   0.008452101    -0.0363456   -0.0150621    40.5290100    1.3301240     0.0055458    0.0002505    -0.1395825   -0.0181862 
   0.008552126    -0.0343891   -0.0154075    40.7067700    0.2275341     0.0058310    0.0004784    -0.1329818   -0.0222856 
   0.008652151    -0.0371380   -0.0119489    40.2059400    1.6453860     0.0055614    0.0003523    -0.1389875   -0.0148767 
   0.008752176    -0.0363607   -0.0147696    40.2919000    0.4939331     0.0052942    0.0000262    -0.1519013   -0.0198683 
   0.008852201    -0.0357771   -0.0139662    40.3823500    0.6339929     0.0055036    0.0001591    -0.1461786   -0.0206191 
   0.008952226    -0.0371010   -0.0124528    40.2210700    1.3227650     0.0054304    0.0004554    -0.1408617   -0.0101098 
   0.009052251    -0.0359809   -0.0126833    40.0550900    1.0837250     0.0054322    0.0004314    -0.1417595   -0.0096521 
   0.009152276    -0.0338414   -0.0113069    41.0908900    0.8359060     0.0056713    0.0004830    -0.1329936   -0.0162440 
   0.009252301    -0.0360140   -0.0117152    40.2369900    1.1316590     0.0056674    0.0005345    -0.1337370   -0.0119836 
   0.009352326    -0.0349578   -0.0114544    40.4320100    0.9651180     0.0056935    0.0004949    -0.1338562   -0.0137934 
   0.009452351    -0.0344821   -0.0114628    41.2921800    0.7694855     0.0056001    0.0004289    -0.1349157   -0.0151465 
   0.009552376    -0.0346326   -0.0118297    40.6649100    0.4628113     0.0056540    0.0004425    -0.1356051   -0.0163577 
   0.009652401    -0.0372702   -0.0121645    40.3550400    0.5700745     0.0052267    0.0002710    -0.1482203   -0.0100284 
   0.009752426    -0.0353824   -0.0105474    40.7689000    0.8964309     0.0053787    0.0002069    -0.1440194   -0.0150765 
   0.009852451    -0.0357932   -0.0103116    40.8478700    0.7819099     0.0056618    0.0003676    -0.1351570   -0.0157690 
   0.009952476    -0.0348967   -0.0108676    40.2979500    0.8674609     0.0056981    0.0003382    -0.1359946   -0.0160365 
   0.010052501    -0.0362927   -0.0087522    40.8116100    1.0519450     0.0054429    0.0006012    -0.1347101   -0.0064830 
   0.010152526    -0.0350899   -0.0108289    40.6841000    0.9125963     0.0057820    0.0003842    -0.1322332   -0.0177341 
   0.010252551    -0.0363640   -0.0085550    40.5589400    1.2250210     0.0053936    0.0003230    -0.1405427   -0.0095839 
   0.010352576    -0.0366811   -0.0083065    40.8866300    1.0451030     0.0053724    0.0004669    -0.1375001   -0.0072579 
   0.010452601    -0.0348177   -0.0099345    40.2232400    0.7177126     0.0056051    0.0002471    -0.1402614   -0.0150014 
   0.010552626    -0.0360943   -0.0105713    40.3625500    0.8620491     0.0054966    0.0000369    -0.1452641   -0.0163337 
   0.010652651    -0.0364046   -0.0104228    40.2661500    0.5158436     0.0057059    0.0001404    -0.1403949   -0.0192407 
   0.010752676    -0.0357234   -0.0094811    40.0737800    0.5705683     0.0058854    0.0002855    -0.1339234   -0.0197395 
   0.010852701    -0.0363980   -0.0083053    40.1195400    0.6171712     0.0054351    0.0004361    -0.1389758   -0.0069343 
   0.010952726    -0.0371964   -0.0097367    40.1782600    0.4552680     0.0053946    0.0001318    -0.1456705   -0.0128147 
   0.011052751    -0.0349707   -0.0083126    40.5915100    0.5644222     0.0054425    0.0003169    -0.1403785   -0.0101453 
   0.011152776    -0.0366632   -0.0069950    40.3411400    0.6223822     0.0054262    0.0006375    -0.1338595   -0.0039135 
   0.011252801    -0.0368346   -0.0069659    40.3930900    0.9429133     0.0057070    0.0003022    -0.1345527   -0.0146390 
   0.011352826    -0.0379712   -0.0076074    40.1508000    0.7052526     0.0055246    0.0003297    -0.1394236   -0.0108194 
   0.011452851    -0.0373226   -0.0079450    40.5978300    0.1993080     0.0055864    0.0002621    -0.1391907   -0.0144661 
   0.011552876    -0.0361712   -0.0075011    40.6828800    0.7502477     0.0055089    0.0000901    -0.1424185   -0.0139137 
   0.011652901    -0.0349935   -0.0063740    40.9320900    0.5460821     0.0056607    0.0005193    -0.1308894   -0.0108135 
   0.011752926    -0.0370636   -0.0059694    40.4706700    0.4452182     0.0056544    0.0003381    -0.1354918   -0.0132428 
   0.011852951    -0.0357530   -0.0067167    40.3317900   -0.3368828     0.0055597    0.0003785    -0.1387109   -0.0114485 
   0.011952976    -0.0370190   -0.0080046    40.3578700    0.4687923     0.0055363    0.0001818    -0.1412346   -0.0124415 
   0.012053002    -0.0341279   -0.0062420    41.0576900    0.1152403     0.0059494    0.0004036    -0.1287266   -0.0197902 
   0.012153027    -0.0345116   -0.0074219    40.3851200    0.0166727     0.0057409    0.0002304    -0.1367149   -0.0166346 
   0.012253052    -0.0371256   -0.0064958    40.1421100    0.1113006     0.0056300    0.0003765    -0.1367281   -0.0113579 
   0.012353077    -0.0345950   -0.0084517    40.4557000    0.0328472     0.0058483    0.0003310    -0.1322146   -0.0170627 
   0.012453102    -0.0357925   -0.0065913    40.1080900   -0.1936936     0.0056222    0.0001953    -0.1423835   -0.0133680 
   0.012553127    -0.0354412   -0.0051961    40.5238000   -0.1580743     0.0054675    0.0002955    -0.1399646   -0.0103051 
   0.012653152    -0.0372207   -0.0052708    40.6686500    0.1188729     0.0053461    0.0000913    -0.1449841   -0.0105226 
   0.012753177    -0.0353720   -0.0066341    40.5037900    0.1996029     0.0058583    0.0001623    -0.1361649   -0.0194578 
   0.012853202    -0.0361204   -0.0052597    40.5752600   -0.0672231     0.0056934    0.0002436    -0.1372386   -0.0161103 
   0.012953227    -0.0346822   -0.0072196    40.2964500    0.1075893     0.0057437    0.0002363    -0.1365944   -0.0145434 
   0.013053252    -0.0348627   -0.0061542    40.9777900   -0.0984673     0.0056028    0.0001255    -0.1404618   -0.0168528 
   0.013153277    -0.0344353   -0.0046321    40.6137500   -0.1996263     0.0056919    0.0004513    -0.1322446   -0.0127211 
   0.013253302    -0.0358021   -0.0045898    40.4441100    0.1560922     0.0058032    0.0004643    -0.1296293   -0.0133612 
   0.013353327    -0.0361558   -0.0053473    40.4245300   -0.3122004     0.0054686    0.0000404    -0.1458884   -0.0120852 
   0.013453352    -0.0351313   -0.0035086    40.6224900   -0.4588813     0.0053438    0.0003001    -0.1409792   -0.0057491 
   0.013553377    -0.0349245   -0.0041862    40.4095000   -0.7871407     0.0055879    0.0005442    -0.1335750   -0.0096512 
   0.013653402    -0.0352853   -0.0048964    40.6379900   -0.3734701     0.0054988    0.0002057    -0.1409820   -0.0112998 
   0.013753427    -0.0330476   -0.0043912    40.4195700   -0.5784642     0.0058758    0.0002637    -0.1352658   -0.0191590 
   0.013853452    -0.0342341   -0.0043371    40.5680700   -0.1377987     0.0055835    0.0003478    -0.1352656   -0.0099087 
   0.013953477    -0.0357728   -0.0024615    40.5785700   -0.8535690     0.0053848    0.0002211    -0.1439693   -0.0089392 
   0.014053502    -0.0347116   -0.0036322    40.8102600   -0.3781223     0.0054568    0.0004217    -0.1352635   -0.0076015 
   0.014153527    -0.0356874   -0.0032789    40.7798400   -0.1714150     0.0056482    0.0004166    -0.1329786   -0.0103288 
   0.014253552    -0.0358262   -0.0043342    40.7024000   -0.2457310     0.0055496    0.0003584    -0.1349590   -0.0104472 
   0.014353577    -0.0353890   -0.0027998    40.3708700   -0.0750637     0.0055742    0.0004678    -0.1330469   -0.0073707 
   0.014453602    -0.0354505   -0.0044914    40.6435900    0.0260795     0.0057182    0.0003216    -0.1335598   -0.0133410 
   0.014553627    -0.0352295   -0.0060043    40.0192100   -0.2517080     0.0058871    0.0002564    -0.1348954   -0.0174908 
   0.014653652    -0.0359641   -0.0027616    40.2346800   -0.0681423     0.0056423    0.0001199    -0.1400812   -0.0113444 
   0.014753677    -0.0341341   -0.0030245    40.1400500   -0.4531730     0.0058039    0.0004247    -0.1321496   -0.0121928 
   0.014853702    -0.0355664   -0.0021210    40.7048600   -0.6531367     0.0053823    0.0001737    -0.1427266   -0.0079929 
   0.014953727    -0.0358869   -0.0026514    40.1556600   -0.5269473     0.0054474    0.0002755    -0.1393641   -0.0066312 
   0.015053752    -0.0355439   -0.0047228    40.1046300   -0.6674176     0.0058043    0.0002425    -0.1367056   -0.0154836 
   0.015153777    -0.0353178   -0.0041815    40.5916300   -0.5352487     0.0055997    0.0000355    -0.1430926   -0.0144612 
   0.015253802    -0.0361254   -0.0022188    40.4562300   -0.7297378     0.0055709    0.0000056    -0.1453687   -0.0137871 
   0.015353827    -0.0358233   -0.0030449    41.0110300   -0.6176438     0.0055096    0.0000133    -0.1448471   -0.0130727 
   0.015453852    -0.0367439   -0.0027730    40.6231200   -0.3177505     0.0055815   -0.0001216    -0.1468590   -0.0146626 
   0.015553877    -0.0367458   -0.0026396    40.1210600   -0.4709245     0.0057401    0.0001044    -0.1401614   -0.0149090 
   0.015653902    -0.0340293   -0.0006428    40.2486400   -0.4235835     0.0056429    0.0003395    -0.1351456   -0.0101907 
