! 19-Feb-26 1:25:12 PM
! E:\VNA_MEASUREMENTS\RECBLOCK\LNA1.S2P
! CHANNEL.1
! TR.MEASUREMENT
! CORRECTED.DATA
# GHZ S RI R 50.0
! FREQ.GHZ         S11RE         S11IM         S21RE         S21IM         S12RE         S12IM         S22RE         S22IM         
!; PortSelection: Port_12
   0.000050000     0.0665737    0.7909613     1.0685150   -1.6874600     0.0053313    0.0021277     0.9059539   -0.2684702 
   0.000150025     0.0993803    1.1425930    19.8189300   10.5950700    -0.0004430   -0.0015031     0.4328222   -0.7586522 
   0.000250050     0.7034924    0.2385426    -2.4759100   38.0996900    -0.0033974    0.0027203    -0.0128019   -0.5799973 
   0.000350075     0.0857426   -0.3112188     5.8435160   34.0529700     0.0007338    0.0048568    -0.0712360   -0.3906303 
   0.000450100     0.0872460   -0.2745985    16.6682000   33.7001100     0.0027485    0.0044685    -0.1028115   -0.3028333 
   0.000550125     0.0396627   -0.2234156    23.8157200   29.5296400     0.0038138    0.0038776    -0.1115149   -0.2345133 
   0.000650150     0.0297503   -0.2044290    28.3858100   26.9446200     0.0042681    0.0037684    -0.1231476   -0.1900931 
   0.000750175     0.0180414   -0.1837033    29.8438500   24.5435300     0.0037479    0.0030001    -0.1371077   -0.1911305 
   0.000850200    -0.0010495   -0.1603934    33.4398000   21.3003400     0.0042754    0.0031965    -0.1347781   -0.1517543 
   0.000950225    -0.0032314   -0.1458502    34.4359600   19.9277100     0.0045758    0.0028519    -0.1357393   -0.1338557 
   0.001050250    -0.0073006   -0.1399159    34.9921500   17.2135200     0.0044974    0.0022841    -0.1377393   -0.1350827 
   0.001150275    -0.0158696   -0.1184762    35.7453500   16.7078300     0.0040706    0.0018588    -0.1502328   -0.1362273 
   0.001250300    -0.0128821   -0.1179869    37.0211800   16.3466800     0.0048205    0.0023593    -0.1455989   -0.0958764 
   0.001350325    -0.0212852   -0.1075730    39.0378200   15.1168900     0.0052649    0.0018758    -0.1243916   -0.0917263 
   0.001450350    -0.0258004   -0.0992217    37.5580100   12.7265500     0.0050827    0.0015481    -0.1354385   -0.1019780 
   0.001550375    -0.0230947   -0.0931235    38.7034600   11.9117900     0.0049626    0.0026446    -0.1459050   -0.0642782 
   0.001650400    -0.0202935   -0.0902481    38.6389900   11.4578600     0.0053870    0.0020297    -0.1352240   -0.0701268 
   0.001750425    -0.0270782   -0.0839174    38.7158100   10.1219400     0.0050138    0.0016252    -0.1434767   -0.0786001 
   0.001850450    -0.0256650   -0.0808094    39.4704300    9.4026520     0.0048668    0.0015464    -0.1487552   -0.0734450 
   0.001950475    -0.0285363   -0.0757154    40.1055200    9.7425630     0.0050435    0.0018281    -0.1426829   -0.0550807 
   0.002050500    -0.0329607   -0.0726464    39.2963100    8.2418390     0.0047513    0.0011416    -0.1530357   -0.0761623 
   0.002150525    -0.0277123   -0.0694284    39.3997900    8.0697340     0.0054377    0.0013439    -0.1339185   -0.0632348 
   0.002250550    -0.0283428   -0.0659405    40.2592300    9.4297130     0.0051161    0.0012784    -0.1444305   -0.0549804 
   0.002350575    -0.0293859   -0.0615835    40.1843200    7.2527100     0.0051638    0.0016846    -0.1424185   -0.0454398 
   0.002450600    -0.0325466   -0.0638005    39.4385400    7.5708410     0.0053133    0.0011681    -0.1416765   -0.0533299 
   0.002550625    -0.0279277   -0.0580102    40.0991400    7.8349180     0.0054088    0.0011916    -0.1373936   -0.0453917 
   0.002650650    -0.0330142   -0.0588291    40.7035000    6.4764230     0.0051581    0.0013008    -0.1410798   -0.0453187 
   0.002750675    -0.0323840   -0.0542466    40.5273100    6.5282050     0.0051057    0.0015072    -0.1442870   -0.0359920 
   0.002850700    -0.0322975   -0.0544445    39.0523600    5.8835530     0.0054440    0.0006741    -0.1420181   -0.0571193 
   0.002950725    -0.0303728   -0.0502346    40.1069800    6.5929890     0.0057508    0.0008788    -0.1292123   -0.0455705 
   0.003050750    -0.0325561   -0.0485092    39.8942800    5.3854510     0.0052348    0.0010248    -0.1454311   -0.0426426 
   0.003150775    -0.0307701   -0.0487588    40.2653300    5.7718260     0.0051897    0.0008448    -0.1458723   -0.0410559 
   0.003250800    -0.0300170   -0.0456475    40.6127300    5.6823390     0.0056812    0.0013586    -0.1300094   -0.0272495 
   0.003350825    -0.0338813   -0.0460592    39.8042000    4.7657880     0.0053688    0.0009884    -0.1422690   -0.0377873 
   0.003450850    -0.0321094   -0.0445111    39.9259500    4.3157810     0.0056103    0.0009642    -0.1352293   -0.0386174 
   0.003550875    -0.0343732   -0.0374821    39.8466000    5.5142550     0.0052067    0.0011194    -0.1465480   -0.0257520 
   0.003650900    -0.0315543   -0.0404365    40.7609300    4.0342400     0.0053959    0.0008735    -0.1380304   -0.0367308 
   0.003750925    -0.0323178   -0.0397594    40.4827800    4.1224460     0.0053245    0.0006940    -0.1416534   -0.0386755 
   0.003850950    -0.0327290   -0.0403912    39.7927500    4.0324670     0.0059268    0.0008242    -0.1288066   -0.0371225 
   0.003950975    -0.0348912   -0.0389548    39.6644300    4.2132250     0.0058761    0.0008279    -0.1295216   -0.0342523 
   0.004051001    -0.0324439   -0.0378483    40.2986500    4.3724890     0.0055206    0.0007986    -0.1368696   -0.0298784 
   0.004151026    -0.0348086   -0.0350606    39.6163800    4.1377810     0.0054489    0.0003057    -0.1433630   -0.0412582 
   0.004251051    -0.0338701   -0.0344630    40.5887000    3.9255890     0.0056224    0.0009007    -0.1323486   -0.0257169 
   0.004351076    -0.0345682   -0.0334130    39.8732400    4.4716490     0.0055853    0.0008741    -0.1363526   -0.0223036 
   0.004451101    -0.0303231   -0.0356356    41.0694100    3.5264610     0.0058238    0.0004880    -0.1298316   -0.0376715 
   0.004551126    -0.0336768   -0.0336837    39.8116000    3.2021720     0.0056356    0.0006596    -0.1378376   -0.0308755 
   0.004651151    -0.0351008   -0.0299885    39.8993800    3.6115690     0.0052417    0.0005381    -0.1479157   -0.0294430 
   0.004751176    -0.0332009   -0.0289845    40.3071300    3.3344410     0.0054423    0.0008324    -0.1389797   -0.0228071 
   0.004851201    -0.0334142   -0.0270739    40.5159700    4.0695060     0.0057016    0.0008924    -0.1297742   -0.0183241 
   0.004951226    -0.0366980   -0.0286547    40.0824400    3.2533660     0.0057343    0.0006961    -0.1337601   -0.0259970 
   0.005051251    -0.0342401   -0.0298102    40.8535200    3.0186960     0.0057495    0.0007693    -0.1294264   -0.0241338 
   0.005151276    -0.0366245   -0.0269241    40.3174700    3.1721990     0.0054278    0.0006335    -0.1416284   -0.0230081 
   0.005251301    -0.0363953   -0.0282210    39.9727300    3.4626360     0.0051959    0.0002098    -0.1515494   -0.0302817 
   0.005351326    -0.0347816   -0.0275443    39.6159200    2.9930330     0.0058299    0.0007438    -0.1322092   -0.0208715 
   0.005451351    -0.0326005   -0.0248002    40.0951900    2.8687800     0.0056467    0.0007833    -0.1356548   -0.0185832 
   0.005551376    -0.0356972   -0.0230152    40.1687000    3.0526130     0.0054243    0.0008363    -0.1395937   -0.0136301 
   0.005651401    -0.0361324   -0.0243258    40.1173200    3.1879030     0.0051331    0.0006065    -0.1485719   -0.0176622 
   0.005751426    -0.0351738   -0.0243879    40.2974400    2.0655510     0.0055208    0.0007059    -0.1392784   -0.0201313 
   0.005851451    -0.0323156   -0.0235334    40.2327000    3.1998310     0.0059421    0.0006471    -0.1277769   -0.0209819 
   0.005951476    -0.0356996   -0.0216086    39.9550300    2.5988570     0.0054407    0.0007636    -0.1410255   -0.0146869 
   0.006051501    -0.0362550   -0.0230950    39.3042200    2.1586880     0.0054966    0.0005700    -0.1437178   -0.0196877 
   0.006151526    -0.0342677   -0.0229943    40.2044900    2.3855320     0.0057888    0.0002776    -0.1362244   -0.0305803 
   0.006251551    -0.0373987   -0.0205583    40.0215600    2.5068380     0.0052109    0.0007412    -0.1457219   -0.0104713 
   0.006351576    -0.0350257   -0.0210174    40.2371600    1.6849450     0.0053341    0.0009898    -0.1396579   -0.0077297 
   0.006451601    -0.0344522   -0.0195777    40.7582800    2.3683520     0.0057379    0.0004134    -0.1331870   -0.0244761 
   0.006551626    -0.0346813   -0.0220173    40.5208900    2.0379560     0.0058113    0.0003677    -0.1335256   -0.0263375 
   0.006651651    -0.0337541   -0.0198860    39.8537500    1.9625710     0.0057114    0.0006109    -0.1356806   -0.0187002 
   0.006751676    -0.0337994   -0.0182180    40.3699900    1.6501440     0.0056788    0.0004734    -0.1363574   -0.0222660 
   0.006851701    -0.0378288   -0.0175581    40.3002300    2.1518550     0.0051361    0.0004267    -0.1497236   -0.0145536 
   0.006951726    -0.0343013   -0.0166294    40.1729200    1.8324260     0.0057349    0.0006638    -0.1338751   -0.0167672 
   0.007051751    -0.0360613   -0.0167374    40.3665400    1.9715580     0.0054412    0.0005002    -0.1410630   -0.0171527 
   0.007151776    -0.0350865   -0.0182119    40.2356100    1.7234650     0.0055422    0.0006524    -0.1378023   -0.0128870 
   0.007251801    -0.0351031   -0.0193386    40.1569200    1.5736640     0.0053929    0.0000869    -0.1485912   -0.0247622 
   0.007351826    -0.0356650   -0.0167562    39.6639200    1.7367730     0.0056742    0.0006774    -0.1356777   -0.0123275 
   0.007451851    -0.0348527   -0.0172211    40.6701400    1.9112530     0.0057154    0.0004019    -0.1337156   -0.0206921 
   0.007551876    -0.0370150   -0.0164214    40.2181700    1.9481340     0.0052879    0.0004470    -0.1447124   -0.0122290 
   0.007651901    -0.0372331   -0.0145182    40.3714100    1.5730700     0.0053027    0.0003986    -0.1455180   -0.0146606 
   0.007751926    -0.0334320   -0.0169423    40.6131900    1.8074420     0.0058867    0.0004452    -0.1295866   -0.0208528 
   0.007851951    -0.0360671   -0.0158274    40.4727400    1.2983240     0.0053668    0.0003341    -0.1443467   -0.0170693 
   0.007951976    -0.0359186   -0.0152855    40.5333700    2.0183240     0.0054144    0.0005462    -0.1391898   -0.0104117 
   0.008052001    -0.0361438   -0.0151291    40.2825900    1.6393440     0.0054916    0.0003773    -0.1394278   -0.0152525 
   0.008152026    -0.0352363   -0.0167083    40.6130400    1.3232370     0.0056194    0.0003728    -0.1370934   -0.0180848 
   0.008252051    -0.0349704   -0.0148770    40.7308500    2.0927040     0.0055967    0.0004793    -0.1339905   -0.0138845 
   0.008352076    -0.0358533   -0.0153267    40.0831600    1.2347820     0.0056495    0.0005470    -0.1357170   -0.0129689 
   0.008452101    -0.0367691   -0.0137406    40.0923300    1.7543360     0.0055411    0.0002109    -0.1416134   -0.0177438 
   0.008552126    -0.0344488   -0.0140987    40.6709300    1.0856050     0.0057406    0.0006089    -0.1306835   -0.0146614 
   0.008652151    -0.0353970   -0.0126654    40.5755800    1.2474680     0.0054599    0.0005107    -0.1374877   -0.0117757 
   0.008752176    -0.0359644   -0.0140197    40.2124700    0.6015420     0.0057580    0.0003208    -0.1364581   -0.0213339 
   0.008852201    -0.0354438   -0.0130978    40.0673800    1.4699320     0.0054716    0.0006341    -0.1374017   -0.0065240 
   0.008952226    -0.0350912   -0.0126058    40.0905600    1.1829430     0.0057481    0.0003702    -0.1353978   -0.0174315 
   0.009052251    -0.0352209   -0.0129255    40.0725600    0.9173844     0.0055314    0.0005905    -0.1367858   -0.0087463 
   0.009152276    -0.0347361   -0.0115741    40.2660900    1.3724320     0.0058904    0.0005226    -0.1287061   -0.0163927 
   0.009252301    -0.0358743   -0.0128543    40.2037200    1.2397440     0.0055241    0.0000880    -0.1439256   -0.0182771 
   0.009352326    -0.0349878   -0.0127656    40.1691100    0.8269020     0.0058552    0.0004358    -0.1322394   -0.0176691 
   0.009452351    -0.0354396   -0.0111276    40.7542000    0.3705539     0.0054817    0.0005221    -0.1381383   -0.0117549 
   0.009552376    -0.0356006   -0.0118745    40.2035100    0.8203486     0.0055322    0.0003423    -0.1404597   -0.0136571 
   0.009652401    -0.0355000   -0.0123694    40.3569000    0.7183122     0.0056519    0.0002177    -0.1391683   -0.0185386 
   0.009752426    -0.0347306   -0.0110131    40.9231400    0.9333367     0.0056035    0.0003185    -0.1361911   -0.0171946 
   0.009852451    -0.0346568   -0.0100826    40.8923100    1.1104800     0.0057099    0.0002628    -0.1350732   -0.0186037 
   0.009952476    -0.0366681   -0.0103756    39.9924400    1.2535210     0.0054394    0.0002236    -0.1434533   -0.0119520 
   0.010052501    -0.0352509   -0.0094806    40.3880700    0.8126696     0.0053315    0.0002526    -0.1442775   -0.0114910 
   0.010152526    -0.0349631   -0.0098189    40.3197600    0.8381408     0.0055436    0.0005526    -0.1349502   -0.0092646 
   0.010252551    -0.0349711   -0.0095130    40.3616600    0.9330860     0.0055683    0.0004315    -0.1365446   -0.0114843 
   0.010352576    -0.0341549   -0.0081904    41.3259500    0.9432446     0.0054729    0.0003876    -0.1364254   -0.0117365 
   0.010452601    -0.0337197   -0.0103546    40.4053100    0.9608696     0.0057567    0.0004854    -0.1311436   -0.0134428 
   0.010552626    -0.0336457   -0.0101096    40.7068400    0.3432898     0.0053850    0.0001012    -0.1464750   -0.0148774 
   0.010652651    -0.0360207   -0.0096851    40.4748100    0.5435625     0.0055470    0.0003684    -0.1376959   -0.0128787 
   0.010752676    -0.0360371   -0.0096254    40.5182900    0.5762422     0.0056670    0.0002539    -0.1379791   -0.0167428 
   0.010852701    -0.0351378   -0.0101569    39.9182400    0.5069621     0.0057726    0.0003901    -0.1345184   -0.0146569 
   0.010952726    -0.0361843   -0.0085941    40.1786800    0.6711479     0.0057308    0.0005532    -0.1303014   -0.0111473 
   0.011052751    -0.0339706   -0.0081799    40.1988400    0.4320606     0.0055535    0.0004851    -0.1363213   -0.0080787 
   0.011152776    -0.0349446   -0.0074577    40.5300700    0.3367896     0.0056692    0.0003477    -0.1359668   -0.0152781 
   0.011252801    -0.0365865   -0.0086032    40.1393900    0.4610317     0.0054082    0.0001185    -0.1457347   -0.0122253 
   0.011352826    -0.0357151   -0.0086707    39.7291800    0.2407448     0.0056517    0.0003830    -0.1372387   -0.0126126 
   0.011452851    -0.0361951   -0.0092183    40.2414400   -0.2428945     0.0053674    0.0003387    -0.1432798   -0.0091637 
   0.011552876    -0.0352898   -0.0072931    40.5378800    0.2569820     0.0057510    0.0002710    -0.1357435   -0.0166869 
   0.011652901    -0.0357985   -0.0081111    40.3960800    0.3873377     0.0055965    0.0002868    -0.1378282   -0.0130085 
   0.011752926    -0.0365372   -0.0051718    40.6152200    0.8077224     0.0055899    0.0003250    -0.1361029   -0.0113609 
   0.011852951    -0.0352829   -0.0059588    40.2258300   -0.0926353     0.0054386    0.0002425    -0.1433803   -0.0102326 
   0.011952976    -0.0349044   -0.0070212    40.7272800    0.3972281     0.0055825    0.0004973    -0.1322685   -0.0091300 
   0.012053002    -0.0358501   -0.0071758    40.4748500   -0.0224831     0.0054261    0.0001435    -0.1450266   -0.0128012 
   0.012153027    -0.0352519   -0.0065727    40.2528200    0.1602209     0.0057936    0.0004356    -0.1315210   -0.0141251 
   0.012253052    -0.0371387   -0.0070648    40.6099500    0.3169683     0.0056665    0.0002492    -0.1362548   -0.0150700 
   0.012353077    -0.0344794   -0.0073221    40.2572900   -0.2638525     0.0057050    0.0005102    -0.1326626   -0.0116078 
   0.012453102    -0.0354738   -0.0053491    40.2413400   -0.2060093     0.0056219    0.0004953    -0.1354765   -0.0094355 
   0.012553127    -0.0355265   -0.0057595    40.6953200    0.1096798     0.0054160    0.0001054    -0.1438435   -0.0120139 
   0.012653152    -0.0365694   -0.0069642    40.7356800    0.6272389     0.0057461    0.0001249    -0.1357997   -0.0180471 
   0.012753177    -0.0345035   -0.0053905    40.2796300    0.2237972     0.0057045    0.0004848    -0.1314275   -0.0101576 
   0.012853202    -0.0357311   -0.0050534    40.8594500   -0.0956655     0.0055194    0.0003329    -0.1369912   -0.0114727 
   0.012953227    -0.0344870   -0.0055523    40.3476300    0.2106372     0.0055623    0.0004165    -0.1346651   -0.0089188 
   0.013053252    -0.0338437   -0.0049783    40.7972000   -0.2320055     0.0055865    0.0005867    -0.1310538   -0.0086911 
   0.013153277    -0.0359100   -0.0068704    40.1980300    0.0353750     0.0054685    0.0002046    -0.1413271   -0.0102442 
   0.013253302    -0.0354421   -0.0052430    40.3203200   -0.0323445     0.0056633    0.0001891    -0.1390765   -0.0144093 
   0.013353327    -0.0340317   -0.0061281    40.0869300   -0.4409506     0.0057531    0.0003129    -0.1362329   -0.0146383 
   0.013453352    -0.0351235   -0.0036520    40.2303500   -0.2756678     0.0054721    0.0004966    -0.1349788   -0.0052905 
   0.013553377    -0.0350457   -0.0047930    40.1821700   -0.3597165     0.0056487    0.0001869    -0.1400822   -0.0131797 
   0.013653402    -0.0344787   -0.0057810    40.5819700   -0.3988877     0.0056582    0.0001372    -0.1407550   -0.0160313 
   0.013753427    -0.0343467   -0.0042596    39.9649800   -0.4296169     0.0056285    0.0002820    -0.1381538   -0.0115329 
   0.013853452    -0.0341036   -0.0065053    40.1489500   -0.1769713     0.0058064    0.0000146    -0.1414936   -0.0188898 
   0.013953477    -0.0354903   -0.0026452    40.2069500   -0.6953238     0.0057724    0.0006029    -0.1302655   -0.0124288 
   0.014053502    -0.0351480   -0.0049773    40.3858900   -0.2767356     0.0055672    0.0003418    -0.1372681   -0.0094367 
   0.014153527    -0.0360831   -0.0050522    40.6142700    0.0797199     0.0056768   -0.0000276    -0.1427046   -0.0167456 
   0.014253552    -0.0351626   -0.0053541    40.4926200   -0.0330575     0.0055382    0.0002929    -0.1360268   -0.0092922 
   0.014353577    -0.0355964   -0.0030928    40.1344200   -0.2796152     0.0054362    0.0005038    -0.1347475   -0.0038962 
   0.014453602    -0.0353852   -0.0032291    40.6357400   -0.0052357     0.0053368    0.0004385    -0.1351142   -0.0027415 
   0.014553627    -0.0344843   -0.0027144    40.3055800   -0.2372453     0.0055327    0.0004970    -0.1336775   -0.0069087 
   0.014653652    -0.0363252   -0.0010383    40.5341000    0.3036891     0.0055135    0.0000736    -0.1409076   -0.0100305 
   0.014753677    -0.0343717   -0.0014143    40.2113000   -0.6093858     0.0054947    0.0005049    -0.1340462   -0.0044504 
   0.014853702    -0.0353275   -0.0036334    40.3198400   -0.4832222     0.0055469    0.0002614    -0.1387877   -0.0100096 
   0.014953727    -0.0352248   -0.0031677    40.3910900   -0.7676705     0.0056475    0.0000142    -0.1443631   -0.0150850 
   0.015053752    -0.0340087   -0.0029655    40.6200800   -0.9062891     0.0057540    0.0001609    -0.1398020   -0.0174886 
   0.015153777    -0.0347843   -0.0029870    40.5515400   -0.9658637     0.0053372    0.0001765    -0.1446936   -0.0066379 
   0.015253802    -0.0361738   -0.0014606    40.4832600   -0.4678843     0.0055623    0.0001431    -0.1411214   -0.0115065 
   0.015353827    -0.0350844   -0.0017587    40.9650800   -0.8768526     0.0056478    0.0004545    -0.1328590   -0.0122208 
   0.015453852    -0.0354699   -0.0009590    40.5242300   -0.5271077     0.0052293    0.0003187    -0.1403956   -0.0011867 
   0.015553877    -0.0342342   -0.0026693    40.1341400   -1.0422960     0.0057065    0.0004274    -0.1344651   -0.0116141 
   0.015653902    -0.0338936   -0.0013214    40.3424300   -0.5601309     0.0056265    0.0001836    -0.1393492   -0.0128835 
