! 19-Feb-26 2:46:58 PM
! E:\VNA_MEASUREMENTS\RECBLOCK\LNA2.S2P
! CHANNEL.1
! TR.MEASUREMENT
! CORRECTED.DATA
# GHZ S RI R 50.0
! FREQ.GHZ         S11RE         S11IM         S21RE         S21IM         S12RE         S12IM         S22RE         S22IM         
!; PortSelection: Port_12
   0.000050000    -0.6058728    0.4041044    -1.1801100   -0.7788842     0.0072967    0.0033725     0.9678258   -0.3846039 
   0.000150025    -0.6210594    0.0939526   -10.5554800   15.1427000    -0.0001743   -0.0001179     0.4453135   -0.7416738 
   0.000250050     0.2650071    0.1437268  -120.2797000   55.6765700    -0.0021177    0.0008978     0.1729979   -0.6378368 
   0.000350075     0.0717451   -0.2974327     5.9464310   32.7243900     0.0004887    0.0044610    -0.0647129   -0.3936891 
   0.000450100     0.0678437   -0.2709718    16.8960500   32.7901000     0.0020900    0.0043927    -0.1054349   -0.3140216 
   0.000550125     0.0379818   -0.2205723    23.5701900   29.3130700     0.0027354    0.0041028    -0.1264043   -0.2568710 
   0.000650150     0.0351823   -0.1895799    26.5832300   27.0699600     0.0038584    0.0038090    -0.1288189   -0.2075402 
   0.000750175     0.0087085   -0.1884856    30.8651900   24.3550200     0.0033066    0.0036636    -0.1554482   -0.1854889 
   0.000850200     0.0069601   -0.1677549    34.5066900   22.9942600     0.0042542    0.0030323    -0.1356870   -0.1483070 
   0.000950225     0.0028001   -0.1482393    34.5777300   20.7229400     0.0047229    0.0024516    -0.1301018   -0.1407639 
   0.001050250    -0.0098580   -0.1390185    35.0136000   16.3290600     0.0047265    0.0027278    -0.1369283   -0.1264940 
   0.001150275    -0.0104755   -0.1217244    36.6735400   17.8315900     0.0045759    0.0024616    -0.1449558   -0.1105814 
   0.001250300    -0.0174666   -0.1104006    35.9889200   15.8592100     0.0051929    0.0024929    -0.1389439   -0.0937618 
   0.001350325    -0.0208792   -0.1104655    38.6093700   15.3301300     0.0048300    0.0016380    -0.1340660   -0.1015463 
   0.001450350    -0.0209950   -0.0980217    37.5843900   13.9298200     0.0045355    0.0017794    -0.1525496   -0.0979522 
   0.001550375    -0.0213565   -0.0930663    38.3479200   12.4140300     0.0047583    0.0019801    -0.1483224   -0.0824599 
   0.001650400    -0.0251397   -0.0908971    38.9849200   11.6544700     0.0050426    0.0017419    -0.1417781   -0.0786879 
   0.001750425    -0.0254368   -0.0815347    38.4219900   10.7571000     0.0049728    0.0015793    -0.1457941   -0.0770846 
   0.001850450    -0.0244063   -0.0850477    40.9477700    9.5063110     0.0050860    0.0015180    -0.1366195   -0.0709548 
   0.001950475    -0.0291791   -0.0747303    39.6920900    9.8936050     0.0051178    0.0014866    -0.1410810   -0.0650829 
   0.002050500    -0.0308292   -0.0715624    40.2767800    8.7106400     0.0052599    0.0017365    -0.1368969   -0.0552506 
   0.002150525    -0.0260680   -0.0710252    39.9652600    9.2547520     0.0054173    0.0010268    -0.1341075   -0.0674313 
   0.002250550    -0.0322639   -0.0672598    39.6827200    8.4534850     0.0053066    0.0010725    -0.1398859   -0.0635177 
   0.002350575    -0.0322415   -0.0614359    39.5428600    7.4806280     0.0051916    0.0013601    -0.1429028   -0.0534217 
   0.002450600    -0.0324115   -0.0587784    38.9660000    8.1678660     0.0050525    0.0017754    -0.1516159   -0.0361933 
   0.002550625    -0.0290900   -0.0572022    40.3282200    8.4241530     0.0054335    0.0014008    -0.1357684   -0.0395590 
   0.002650650    -0.0330914   -0.0565726    40.5467100    6.7415290     0.0051991    0.0009992    -0.1410048   -0.0529586 
   0.002750675    -0.0338020   -0.0560503    40.4418200    6.0028180     0.0053307    0.0011974    -0.1376595   -0.0466131 
   0.002850700    -0.0303487   -0.0533274    39.3231700    6.0676200     0.0055580    0.0010612    -0.1381651   -0.0461940 
   0.002950725    -0.0314994   -0.0502628    41.0343800    6.5235170     0.0053470    0.0013512    -0.1375253   -0.0327820 
   0.003050750    -0.0323875   -0.0493261    39.9027900    5.7375790     0.0051575    0.0008267    -0.1469429   -0.0470619 
   0.003150775    -0.0328259   -0.0502323    39.9743600    5.6734300     0.0053540    0.0007533    -0.1415199   -0.0452829 
   0.003250800    -0.0316894   -0.0448006    39.9098800    5.8613330     0.0055828    0.0011373    -0.1367251   -0.0328856 
   0.003350825    -0.0330285   -0.0453610    40.1262300    5.3672980     0.0055043    0.0012277    -0.1353749   -0.0287790 
   0.003450850    -0.0324563   -0.0419426    40.0990800    5.0702990     0.0054611    0.0011437    -0.1383561   -0.0309166 
   0.003550875    -0.0335572   -0.0398357    40.4549900    5.5788470     0.0054899    0.0008209    -0.1370351   -0.0347451 
   0.003650900    -0.0300509   -0.0399424    40.9317600    4.3304710     0.0055603    0.0010503    -0.1325435   -0.0310125 
   0.003750925    -0.0331485   -0.0407434    40.7979800    4.0590150     0.0054657    0.0004189    -0.1379748   -0.0471652 
   0.003850950    -0.0342148   -0.0409903    40.0740100    3.8968300     0.0053781    0.0006387    -0.1432712   -0.0397335 
   0.003950975    -0.0364092   -0.0362511    39.4458500    4.5633680     0.0052434    0.0010396    -0.1458426   -0.0239682 
   0.004051001    -0.0322275   -0.0370353    40.4750500    3.7700360     0.0055515    0.0008748    -0.1357531   -0.0299775 
   0.004151026    -0.0358282   -0.0343586    39.6297900    3.2212700     0.0053766    0.0008480    -0.1433468   -0.0300248 
   0.004251051    -0.0350108   -0.0324065    40.6854100    3.4889200     0.0054211    0.0011820    -0.1365846   -0.0196797 
   0.004351076    -0.0352325   -0.0330131    39.3397100    4.0894820     0.0056667    0.0004809    -0.1393903   -0.0353180 
   0.004451101    -0.0344838   -0.0315110    40.4063300    4.1678330     0.0052477    0.0008659    -0.1443225   -0.0216385 
   0.004551126    -0.0344889   -0.0335016    39.8587200    2.9851660     0.0055458    0.0002985    -0.1438441   -0.0402167 
   0.004651151    -0.0340780   -0.0316430    40.1090800    3.4108820     0.0053796    0.0004294    -0.1447464   -0.0339781 
   0.004751176    -0.0333179   -0.0286376    40.6731400    3.3890920     0.0054947    0.0007578    -0.1374081   -0.0258039 
   0.004851201    -0.0342050   -0.0281904    40.8371600    4.3652410     0.0055667    0.0005233    -0.1346659   -0.0269795 
   0.004951226    -0.0380730   -0.0282538    39.8193000    3.4285850     0.0056773    0.0009962    -0.1342894   -0.0172126 
   0.005051251    -0.0369083   -0.0276409    40.8812300    3.6880930     0.0051494    0.0007280    -0.1454839   -0.0183523 
   0.005151276    -0.0367439   -0.0277578    40.6150600    3.0571890     0.0051326    0.0006688    -0.1477218   -0.0204085 
   0.005251301    -0.0366401   -0.0264603    40.4302200    3.3437280     0.0052707    0.0005609    -0.1463171   -0.0212650 
   0.005351326    -0.0361316   -0.0290435    40.4204100    2.4578150     0.0052631    0.0004979    -0.1469572   -0.0248065 
   0.005451351    -0.0330823   -0.0247869    39.7612200    2.3399910     0.0052388    0.0005621    -0.1504700   -0.0224700 
   0.005551376    -0.0367746   -0.0244475    39.8499800    3.0786780     0.0055509    0.0008641    -0.1368428   -0.0137996 
   0.005651401    -0.0345293   -0.0232490    39.8015700    3.0379160     0.0059856    0.0006231    -0.1275246   -0.0238880 
   0.005751426    -0.0346601   -0.0235559    40.7496500    2.2303570     0.0053118    0.0006359    -0.1428391   -0.0196129 
   0.005851451    -0.0332597   -0.0251406    39.7489200    2.7966810     0.0055876    0.0004898    -0.1393940   -0.0221022 
   0.005951476    -0.0354833   -0.0198698    40.3883500    3.1991070     0.0055618    0.0008443    -0.1347359   -0.0116591 
   0.006051501    -0.0358881   -0.0229483    40.0232000    2.0039610     0.0054683    0.0007167    -0.1403294   -0.0167079 
   0.006151526    -0.0357874   -0.0201677    40.3012900    2.5721480     0.0053499    0.0006913    -0.1430894   -0.0148234 
   0.006251551    -0.0375414   -0.0213628    40.6383900    2.4162550     0.0055433    0.0007554    -0.1348199   -0.0148444 
   0.006351576    -0.0344978   -0.0216708    40.5090900    2.1877970     0.0056538    0.0002288    -0.1389018   -0.0291566 
   0.006451601    -0.0354647   -0.0184132    40.7629100    2.0904510     0.0055564    0.0008262    -0.1338380   -0.0133443 
   0.006551626    -0.0358454   -0.0233002    40.6937000    1.6995260     0.0056425    0.0001753    -0.1394991   -0.0310539 
   0.006651651    -0.0362289   -0.0181120    40.1878200    1.9648500     0.0053810    0.0004374    -0.1449867   -0.0186442 
   0.006751676    -0.0346976   -0.0197499    40.8506300    2.0730410     0.0054782    0.0005116    -0.1392810   -0.0182283 
   0.006851701    -0.0350949   -0.0176634    39.8892100    2.6260210     0.0058235    0.0005846    -0.1316152   -0.0170210 
   0.006951726    -0.0346514   -0.0175874    40.4934800    1.1292130     0.0056073    0.0006046    -0.1367958   -0.0193874 
   0.007051751    -0.0364211   -0.0174312    40.3893600    2.3756770     0.0053857    0.0006587    -0.1393606   -0.0098415 
   0.007151776    -0.0351834   -0.0166099    40.4958400    2.1880100     0.0054849    0.0006106    -0.1380968   -0.0111950 
   0.007251801    -0.0353857   -0.0175300    40.6122600    1.7393320     0.0054887    0.0005006    -0.1381596   -0.0177160 
   0.007351826    -0.0366880   -0.0164216    39.9452100    2.0275310     0.0055462    0.0003391    -0.1417557   -0.0181924 
   0.007451851    -0.0364739   -0.0153843    40.8058500    1.9563610     0.0052511    0.0005109    -0.1429476   -0.0116603 
   0.007551876    -0.0375879   -0.0165546    39.9176300    1.6576270     0.0053353    0.0005287    -0.1441963   -0.0114345 
   0.007651901    -0.0362449   -0.0145242    40.1784200    1.6508120     0.0056721    0.0006746    -0.1328837   -0.0129045 
   0.007751926    -0.0355927   -0.0167807    40.1424100    2.1547490     0.0055286    0.0005569    -0.1373216   -0.0105110 
   0.007851951    -0.0354217   -0.0161553    40.7614400    1.1935570     0.0055494    0.0004676    -0.1376306   -0.0175058 
   0.007951976    -0.0370538   -0.0160958    40.2265400    2.0843480     0.0056917    0.0002682    -0.1369133   -0.0203243 
   0.008052001    -0.0357268   -0.0148417    40.1287100    1.9244610     0.0054056    0.0004572    -0.1407750   -0.0106271 
   0.008152026    -0.0367593   -0.0162307    40.4137000    1.1088560     0.0055568    0.0003796    -0.1392313   -0.0175740 
   0.008252051    -0.0369215   -0.0162124    40.1787400    2.4158950     0.0054431    0.0000534    -0.1440206   -0.0192567 
   0.008352076    -0.0364178   -0.0148827    40.0588800    1.4858210     0.0053549    0.0003441    -0.1453490   -0.0123726 
   0.008452101    -0.0360569   -0.0123333    40.2104100    1.7114280     0.0055979    0.0005875    -0.1337435   -0.0104239 
   0.008552126    -0.0359844   -0.0130249    40.6540200    0.9038851     0.0054708    0.0007695    -0.1344688   -0.0071111 
   0.008652151    -0.0359923   -0.0131104    40.2718200    1.1605350     0.0054888    0.0004058    -0.1393493   -0.0139292 
   0.008752176    -0.0366620   -0.0132928    40.3690400    1.2695850     0.0053927    0.0004236    -0.1407003   -0.0114082 
   0.008852201    -0.0359132   -0.0124919    40.5172300    0.9416119     0.0054078    0.0004088    -0.1420138   -0.0124001 
   0.008952226    -0.0371180   -0.0115383    39.9875600    1.3097830     0.0052075    0.0006520    -0.1427177   -0.0013500 
   0.009052251    -0.0346456   -0.0137176    40.2750500    0.8162237     0.0056554    0.0005832    -0.1336328   -0.0112247 
   0.009152276    -0.0362552   -0.0119290    40.6050600    1.0578310     0.0055700    0.0002475    -0.1395862   -0.0180394 
   0.009252301    -0.0359136   -0.0123050    40.0698800    1.0534190     0.0053029    0.0004182    -0.1438787   -0.0071850 
   0.009352326    -0.0369888   -0.0123717    39.8263200    0.7119099     0.0055503   -0.0000349    -0.1476447   -0.0211705 
   0.009452351    -0.0356430   -0.0105010    41.0178300    0.8036565     0.0052724    0.0004391    -0.1424871   -0.0088843 
   0.009552376    -0.0361435   -0.0103831    40.4779100    0.8221448     0.0054253    0.0004394    -0.1405391   -0.0100493 
   0.009652401    -0.0358028   -0.0108839    40.4939800    0.6457929     0.0056408    0.0003700    -0.1362637   -0.0162970 
   0.009752426    -0.0367559   -0.0100154    40.4267900    1.1830470     0.0054653    0.0001713    -0.1426729   -0.0148868 
   0.009852451    -0.0351475   -0.0101623    40.9425500    0.6707363     0.0056385    0.0004857    -0.1335655   -0.0139740 
   0.009952476    -0.0365252   -0.0090537    40.6475600    1.0146320     0.0054195    0.0001800    -0.1434404   -0.0144719 
   0.010052501    -0.0363053   -0.0102717    40.6232000    0.9299492     0.0054163    0.0003800    -0.1394051   -0.0107835 
   0.010152526    -0.0343320   -0.0099218    40.7978900    0.5945293     0.0056000    0.0004175    -0.1361659   -0.0145756 
   0.010252551    -0.0353261   -0.0096658    40.2159800    1.1668010     0.0055568    0.0005346    -0.1342806   -0.0078636 
   0.010352576    -0.0361679   -0.0084300    40.9483100    1.2134900     0.0055536    0.0003649    -0.1356687   -0.0117646 
   0.010452601    -0.0353470   -0.0103524    40.2635000    0.8943890     0.0058032    0.0002803    -0.1348471   -0.0172903 
   0.010552626    -0.0359025   -0.0106440    40.4383100    0.8635284     0.0057122    0.0000373    -0.1405436   -0.0213076 
   0.010652651    -0.0347293   -0.0092716    40.8342200    0.7561515     0.0055623    0.0003398    -0.1371243   -0.0137201 
   0.010752676    -0.0363182   -0.0088938    40.4832900    0.7010112     0.0055753    0.0003666    -0.1361846   -0.0122730 
   0.010852701    -0.0356125   -0.0081923    40.4618100    0.4739152     0.0055355    0.0002872    -0.1399027   -0.0132832 
   0.010952726    -0.0368229   -0.0078294    40.2455900    0.8458850     0.0053487    0.0005474    -0.1374004   -0.0034026 
   0.011052751    -0.0332710   -0.0096112    40.4432800    0.5170904     0.0057833    0.0002471    -0.1361844   -0.0174522 
   0.011152776    -0.0362499   -0.0084137    40.7124500    0.0540993     0.0054213    0.0002121    -0.1428536   -0.0133456 
   0.011252801    -0.0360230   -0.0075499    40.3198700    0.5556481     0.0053985    0.0004552    -0.1381939   -0.0059934 
   0.011352826    -0.0360559   -0.0070712    40.1184800    0.5258097     0.0056516    0.0003914    -0.1354567   -0.0125817 
   0.011452851    -0.0358166   -0.0070182    40.7195300    0.2074752     0.0055770    0.0005172    -0.1332508   -0.0105924 
   0.011552876    -0.0363374   -0.0071179    40.1855600    0.5555173     0.0056255    0.0002015    -0.1387737   -0.0132926 
   0.011652901    -0.0346697   -0.0067336    40.7767000    0.5235900     0.0059327    0.0004883    -0.1264501   -0.0170898 
   0.011752926    -0.0363145   -0.0067431    40.3326300    0.2735792     0.0056429    0.0003228    -0.1366844   -0.0136836 
   0.011852951    -0.0345090   -0.0061224    40.4722700   -0.2062059     0.0057217    0.0004258    -0.1333782   -0.0141837 
   0.011952976    -0.0368597   -0.0083381    40.4817800    0.4315130     0.0054971    0.0002154    -0.1403776   -0.0109759 
   0.012053002    -0.0345867   -0.0068005    40.2710900    0.1024801     0.0056339    0.0004840    -0.1329557   -0.0100895 
   0.012153027    -0.0369684   -0.0068793    40.1237700    0.4896031     0.0055476    0.0001875    -0.1403911   -0.0113866 
   0.012253052    -0.0380942   -0.0057424    40.2245300    0.0368458     0.0055050    0.0004901    -0.1357560   -0.0072740 
   0.012353077    -0.0359675   -0.0066051    40.4627600   -0.1521164     0.0055865    0.0005365    -0.1330081   -0.0080915 
   0.012453102    -0.0363173   -0.0071772    39.9728700    0.0597002     0.0057385    0.0001116    -0.1413939   -0.0161008 
   0.012553127    -0.0344592   -0.0056140    40.6704700   -0.1475183     0.0055288    0.0004277    -0.1355528   -0.0096312 
   0.012653152    -0.0363562   -0.0058297    40.6878000    0.0322836     0.0055738    0.0000252    -0.1424815   -0.0162047 
   0.012753177    -0.0343811   -0.0057510    40.6324700    0.0593327     0.0055361    0.0003036    -0.1378754   -0.0110088 
   0.012853202    -0.0354856   -0.0060973    40.5894400   -0.2025697     0.0056062    0.0003460    -0.1363940   -0.0127402 
   0.012953227    -0.0363539   -0.0053746    40.4498500    0.4643279     0.0055020    0.0001717    -0.1402680   -0.0105165 
   0.013053252    -0.0356178   -0.0055134    41.1528700    0.0340643     0.0056056    0.0002417    -0.1369272   -0.0149234 
   0.013153277    -0.0339980   -0.0063733    40.3265700   -0.4279504     0.0057552    0.0003839    -0.1341566   -0.0148631 
   0.013253302    -0.0365720   -0.0054754    40.4212000    0.0351563     0.0055155    0.0000806    -0.1440172   -0.0122975 
   0.013353327    -0.0356020   -0.0054546    40.3566200   -0.2665874     0.0056571    0.0001632    -0.1402130   -0.0146605 
   0.013453352    -0.0353148   -0.0051117    40.3856800   -0.3816296     0.0057236    0.0002706    -0.1367480   -0.0145792 
   0.013553377    -0.0351158   -0.0036897    40.4551800   -0.7110680     0.0055587    0.0003537    -0.1386588   -0.0110209 
   0.013653402    -0.0357537   -0.0055861    40.3567000   -0.3071287     0.0056257    0.0001810    -0.1400958   -0.0130711 
   0.013753427    -0.0339549   -0.0037882    40.5482700   -0.1483689     0.0058538    0.0003221    -0.1319152   -0.0169918 
   0.013853452    -0.0344112   -0.0047159    40.2994000    0.0181499     0.0055198    0.0002994    -0.1374183   -0.0079794 
   0.013953477    -0.0362371   -0.0037705    40.1445600   -0.8005452     0.0056394    0.0003777    -0.1377431   -0.0115005 
   0.014053502    -0.0361286   -0.0038546    40.6048200   -0.1248789     0.0054381    0.0004295    -0.1355808   -0.0060381 
   0.014153527    -0.0360108   -0.0041674    40.3432600   -0.1603438     0.0055909    0.0003988    -0.1350147   -0.0084032 
   0.014253552    -0.0360342   -0.0054611    40.5718300   -0.1886623     0.0056089    0.0000682    -0.1397884   -0.0140505 
   0.014353577    -0.0362161   -0.0032651    40.1088800    0.3392513     0.0057178    0.0004144    -0.1312092   -0.0103541 
   0.014453602    -0.0358229   -0.0046952    40.4755100   -0.1280615     0.0055501    0.0000696    -0.1419380   -0.0119594 
   0.014553627    -0.0340617   -0.0024839    40.6919600   -0.5149651     0.0054037    0.0003539    -0.1382036   -0.0061098 
   0.014653652    -0.0362323   -0.0024324    40.4256100    0.1180579     0.0056343    0.0001647    -0.1386514   -0.0116857 
   0.014753677    -0.0353843   -0.0014138    40.0027000   -0.5453089     0.0054269    0.0003730    -0.1385359   -0.0038111 
   0.014853702    -0.0357183   -0.0035464    40.3179600   -0.5216532     0.0054402    0.0003211    -0.1388828   -0.0066327 
   0.014953727    -0.0339928   -0.0015048    40.1872100   -0.9841608     0.0053426    0.0003973    -0.1383655   -0.0030682 
   0.015053752    -0.0359188   -0.0036743    39.9840800   -0.5794122     0.0056469    0.0002029    -0.1398427   -0.0115739 
   0.015153777    -0.0355792   -0.0040608    40.1737400   -0.3774248     0.0057671    0.0004045    -0.1321028   -0.0130587 
   0.015253802    -0.0346690   -0.0028101    40.6773600   -0.8386312     0.0059456    0.0002763    -0.1338288   -0.0209574 
   0.015353827    -0.0357661   -0.0034120    40.6195600   -0.9855226     0.0054623    0.0002055    -0.1412623   -0.0094642 
   0.015453852    -0.0350481   -0.0025490    40.8149600   -0.7370093     0.0056389    0.0003657    -0.1351447   -0.0113377 
   0.015553877    -0.0344943   -0.0030806    40.2257000   -1.2039040     0.0057534    0.0003095    -0.1365481   -0.0140111 
   0.015653902    -0.0354824   -0.0012258    40.4313700   -0.1259529     0.0056598    0.0001784    -0.1374968   -0.0123765 
