! 19-Feb-26 2:49:09 PM
! E:\VNA_MEASUREMENTS\RECBLOCK\LNA3.S2P
! CHANNEL.1
! TR.MEASUREMENT
! CORRECTED.DATA
# GHZ S RI R 50.0
! FREQ.GHZ         S11RE         S11IM         S21RE         S21IM         S12RE         S12IM         S22RE         S22IM         
!; PortSelection: Port_12
   0.000050000     0.1447584    0.5493710    -0.8765702    0.6240157    -0.0049291    0.0023365     0.9495310   -0.2827771 
   0.000150025     0.6247091   -0.6681638    -0.4579406    2.2117040    -0.0053604    0.0001018     0.4505711   -0.7585835 
   0.000250050     1.1025310    0.2454029    53.3978600   -8.3561750    -0.0026551    0.0023250    -0.0183570   -0.4547779 
   0.000350075     0.0756656   -0.2830473     5.4399590   31.8091100     0.0005310    0.0040281    -0.0555646   -0.3902909 
   0.000450100     0.0796739   -0.2702261    16.5281800   33.2605400     0.0028872    0.0044789    -0.1087109   -0.2980596 
   0.000550125     0.0590840   -0.2234719    22.9595900   31.3608000     0.0034635    0.0042514    -0.1265903   -0.2397919 
   0.000650150     0.0301589   -0.1994147    27.6824300   26.9187700     0.0033522    0.0031017    -0.1230844   -0.2237761 
   0.000750175     0.0073189   -0.1858055    30.5635800   23.5103100     0.0038532    0.0028301    -0.1280873   -0.1918744 
   0.000850200     0.0056329   -0.1696157    34.5844700   22.7134700     0.0042726    0.0027656    -0.1295849   -0.1535130 
   0.000950225    -0.0067624   -0.1587975    36.1084300   19.2176100     0.0048971    0.0022525    -0.1163667   -0.1414738 
   0.001050250    -0.0082193   -0.1403816    35.5196500   16.7214800     0.0051740    0.0023749    -0.1227300   -0.1272744 
   0.001150275    -0.0155854   -0.1250739    36.8795100   16.9514400     0.0042922    0.0022830    -0.1498444   -0.1204620 
   0.001250300    -0.0145462   -0.1181464    37.5695100   15.3443900     0.0047726    0.0022615    -0.1416096   -0.1014042 
   0.001350325    -0.0234436   -0.1116916    38.8406800   14.5943300     0.0050240    0.0018633    -0.1317754   -0.0977288 
   0.001450350    -0.0232515   -0.0976105    38.0537300   13.4762600     0.0047141    0.0021589    -0.1500160   -0.0877833 
   0.001550375    -0.0228975   -0.0946151    38.3083500   12.4405200     0.0044546    0.0018506    -0.1576402   -0.0864174 
   0.001650400    -0.0212019   -0.0912083    38.5506800   11.7675900     0.0054808    0.0014461    -0.1297593   -0.0834372 
   0.001750425    -0.0221474   -0.0807803    38.8263100   11.3328600     0.0056056    0.0019364    -0.1298528   -0.0621800 
   0.001850450    -0.0216302   -0.0794431    39.5482300   10.7902200     0.0053537    0.0011434    -0.1326136   -0.0788468 
   0.001950475    -0.0282444   -0.0722383    39.0494400   10.2733900     0.0053646    0.0017590    -0.1371244   -0.0558608 
   0.002050500    -0.0317274   -0.0722257    39.4052400    9.0167680     0.0046967    0.0013428    -0.1550688   -0.0673741 
   0.002150525    -0.0310950   -0.0683915    39.1375900    8.0441200     0.0048509    0.0015162    -0.1512849   -0.0606371 
   0.002250550    -0.0298381   -0.0630571    39.7581800    9.0959380     0.0049532    0.0015933    -0.1508557   -0.0485996 
   0.002350575    -0.0298517   -0.0623856    39.7819200    7.2736120     0.0054163    0.0010193    -0.1359080   -0.0644966 
   0.002450600    -0.0324945   -0.0624508    38.5748700    7.8424690     0.0052743    0.0009610    -0.1455609   -0.0579053 
   0.002550625    -0.0275964   -0.0530223    39.1603900    8.7382910     0.0057980    0.0014367    -0.1309377   -0.0362454 
   0.002650650    -0.0328772   -0.0532211    40.2440400    6.7218810     0.0054092    0.0015849    -0.1365659   -0.0372554 
   0.002750675    -0.0315317   -0.0522198    40.1676300    5.9384150     0.0053761    0.0015335    -0.1381668   -0.0398415 
   0.002850700    -0.0278246   -0.0519347    39.2884400    6.4441800     0.0059429    0.0009792    -0.1284526   -0.0473720 
   0.002950725    -0.0324260   -0.0477836    40.1634000    6.9903050     0.0055642    0.0011131    -0.1338506   -0.0381019 
   0.003050750    -0.0307518   -0.0473790    40.0578800    6.6656950     0.0052649    0.0010287    -0.1438381   -0.0381065 
   0.003150775    -0.0313402   -0.0487761    39.8980500    5.0967990     0.0057270    0.0009011    -0.1314824   -0.0443776 
   0.003250800    -0.0319720   -0.0474314    40.6223800    5.0993290     0.0054957    0.0010457    -0.1362084   -0.0375444 
   0.003350825    -0.0330971   -0.0445867    39.2916800    5.2171620     0.0057678    0.0008804    -0.1337726   -0.0400445 
   0.003450850    -0.0320046   -0.0433679    40.7025800    4.0721250     0.0055934    0.0010522    -0.1329115   -0.0367785 
   0.003550875    -0.0361478   -0.0391411    40.1213500    4.6022840     0.0052616    0.0006788    -0.1455404   -0.0415599 
   0.003650900    -0.0319313   -0.0401813    40.6057400    4.3373200     0.0052389    0.0009803    -0.1421878   -0.0315338 
   0.003750925    -0.0338800   -0.0393760    40.2298800    3.9254290     0.0053199    0.0008641    -0.1418674   -0.0347556 
   0.003850950    -0.0333595   -0.0431927    40.0404300    3.3545740     0.0055593    0.0006455    -0.1388197   -0.0421977 
   0.003950975    -0.0368674   -0.0382262    40.3043100    4.6817100     0.0053365    0.0004395    -0.1438061   -0.0402848 
   0.004051001    -0.0336230   -0.0369009    40.2598800    4.4447570     0.0052171    0.0007376    -0.1462568   -0.0290874 
   0.004151026    -0.0366705   -0.0342370    39.8380200    3.2467010     0.0053765    0.0008707    -0.1432291   -0.0292855 
   0.004251051    -0.0340677   -0.0345189    40.8598700    3.7018600     0.0053090    0.0005630    -0.1437413   -0.0347411 
   0.004351076    -0.0350858   -0.0364967    40.3190300    3.6050760     0.0051025    0.0003764    -0.1517122   -0.0358612 
   0.004451101    -0.0358485   -0.0325608    40.0027700    3.2982820     0.0050786    0.0005165    -0.1534326   -0.0331811 
   0.004551126    -0.0359604   -0.0315057    39.6419800    3.7069670     0.0053596    0.0007693    -0.1447785   -0.0242024 
   0.004651151    -0.0354172   -0.0305243    39.9559500    3.2420430     0.0053562    0.0005260    -0.1452972   -0.0310596 
   0.004751176    -0.0347411   -0.0297468    40.4183500    2.9600380     0.0052375    0.0007233    -0.1450574   -0.0252622 
   0.004851201    -0.0332167   -0.0261230    40.3601000    4.2765040     0.0052311    0.0010373    -0.1418358   -0.0102566 
   0.004951226    -0.0364806   -0.0295716    39.8465200    3.2448610     0.0058602    0.0007674    -0.1309469   -0.0248235 
   0.005051251    -0.0340226   -0.0301553    40.9794200    3.0109780     0.0056209    0.0002939    -0.1368730   -0.0365891 
   0.005151276    -0.0349102   -0.0279324    40.5652000    3.1773070     0.0059418    0.0005537    -0.1271990   -0.0301353 
   0.005251301    -0.0354474   -0.0271181    39.9355100    2.3301680     0.0055187    0.0008625    -0.1392885   -0.0202268 
   0.005351326    -0.0361477   -0.0250297    40.0305400    3.6046550     0.0053272    0.0005200    -0.1452664   -0.0220694 
   0.005451351    -0.0337124   -0.0280640    39.8218600    2.3164840     0.0054436    0.0002735    -0.1469384   -0.0322490 
   0.005551376    -0.0336963   -0.0252730    40.2913700    2.7356740     0.0055087    0.0006778    -0.1385947   -0.0202645 
   0.005651401    -0.0354316   -0.0223735    39.9041600    3.7361300     0.0054258    0.0006686    -0.1402358   -0.0149309 
   0.005751426    -0.0356366   -0.0247921    40.3494800    2.2036090     0.0057783    0.0003523    -0.1351420   -0.0314291 
   0.005851451    -0.0344536   -0.0246811    39.6892900    2.6414270     0.0053034    0.0003336    -0.1497550   -0.0240460 
   0.005951476    -0.0370744   -0.0226136    39.9099600    2.8148240     0.0055666    0.0004031    -0.1414182   -0.0246036 
   0.006051501    -0.0366910   -0.0229088    39.5703100    2.5417740     0.0053533    0.0003046    -0.1493055   -0.0243120 
   0.006151526    -0.0352143   -0.0239681    40.0879500    2.1205000     0.0055514    0.0004875    -0.1403793   -0.0227085 
   0.006251551    -0.0374203   -0.0225920    40.4943200    2.2563590     0.0055182    0.0005649    -0.1385638   -0.0189461 
   0.006351576    -0.0347407   -0.0209425    40.6940200    2.4629840     0.0057434    0.0003640    -0.1351607   -0.0262854 
   0.006451601    -0.0372911   -0.0186311    40.3353000    2.4133090     0.0052057    0.0006140    -0.1453384   -0.0119235 
   0.006551626    -0.0364833   -0.0207433    40.6719700    2.0815060     0.0055574    0.0006553    -0.1355418   -0.0168636 
   0.006651651    -0.0349174   -0.0194978    39.7896800    1.8518530     0.0057854    0.0007537    -0.1325554   -0.0155929 
   0.006751676    -0.0348440   -0.0187799    40.8792000    1.6450640     0.0054464    0.0005749    -0.1395852   -0.0176298 
   0.006851701    -0.0348766   -0.0177510    40.1875500    2.7896060     0.0058630    0.0006127    -0.1296066   -0.0166076 
   0.006951726    -0.0347087   -0.0194779    40.6437300    1.4175690     0.0054237    0.0001306    -0.1463642   -0.0272371 
   0.007051751    -0.0367091   -0.0170295    40.4771300    2.2437370     0.0052187    0.0005979    -0.1442980   -0.0103148 
   0.007151776    -0.0362557   -0.0176779    39.9116800    1.6201540     0.0055316    0.0006222    -0.1390018   -0.0135550 
   0.007251801    -0.0353904   -0.0185607    40.0451800    2.1069050     0.0058369    0.0002092    -0.1353839   -0.0257609 
   0.007351826    -0.0363619   -0.0175940    39.5774300    2.0680280     0.0056398    0.0003911    -0.1399880   -0.0177926 
   0.007451851    -0.0341068   -0.0154601    41.3008500    1.7560110     0.0057970    0.0005687    -0.1275845   -0.0199027 
   0.007551876    -0.0374145   -0.0168808    39.9434700    1.9600130     0.0054309    0.0005602    -0.1413058   -0.0113756 
   0.007651901    -0.0369906   -0.0145248    40.6947100    1.7915520     0.0055224    0.0002965    -0.1405672   -0.0209834 
   0.007751926    -0.0366689   -0.0175327    40.1165100    1.8727650     0.0053900    0.0005094    -0.1411427   -0.0115400 
   0.007851951    -0.0377807   -0.0147655    40.6076000    1.5228350     0.0054683    0.0004211    -0.1402194   -0.0158720 
   0.007951976    -0.0367224   -0.0151936    39.9979100    2.1796380     0.0056826    0.0006060    -0.1325651   -0.0123363 
   0.008052001    -0.0339098   -0.0133911    40.1487100    1.6699120     0.0057446    0.0006703    -0.1311201   -0.0118568 
   0.008152026    -0.0351312   -0.0165943    40.7552500    0.7306980     0.0056478    0.0005002    -0.1355664   -0.0182520 
   0.008252051    -0.0362897   -0.0143096    40.5341000    2.1444820     0.0053963    0.0004603    -0.1394540   -0.0102410 
   0.008352076    -0.0359584   -0.0144480    40.0951100    1.2645050     0.0053822    0.0004426    -0.1430565   -0.0107869 
   0.008452101    -0.0353828   -0.0138787    40.3398100    1.3864450     0.0055893    0.0005966    -0.1338658   -0.0114269 
   0.008552126    -0.0357972   -0.0152422    40.6666000    1.0958440     0.0056177    0.0004869    -0.1351781   -0.0157107 
   0.008652151    -0.0355904   -0.0123827    40.3981400    1.3504870     0.0056186    0.0003752    -0.1373410   -0.0162866 
   0.008752176    -0.0369849   -0.0118024    40.0972700    1.5545760     0.0053977    0.0004099    -0.1420857   -0.0096711 
   0.008852201    -0.0365184   -0.0129889    40.1260500    1.2255370     0.0055834    0.0006249    -0.1352778   -0.0096651 
   0.008952226    -0.0367350   -0.0144133    39.8178300    1.2892650     0.0054897    0.0001553    -0.1442671   -0.0163767 
   0.009052251    -0.0356784   -0.0129431    40.5170400    0.9617106     0.0054747    0.0005361    -0.1379085   -0.0101625 
   0.009152276    -0.0352034   -0.0118106    40.7712100    1.2627820     0.0057096    0.0004630    -0.1318175   -0.0156746 
   0.009252301    -0.0348983   -0.0113515    40.3068400    0.9964251     0.0055103    0.0007801    -0.1331247   -0.0042444 
   0.009352326    -0.0340350   -0.0116768    40.0226900    0.4349917     0.0056467    0.0003643    -0.1398354   -0.0168035 
   0.009452351    -0.0360359   -0.0114247    40.8038400    0.6192631     0.0053714    0.0003629    -0.1425309   -0.0125092 
   0.009552376    -0.0358892   -0.0109643    40.5089800    0.7255836     0.0056518    0.0002812    -0.1380263   -0.0179117 
   0.009652401    -0.0350309   -0.0114390    40.5816500    0.8256849     0.0057477    0.0005007    -0.1317422   -0.0149176 
   0.009752426    -0.0341811   -0.0106008    40.6397500    0.8175111     0.0055596    0.0003666    -0.1375454   -0.0147813 
   0.009852451    -0.0356719   -0.0101947    40.6965400    0.8748613     0.0055819    0.0003738    -0.1374550   -0.0140138 
   0.009952476    -0.0357233   -0.0103687    40.2670000    0.4855660     0.0056878    0.0005392    -0.1343396   -0.0126232 
   0.010052501    -0.0365148   -0.0105274    40.0001200    0.7343071     0.0053568    0.0004679    -0.1411704   -0.0061411 
   0.010152526    -0.0352722   -0.0105216    40.9076500    0.9363447     0.0057157    0.0002469    -0.1359666   -0.0203871 
   0.010252551    -0.0359552   -0.0081347    40.0621600    1.4451280     0.0055211    0.0003253    -0.1395715   -0.0094805 
   0.010352576    -0.0357551   -0.0090882    41.1691400    1.0558180     0.0056059    0.0005048    -0.1312704   -0.0112950 
   0.010452601    -0.0356626   -0.0102524    40.1293800    1.0959110     0.0054946    0.0003893    -0.1387401   -0.0086400 
   0.010552626    -0.0340706   -0.0095239    40.6308400    0.9167299     0.0057993    0.0005059    -0.1287448   -0.0138590 
   0.010652651    -0.0361934   -0.0086413    40.7000200    0.7314366     0.0055359    0.0004963    -0.1344747   -0.0098898 
   0.010752676    -0.0366766   -0.0084453    40.6205400    0.6748310     0.0054233    0.0004357    -0.1384693   -0.0086507 
   0.010852701    -0.0352168   -0.0090860    40.6319000    0.6441131     0.0058005    0.0003154    -0.1337510   -0.0179151 
   0.010952726    -0.0370564   -0.0089447    40.2547000    0.5900841     0.0053117    0.0002487    -0.1447118   -0.0086707 
   0.011052751    -0.0350599   -0.0064915    40.5873500    0.6982587     0.0052385    0.0004133    -0.1425099   -0.0034259 
   0.011152776    -0.0354244   -0.0091181    40.0930400    0.4575438     0.0058314    0.0001289    -0.1377928   -0.0198000 
   0.011252801    -0.0364780   -0.0079490    40.4599300    0.5123900     0.0056701    0.0001995    -0.1389512   -0.0164755 
   0.011352826    -0.0354695   -0.0079292    40.2490700    0.1735346     0.0056400    0.0004521    -0.1358018   -0.0119300 
   0.011452851    -0.0365976   -0.0078247    40.7538100    0.0341819     0.0056401    0.0005067    -0.1330668   -0.0123474 
   0.011552876    -0.0350802   -0.0076284    40.6272600    0.0854748     0.0057603    0.0002220    -0.1377968   -0.0182340 
   0.011652901    -0.0353299   -0.0070908    40.3223600    0.2605094     0.0055554    0.0004592    -0.1359937   -0.0092410 
   0.011752926    -0.0366807   -0.0056699    40.7762400    0.5618920     0.0057652    0.0001816    -0.1358714   -0.0187551 
   0.011852951    -0.0358405   -0.0060957    40.3829700    0.2338709     0.0055602    0.0002362    -0.1392567   -0.0132555 
   0.011952976    -0.0361329   -0.0070487    40.6194800    0.4281758     0.0056595    0.0003110    -0.1355848   -0.0139968 
   0.012053002    -0.0359730   -0.0085470    40.1163700    0.0546168     0.0056370    0.0001930    -0.1402156   -0.0143488 
   0.012153027    -0.0362738   -0.0046775    40.6565600    0.0605872     0.0054535    0.0006055    -0.1332672   -0.0057777 
   0.012253052    -0.0374869   -0.0056864    40.4151200    0.4441516     0.0054877    0.0003925    -0.1364505   -0.0078522 
   0.012353077    -0.0358298   -0.0073253    40.1377800    0.0118634     0.0055537    0.0003026    -0.1402988   -0.0108251 
   0.012453102    -0.0362340   -0.0075123    39.9989200   -0.0792307     0.0056093    0.0000458    -0.1455150   -0.0153552 
   0.012553127    -0.0345994   -0.0065335    40.4837300   -0.1606619     0.0055067    0.0001396    -0.1429378   -0.0134607 
   0.012653152    -0.0358868   -0.0057786    40.6678800    0.0786821     0.0053952    0.0004451    -0.1365461   -0.0059583 
   0.012753177    -0.0360622   -0.0052958    40.4864000    0.2821839     0.0054847    0.0001496    -0.1421340   -0.0114561 
   0.012853202    -0.0367392   -0.0046712    40.3622400    0.0222850     0.0056481    0.0004623    -0.1333036   -0.0118966 
   0.012953227    -0.0356961   -0.0068521    40.6376400    0.4196691     0.0054703   -0.0001397    -0.1476920   -0.0148509 
   0.013053252    -0.0355573   -0.0062547    40.8620000   -0.1099904     0.0057347    0.0001957    -0.1363722   -0.0182529 
   0.013153277    -0.0354207   -0.0065243    40.6941500   -0.0901000     0.0057665    0.0000613    -0.1389457   -0.0211582 
   0.013253302    -0.0353678   -0.0045163    40.5071100    0.1741223     0.0057663    0.0005607    -0.1286959   -0.0122835 
   0.013353327    -0.0362487   -0.0046360    40.1908700   -0.3182232     0.0054880    0.0004768    -0.1364330   -0.0059538 
   0.013453352    -0.0364110   -0.0041200    40.5064000   -0.1563233     0.0055350    0.0004221    -0.1352180   -0.0076797 
   0.013553377    -0.0352093   -0.0038741    40.5321000   -0.4509147     0.0056443    0.0003220    -0.1370201   -0.0131177 
   0.013653402    -0.0347764   -0.0050358    40.5613400   -0.2707827     0.0056088    0.0001838    -0.1398750   -0.0136956 
   0.013753427    -0.0339506   -0.0046302    40.2298400   -0.2680138     0.0059836    0.0000628    -0.1383587   -0.0229000 
   0.013853452    -0.0356774   -0.0046768    40.3096800    0.0909562     0.0055245    0.0000934    -0.1423527   -0.0117496 
   0.013953477    -0.0360451   -0.0040750    40.2010900   -0.9833191     0.0055298    0.0003622    -0.1397487   -0.0100006 
   0.014053502    -0.0339427   -0.0052340    40.8245400   -0.6869784     0.0058812    0.0004586    -0.1307288   -0.0187601 
   0.014153527    -0.0353390   -0.0035509    40.5577800   -0.0338779     0.0055469    0.0001983    -0.1395451   -0.0107414 
   0.014253552    -0.0352493   -0.0034412    40.7482600    0.0088329     0.0054961    0.0002839    -0.1369609   -0.0092209 
   0.014353577    -0.0364414   -0.0040138    40.0890000   -0.2229140     0.0055507    0.0001469    -0.1421779   -0.0102823 
   0.014453602    -0.0342735   -0.0041476    40.6245500   -0.0243988     0.0056734    0.0002673    -0.1347993   -0.0133269 
   0.014553627    -0.0347445   -0.0032060    40.4839600   -0.2422718     0.0056303    0.0003035    -0.1361046   -0.0117957 
   0.014653652    -0.0357481   -0.0020246    40.4694400    0.3380467     0.0054828    0.0003711    -0.1345477   -0.0054064 
   0.014753677    -0.0349830   -0.0035120    39.9564000   -0.4541619     0.0056895    0.0004037    -0.1341873   -0.0102308 
   0.014853702    -0.0357096   -0.0036055    40.4798900   -0.5239190     0.0055926    0.0002599    -0.1385148   -0.0114257 
   0.014953727    -0.0353482   -0.0031063    40.1692200   -0.6788694     0.0057044    0.0000855    -0.1420957   -0.0151336 
   0.015053752    -0.0368079   -0.0026793    40.4487900   -0.8695646     0.0054085    0.0000413    -0.1470931   -0.0100710 
   0.015153777    -0.0349949   -0.0027459    40.6540700   -0.5145571     0.0054626    0.0005191    -0.1325947   -0.0052339 
   0.015253802    -0.0358288   -0.0032498    40.7001000   -1.1362180     0.0057298    0.0000956    -0.1430065   -0.0182787 
   0.015353827    -0.0340706   -0.0031235    40.6849400   -0.9288716     0.0057319    0.0002718    -0.1366946   -0.0156612 
   0.015453852    -0.0364712   -0.0022483    40.7182000   -0.4774868     0.0055289    0.0001320    -0.1407799   -0.0116216 
   0.015553877    -0.0367854   -0.0031283    40.1950700   -0.5720981     0.0055787    0.0001700    -0.1405702   -0.0100188 
   0.015653902    -0.0344343   -0.0014978    40.3324700   -0.4192218     0.0056546    0.0003771    -0.1335616   -0.0106810 
