! 19-Feb-26 1:22:18 PM
! E:\VNA_MEASUREMENTS\RECBLOCK\LNAREV0.S2P
! CHANNEL.1
! TR.MEASUREMENT
! CORRECTED.DATA
# GHZ S RI R 50.0
! FREQ.GHZ         S11RE         S11IM         S21RE         S21IM         S12RE         S12IM         S22RE         S22IM         
!; PortSelection: Port_12
   0.000050000     0.0175831    0.2385296    -1.6773560   -3.4008240    -0.2313479   -0.1785425    -0.1226308   -0.2436892 
   0.000150025    -0.3404624    1.3327590    -0.8111554   -1.0426250    -2.3873950   -6.2837260     1.7675810    6.8217170 
   0.000250050    -0.6205580    0.3832013    -0.0254368   -0.0483146   -10.6571000    6.2787730     0.9546605    0.0324699 
   0.000350075    -0.3788120    0.0272689     0.0918848    0.0564753    -1.5702250   23.5102400    -1.5050110    1.4122560 
   0.000450100    -0.3970348   -0.2314404    -0.1296788   -0.0359967    13.2468400   23.9941900     0.5303184   -3.7368520 
   0.000550125    -1.6302270    0.0256052    -0.0330727    0.0061393    -0.4244759   -5.2019050    -0.4163463   -1.0876780 
   0.000650150    -0.8273424    0.3795441    -0.0206211    0.0188307     2.8104380   19.4315200    -0.7164676   -0.5099492 
   0.000750175    -1.6213100    0.2823403    -0.1451887    0.2532550    -8.3671210    1.7542770    -8.0258150    1.6978340 
   0.000850200    -0.9222322    0.1173124    -0.0497350    0.0551327     9.7268530   12.5059500    -2.1352300    0.0079618 
   0.000950225    -0.7588506   -0.3733130    -0.1134680   -0.0564543    22.3057200    2.9354830    -1.8657710   -3.4999850 
   0.001050250    -0.2958668   -0.2186767     0.0002499   -0.0620394    31.7571800   12.5076000     0.8037423   -1.8253350 
   0.001150275    -1.0985500    0.4351260    -0.0124554    0.0128127     2.9746800   17.4282100    -0.6030346   -0.0794350 
   0.001250300    -0.2701632   -0.1842946     0.0012255   -0.0184234    32.9413000   10.4665300     0.1062011   -0.7094719 
   0.001350325    -0.9161913    1.0804740     0.0420863   -0.0490266     2.8736400   37.3436300     1.4899520   -1.1249050 
   0.001450350    -1.0854710    0.1905085    -0.0584959   -0.0320847     7.6989590   11.8555400    -1.5087140   -1.6246560 
   0.001550375    -1.0518830   -0.0981462    -0.0094072   -0.0310262    11.2622900    4.3159360    -0.1820906   -1.1328400 
   0.001650400    -1.4658680    0.2254124     0.0059823    0.0758900    -2.6002010   10.6521000    -0.5116839    2.0279510 
   0.001750425    -0.1635668   -0.6029513    -0.0042857    0.0794949    39.7322400   -5.1086710    -0.7523175    2.1022680 
   0.001850450    -0.3731582    0.1210430    -0.0835262    0.0051233    29.8076800   13.9855000    -2.6131170   -0.4347139 
   0.001950475    -0.7323668   -0.0577257    -0.0311044   -0.0017996    20.4219300    6.9324970    -1.0705390   -0.3296348 
   0.002050500    -0.5094784   -0.6642440    -0.0437610   -0.0373265    29.1054000   -9.9807820    -1.3264150   -1.3779550 
   0.002150525    -0.5540581   -0.3942154    -0.0342857    0.0057004    26.7218700   -2.5156110    -1.1996010   -0.0592633 
   0.002250550    -0.1298371   -0.5741030    -0.0030188    0.0338458    39.5903000   -6.7785810    -0.3592907    0.8685017 
   0.002350575    -1.6743280   -0.1344369     0.0364833   -0.0023062    -6.8839080    2.6785170     0.8859297   -0.1126626 
   0.002450600    -0.5678593    0.1122835    -0.0216114    0.0368814    25.4947500   11.6720700    -0.8631590    0.9496897 
   0.002550625    -0.7639413   -0.2759517     0.0004029    0.0259701    19.9905700   -0.0786135    -0.1931792    0.6667925 
   0.002650650    -0.8839898   -1.5332900    -0.0792925   -0.0846313    16.5950500  -36.7130300    -2.5212340   -2.5654610 
   0.002750675    -0.5339833    0.4131362    -0.0008812    0.0147102    27.1325000   20.2822800    -0.2143309    0.3441009 
   0.002850700    -2.3594410    0.2237162     0.0745938    0.0532343   -26.2717200   16.6622300     2.0475300    1.3900420 
   0.002950725     0.3549368    0.1968749     0.1227601    0.0352443    53.3937500   12.3694200     3.4408840    0.7800003 
   0.003050750     0.1978552   -0.9059832    -0.0281523    0.1466263    46.7509000  -20.2061100    -0.7132909    4.2876370 
   0.003150775     0.1419346   -0.2923502    -0.0594135    0.1112434    46.1536300   -2.8488350    -1.6313420    3.3273590 
   0.003250800    -0.8403525    0.3101335    -0.0409318    0.0540266    19.5268100   17.5455700    -1.2368850    1.6414800 
   0.003350825    -0.6502090   -0.2511922    -0.0250047   -0.0035250    23.1043400    0.5433704    -0.9383447   -0.0752018 
   0.003450850    -1.4173260    0.3647306    -0.0046333    0.0298802     3.0073710   21.4088600    -0.2210211    0.8371213 
   0.003550875     0.5359073    1.3251270    -0.0389257    0.1232615    63.7231100   41.1426300    -0.8150787    3.6803630 
   0.003650900    -0.7265601   -0.0447873    -0.0473776   -0.0010094    21.6833200    7.2486270    -1.5746630    0.1424340 
   0.003750925    -0.4923148    0.1580763     0.0079947    0.0106773    29.5848700   11.8421700     0.0812842    0.2303468 
   0.003850950    -0.7435765   -0.8987373    -0.0297291   -0.0101194    16.9421700  -17.3156600    -1.1077310   -0.1720156 
   0.003950975    -0.9389416   -0.1828568    -0.0279120    0.0705176    15.0669400    4.5611250    -0.6139756    2.1405120 
   0.004051001    -1.0053220   -0.4483480     0.0362977    0.0333356    11.7073700   -2.5309570     1.0335160    0.7124294 
   0.004151026     0.2547750    0.3058431     0.1279975    0.0424251    52.2447900   11.1260400     3.6995930    0.3591862 
   0.004251051    -0.7903927   -0.5715734    -0.0273216   -0.0349546    16.8273600   -7.0338500    -1.2034850   -0.8272437 
   0.004351076     0.6683660    1.0445230    -0.0028227    0.0183956    69.4312800   28.2630900    -0.1503417    0.5236086 
   0.004451101     1.2831120   -0.5962215     0.0402395   -0.1885398    74.9415600  -22.7743700    -0.4490633   -5.6166050 
   0.004551126    -0.2418739    0.5907717     0.0117942    0.0600728    40.9878100   21.8933500     0.5909698    1.5839870 
   0.004651151    -1.2779490   -0.0458845    -0.0288469   -0.0336993     6.9334650   12.1615400    -1.2785530   -0.7229384 
   0.004751176    -0.5912977   -0.0314397     0.0719514    0.0464278    26.0913800    7.1757600     2.1868520    0.6889797 
   0.004851201    -0.6242325   -0.1975375    -0.1600099   -0.0696536    23.7502000    2.7669110    -5.2168070   -0.5749057 
   0.004951226    -0.9766604    0.3540930    -0.0142248   -0.0643157    19.2434800   21.3115700    -1.1671280   -1.6586010 
   0.005051251    -0.7957522    1.3093990    -0.1148830    0.1085195    33.1733400   46.1700100    -2.3753010    4.0552310 
   0.005151276     1.8904490    1.8067090     0.1542614    0.1505787   111.9635000   34.1897300     5.4585890    2.6792540 
   0.005251301    -0.3783287   -0.6746129     0.0584910    0.0632048    25.9947600  -12.4401700     2.0228540    1.1655290 
   0.005351326    -1.5882860   -0.1683673    -0.0285148   -0.1071075    -1.9595110   13.7576600    -2.0466240   -2.6176790 
   0.005451351     2.1327450    2.4538660    -0.0572947   -0.1663189   126.4304000   46.7388500    -3.4690110   -3.9056310 
   0.005551376    -0.7850266   -0.2060009     0.0002834   -0.0252469    19.7697100    4.7166090    -0.4553432   -0.6607434 
   0.005651401     0.5023418    0.1943081     0.0554834    0.0933835    58.5530300    1.6034710     2.3098620    1.9196290 
   0.005751426    -0.8439817   -0.1313819    -0.0166500   -0.0386493    19.1281100    7.5127330    -1.0712630   -0.8214030 
   0.005851451    -2.5804770    0.5519411     0.1131735   -0.0624404   -19.2737100   45.5487000     2.1045740   -2.9245870 
   0.005951476    -0.8504443   -0.5072155    -0.0760016   -0.0564834    14.7339100   -1.9789760    -2.8675020   -0.5729654 
   0.006051501     0.0788449    0.1173277    -0.0020996    0.0680329    46.4478300    3.7093340     0.5607648    1.8436360 
   0.006151526     0.3988410    1.8428680    -0.0247534   -0.0707246    75.8218100   44.8238100    -1.7060740   -1.5178440 
   0.006251551    -0.9945250   -0.4965299    -0.0255314    0.0220257    11.0062000    0.6787772    -0.5834194    0.9252165 
   0.006351576     0.0476726   -1.0265380    -0.0033732   -0.0666572    31.4366500  -26.3072900    -1.1350070   -1.6627540 
   0.006451601    -0.8968432   -0.0242368    -0.0022083   -0.0543270    19.5758500   12.0927000    -0.9522675   -1.3286940 
   0.006551626    -2.2973190    0.1722926    -0.0717554    0.0639568   -13.5802000   35.9069800    -1.1818230    2.6369960 
   0.006651651     0.2411972   -1.0908630    -0.0638315    0.0129836    34.6098500  -30.2925500    -1.6409300    1.2342920 
   0.006751676    -0.3735800   -0.5703667     0.0259873    0.0221428    25.7537900   -8.5627340     0.7750176    0.2502337 
   0.006851701    -0.8571524   -1.0776250     0.0011029   -0.0049124     6.4145700  -14.4942300    -0.2299103   -0.0937458 
   0.006951726    -0.7945184   -1.0898830    -0.0202736   -0.1942572     7.5217770  -15.4410200    -3.4653540   -4.5303400 
   0.007051751     0.2150898   -0.0661999    -0.0235906    0.0491493    47.3812100   -4.2057390    -0.0692041    1.6161760 
   0.007151776    -0.4997972    0.3323876    -0.1253058   -0.0212083    35.3644700   15.8118800    -3.5924010    1.3525430 
   0.007251801     0.6878857   -0.7739629    -0.0346629    0.0358054    48.2201200  -28.8962100    -0.5038625    1.4474010 
   0.007351826    -1.0645640   -0.4717207     0.0212190   -0.0681269     9.7137430    4.8808840    -0.7015468   -1.9325930 
   0.007451851    -1.1325960   -0.1836259    -0.0474758   -0.0267157    12.6183500   13.0096200    -1.7453350    0.1349963 
   0.007551876    -2.1376610   -3.7413430     0.0805817    0.0639282   -67.2306000  -57.1007300     2.7643550    0.3497040 
   0.007651901    -0.4561290    0.7920422    -0.0137919   -0.0725996    44.3168800   26.1522100    -1.6623200   -1.4560210 
   0.007751926    -1.1515800    0.0651404     0.0312698   -0.0180879    16.4625100   19.6262800     0.2729170   -0.8647795 
   0.007851951    -0.8202798   -0.7645419    -0.0420755   -0.0395481    11.2163000   -5.1412890    -1.8113640   -0.1920355 
   0.007951976     0.2892255   -1.0045580     0.0492244   -0.0098175    33.0510200  -28.4685800     0.8147771   -0.9726036 
   0.008052001    -1.4865700    0.1328420    -0.0769369   -0.0114925    10.3941200   27.3023200    -2.1570880    1.0767270 
   0.008152026    -0.5506631   -0.7973968    -0.0394692    0.0173035    16.6194100   -9.6666800    -0.7964311    1.1342090 
   0.008252051    -0.4488777   -1.7588310    -0.0217914   -0.1550330     2.5505500  -33.6591500    -3.3199450   -3.1407450 
   0.008352076    -0.2594451   -0.4686221     0.0122316   -0.0099833    28.8542300   -6.8725360    -0.0696270   -0.3663197 
   0.008452101    -0.8617120   -0.3532668    -0.0077008   -0.0080977    17.0452800    6.2599140    -0.4888678    0.0264659 
   0.008552126     0.2724179   -0.1473188     0.0526605   -0.0842881    46.3715700   -8.8510570    -0.4769477   -2.7551000 
   0.008652151    -0.2634555   -0.2764907    -0.0164518    0.0611910    31.7896800   -2.2473770     0.5502841    1.7315870 
   0.008752176    -0.9104413   -0.9366703    -0.0722395    0.0243279     5.6304090   -5.1976420    -1.3304310    1.9239740 
   0.008852201     0.4170178   -0.1173953     0.0213007   -0.0473158    49.7628900  -11.0897900    -0.5657145   -1.3492680 
   0.008952226     0.2581581   -0.6727255     0.0462667   -0.0093249    35.8452100  -20.5080100     0.6655396   -0.9764708 
   0.009052251    -0.8909810   -0.2453276    -0.0399497   -0.0431256    18.9687500   10.0948800    -1.8315940   -0.0944899 
   0.009152276    -2.5081470   -1.5341870    -0.2644729   -0.0008888   -40.0042900   13.0042200    -5.8559510    5.0254540 
   0.009252301     0.6694531    0.9851758     0.0560733    0.0117205    75.4591600    7.0263340     1.2438660   -0.7243212 
   0.009352326    -1.0770260   -1.9005930    -0.2355660   -0.5439922   -16.3400600  -20.7304900   -15.5203600   -6.8463080 
   0.009452351    -0.2960576   -0.5258869    -0.0209542   -0.0751850    26.3645800   -6.6184650    -2.0667400   -1.0771080 
   0.009552376    -1.4528260   -0.1258897    -0.1374706   -0.0271306    10.1026200   24.2898900    -3.5405860    2.2027800 
   0.009652401    -0.5053135   -0.1155616     0.0108370    0.0323771    29.9049700    6.2003850     0.6993001    0.5486611 
   0.009752426    -1.3108160   -1.1293600    -0.1094979   -0.0250383    -6.6706500    1.5623680    -2.8912630    1.7557820 
   0.009852451     1.1351630   -0.4887239    -0.1006694    0.0868194    55.7431800  -34.2757800    -0.4505805    3.8671690 
   0.009952476    -0.4970929   -0.1174554    -0.0024451    0.0372728    30.2140000    6.2441070     0.5443896    0.8901563 
   0.010052501    -0.4542570   -0.6324139     0.0132335   -0.0156467    20.5004500   -4.8362280    -0.2158288   -0.4806898 
   0.010152526    -0.1429756    0.1544674     0.0350332   -0.0323450    42.6202300    4.4675010    -0.1353563   -1.2502710 
   0.010252551    -0.4356045   -0.7949329     0.0312684   -0.0378790    17.4293000   -8.0554720    -0.3345718   -1.2810330 
   0.010352576    -0.3590865   -0.5260594     0.0642738    0.0128216    24.5396600   -4.4168910     1.3431820   -0.9894472 
   0.010452601    -0.4906322   -0.6101293     0.0473608   -0.0613176    20.2778900   -3.0601530    -0.5381131   -2.0513970 
   0.010552626    -0.5146177   -0.8941327     0.0641124   -0.0015715    13.6395700   -7.9441070     1.0145360   -1.2852610 
   0.010652651    -0.8919576   -0.5284262     0.0965892   -0.0161492    14.5589400    7.0942480     1.3028850   -2.2450180 
   0.010752676    -1.0523470   -0.9358234    -0.0048858    0.0640208     2.9633690    3.4349790     1.1320310    1.3869250 
   0.010852701    -0.5252839   -0.5931208     0.0005369   -0.0639119    19.8864200   -1.4899790    -1.5146740   -1.0635790 
   0.010952726    -1.0357690   -0.6813844     0.0332213    0.0242970     8.6667310    8.1392480     0.9734727   -0.1752986 
   0.011052751     0.0639133    0.0760776     0.0062478    0.0171409    45.1064800   -2.1501800     0.3379461    0.2772799 
   0.011152776    -0.6918129   -0.4185291    -0.1275358    0.0023136    20.9075400    5.6431450    -2.3280610    2.9660860 
   0.011252801     2.2799070   -4.9778050    -0.1712105   -0.6524075   -28.5654900 -139.3226000   -17.5815000   -7.4348810 
   0.011352826     1.1410940   -0.6037052    -0.0458510    0.0313299    48.1698100  -38.2525400    -0.2312814    1.6759250 
   0.011452851     0.3149576   -0.5857424     0.0432764    0.1492724    34.3414400  -19.4639900     3.9545930    1.6722960 
   0.011552876    -1.5117750   -0.9244875     0.0059232   -0.1523566    -4.1289200   16.0719500    -3.4827620   -2.5705780 
   0.011652901    -1.4704800    2.0397010    -0.0552505   -0.0292594    64.3075000   64.6524600    -1.7183760    0.8906924 
   0.011752926    -0.3354444   -1.1052680     0.1251526    0.0793623    11.3195900  -13.0399700     3.7231970   -1.4426170 
   0.011852951    -0.2498199    1.4993780     0.0891695    0.1867310    72.4166000   27.1877900     5.5805230    1.0806750 
   0.011952976    -0.5072506    0.1165870     0.0061009    0.0057740    36.6849200   11.0085800     0.0931383    0.0705823 
   0.012053002    -1.3383610   -1.0603390    -0.0250149   -0.0343845    -3.5177470   11.6839000    -1.3256790    0.1530183 
   0.012153027    -1.1127780    0.1069742    -0.0064019    0.0174529    27.0576900   24.8415900     0.1710605    0.5425313 
   0.012253052    -0.1679946    0.1312363     0.0224147    0.0272716    42.3236100    3.2207400     0.8471080    0.0142823 
   0.012353077    -0.6177484   -0.1755614     0.0812269   -0.0762718    28.5526800    9.2065860    -0.7006472   -2.9466640 
   0.012453102    -1.0139230   -0.7640300     0.0389693   -0.0429170     8.8449320    9.9123920    -0.5667682   -1.4442470 
   0.012553127    -0.4921453   -0.1958667    -0.0484610    0.0498410    29.9124900    5.9506120     0.3452502    2.0115560 
   0.012653152     1.5150660   -1.0722060    -0.0588372    0.2250628    38.0371300  -54.6331200     4.3941560    4.7840180 
   0.012753177    -1.1394930    1.6189910    -0.0922225   -0.0612943    64.4488300   47.5590300    -2.9164180    1.4613050 
   0.012853202    -0.5210919   -0.7966907     0.0177051   -0.0042150    15.1836900   -1.6140560     0.0222745   -0.3587933 
   0.012953227    -2.0753920    0.8283091     0.0233769   -0.0309135    33.2087900   58.5709500    -0.5491887   -0.8646141 
   0.013053252    -0.5777749   -0.4292498     0.0915438   -0.0469924    23.4067900    5.1401580    -0.0222281   -2.7426480 
   0.013153277    -0.3560356   -0.9218721    -0.0004423   -0.0126415    14.4251700   -6.8293180    -0.4363840   -0.0285890 
   0.013253302    -0.5775645   -1.0415470     0.0524458   -0.0261782     8.6314700   -2.7143990    -0.0717884   -1.4971010 
   0.013353327    -0.5729789   -0.9057987     0.0208639   -0.0035832    12.0352700   -0.8298550     0.0642225   -0.4281449 
   0.013453352    -0.9107248   -1.5579370     0.0370413   -0.0867264    -8.2929420   -0.7780493    -1.7821800   -1.8920340 
   0.013553377     0.3289076   -0.4309137    -0.0463825   -0.0201397    35.1603600  -16.7031000    -1.1974400    1.0289950 
   0.013653402    -0.6838617   -0.4376832     0.0378614    0.0282532    22.2813200    8.2418300     1.0591180   -0.4615551 
   0.013753427     0.1093791   -0.7095651    -0.0128820   -0.0045884    25.2648600  -14.7983600    -0.3858543    0.3996938 
   0.013853452    -0.5009624   -0.7067215     0.0510502   -0.0057798    17.9936400    0.5894712     0.3556762   -1.2149950 
   0.013953477    -0.4296729   -0.7043917     0.0633117    0.0457694    18.8670300   -0.8719635     1.7823490   -0.9192110 
   0.014053502    -0.9860613   -0.5410609     0.0128312   -0.1297524    16.5929000   15.3389300    -3.2459990   -1.6865010 
   0.014153527     0.5776554   -3.3728700     0.3236859   -0.1176744   -37.5085700  -56.1713600     0.5518985   -9.4082130 
   0.014253552    -0.4992107   -0.3884885    -0.0063916   -0.0343592    26.1310100    4.6882320    -1.0507030   -0.0791550 
   0.014353577     0.2827010   -0.8945889    -0.0208796   -0.0736971    21.7144600  -20.4827100    -2.2138590   -0.1245540 
   0.014453602    -2.4767590    1.9657240    -0.1225791    0.2551451    65.6104400   80.4097400     5.1307090    5.9724050 
   0.014553627    -0.2230345   -0.1933210     0.0282116   -0.0000453    34.0827600    0.0853943     0.1887022   -0.5837017 
   0.014653652    -0.1838303   -0.2461365     0.0064764   -0.0159252    33.3873600   -1.4703070    -0.4450928   -0.1871131 
   0.014753677     0.5627082    0.7318200     0.0965885   -0.0750636    65.8398000  -10.7266300    -1.0683610   -3.0953370 
   0.014853702    -0.7813268   -0.9078674    -0.0433620   -0.0223849    10.4266900    7.6201710    -1.0966890    1.0401380 
   0.014953727     0.4829144   -0.2460521     0.0163500    0.0054321    39.5496100  -18.6608500     0.1984188   -0.2294395 
   0.015053752    -0.9429640   -0.7801477     0.0323450   -0.0517196    12.2429400   13.5297100    -1.1436540   -1.1804220 
   0.015153777    -0.9134783   -0.5578735    -0.0744276   -0.0979165    18.5297800   14.8681400    -3.3278500    1.1869910 
   0.015253802    -0.4726556   -1.3441340     0.0301906   -0.0233420     1.9142210   -3.4711330    -0.4359805   -0.8515331 
   0.015353827     1.1633790   -0.6151627     0.0646961    0.0539769    35.3606500  -39.7515000     1.8793430   -1.0821770 
   0.015453852    -0.4367870   -1.4729580    -0.0062217   -0.1321752    -1.0428050   -5.0464220    -3.6087630   -0.8193856 
   0.015553877     0.2382842   -0.7980822    -0.0315917   -0.0756423    22.1309700  -16.8530700    -2.3331250    0.3559643 
   0.015653902    -4.3685070    1.2578800    -0.1497188   -0.4955854    39.0928900  120.9330000   -14.3132900    0.0980500 
