! 19-Feb-26 3:11:46 PM
! E:\VNA_MEASUREMENTS\RECBLOCK\RECBLOCK2.S2P
! CHANNEL.1
! TR.MEASUREMENT
! CORRECTED.DATA
# GHZ S RI R 50.0
! FREQ.GHZ         S11RE         S11IM         S21RE         S21IM         S12RE         S12IM         S22RE         S22IM         
!; PortSelection: Port_12
   0.000050000    -0.1145234    0.3025332    -3.7445760    0.4270595    -0.0017949   -0.0040876     0.4540103   -0.1244913 
   0.000150025    -0.1588796    0.1290426     0.0130994   -0.6233687    -0.0006897   -0.0004499     0.2282075   -0.3741544 
   0.000250050     1.1468270    0.0652779     1.1511860   -0.0038503     0.0004501   -0.0003331    -0.0397545   -0.3026304 
   0.000350075    -0.9627947    0.0185008    -0.0013214   -0.0020220     0.0001997   -0.0000797    -0.0962143   -0.1472052 
   0.000450100    -0.9719715    0.0301523    -0.0017073   -0.0020326    -0.0000817    0.0000609    -0.0796052   -0.0691996 
   0.000550125    -0.9603304    0.0391677    -0.0006354   -0.0030012    -0.0001343   -0.0000844    -0.0547589   -0.0266838 
   0.000650150    -0.9560516    0.0398045    -0.0008021   -0.0015432    -0.0000826    0.0002713    -0.0341333   -0.0101885 
   0.000750175    -0.9608287    0.0390705    -0.0014685   -0.0017429    -0.0001846   -0.0000357    -0.0199904    0.0001472 
   0.000850200    -0.9647603    0.0520279    -0.0015098   -0.0008528    -0.0000536    0.0002313    -0.0084866    0.0063401 
   0.000950225    -0.9559677    0.0514687    -0.0015516   -0.0018081    -0.0000422    0.0001189    -0.0004909    0.0099653 
   0.001050250    -0.9618239    0.0651804    -0.0017104   -0.0021884     0.0001407   -0.0002266     0.0060911    0.0098646 
   0.001150275    -0.9562125    0.0685427    -0.0016585   -0.0007789    -0.0001812   -0.0001174     0.0116607    0.0117231 
   0.001250300    -0.9606829    0.0715497    -0.0031656   -0.0000741     0.0000580   -0.0001147     0.0147876    0.0113506 
   0.001350325    -0.9660368    0.0840890    -0.0024893   -0.0013842    -0.0000557    0.0001992     0.0195477    0.0126272 
   0.001450350    -0.9581271    0.0808329    -0.0027347   -0.0009543     0.0001203   -0.0000354     0.0212018    0.0114212 
   0.001550375    -0.9602853    0.0984472    -0.0026434   -0.0003584     0.0001823   -0.0000999     0.0236031    0.0122581 
   0.001650400    -0.9622159    0.1110850    -0.0026430   -0.0007772     0.0001414   -0.0002404     0.0252971    0.0112460 
   0.001750425    -0.9627733    0.0912044    -0.0028884   -0.0005251    -0.0000021   -0.0000685     0.0275439    0.0103234 
   0.001850450    -0.9555092    0.0950681    -0.0029086   -0.0008772     0.0000230    0.0001212     0.0271848    0.0108331 
   0.001950475    -0.9616402    0.1194671    -0.0024589   -0.0002611    -0.0000304    0.0000475     0.0293561    0.0103146 
   0.002050500    -0.9625653    0.1179592    -0.0030370   -0.0004670    -0.0001346    0.0001295     0.0308095    0.0104670 
   0.002150525    -0.9517510    0.1272156    -0.0024032    0.0001310     0.0000456    0.0000594     0.0332391    0.0094802 
   0.002250550    -0.9554090    0.1227963    -0.0034259   -0.0005689     0.0002097    0.0001094     0.0313195    0.0083600 
   0.002350575    -0.9562208    0.1368345    -0.0031839    0.0004947    -0.0002224    0.0000414     0.0344570    0.0083762 
   0.002450600    -0.9597611    0.1418779    -0.0034411   -0.0002259    -0.0002833   -0.0001440     0.0332908    0.0080888 
   0.002550625    -0.9434636    0.1482361    -0.0027556    0.0003430    -0.0001467   -0.0001099     0.0347314    0.0078751 
   0.002650650    -0.9534922    0.1545276    -0.0033705   -0.0006272    -0.0001350    0.0001282     0.0360868    0.0062804 
   0.002750675    -0.9325346    0.1676610    -0.0033300   -0.0001789     0.0001264   -0.0000374     0.0362439    0.0062868 
   0.002850700    -0.9486220    0.1649767    -0.0046658   -0.0006594     0.0001261   -0.0001681     0.0365938    0.0057097 
   0.002950725    -0.9461502    0.1800559    -0.0045461    0.0008871    -0.0001231   -0.0001131     0.0368044    0.0047384 
   0.003050750    -0.9479840    0.1829254    -0.0029894    0.0001644    -0.0002697   -0.0000243     0.0373147    0.0046030 
   0.003150775    -0.9392118    0.1820281    -0.0039599    0.0016073     0.0000795    0.0001425     0.0376971    0.0047442 
   0.003250800    -0.9490000    0.1918609    -0.0042398    0.0019282     0.0001523    0.0000635     0.0386922    0.0037455 
   0.003350825    -0.9454735    0.2020020    -0.0052061    0.0011663     0.0001292   -0.0002114     0.0385590    0.0034564 
   0.003450850    -0.9396881    0.2044078    -0.0051685    0.0007906    -0.0000311    0.0000848     0.0394761    0.0031555 
   0.003550875    -0.9401258    0.1886048    -0.0046244    0.0001247    -0.0000316    0.0000269     0.0386331    0.0029312 
   0.003650900    -0.9366068    0.2199660    -0.0038753    0.0018196    -0.0003800   -0.0001531     0.0402526    0.0028541 
   0.003750925    -0.9443233    0.2257181    -0.0054411    0.0005840    -0.0000973   -0.0000488     0.0401274    0.0017708 
   0.003850950    -0.9409951    0.2218377    -0.0046491    0.0012960     0.0001042   -0.0000801     0.0391260    0.0009234 
   0.003950975    -0.9249641    0.2273512    -0.0053886    0.0014848     0.0000293   -0.0000304     0.0406836    0.0009919 
   0.004051001    -0.9344303    0.2368873    -0.0054212    0.0013671     0.0001442   -0.0000258     0.0410659    0.0007978 
   0.004151026    -0.9342441    0.2388477    -0.0063813    0.0014802    -0.0001062    0.0001448     0.0399829    0.0009177 
   0.004251051    -0.9228063    0.2445540    -0.0060509    0.0008885     0.0001355    0.0000118     0.0406430    0.0001739 
   0.004351076    -0.9267963    0.2525758    -0.0062621    0.0021557    -0.0001305    0.0000896     0.0405978    0.0002743 
   0.004451101    -0.9324788    0.2517291    -0.0062626    0.0016309     0.0001598    0.0000075     0.0414721   -0.0017759 
   0.004551126    -0.9269810    0.2630497    -0.0055632    0.0020848    -0.0000144   -0.0000893     0.0411107   -0.0006980 
   0.004651151    -0.9292163    0.2664660    -0.0076686    0.0017971     0.0000950    0.0001587     0.0416783   -0.0014752 
   0.004751176    -0.9223580    0.2769261    -0.0067147    0.0024693     0.0001167    0.0000112     0.0415452   -0.0022399 
   0.004851201    -0.9196646    0.2802195    -0.0076671    0.0018581    -0.0000350    0.0001197     0.0424133   -0.0016599 
   0.004951226    -0.9210513    0.2753108    -0.0080289    0.0032054    -0.0000924    0.0001236     0.0412690   -0.0032962 
   0.005051251    -0.9121877    0.2951767    -0.0079492    0.0028472     0.0000276   -0.0000421     0.0421430   -0.0029317 
   0.005151276    -0.9112744    0.2952214    -0.0081532    0.0022106    -0.0000725   -0.0002142     0.0415677   -0.0031685 
   0.005251301    -0.9236925    0.3005154    -0.0087440    0.0019813    -0.0003668   -0.0000346     0.0424293   -0.0038123 
   0.005351326    -0.9102073    0.3041161    -0.0090687    0.0019496    -0.0001846    0.0001180     0.0425416   -0.0034860 
   0.005451351    -0.9040329    0.3091980    -0.0087901    0.0026051     0.0000838    0.0002176     0.0424978   -0.0041166 
   0.005551376    -0.9040856    0.3090608    -0.0088268    0.0025552     0.0000726   -0.0002710     0.0433392   -0.0043281 
   0.005651401    -0.9033979    0.3230789    -0.0099450    0.0025801     0.0000247   -0.0000236     0.0432650   -0.0051836 
   0.005751426    -0.9025723    0.3262157    -0.0091876    0.0030795     0.0000302    0.0001654     0.0429475   -0.0051355 
   0.005851451    -0.8957095    0.3278715    -0.0106157    0.0033949    -0.0001955    0.0000115     0.0422670   -0.0056908 
   0.005951476    -0.8971055    0.3259802    -0.0098570    0.0024390     0.0001636   -0.0002896     0.0430064   -0.0060432 
   0.006051501    -0.9005409    0.3361354    -0.0110175    0.0029690    -0.0001992    0.0002471     0.0423799   -0.0070378 
   0.006151526    -0.9033110    0.3401318    -0.0111021    0.0038113     0.0000970    0.0002384     0.0434833   -0.0064626 
   0.006251551    -0.8986189    0.3555728    -0.0119656    0.0039767    -0.0000806    0.0000088     0.0427314   -0.0077335 
   0.006351576    -0.8880966    0.3562959    -0.0117848    0.0045753     0.0000506    0.0001549     0.0433393   -0.0082495 
   0.006451601    -0.8797196    0.3650108    -0.0126458    0.0038822    -0.0001048   -0.0001478     0.0432123   -0.0084212 
   0.006551626    -0.8809136    0.3725919    -0.0127905    0.0034336    -0.0000961    0.0004143     0.0436235   -0.0081927 
   0.006651651    -0.8738452    0.3652529    -0.0130580    0.0038728    -0.0001002    0.0001536     0.0436273   -0.0093596 
   0.006751676    -0.8805357    0.3866484    -0.0133558    0.0047738    -0.0001627    0.0000243     0.0434810   -0.0087074 
   0.006851701    -0.8685562    0.3886875    -0.0124491    0.0050384     0.0000143   -0.0001553     0.0437514   -0.0095998 
   0.006951726    -0.8750225    0.3891763    -0.0143426    0.0059105    -0.0000834   -0.0000742     0.0436930   -0.0097081 
   0.007051751    -0.8694753    0.3997921    -0.0140060    0.0051446    -0.0002622    0.0001034     0.0437670   -0.0096599 
   0.007151776    -0.8710313    0.4016314    -0.0144227    0.0061749    -0.0000175   -0.0000799     0.0435409   -0.0099369 
   0.007251801    -0.8615261    0.4083478    -0.0156212    0.0055862    -0.0003489   -0.0000647     0.0433536   -0.0109599 
   0.007351826    -0.8619856    0.4094736    -0.0148986    0.0054315    -0.0001531    0.0000812     0.0438861   -0.0112882 
   0.007451851    -0.8584897    0.4114331    -0.0161120    0.0063483     0.0002754    0.0002532     0.0437539   -0.0115362 
   0.007551876    -0.8473208    0.4196702    -0.0162951    0.0066169     0.0001048    0.0001999     0.0435503   -0.0118425 
   0.007651901    -0.8599489    0.4388570    -0.0170907    0.0062924    -0.0002799   -0.0001469     0.0428207   -0.0120438 
   0.007751926    -0.8518754    0.4340975    -0.0171045    0.0078757     0.0002132    0.0002827     0.0435310   -0.0122218 
   0.007851951    -0.8572377    0.4335988    -0.0168524    0.0082153     0.0001535   -0.0000055     0.0444239   -0.0128275 
   0.007951976    -0.8465927    0.4357899    -0.0185495    0.0072834     0.0001818    0.0000046     0.0440695   -0.0135031 
   0.008052001    -0.8415542    0.4413821    -0.0180051    0.0079638     0.0000505   -0.0000165     0.0434901   -0.0132877 
   0.008152026    -0.8441209    0.4373802    -0.0183904    0.0079381     0.0000749   -0.0001521     0.0429498   -0.0141509 
   0.008252051    -0.8385317    0.4456552    -0.0189531    0.0075845     0.0000004   -0.0001126     0.0439827   -0.0143633 
   0.008352076    -0.8376336    0.4501788    -0.0193284    0.0079288     0.0002032   -0.0000120     0.0435350   -0.0139749 
   0.008452101    -0.8417547    0.4719718    -0.0185933    0.0096924     0.0001108   -0.0000865     0.0433893   -0.0148116 
   0.008552126    -0.8242055    0.4648482    -0.0202057    0.0089140    -0.0001363   -0.0000926     0.0433334   -0.0149719 
   0.008652151    -0.8273566    0.4793286    -0.0213154    0.0097668    -0.0000244    0.0001008     0.0434285   -0.0156729 
   0.008752176    -0.8279212    0.4751981    -0.0205995    0.0096421     0.0001381    0.0002023     0.0441773   -0.0156205 
   0.008852201    -0.8120163    0.4793174    -0.0212953    0.0113491     0.0000258   -0.0000259     0.0441346   -0.0161640 
   0.008952226    -0.8263116    0.4769076    -0.0218130    0.0102653     0.0000551   -0.0000485     0.0441146   -0.0168917 
   0.009052251    -0.8107557    0.4869168    -0.0231420    0.0112296    -0.0000966    0.0002283     0.0437392   -0.0166455 
   0.009152276    -0.8061885    0.4958536    -0.0225403    0.0109788    -0.0000833   -0.0000331     0.0436434   -0.0171849 
   0.009252301    -0.8058278    0.4972389    -0.0229053    0.0119648     0.0002780    0.0001368     0.0435421   -0.0174736 
   0.009352326    -0.8009658    0.5017123    -0.0236244    0.0122765    -0.0001871    0.0000584     0.0438127   -0.0173050 
   0.009452351    -0.7977226    0.5140626    -0.0248230    0.0116244    -0.0000816   -0.0000158     0.0432143   -0.0176823 
   0.009552376    -0.7947862    0.5111026    -0.0238131    0.0129836     0.0000788    0.0002529     0.0423647   -0.0184341 
   0.009652401    -0.8115457    0.5179832    -0.0265616    0.0128417     0.0000150   -0.0001295     0.0437700   -0.0180745 
   0.009752426    -0.7999836    0.5271098    -0.0253050    0.0138345     0.0002382    0.0000120     0.0430124   -0.0196777 
   0.009852451    -0.7887108    0.5352404    -0.0268209    0.0133749    -0.0002046   -0.0000642     0.0430026   -0.0186619 
   0.009952476    -0.7907231    0.5379596    -0.0271648    0.0132573    -0.0000779    0.0001703     0.0435645   -0.0197730 
   0.010052501    -0.7941627    0.5278471    -0.0273561    0.0140846    -0.0000939   -0.0000038     0.0429920   -0.0201108 
   0.010152526    -0.7856926    0.5370344    -0.0290219    0.0146509    -0.0000492    0.0001542     0.0430960   -0.0203950 
   0.010252551    -0.7769935    0.5518354    -0.0291190    0.0138497     0.0000220   -0.0000044     0.0426623   -0.0199900 
   0.010352576    -0.7638918    0.5368558    -0.0287174    0.0151928     0.0000835   -0.0000013     0.0431071   -0.0208099 
   0.010452601    -0.7703991    0.5692957    -0.0289081    0.0163671    -0.0002326    0.0001884     0.0426694   -0.0210488 
   0.010552626    -0.7708919    0.5633217    -0.0305536    0.0159673    -0.0000741    0.0001601     0.0430262   -0.0218346 
   0.010652651    -0.7666169    0.5638459    -0.0304430    0.0163211     0.0001305    0.0002013     0.0429267   -0.0219296 
   0.010752676    -0.7834129    0.5798488    -0.0315730    0.0169460    -0.0000347   -0.0000582     0.0426170   -0.0224196 
   0.010852701    -0.7559685    0.5676741    -0.0315455    0.0178773     0.0000225    0.0001020     0.0426971   -0.0225292 
   0.010952726    -0.7549244    0.5798231    -0.0312561    0.0181451     0.0001811   -0.0000004     0.0418547   -0.0233944 
   0.011052751    -0.7544428    0.5788988    -0.0324256    0.0186448    -0.0001098    0.0002359     0.0417847   -0.0226787 
   0.011152776    -0.7486300    0.5894699    -0.0327301    0.0185808    -0.0002187   -0.0001255     0.0428657   -0.0234309 
   0.011252801    -0.7471907    0.5889274    -0.0315763    0.0194881    -0.0003133   -0.0000358     0.0428234   -0.0233527 
   0.011352826    -0.7299859    0.5938755    -0.0325473    0.0201742     0.0001246    0.0000799     0.0419866   -0.0238129 
   0.011452851    -0.7315993    0.5940314    -0.0336233    0.0211173    -0.0000667    0.0000701     0.0418527   -0.0235119 
   0.011552876    -0.7292187    0.5995249    -0.0344457    0.0213379     0.0001444    0.0001461     0.0421367   -0.0240089 
   0.011652901    -0.7318523    0.6056764    -0.0345962    0.0225532     0.0000497    0.0000808     0.0422645   -0.0249054 
   0.011752926    -0.7264140    0.6273226    -0.0352861    0.0224807     0.0001720    0.0002243     0.0423006   -0.0248948 
   0.011852951    -0.7086642    0.6160489    -0.0347040    0.0220310    -0.0003301   -0.0001489     0.0416590   -0.0253598 
   0.011952976    -0.7228038    0.6212642    -0.0357159    0.0240712     0.0001893    0.0001575     0.0412578   -0.0258009 
   0.012053002    -0.7126044    0.6228586    -0.0359098    0.0249161     0.0000179   -0.0000132     0.0416738   -0.0257364 
   0.012153027    -0.7006713    0.6176149    -0.0360383    0.0232879    -0.0001452    0.0000723     0.0416036   -0.0260008 
   0.012253052    -0.7036899    0.6278821    -0.0364723    0.0260797     0.0000644   -0.0000420     0.0419352   -0.0266837 
   0.012353077    -0.7095512    0.6376755    -0.0364026    0.0248067    -0.0000331    0.0001831     0.0412132   -0.0268955 
   0.012453102    -0.6913679    0.6408642    -0.0382466    0.0263619    -0.0000073   -0.0001849     0.0410351   -0.0271272 
   0.012553127    -0.6858788    0.6383108    -0.0387664    0.0270401     0.0000204   -0.0002376     0.0409043   -0.0276013 
   0.012653152    -0.6930634    0.6380063    -0.0396700    0.0262046    -0.0001557    0.0001515     0.0412976   -0.0277333 
   0.012753177    -0.6776193    0.6540709    -0.0387409    0.0289842    -0.0001007    0.0002409     0.0413571   -0.0281256 
   0.012853202    -0.6778827    0.6521386    -0.0394379    0.0280467    -0.0001529   -0.0001732     0.0410035   -0.0290417 
   0.012953227    -0.6746787    0.6529989    -0.0402964    0.0297772     0.0002818    0.0003024     0.0409585   -0.0287284 
   0.013053252    -0.6629366    0.6676702    -0.0420996    0.0302540    -0.0001584   -0.0003363     0.0409227   -0.0295209 
   0.013153277    -0.6676095    0.6714719    -0.0429469    0.0312728     0.0003243    0.0002689     0.0405679   -0.0295118 
   0.013253302    -0.6625064    0.6730749    -0.0429242    0.0308997     0.0000466   -0.0003867     0.0402096   -0.0299736 
   0.013353327    -0.6551186    0.6806885    -0.0423592    0.0320938    -0.0001427    0.0002185     0.0406053   -0.0298745 
   0.013453352    -0.6528990    0.6827441    -0.0437987    0.0317472    -0.0003877    0.0002747     0.0403029   -0.0304390 
   0.013553377    -0.6488214    0.6933155    -0.0446505    0.0354341     0.0000697   -0.0000063     0.0404160   -0.0302081 
   0.013653402    -0.6467479    0.6937643    -0.0463216    0.0342516     0.0001355    0.0002203     0.0397853   -0.0305633 
   0.013753427    -0.6381140    0.6942049    -0.0453059    0.0346192     0.0001658    0.0000474     0.0397016   -0.0313261 
   0.013853452    -0.6175562    0.6784254    -0.0450400    0.0341973     0.0001534    0.0001747     0.0395628   -0.0315696 
   0.013953477    -0.6327503    0.6971673    -0.0458303    0.0354078    -0.0001793   -0.0000711     0.0395152   -0.0320857 
   0.014053502    -0.6281219    0.6973848    -0.0479823    0.0366961    -0.0003495   -0.0000963     0.0403969   -0.0322774 
   0.014153527    -0.6356869    0.7009962    -0.0474600    0.0368660     0.0002260    0.0000060     0.0396314   -0.0323540 
   0.014253552    -0.6192513    0.7136235    -0.0488956    0.0368361    -0.0003201   -0.0004265     0.0397278   -0.0324872 
   0.014353577    -0.6220841    0.7154863    -0.0491172    0.0373605    -0.0003540    0.0002885     0.0390943   -0.0333476 
   0.014453602    -0.6055550    0.7142343    -0.0501666    0.0381903    -0.0001853   -0.0001172     0.0392472   -0.0329625 
   0.014553627    -0.6065289    0.7157627    -0.0509547    0.0379753     0.0000746    0.0000470     0.0387429   -0.0337690 
   0.014653652    -0.5923418    0.7390978    -0.0507006    0.0386038     0.0005642    0.0000985     0.0389947   -0.0337712 
   0.014753677    -0.6007652    0.7152888    -0.0507160    0.0375480    -0.0001030   -0.0002999     0.0386722   -0.0339711 
   0.014853702    -0.6008964    0.7271967    -0.0519552    0.0395188     0.0001212    0.0001724     0.0385747   -0.0344949 
   0.014953727    -0.5838460    0.7379432    -0.0522773    0.0421162     0.0002624   -0.0002836     0.0386487   -0.0347022 
   0.015053752    -0.5852354    0.7409836    -0.0527728    0.0419576    -0.0000476    0.0000946     0.0384164   -0.0347261 
   0.015153777    -0.5836027    0.7151528    -0.0530250    0.0414030    -0.0000956   -0.0000318     0.0385236   -0.0353779 
   0.015253802    -0.5671028    0.7548143    -0.0543762    0.0441691    -0.0000239    0.0002332     0.0383074   -0.0359128 
   0.015353827    -0.5589272    0.7420838    -0.0532712    0.0451985     0.0002236    0.0001690     0.0379450   -0.0364326 
   0.015453852    -0.5745215    0.7443712    -0.0565169    0.0456654    -0.0002023    0.0002758     0.0375680   -0.0364654 
   0.015553877    -0.5755454    0.7537830    -0.0584723    0.0466389    -0.0002748   -0.0001433     0.0378908   -0.0364921 
   0.015653902    -0.5488275    0.7626817    -0.0577495    0.0485721     0.0001123    0.0000681     0.0375844   -0.0363559 
