! 19-Feb-26 3:19:24 PM
! E:\VNA_MEASUREMENTS\RECBLOCK\RECBLOCKREV3.S2P
! CHANNEL.1
! TR.MEASUREMENT
! CORRECTED.DATA
# GHZ S RI R 50.0
! FREQ.GHZ         S11RE         S11IM         S21RE         S21IM         S12RE         S12IM         S22RE         S22IM         
!; PortSelection: Port_12
   0.000050000     0.5103937    0.2671852     0.4017827   -0.7188044     0.0038683    0.0005919    -0.9774828   -0.0165049 
   0.000150025     1.7519900    0.7460191    -3.2717430   10.8222900     0.0015575    0.0013013    -0.9692394    0.0142481 
   0.000250050     1.0560330    0.4147994     1.9565170   -2.3889070     0.0004137   -0.0008952    -0.9707881    0.0134411 
   0.000350075    -0.0867788   -0.1506999     0.0005536   -0.0037306    -0.0005493   -0.0000326    -0.9705548    0.0226772 
   0.000450100    -0.0817098   -0.0682225    -0.0024972   -0.0042037     0.0000809    0.0001108    -0.9714850    0.0267075 
   0.000550125    -0.0538923   -0.0319084    -0.0037715   -0.0034227    -0.0001474   -0.0000477    -0.9623011    0.0293271 
   0.000650150    -0.0290869   -0.0049757    -0.0047423   -0.0065542     0.0001039   -0.0001934    -0.9644691    0.0436831 
   0.000750175    -0.0214742    0.0058770    -0.0036471   -0.0037011    -0.0004438   -0.0010762    -0.9664834    0.0471326 
   0.000850200    -0.0063767    0.0041609    -0.0029534   -0.0036783    -0.0001660   -0.0001365    -0.9626060    0.0544170 
   0.000950225     0.0000767    0.0079366    -0.0050609   -0.0040539    -0.0000454   -0.0003120    -0.9645161    0.0618926 
   0.001050250     0.0061616    0.0112804    -0.0065112   -0.0048035    -0.0001493    0.0000676    -0.9581721    0.0678900 
   0.001150275     0.0157323    0.0136415    -0.0032584   -0.0039896     0.0002632    0.0005541    -0.9657516    0.0648185 
   0.001250300     0.0111640    0.0120528    -0.0049803   -0.0025696    -0.0006555    0.0002931    -0.9627448    0.0755864 
   0.001350325     0.0170315    0.0123693    -0.0038890   -0.0040566     0.0001000    0.0000277    -0.9553556    0.0790911 
   0.001450350     0.0201846    0.0077460    -0.0057062   -0.0009254    -0.0004942    0.0002704    -0.9667463    0.0804530 
   0.001550375     0.0215465    0.0114074    -0.0055589    0.0002867    -0.0011589    0.0001597    -0.9573727    0.0896180 
   0.001650400     0.0248047    0.0125043    -0.0071621   -0.0019838    -0.0012863   -0.0001668    -0.9557378    0.0975055 
   0.001750425     0.0280935    0.0080469    -0.0049298   -0.0019346    -0.0007992    0.0001732    -0.9604014    0.1058421 
   0.001850450     0.0288624    0.0122358    -0.0038969   -0.0013392    -0.0009041    0.0007593    -0.9634790    0.1052925 
   0.001950475     0.0301178    0.0121976    -0.0035328   -0.0012250    -0.0013393    0.0007108    -0.9595102    0.1136764 
   0.002050500     0.0263935    0.0116553    -0.0054812    0.0022259    -0.0008955    0.0001990    -0.9580190    0.1236192 
   0.002150525     0.0323608    0.0062361    -0.0049293    0.0013624    -0.0018478    0.0002405    -0.9548486    0.1276509 
   0.002250550     0.0299100    0.0116427    -0.0050104   -0.0000722    -0.0014473    0.0006639    -0.9554886    0.1280754 
   0.002350575     0.0297570    0.0107457    -0.0028195    0.0009744    -0.0020509    0.0002861    -0.9524572    0.1381960 
   0.002450600     0.0324348    0.0078754    -0.0024681    0.0026825    -0.0019086    0.0006998    -0.9483503    0.1423306 
   0.002550625     0.0366003    0.0080481    -0.0027512    0.0014372    -0.0016767    0.0005164    -0.9518064    0.1468533 
   0.002650650     0.0357912    0.0080291    -0.0023951    0.0012279    -0.0017875    0.0003290    -0.9447052    0.1530161 
   0.002750675     0.0343044    0.0032289    -0.0029167    0.0015598    -0.0023707    0.0005858    -0.9503843    0.1560821 
   0.002850700     0.0384637    0.0045408    -0.0029011    0.0006221    -0.0021562    0.0005622    -0.9535781    0.1667685 
   0.002950725     0.0372840    0.0037251    -0.0022311   -0.0008628    -0.0024808    0.0003691    -0.9403123    0.1679120 
   0.003050750     0.0372204    0.0030247    -0.0022473    0.0005326    -0.0025643    0.0003924    -0.9452229    0.1798147 
   0.003150775     0.0361635    0.0032369    -0.0009122    0.0003266    -0.0030534    0.0002400    -0.9417467    0.1834105 
   0.003250800     0.0363376    0.0026028    -0.0020938    0.0014692    -0.0030852    0.0002899    -0.9444343    0.1866940 
   0.003350825     0.0371956   -0.0012778    -0.0020425   -0.0009336    -0.0036467    0.0003741    -0.9380889    0.1895781 
   0.003450850     0.0375934    0.0029834    -0.0009582    0.0010794    -0.0034265    0.0005685    -0.9448898    0.2032951 
   0.003550875     0.0379256    0.0065433    -0.0026272    0.0007908    -0.0042538    0.0003851    -0.9427916    0.2042830 
   0.003650900     0.0386651    0.0032143     0.0005247    0.0014432    -0.0038890    0.0008354    -0.9364451    0.2113698 
   0.003750925     0.0388479   -0.0006182    -0.0014943    0.0006870    -0.0041355    0.0011194    -0.9353809    0.2146514 
   0.003850950     0.0413872   -0.0002591    -0.0008069    0.0003277    -0.0043927    0.0012482    -0.9329507    0.2187102 
   0.003950975     0.0391148   -0.0020983     0.0006488    0.0004966    -0.0045855    0.0009078    -0.9313035    0.2252776 
   0.004051001     0.0409639   -0.0036639    -0.0000092    0.0010556    -0.0049000    0.0006742    -0.9311315    0.2278048 
   0.004151026     0.0406983    0.0008879    -0.0019115    0.0015203    -0.0054425    0.0010232    -0.9239960    0.2388640 
   0.004251051     0.0413598   -0.0002050    -0.0015863    0.0004613    -0.0052849    0.0015201    -0.9292086    0.2392096 
   0.004351076     0.0434732   -0.0008198    -0.0009986   -0.0004264    -0.0057564    0.0013407    -0.9243844    0.2506164 
   0.004451101     0.0421682   -0.0013172    -0.0002066    0.0005072    -0.0056337    0.0014412    -0.9297023    0.2520038 
   0.004551126     0.0439057   -0.0042333     0.0003817    0.0003805    -0.0063161    0.0015731    -0.9192188    0.2594845 
   0.004651151     0.0408358   -0.0031065    -0.0002452    0.0001834    -0.0058906    0.0014209    -0.9258642    0.2666657 
   0.004751176     0.0424210   -0.0025179     0.0003357    0.0014802    -0.0066246    0.0014973    -0.9223087    0.2713803 
   0.004851201     0.0443973   -0.0038159    -0.0011916   -0.0001205    -0.0070427    0.0015469    -0.9170898    0.2747488 
   0.004951226     0.0412568   -0.0023085    -0.0002895    0.0000400    -0.0070613    0.0019240    -0.9173792    0.2772464 
   0.005051251     0.0423423   -0.0053072    -0.0007831    0.0001720    -0.0076572    0.0019839    -0.9151189    0.2855482 
   0.005151276     0.0381395   -0.0056546     0.0010144    0.0005215    -0.0077562    0.0017710    -0.9153631    0.2904561 
   0.005251301     0.0432199   -0.0046066    -0.0000295   -0.0005304    -0.0081766    0.0020533    -0.9151015    0.2976363 
   0.005351326     0.0414771   -0.0072110    -0.0005243    0.0007540    -0.0081699    0.0028797    -0.9084767    0.3014681 
   0.005451351     0.0450192   -0.0049280     0.0000145    0.0006555    -0.0084029    0.0023068    -0.9047292    0.3073229 
   0.005551376     0.0411980   -0.0063185    -0.0005391   -0.0001722    -0.0091317    0.0026830    -0.9005992    0.3081233 
   0.005651401     0.0439136   -0.0050779     0.0004599    0.0001060    -0.0093041    0.0029212    -0.9019307    0.3197108 
   0.005751426     0.0466964   -0.0050080     0.0004424    0.0017883    -0.0096330    0.0033450    -0.9016657    0.3202499 
   0.005851451     0.0434713   -0.0060444    -0.0005585    0.0001227    -0.0101474    0.0023696    -0.8948563    0.3258707 
   0.005951476     0.0442771   -0.0058411     0.0005690    0.0006115    -0.0097503    0.0033379    -0.8968059    0.3294123 
   0.006051501     0.0453867   -0.0107854    -0.0001277   -0.0003146    -0.0108360    0.0035297    -0.8954915    0.3407304 
   0.006151526     0.0408426   -0.0083283     0.0002263    0.0003604    -0.0110878    0.0032899    -0.8981054    0.3439478 
   0.006251551     0.0418164   -0.0090552     0.0009526    0.0001153    -0.0110861    0.0032962    -0.8872412    0.3505019 
   0.006351576     0.0422649   -0.0075966    -0.0010594    0.0006727    -0.0115548    0.0038761    -0.8894598    0.3532252 
   0.006451601     0.0428720   -0.0085450    -0.0003940   -0.0003809    -0.0117797    0.0037870    -0.8812895    0.3575448 
   0.006551626     0.0417606   -0.0096154    -0.0008047    0.0004687    -0.0123995    0.0045081    -0.8847755    0.3630819 
   0.006651651     0.0424430   -0.0060348    -0.0004210    0.0008450    -0.0124846    0.0047768    -0.8799133    0.3687241 
   0.006751676     0.0447587   -0.0071635     0.0001356    0.0005265    -0.0128499    0.0041575    -0.8815261    0.3733350 
   0.006851701     0.0421659   -0.0074699     0.0008333    0.0003671    -0.0130146    0.0046267    -0.8778450    0.3808118 
   0.006951726     0.0437039   -0.0066868     0.0003871   -0.0000375    -0.0133672    0.0049867    -0.8756106    0.3876462 
   0.007051751     0.0408900   -0.0101274     0.0003699    0.0006531    -0.0143938    0.0052450    -0.8743784    0.3873891 
   0.007151776     0.0453033   -0.0088873    -0.0003856   -0.0001704    -0.0149997    0.0055209    -0.8675253    0.3944210 
   0.007251801     0.0417756   -0.0098609    -0.0002082   -0.0007459    -0.0153276    0.0052338    -0.8649491    0.3996502 
   0.007351826     0.0437661   -0.0113145    -0.0009760    0.0009055    -0.0151496    0.0055776    -0.8602497    0.4057424 
   0.007451851     0.0423085   -0.0103077     0.0001412   -0.0007584    -0.0157335    0.0059777    -0.8586435    0.4076853 
   0.007551876     0.0460021   -0.0121475    -0.0006357   -0.0000752    -0.0156318    0.0057408    -0.8600181    0.4138153 
   0.007651901     0.0422086   -0.0121393     0.0001591    0.0007865    -0.0157715    0.0066117    -0.8550510    0.4246599 
   0.007751926     0.0436258   -0.0106300     0.0004973   -0.0001239    -0.0167397    0.0062325    -0.8507585    0.4201560 
   0.007851951     0.0443190   -0.0127846     0.0003347    0.0000992    -0.0171239    0.0073622    -0.8503876    0.4290852 
   0.007951976     0.0418247   -0.0145663     0.0004734    0.0010749    -0.0180720    0.0070228    -0.8486058    0.4361309 
   0.008052001     0.0430145   -0.0122203    -0.0001369    0.0010268    -0.0185140    0.0075595    -0.8456599    0.4366666 
   0.008152026     0.0447034   -0.0165912     0.0004428    0.0008382    -0.0181839    0.0079612    -0.8419181    0.4450092 
   0.008252051     0.0425179   -0.0157259    -0.0008039    0.0010892    -0.0184033    0.0085169    -0.8402723    0.4494467 
   0.008352076     0.0426399   -0.0164644    -0.0007671   -0.0002137    -0.0189637    0.0084840    -0.8373612    0.4547246 
   0.008452101     0.0435129   -0.0134063     0.0004443    0.0003627    -0.0201803    0.0085323    -0.8333581    0.4587780 
   0.008552126     0.0422108   -0.0150239    -0.0003618   -0.0004402    -0.0200792    0.0083882    -0.8333840    0.4621890 
   0.008652151     0.0430348   -0.0149336    -0.0013714    0.0011267    -0.0200634    0.0088569    -0.8283256    0.4675516 
   0.008752176     0.0418011   -0.0176900    -0.0009589   -0.0001599    -0.0210702    0.0096767    -0.8256308    0.4729299 
   0.008852201     0.0430625   -0.0168042    -0.0006144    0.0002931    -0.0217627    0.0104873    -0.8245133    0.4778938 
   0.008952226     0.0424013   -0.0162796    -0.0004142   -0.0006339    -0.0218933    0.0098130    -0.8228855    0.4821444 
   0.009052251     0.0442131   -0.0170062    -0.0009152    0.0007730    -0.0217929    0.0107708    -0.8135502    0.4876721 
   0.009152276     0.0430393   -0.0162606     0.0005782   -0.0010674    -0.0224496    0.0109280    -0.8130729    0.4904486 
   0.009252301     0.0428619   -0.0180013    -0.0011221    0.0001205    -0.0231773    0.0113488    -0.8102532    0.4955361 
   0.009352326     0.0458335   -0.0183270    -0.0000729    0.0008777    -0.0236830    0.0114459    -0.8073192    0.4987913 
   0.009452351     0.0439698   -0.0188847    -0.0005777   -0.0001812    -0.0240863    0.0121881    -0.8037503    0.5074997 
   0.009552376     0.0427323   -0.0181959     0.0000712    0.0003456    -0.0247952    0.0123039    -0.8004300    0.5092891 
   0.009652401     0.0429290   -0.0200670    -0.0003637    0.0008833    -0.0250717    0.0128223    -0.8001189    0.5164634 
   0.009752426     0.0457728   -0.0172599    -0.0004506    0.0004146    -0.0255822    0.0131731    -0.7974237    0.5185484 
   0.009852451     0.0438044   -0.0185804    -0.0002197    0.0001848    -0.0261555    0.0139329    -0.7923303    0.5258239 
   0.009952476     0.0422527   -0.0196047     0.0002764    0.0000861    -0.0261518    0.0138001    -0.7869337    0.5312642 
   0.010052501     0.0435587   -0.0187068     0.0009328    0.0002145    -0.0268139    0.0141701    -0.7874583    0.5367247 
   0.010152526     0.0425618   -0.0204446    -0.0002346   -0.0004008    -0.0267350    0.0148236    -0.7809905    0.5393268 
   0.010252551     0.0429544   -0.0199263    -0.0002659    0.0002232    -0.0276098    0.0149166    -0.7794549    0.5446257 
   0.010352576     0.0414717   -0.0216927    -0.0006716    0.0002042    -0.0283894    0.0155468    -0.7748719    0.5497152 
   0.010452601     0.0425235   -0.0216626    -0.0001070   -0.0002620    -0.0289649    0.0160422    -0.7721885    0.5518897 
   0.010552626     0.0431696   -0.0225520     0.0009531    0.0002161    -0.0289809    0.0166181    -0.7671148    0.5594057 
   0.010652651     0.0407127   -0.0229836    -0.0005407   -0.0000059    -0.0293928    0.0168644    -0.7619662    0.5577981 
   0.010752676     0.0421914   -0.0252229    -0.0008217    0.0004225    -0.0298772    0.0177925    -0.7601566    0.5678117 
   0.010852701     0.0419873   -0.0241732    -0.0000787   -0.0004263    -0.0306944    0.0177035    -0.7575029    0.5721103 
   0.010952726     0.0423644   -0.0245821    -0.0002207   -0.0001122    -0.0311509    0.0182413    -0.7530592    0.5733200 
   0.011052751     0.0449573   -0.0235468     0.0003152    0.0008277    -0.0319810    0.0186078    -0.7500753    0.5763742 
   0.011152776     0.0416322   -0.0257263    -0.0000013   -0.0002953    -0.0328991    0.0192100    -0.7482839    0.5834395 
   0.011252801     0.0413743   -0.0237887     0.0003572    0.0002651    -0.0326978    0.0198686    -0.7428325    0.5874116 
   0.011352826     0.0412055   -0.0225755    -0.0010568    0.0004175    -0.0332926    0.0201749    -0.7393194    0.5939507 
   0.011452851     0.0406179   -0.0245268     0.0001913   -0.0010384    -0.0341591    0.0211064    -0.7321626    0.5985451 
   0.011552876     0.0398943   -0.0222519     0.0001416    0.0006398    -0.0344603    0.0212460    -0.7301650    0.6016703 
   0.011652901     0.0419533   -0.0249320     0.0004667   -0.0006761    -0.0351703    0.0222045    -0.7257858    0.6046481 
   0.011752926     0.0407491   -0.0230385    -0.0001841   -0.0003517    -0.0351554    0.0227823    -0.7257618    0.6089735 
   0.011852951     0.0417984   -0.0251885    -0.0003763   -0.0005294    -0.0355213    0.0229559    -0.7186192    0.6118242 
   0.011952976     0.0397427   -0.0265258     0.0001766   -0.0006889    -0.0366767    0.0232490    -0.7149335    0.6160077 
   0.012053002     0.0407684   -0.0259049    -0.0007488    0.0004366    -0.0370426    0.0243993    -0.7092835    0.6212890 
   0.012153027     0.0413339   -0.0253633    -0.0005113   -0.0005756    -0.0371669    0.0238560    -0.7095668    0.6245946 
   0.012253052     0.0394697   -0.0280950     0.0004864   -0.0005573    -0.0382668    0.0251793    -0.7064815    0.6325010 
   0.012353077     0.0413182   -0.0284087    -0.0001155    0.0002649    -0.0381316    0.0261810    -0.6959919    0.6361659 
   0.012453102     0.0402882   -0.0280687     0.0005575   -0.0001769    -0.0392570    0.0258684    -0.6944622    0.6391876 
   0.012553127     0.0413416   -0.0269092    -0.0007688   -0.0005503    -0.0391266    0.0272485    -0.6937803    0.6427781 
   0.012653152     0.0418375   -0.0282914     0.0000108    0.0001304    -0.0401544    0.0273793    -0.6899630    0.6458878 
   0.012753177     0.0407683   -0.0270805     0.0007582   -0.0001347    -0.0406370    0.0280082    -0.6853728    0.6498144 
   0.012853202     0.0399199   -0.0298620    -0.0000137   -0.0002032    -0.0411895    0.0285868    -0.6815714    0.6543165 
   0.012953227     0.0403009   -0.0277208     0.0001458    0.0000833    -0.0420593    0.0293942    -0.6754035    0.6569636 
   0.013053252     0.0407268   -0.0286803     0.0002133   -0.0000615    -0.0431376    0.0306298    -0.6735138    0.6658750 
   0.013153277     0.0403199   -0.0321728     0.0004555   -0.0001796    -0.0424283    0.0311852    -0.6689425    0.6652545 
   0.013253302     0.0411576   -0.0288171     0.0001696    0.0002018    -0.0434078    0.0320237    -0.6634692    0.6691169 
   0.013353327     0.0384696   -0.0289219    -0.0001469    0.0007796    -0.0442486    0.0321972    -0.6620114    0.6732774 
   0.013453352     0.0390486   -0.0284601     0.0000689    0.0005243    -0.0445323    0.0326801    -0.6539128    0.6757177 
   0.013553377     0.0412503   -0.0301493    -0.0002310    0.0002052    -0.0451230    0.0339816    -0.6499935    0.6852322 
   0.013653402     0.0391038   -0.0329127     0.0009451   -0.0001544    -0.0457598    0.0347850    -0.6505904    0.6856042 
   0.013753427     0.0409484   -0.0316238    -0.0003291    0.0000477    -0.0461049    0.0353662    -0.6437459    0.6883906 
   0.013853452     0.0407539   -0.0340808    -0.0000388    0.0000803    -0.0463346    0.0361785    -0.6385978    0.6897433 
   0.013953477     0.0389792   -0.0313840     0.0001103   -0.0000574    -0.0467982    0.0363562    -0.6337611    0.6959631 
   0.014053502     0.0388760   -0.0333160    -0.0000458    0.0003676    -0.0482183    0.0376426    -0.6303092    0.6988497 
   0.014153527     0.0381544   -0.0328030    -0.0007170    0.0000699    -0.0479667    0.0385283    -0.6236224    0.7060973 
   0.014253552     0.0382016   -0.0322132    -0.0005017    0.0001886    -0.0485036    0.0391081    -0.6200513    0.7104587 
   0.014353577     0.0384415   -0.0355697    -0.0005358    0.0007382    -0.0489990    0.0398329    -0.6167318    0.7119243 
   0.014453602     0.0381548   -0.0334572     0.0000204    0.0004240    -0.0497311    0.0409454    -0.6110023    0.7187079 
   0.014553627     0.0392142   -0.0337392    -0.0001636    0.0002981    -0.0499734    0.0416449    -0.6083105    0.7172474 
   0.014653652     0.0384727   -0.0329305     0.0002719    0.0008708    -0.0511245    0.0423104    -0.6014553    0.7216789 
   0.014753677     0.0368442   -0.0325437    -0.0000545   -0.0000728    -0.0512663    0.0434742    -0.5976004    0.7307941 
   0.014853702     0.0374420   -0.0333420     0.0002358    0.0006372    -0.0523700    0.0442214    -0.5923240    0.7314976 
   0.014953727     0.0397152   -0.0336644    -0.0001177   -0.0000153    -0.0517893    0.0453613    -0.5859094    0.7340354 
   0.015053752     0.0372477   -0.0354102     0.0004868    0.0005925    -0.0523026    0.0465407    -0.5861361    0.7407279 
   0.015153777     0.0383073   -0.0356682    -0.0006537   -0.0002426    -0.0539801    0.0466638    -0.5808978    0.7405799 
   0.015253802     0.0377294   -0.0364768     0.0001127    0.0008837    -0.0542471    0.0481644    -0.5734726    0.7463095 
   0.015353827     0.0374489   -0.0356202     0.0002921    0.0000025    -0.0547826    0.0489788    -0.5695168    0.7478108 
   0.015453852     0.0368704   -0.0362622    -0.0004016    0.0001468    -0.0552840    0.0504142    -0.5655138    0.7499290 
   0.015553877     0.0374790   -0.0365130    -0.0002547    0.0004368    -0.0551151    0.0502955    -0.5577248    0.7540919 
   0.015653902     0.0365457   -0.0351045    -0.0007123    0.0000782    -0.0560405    0.0513404    -0.5552443    0.7546934 
