! 19-Feb-26 2:09:13 PM
! E:\VNA_MEASUREMENTS\RECBLOCK\RECBLOCKSDR0.S2P
! CHANNEL.1
! TR.MEASUREMENT
! CORRECTED.DATA
# GHZ S RI R 50.0
! FREQ.GHZ         S11RE         S11IM         S21RE         S21IM         S12RE         S12IM         S22RE         S22IM         
!; PortSelection: Port_12
   0.000050000     0.2001604    0.3206070    -0.4403330    0.1342060    -0.0016941   -0.0016534     0.0241307    0.0171151 
   0.000150025    -0.1312008   -0.0875487    -8.7799400    1.6408470     0.0016163    0.0013564    -0.0107974   -0.0114700 
   0.000250050     1.0769260    0.2225561     0.2535035   -0.1062317    -0.0005392    0.0009344    -0.0054458   -0.0008741 
   0.000350075    -0.9575921    0.0142309     0.0002199   -0.0023180     0.0001336   -0.0000721    -0.0004883   -0.0008112 
   0.000450100    -0.9683617    0.0354429    -0.0015185   -0.0014506    -0.0001748   -0.0001014    -0.0002061    0.0003335 
   0.000550125    -0.9606935    0.0384904    -0.0009258   -0.0013757     0.0000288    0.0001406     0.0008546    0.0013203 
   0.000650150    -0.9602589    0.0452210    -0.0013089   -0.0017008    -0.0000136   -0.0000621     0.0002112   -0.0008285 
   0.000750175    -0.9546723    0.0387777    -0.0012222   -0.0012819    -0.0002038    0.0000783    -0.0012892   -0.0007327 
   0.000850200    -0.9636185    0.0521089    -0.0014726   -0.0022999     0.0000304   -0.0000068     0.0009090    0.0007067 
   0.000950225    -0.9623960    0.0488881    -0.0013441   -0.0026501     0.0001616    0.0000225    -0.0009547    0.0007456 
   0.001050250    -0.9590415    0.0547263    -0.0012278   -0.0008038     0.0001172   -0.0001511     0.0009489   -0.0001680 
   0.001150275    -0.9628124    0.0743982    -0.0018344   -0.0013278    -0.0000174   -0.0002482     0.0005701   -0.0001708 
   0.001250300    -0.9705931    0.0679520    -0.0010104   -0.0010754     0.0001825   -0.0001593    -0.0002055   -0.0004280 
   0.001350325    -0.9710305    0.0863460    -0.0021130   -0.0010375     0.0001854    0.0001704     0.0006093    0.0000874 
   0.001450350    -0.9618209    0.0861697    -0.0019592   -0.0014909    -0.0002136   -0.0001353     0.0000760    0.0006318 
   0.001550375    -0.9600255    0.0975906    -0.0023950   -0.0004365     0.0000010   -0.0000290    -0.0000860   -0.0000414 
   0.001650400    -0.9621205    0.1015589    -0.0022991   -0.0006375    -0.0000966    0.0000735     0.0006064    0.0009508 
   0.001750425    -0.9590194    0.0978193    -0.0016610   -0.0013245    -0.0000802    0.0001324     0.0008781    0.0000243 
   0.001850450    -0.9619231    0.0990757    -0.0017955   -0.0001928     0.0000493   -0.0001213    -0.0011797    0.0004606 
   0.001950475    -0.9580841    0.1089649    -0.0020952   -0.0011792    -0.0001270   -0.0000406    -0.0000636    0.0007346 
   0.002050500    -0.9627175    0.1199943    -0.0018114   -0.0005450    -0.0001257   -0.0000041    -0.0002517    0.0010348 
   0.002150525    -0.9554531    0.1231063    -0.0016582    0.0001294    -0.0000096    0.0000481     0.0011750   -0.0003644 
   0.002250550    -0.9548969    0.1254134    -0.0012168   -0.0000004     0.0000212    0.0000300    -0.0018818   -0.0003610 
   0.002350575    -0.9633479    0.1334878    -0.0019023    0.0000539     0.0000483    0.0001181     0.0008515    0.0010982 
   0.002450600    -0.9638373    0.1462042    -0.0013320   -0.0008948     0.0000498   -0.0000468    -0.0006857    0.0006578 
   0.002550625    -0.9527893    0.1500011    -0.0017541    0.0001132    -0.0000192   -0.0000600     0.0002041    0.0013979 
   0.002650650    -0.9519921    0.1613833    -0.0017459   -0.0000719     0.0000261    0.0001443     0.0001040   -0.0006166 
   0.002750675    -0.9396213    0.1582067    -0.0014209   -0.0006298    -0.0000110   -0.0000504     0.0005255   -0.0003105 
   0.002850700    -0.9454073    0.1713311    -0.0014072    0.0005623    -0.0001115    0.0003507    -0.0004013    0.0005291 
   0.002950725    -0.9471987    0.1826199    -0.0013493    0.0002966    -0.0000515    0.0001945     0.0013713    0.0005883 
   0.003050750    -0.9520037    0.1858572    -0.0012707    0.0000435     0.0001188   -0.0000903     0.0002769    0.0002070 
   0.003150775    -0.9360782    0.1816999    -0.0010003    0.0003659    -0.0001122    0.0000412     0.0009516    0.0005192 
   0.003250800    -0.9462448    0.1902902    -0.0001235    0.0001701     0.0001745    0.0001851     0.0001347    0.0003506 
   0.003350825    -0.9490927    0.2031872    -0.0009419    0.0009265    -0.0000336   -0.0000317    -0.0000906   -0.0005960 
   0.003450850    -0.9310569    0.1997685    -0.0006145   -0.0001684     0.0001133    0.0001594     0.0003157    0.0008200 
   0.003550875    -0.9388726    0.1977897    -0.0005718    0.0004113     0.0000114    0.0001000    -0.0000892    0.0001777 
   0.003650900    -0.9307370    0.2098664    -0.0002783   -0.0002131     0.0000221    0.0000491     0.0003457   -0.0001526 
   0.003750925    -0.9379393    0.2185318    -0.0009693    0.0008266     0.0000484   -0.0000329     0.0001297   -0.0002438 
   0.003850950    -0.9348627    0.2232789    -0.0003060   -0.0000898     0.0000162    0.0000399    -0.0002747   -0.0012148 
   0.003950975    -0.9364488    0.2275827    -0.0014332   -0.0003716    -0.0000320    0.0000807     0.0001823    0.0003510 
   0.004051001    -0.9254779    0.2266216    -0.0009362    0.0004185     0.0000930    0.0001114     0.0008817    0.0004594 
   0.004151026    -0.9328982    0.2446008    -0.0007267    0.0004383     0.0000238   -0.0000571    -0.0000811    0.0007072 
   0.004251051    -0.9183322    0.2468012    -0.0009598    0.0001125     0.0001423    0.0001434     0.0005778    0.0000804 
   0.004351076    -0.9308512    0.2539014    -0.0000902    0.0003513     0.0002236   -0.0000645    -0.0006747    0.0014694 
   0.004451101    -0.9191699    0.2587266    -0.0008338   -0.0004279    -0.0000781    0.0000586     0.0006068   -0.0001481 
   0.004551126    -0.9146732    0.2561204    -0.0010189    0.0008825     0.0001486    0.0000204     0.0000122    0.0007644 
   0.004651151    -0.9331219    0.2754644     0.0001937    0.0001112     0.0001944   -0.0002875     0.0000270   -0.0002011 
   0.004751176    -0.9381059    0.2861178    -0.0006279    0.0007117     0.0000789    0.0001370    -0.0002520    0.0001770 
   0.004851201    -0.9193115    0.2859007     0.0000807   -0.0003361     0.0001309    0.0000438    -0.0001721    0.0002433 
   0.004951226    -0.9247054    0.2802586    -0.0007860   -0.0001586     0.0002308   -0.0000106    -0.0008919   -0.0004933 
   0.005051251    -0.9110751    0.2858542    -0.0010772   -0.0000129     0.0001339    0.0000689     0.0005141    0.0008460 
   0.005151276    -0.9152286    0.3011984    -0.0000944   -0.0002137    -0.0000707    0.0003466    -0.0000108    0.0001872 
   0.005251301    -0.9173551    0.2957497    -0.0000845    0.0002131     0.0000015    0.0000946     0.0000092   -0.0001999 
   0.005351326    -0.9099405    0.3009625     0.0003880   -0.0000345    -0.0001743    0.0004290    -0.0001443    0.0011736 
   0.005451351    -0.9062408    0.3066416    -0.0005063    0.0004291    -0.0000125    0.0000285    -0.0001837    0.0005366 
   0.005551376    -0.9136460    0.3078553    -0.0000088    0.0003189     0.0001618   -0.0000574     0.0005909    0.0004203 
   0.005651401    -0.9026760    0.3172522     0.0001655    0.0005525     0.0002412   -0.0000047    -0.0002175    0.0001003 
   0.005751426    -0.9035466    0.3272949    -0.0004393    0.0001144    -0.0001401    0.0003027     0.0000738    0.0002036 
   0.005851451    -0.8966424    0.3271412    -0.0003164    0.0007441     0.0000265    0.0000150    -0.0005853    0.0000299 
   0.005951476    -0.9011671    0.3280419    -0.0003225   -0.0001366    -0.0000817    0.0000043    -0.0002848   -0.0000626 
   0.006051501    -0.8928537    0.3367123    -0.0004753    0.0003030     0.0000222    0.0000716    -0.0000997    0.0001972 
   0.006151526    -0.8906238    0.3327208     0.0001001   -0.0001718     0.0002245   -0.0001585    -0.0002537    0.0000525 
   0.006251551    -0.8929273    0.3513104    -0.0005902   -0.0003149     0.0001440   -0.0000510    -0.0002737   -0.0002084 
   0.006351576    -0.8820346    0.3535566    -0.0000487    0.0003380     0.0000341    0.0000491     0.0002743    0.0000644 
   0.006451601    -0.8883534    0.3648215    -0.0010806   -0.0009960    -0.0001489    0.0001387    -0.0001168    0.0007591 
   0.006551626    -0.8830151    0.3733031     0.0002323    0.0005045     0.0002160   -0.0000292     0.0007616   -0.0002261 
   0.006651651    -0.8754950    0.3735626    -0.0008900    0.0002324     0.0000174    0.0001779     0.0000623   -0.0000803 
   0.006751676    -0.8840678    0.3987804    -0.0004032   -0.0001514     0.0000205   -0.0002347     0.0001092    0.0002767 
   0.006851701    -0.8653468    0.3853832    -0.0008249   -0.0001257    -0.0002245   -0.0000291     0.0001138   -0.0001052 
   0.006951726    -0.8731883    0.3895574     0.0000288   -0.0003009    -0.0000633    0.0000418    -0.0000741    0.0000418 
   0.007051751    -0.8855506    0.3903879    -0.0003051    0.0002425    -0.0001493    0.0004165    -0.0002121    0.0000002 
   0.007151776    -0.8660969    0.3963081    -0.0009545    0.0010193     0.0000531    0.0001557    -0.0000674    0.0008635 
   0.007251801    -0.8494923    0.3908716     0.0002033    0.0003021    -0.0001048   -0.0000833    -0.0003133    0.0001027 
   0.007351826    -0.8574294    0.4042938    -0.0003616    0.0000191     0.0001529   -0.0000338     0.0007866    0.0004346 
   0.007451851    -0.8576002    0.4159754    -0.0002936    0.0001937     0.0000731    0.0000599    -0.0000501    0.0001992 
   0.007551876    -0.8662269    0.4279545     0.0006106   -0.0006400     0.0002778   -0.0000258    -0.0007100   -0.0000010 
   0.007651901    -0.8597835    0.4339123     0.0006039   -0.0000647     0.0000216    0.0000331     0.0001257    0.0001709 
   0.007751926    -0.8472389    0.4233938    -0.0000234    0.0002410     0.0001486   -0.0000141     0.0002649    0.0004876 
   0.007851951    -0.8610861    0.4325972     0.0001566    0.0009246     0.0003049    0.0002661     0.0002207   -0.0000866 
   0.007951976    -0.8426097    0.4443378     0.0003527   -0.0001544     0.0001362    0.0000047     0.0005303    0.0003331 
   0.008052001    -0.8531024    0.4479156    -0.0003698    0.0008080    -0.0002800   -0.0000297    -0.0004147    0.0004207 
   0.008152026    -0.8461748    0.4439937    -0.0002579    0.0001663    -0.0000850   -0.0000096     0.0002869    0.0004480 
   0.008252051    -0.8332266    0.4576419     0.0004611   -0.0003327     0.0000095    0.0000379     0.0005214    0.0000975 
   0.008352076    -0.8359787    0.4457035     0.0007434   -0.0017614     0.0000632    0.0000212    -0.0001888    0.0002562 
   0.008452101    -0.8348992    0.4613822     0.0008447    0.0005435    -0.0001288   -0.0000509     0.0005589    0.0001019 
   0.008552126    -0.8347041    0.4618768    -0.0006542    0.0000676     0.0001300   -0.0001186     0.0000126   -0.0002012 
   0.008652151    -0.8225413    0.4752263     0.0007104   -0.0008960     0.0003320   -0.0001458     0.0001300    0.0002038 
   0.008752176    -0.8255271    0.4699813    -0.0016990   -0.0001137    -0.0000009    0.0002675     0.0002348    0.0003125 
   0.008852201    -0.8177006    0.4847424    -0.0000362    0.0005290    -0.0000982    0.0001822    -0.0000637   -0.0001031 
   0.008952226    -0.8158175    0.4908350    -0.0005728    0.0002570    -0.0000093   -0.0001618    -0.0001769    0.0006777 
   0.009052251    -0.8159961    0.4905559    -0.0004718    0.0006856    -0.0001799   -0.0000068     0.0003769   -0.0000487 
   0.009152276    -0.8092733    0.5004430    -0.0003981    0.0001077     0.0002101   -0.0000604    -0.0000606    0.0003149 
   0.009252301    -0.8101821    0.5031103    -0.0001214    0.0001999     0.0000422   -0.0000390     0.0005589    0.0001255 
   0.009352326    -0.8036807    0.5024671     0.0005869   -0.0006397    -0.0000468   -0.0001837    -0.0001955    0.0004425 
   0.009452351    -0.8019949    0.5086439    -0.0007255   -0.0007651     0.0002816    0.0000202     0.0005080    0.0001660 
   0.009552376    -0.8000084    0.5026744    -0.0005291    0.0007474    -0.0003233   -0.0000940    -0.0003252    0.0002998 
   0.009652401    -0.8051422    0.5169117    -0.0006009    0.0003571    -0.0001353    0.0001414     0.0002180    0.0007367 
   0.009752426    -0.7977093    0.5218577     0.0001873   -0.0005459    -0.0000663   -0.0002387     0.0003359   -0.0002133 
   0.009852451    -0.7899140    0.5360840    -0.0006243    0.0010078     0.0000671   -0.0003105    -0.0001691   -0.0000664 
   0.009952476    -0.7869129    0.5347880    -0.0000390   -0.0009682    -0.0000974   -0.0000677     0.0003546    0.0002983 
   0.010052501    -0.7826812    0.5377185    -0.0011074    0.0005998    -0.0001583    0.0000822     0.0001209    0.0003092 
   0.010152526    -0.7868699    0.5341893     0.0002776    0.0006266    -0.0001709   -0.0000081     0.0002512   -0.0000806 
   0.010252551    -0.7782086    0.5415127     0.0012250    0.0005382     0.0000112    0.0000188     0.0000121   -0.0001698 
   0.010352576    -0.7659416    0.5455313     0.0006388    0.0007665     0.0000116   -0.0000418     0.0002585    0.0002251 
   0.010452601    -0.7606798    0.5615838     0.0002053    0.0000780    -0.0000636    0.0000781    -0.0000635    0.0003934 
   0.010552626    -0.7705340    0.5502383    -0.0007366   -0.0009669     0.0000653    0.0000328     0.0001314    0.0000451 
   0.010652651    -0.7683962    0.5698256    -0.0000610    0.0005030     0.0001740    0.0001274    -0.0000343   -0.0000719 
   0.010752676    -0.7815287    0.5663297    -0.0001179   -0.0003201     0.0000253    0.0000841     0.0001458    0.0001995 
   0.010852701    -0.7686929    0.5768894    -0.0002049    0.0004177     0.0000280   -0.0000397     0.0004280    0.0003062 
   0.010952726    -0.7609791    0.5672525     0.0004466    0.0000104     0.0000875    0.0002034    -0.0003450   -0.0002843 
   0.011052751    -0.7476482    0.5715378    -0.0004000   -0.0001422     0.0000085   -0.0000076     0.0003390    0.0006789 
   0.011152776    -0.7425067    0.5934287    -0.0005990    0.0002140    -0.0002347   -0.0002840     0.0006585    0.0006773 
   0.011252801    -0.7436966    0.5990270    -0.0001111   -0.0000587    -0.0001171    0.0001594     0.0001822    0.0003700 
   0.011352826    -0.7318294    0.6056567    -0.0001016    0.0004537    -0.0001803   -0.0000249    -0.0000015    0.0005845 
   0.011452851    -0.7326229    0.5997054    -0.0000566    0.0013394     0.0002767   -0.0001129     0.0002272    0.0004343 
   0.011552876    -0.7322791    0.6088824     0.0003207   -0.0001185     0.0000582   -0.0002454     0.0000922    0.0000713 
   0.011652901    -0.7193322    0.6119514     0.0000125   -0.0006803    -0.0001911    0.0002168     0.0003219    0.0003152 
   0.011752926    -0.7285044    0.6172630     0.0008650    0.0000011    -0.0002591   -0.0002198     0.0000693    0.0004431 
   0.011852951    -0.7236785    0.6116155     0.0000487    0.0013680    -0.0000923    0.0003749    -0.0004983    0.0005105 
   0.011952976    -0.7182029    0.6195960     0.0003692    0.0008170     0.0000882   -0.0002154    -0.0001389    0.0004542 
   0.012053002    -0.7012033    0.6209527    -0.0011553   -0.0002165    -0.0000076    0.0001588     0.0002953    0.0000480 
   0.012153027    -0.7012916    0.6231182    -0.0008991   -0.0000710    -0.0001391    0.0002667    -0.0001997    0.0003576 
   0.012253052    -0.7083701    0.6317174     0.0003338    0.0007877    -0.0001763    0.0002527     0.0004168   -0.0000918 
   0.012353077    -0.7036638    0.6342908     0.0000971   -0.0004713    -0.0002492   -0.0001601     0.0002753    0.0005424 
   0.012453102    -0.6882015    0.6404711    -0.0003567    0.0002113    -0.0001479   -0.0000116     0.0001919    0.0005819 
   0.012553127    -0.7025627    0.6438697     0.0002082   -0.0008639    -0.0001715   -0.0000903    -0.0003785   -0.0000018 
   0.012653152    -0.6928093    0.6434042     0.0001815    0.0007495     0.0000398    0.0002280     0.0001861    0.0004990 
   0.012753177    -0.6872376    0.6550869    -0.0004068   -0.0016423     0.0001223    0.0000733     0.0005703    0.0004122 
   0.012853202    -0.6934581    0.6576785    -0.0000179   -0.0006723     0.0002432    0.0001717     0.0007417    0.0000803 
   0.012953227    -0.6593805    0.6571053     0.0001357   -0.0002895    -0.0001830    0.0003126     0.0004903    0.0001212 
   0.013053252    -0.6657815    0.6655470    -0.0005250   -0.0000763     0.0003863    0.0000793     0.0003638    0.0001004 
   0.013153277    -0.6610577    0.6598714    -0.0000074   -0.0003577     0.0000845   -0.0000193     0.0004437   -0.0000223 
   0.013253302    -0.6680938    0.6688644    -0.0009879    0.0004337     0.0001040    0.0000753    -0.0000910   -0.0001151 
   0.013353327    -0.6612113    0.6735191     0.0002824    0.0001864     0.0005135    0.0002465     0.0004924    0.0003450 
   0.013453352    -0.6653849    0.6682195    -0.0000667    0.0003296    -0.0000035    0.0000956     0.0000292    0.0002832 
   0.013553377    -0.6439653    0.6869152    -0.0000709   -0.0000643     0.0001977    0.0001190     0.0000054    0.0002846 
   0.013653402    -0.6417503    0.6967785    -0.0001365    0.0009814    -0.0002326   -0.0001144    -0.0003489    0.0002413 
   0.013753427    -0.6484343    0.7014267    -0.0004793   -0.0005549     0.0000992   -0.0000772    -0.0000364   -0.0002135 
   0.013853452    -0.6300275    0.6823953    -0.0003260    0.0000703     0.0000060   -0.0000535    -0.0000398    0.0004712 
   0.013953477    -0.6376277    0.7007364     0.0000486    0.0015034    -0.0001848   -0.0001437    -0.0003032    0.0001968 
   0.014053502    -0.6269218    0.7069795    -0.0000824    0.0004220     0.0003951    0.0002457     0.0000304    0.0000192 
   0.014153527    -0.6239516    0.6943575     0.0000238   -0.0005627     0.0001883   -0.0002550    -0.0000972    0.0003784 
   0.014253552    -0.6137635    0.7078568     0.0004750    0.0000720    -0.0001416    0.0003014     0.0002800    0.0002993 
   0.014353577    -0.6283159    0.7133144     0.0001710    0.0005228    -0.0004692    0.0001020    -0.0002330   -0.0000432 
   0.014453602    -0.6041622    0.7094537     0.0003431   -0.0007173    -0.0001936    0.0003695     0.0000108    0.0003330 
   0.014553627    -0.6024401    0.7224444    -0.0006985    0.0003430     0.0001917    0.0001849    -0.0001066    0.0001777 
   0.014653652    -0.5991664    0.7410485    -0.0000386    0.0009530    -0.0001531    0.0000639     0.0002139    0.0002446 
   0.014753677    -0.5895858    0.7147477     0.0000521    0.0000584    -0.0003457   -0.0001733     0.0005202    0.0003679 
   0.014853702    -0.6012962    0.7352673    -0.0001108   -0.0012339    -0.0003314    0.0001813    -0.0000433    0.0002889 
   0.014953727    -0.5806226    0.7325620     0.0001605   -0.0006010    -0.0001540    0.0004182     0.0001855    0.0002622 
   0.015053752    -0.5874777    0.7487595     0.0001353    0.0001847     0.0002166   -0.0002491     0.0002214    0.0005284 
   0.015153777    -0.5696807    0.7304989    -0.0004397   -0.0006545    -0.0000784    0.0002845    -0.0000842    0.0000026 
   0.015253802    -0.5703396    0.7519387     0.0001689   -0.0004009    -0.0001255   -0.0000289     0.0003215   -0.0004670 
   0.015353827    -0.5632697    0.7377948    -0.0005689   -0.0003141     0.0001440    0.0003990    -0.0000054    0.0000818 
   0.015453852    -0.5744348    0.7553168     0.0000662   -0.0001120     0.0001650    0.0000631    -0.0004000    0.0005309 
   0.015553877    -0.5666123    0.7489976    -0.0005291    0.0005445    -0.0005549    0.0000787     0.0002003    0.0008651 
   0.015653902    -0.5530245    0.7686452     0.0010707   -0.0014193     0.0001779   -0.0001057    -0.0001118    0.0002578 
