! 19-Feb-26 2:10:33 PM
! E:\VNA_MEASUREMENTS\RECBLOCK\RECBLOCKSDR1.S2P
! CHANNEL.1
! TR.MEASUREMENT
! CORRECTED.DATA
# GHZ S RI R 50.0
! FREQ.GHZ         S11RE         S11IM         S21RE         S21IM         S12RE         S12IM         S22RE         S22IM         
!; PortSelection: Port_12
   0.000050000    -0.1842824    0.4423487     0.1696171   -0.8524831    -0.0002666   -0.0008154     0.0138355    0.0163905 
   0.000150025     0.0532330   -0.2017975    -0.4936632    1.3769160    -0.0000028   -0.0006327     0.0015047   -0.0009430 
   0.000250050     0.8455506    0.1423634     0.2896201   -1.3353520     0.0006500   -0.0007403    -0.0017628   -0.0004752 
   0.000350075    -0.9660656    0.0127007     0.0003972   -0.0024347    -0.0001880   -0.0002657     0.0007607   -0.0003482 
   0.000450100    -0.9722685    0.0253935    -0.0001091   -0.0011997    -0.0000610    0.0001307     0.0001723    0.0016119 
   0.000550125    -0.9619702    0.0314716    -0.0013734   -0.0017793    -0.0000634   -0.0000599    -0.0001692    0.0014563 
   0.000650150    -0.9591690    0.0401233    -0.0007879   -0.0012782     0.0002735    0.0000122     0.0004675   -0.0005920 
   0.000750175    -0.9605207    0.0409791    -0.0018793   -0.0023531     0.0000483    0.0000236    -0.0009089   -0.0012580 
   0.000850200    -0.9646920    0.0514630    -0.0007866   -0.0013764     0.0001161    0.0000326     0.0003512    0.0008496 
   0.000950225    -0.9645984    0.0527824    -0.0013618   -0.0015521     0.0001543   -0.0001081     0.0008061    0.0014860 
   0.001050250    -0.9662607    0.0563047    -0.0010563   -0.0017068    -0.0000646    0.0000716     0.0001247    0.0001879 
   0.001150275    -0.9561000    0.0689527    -0.0011195   -0.0014870    -0.0001970   -0.0001666     0.0008916    0.0007422 
   0.001250300    -0.9685110    0.0706232    -0.0019130   -0.0018678     0.0000150   -0.0000741     0.0005009   -0.0013186 
   0.001350325    -0.9721225    0.0863861    -0.0026369   -0.0010456     0.0001715    0.0000516     0.0015471   -0.0001016 
   0.001450350    -0.9571472    0.0857651    -0.0007062   -0.0007520     0.0000397   -0.0000067    -0.0003286    0.0006752 
   0.001550375    -0.9589616    0.0991281    -0.0010584   -0.0007149    -0.0000657    0.0001925     0.0000071    0.0000536 
   0.001650400    -0.9651924    0.1063970    -0.0011765   -0.0007226    -0.0001274    0.0000710     0.0000419   -0.0002776 
   0.001750425    -0.9565943    0.0892429    -0.0020043   -0.0012113    -0.0001901    0.0000172    -0.0008489    0.0005312 
   0.001850450    -0.9624664    0.1037246    -0.0013001   -0.0011499    -0.0001108   -0.0000505    -0.0010767    0.0002286 
   0.001950475    -0.9525198    0.1231949    -0.0012823   -0.0007783    -0.0000465   -0.0000103     0.0002067    0.0010370 
   0.002050500    -0.9626017    0.1121421    -0.0017438    0.0004712     0.0001015   -0.0001085     0.0001631    0.0001029 
   0.002150525    -0.9491016    0.1272087    -0.0019090    0.0005280    -0.0000764    0.0002873     0.0007590    0.0003944 
   0.002250550    -0.9550547    0.1238633    -0.0022821   -0.0008432     0.0001224   -0.0000774    -0.0013751    0.0001535 
   0.002350575    -0.9581635    0.1395145    -0.0013641   -0.0001717     0.0001857    0.0000833     0.0003643   -0.0003953 
   0.002450600    -0.9649612    0.1411092    -0.0008985   -0.0005642    -0.0001185    0.0001596     0.0001004    0.0009304 
   0.002550625    -0.9577752    0.1483883    -0.0013821   -0.0001519     0.0000780   -0.0000442     0.0002806    0.0008752 
   0.002650650    -0.9555121    0.1588933    -0.0006462   -0.0002081     0.0000101    0.0000955    -0.0001231   -0.0004054 
   0.002750675    -0.9378296    0.1578643    -0.0014230    0.0001155    -0.0000165    0.0000732     0.0003167   -0.0014694 
   0.002850700    -0.9511707    0.1737776    -0.0017101   -0.0001372     0.0000323    0.0002382    -0.0005918    0.0005493 
   0.002950725    -0.9358583    0.1803658    -0.0013009    0.0000971     0.0002341    0.0000396     0.0002060   -0.0002190 
   0.003050750    -0.9518672    0.1827574    -0.0012360   -0.0008207     0.0001201    0.0002682     0.0006786    0.0002618 
   0.003150775    -0.9413936    0.1764116    -0.0016746    0.0011295    -0.0001643   -0.0000919     0.0001391   -0.0001853 
   0.003250800    -0.9310025    0.1850313    -0.0015094   -0.0000732     0.0001245    0.0000075     0.0002035   -0.0001822 
   0.003350825    -0.9532611    0.2010416    -0.0007065    0.0011843    -0.0003244    0.0000848     0.0003628   -0.0006613 
   0.003450850    -0.9396714    0.2127524    -0.0010736    0.0008717    -0.0000299    0.0000347    -0.0001579    0.0004347 
   0.003550875    -0.9456323    0.2061830    -0.0004144    0.0001179     0.0000102   -0.0001921    -0.0008008   -0.0000158 
   0.003650900    -0.9331324    0.2090664    -0.0010391   -0.0000616    -0.0000335    0.0000096     0.0000523    0.0000928 
   0.003750925    -0.9406386    0.2159536    -0.0006423    0.0004331     0.0001432    0.0003492     0.0005119    0.0007945 
   0.003850950    -0.9407274    0.2263684    -0.0008775    0.0007287     0.0000125    0.0002034    -0.0000017   -0.0005007 
   0.003950975    -0.9275689    0.2263377    -0.0008901   -0.0003038     0.0000967    0.0001651    -0.0000454   -0.0004026 
   0.004051001    -0.9272042    0.2435849    -0.0005834    0.0000255     0.0000391    0.0001878     0.0008334    0.0002227 
   0.004151026    -0.9366708    0.2450741    -0.0003506   -0.0002974    -0.0001184   -0.0001524     0.0005284    0.0013668 
   0.004251051    -0.9296159    0.2457856    -0.0005309    0.0009522    -0.0001461    0.0000592     0.0001251    0.0002043 
   0.004351076    -0.9140407    0.2515015    -0.0004884   -0.0006169    -0.0000414   -0.0001093    -0.0003197    0.0004525 
   0.004451101    -0.9291798    0.2436654    -0.0004144    0.0003192    -0.0000114    0.0003426     0.0001197    0.0000521 
   0.004551126    -0.9259748    0.2626124     0.0002200    0.0002315    -0.0000121    0.0000873    -0.0004016    0.0008267 
   0.004651151    -0.9205611    0.2663577     0.0006727   -0.0005105    -0.0000866    0.0001579     0.0000909    0.0004077 
   0.004751176    -0.9202814    0.2768972    -0.0005293   -0.0000383     0.0001193   -0.0000420    -0.0001952    0.0001341 
   0.004851201    -0.9259654    0.2840053    -0.0007240    0.0006327     0.0000599    0.0000406     0.0002651    0.0009377 
   0.004951226    -0.9130627    0.2854202     0.0004360    0.0002140     0.0000784    0.0001345     0.0002584   -0.0002828 
   0.005051251    -0.9142503    0.2897782    -0.0001643    0.0008977     0.0000038    0.0000312     0.0000518    0.0006931 
   0.005151276    -0.9210269    0.3001404    -0.0002549   -0.0002766    -0.0000934   -0.0000325    -0.0004485    0.0001543 
   0.005251301    -0.9178772    0.3071146     0.0002433    0.0002534    -0.0002613    0.0001292    -0.0002196    0.0003124 
   0.005351326    -0.9052209    0.3042964    -0.0007330   -0.0002230     0.0000759    0.0001761     0.0001369    0.0004036 
   0.005451351    -0.9122685    0.3111447     0.0002664   -0.0000130     0.0000035    0.0001939     0.0000788    0.0001065 
   0.005551376    -0.9073722    0.3041558    -0.0005907   -0.0004823     0.0000165   -0.0001079     0.0011985   -0.0001984 
   0.005651401    -0.9097227    0.3261420     0.0000740    0.0000987    -0.0000432    0.0000600     0.0001528   -0.0000278 
   0.005751426    -0.9036480    0.3249072     0.0000846   -0.0004365     0.0000763   -0.0000575     0.0000219    0.0003158 
   0.005851451    -0.8905191    0.3235668     0.0000832    0.0003758     0.0001769    0.0002355    -0.0005360   -0.0001492 
   0.005951476    -0.8960646    0.3361039    -0.0007423   -0.0002004     0.0001590    0.0001573    -0.0002946    0.0004479 
   0.006051501    -0.8972170    0.3371425    -0.0000840   -0.0009172    -0.0001353   -0.0001913    -0.0001331    0.0002415 
   0.006151526    -0.8926229    0.3424067    -0.0001772    0.0001602     0.0001646    0.0000628    -0.0001165    0.0001775 
   0.006251551    -0.8916580    0.3491838    -0.0000763    0.0001078    -0.0000144   -0.0000272    -0.0005444   -0.0003033 
   0.006351576    -0.8890365    0.3560691    -0.0003441   -0.0001659     0.0001046    0.0000504     0.0003770   -0.0002755 
   0.006451601    -0.8890764    0.3686068     0.0002257    0.0002731     0.0001669    0.0000702     0.0004257   -0.0001091 
   0.006551626    -0.8855228    0.3731282    -0.0006968   -0.0008638    -0.0000691   -0.0001093     0.0007767   -0.0001684 
   0.006651651    -0.8884283    0.3779606    -0.0006811    0.0001070     0.0000705    0.0000506     0.0005668   -0.0002013 
   0.006751676    -0.8777866    0.3810236    -0.0005276   -0.0001956     0.0001607    0.0000470    -0.0003420   -0.0003114 
   0.006851701    -0.8685066    0.3760488    -0.0001099   -0.0004582     0.0003877    0.0000640    -0.0000823   -0.0000956 
   0.006951726    -0.8726066    0.3896686     0.0004740   -0.0005829    -0.0000664    0.0001054     0.0002548    0.0001148 
   0.007051751    -0.8688297    0.3934721    -0.0001311   -0.0000736    -0.0000405   -0.0000829    -0.0001350    0.0002377 
   0.007151776    -0.8772105    0.3961302    -0.0015105   -0.0005367    -0.0000052   -0.0001252    -0.0006321    0.0005126 
   0.007251801    -0.8572586    0.4023328    -0.0006027    0.0010704    -0.0001441    0.0000020    -0.0001952   -0.0003629 
   0.007351826    -0.8571863    0.4056460    -0.0007743    0.0013854     0.0000672    0.0001812    -0.0000435    0.0000370 
   0.007451851    -0.8584325    0.4156469    -0.0009089   -0.0007107    -0.0003268    0.0002010     0.0005706    0.0000057 
   0.007551876    -0.8561291    0.4235763     0.0001396   -0.0007033    -0.0001648   -0.0001433    -0.0003562    0.0000343 
   0.007651901    -0.8646715    0.4343792    -0.0006504   -0.0002480    -0.0002447    0.0000986    -0.0001773    0.0003417 
   0.007751926    -0.8414981    0.4309155    -0.0001607    0.0006088     0.0001630   -0.0000853     0.0003165   -0.0001131 
   0.007851951    -0.8532717    0.4372663     0.0008354    0.0001362    -0.0001459   -0.0000969     0.0005775    0.0005203 
   0.007951976    -0.8510494    0.4406100    -0.0002022   -0.0000852     0.0002861   -0.0000161     0.0004017    0.0003468 
   0.008052001    -0.8329693    0.4437519    -0.0005043    0.0005847    -0.0000569   -0.0001542    -0.0000653    0.0002840 
   0.008152026    -0.8404670    0.4407968     0.0003921    0.0003647    -0.0000039   -0.0002655    -0.0003742    0.0001172 
   0.008252051    -0.8347122    0.4479475    -0.0002258    0.0008641     0.0000317    0.0001560     0.0001033   -0.0002069 
   0.008352076    -0.8383084    0.4506234    -0.0010065    0.0004867    -0.0000661    0.0000937    -0.0000005    0.0005682 
   0.008452101    -0.8369848    0.4672817     0.0006630   -0.0007887     0.0001490    0.0000413     0.0002823    0.0001003 
   0.008552126    -0.8204488    0.4570872    -0.0004737    0.0006054     0.0000534    0.0002374     0.0003225   -0.0000448 
   0.008652151    -0.8216401    0.4780216     0.0015341    0.0006402    -0.0000744   -0.0002540    -0.0001410    0.0003061 
   0.008752176    -0.8251340    0.4776432    -0.0003490    0.0000467     0.0000994   -0.0002676     0.0002335   -0.0001796 
   0.008852201    -0.8157319    0.4854547    -0.0003058    0.0003102     0.0000126   -0.0002948    -0.0002039    0.0001417 
   0.008952226    -0.8199026    0.4832837    -0.0002121    0.0003540     0.0001087   -0.0003182     0.0001930    0.0001429 
   0.009052251    -0.8176132    0.4924143     0.0008096   -0.0004530     0.0000592    0.0001590     0.0008142    0.0006382 
   0.009152276    -0.8128911    0.5023559    -0.0002928    0.0004846    -0.0001120    0.0000374     0.0003090    0.0000267 
   0.009252301    -0.8083677    0.4953963     0.0005684    0.0002196    -0.0000165    0.0002006     0.0006714    0.0001468 
   0.009352326    -0.8019088    0.5096684     0.0007016    0.0001218     0.0002321    0.0002285     0.0002186    0.0003461 
   0.009452351    -0.8019778    0.5136416     0.0003358    0.0004025     0.0001791    0.0001378     0.0003510    0.0002043 
   0.009552376    -0.7954546    0.5205711     0.0000322   -0.0010104    -0.0002036   -0.0003005    -0.0000218    0.0002744 
   0.009652401    -0.8127548    0.5241390     0.0004933   -0.0005179    -0.0002987    0.0003588     0.0003805    0.0006312 
   0.009752426    -0.7923412    0.5209549    -0.0002285   -0.0002411    -0.0000084   -0.0000949     0.0002371   -0.0000474 
   0.009852451    -0.7887855    0.5308450    -0.0001172    0.0001410     0.0001365   -0.0001576     0.0000820    0.0008538 
   0.009952476    -0.7876577    0.5362191     0.0003460    0.0003956     0.0001266    0.0000044     0.0006756    0.0004003 
   0.010052501    -0.7853475    0.5444521    -0.0003685    0.0005070    -0.0000268    0.0001283    -0.0000815    0.0005010 
   0.010152526    -0.7879452    0.5475267    -0.0006749    0.0004025     0.0000279   -0.0000969    -0.0003225    0.0000876 
   0.010252551    -0.7796081    0.5485380     0.0009373   -0.0006379     0.0001998   -0.0000777    -0.0002284    0.0003087 
   0.010352576    -0.7815936    0.5504256    -0.0007891   -0.0006470    -0.0001267    0.0003554     0.0002614    0.0001038 
   0.010452601    -0.7672679    0.5626807     0.0007008    0.0005414    -0.0000330    0.0000367    -0.0000187    0.0003402 
   0.010552626    -0.7577443    0.5757226    -0.0002763    0.0011043    -0.0001931   -0.0006057    -0.0001956   -0.0000488 
   0.010652651    -0.7644340    0.5749277    -0.0001239   -0.0002986    -0.0000188   -0.0001423     0.0005243   -0.0000615 
   0.010752676    -0.7684301    0.5788335     0.0005862   -0.0001641    -0.0000611   -0.0003424     0.0001581    0.0002155 
   0.010852701    -0.7528813    0.5659038    -0.0004169    0.0003241    -0.0001044    0.0000185     0.0003299   -0.0001681 
   0.010952726    -0.7725018    0.5778471     0.0008336    0.0011548    -0.0000242   -0.0000899    -0.0001874   -0.0000834 
   0.011052751    -0.7558813    0.5752146    -0.0000765   -0.0003448    -0.0002244    0.0001957    -0.0002436    0.0002916 
   0.011152776    -0.7356522    0.5850398     0.0001694   -0.0002446    -0.0000019    0.0000666     0.0005428    0.0002429 
   0.011252801    -0.7550817    0.5826939     0.0002051    0.0003728     0.0002609    0.0000760    -0.0000132    0.0006481 
   0.011352826    -0.7392462    0.6049763    -0.0001332    0.0008678    -0.0003727   -0.0001384    -0.0001994    0.0002087 
   0.011452851    -0.7370275    0.5920885     0.0007201    0.0004293    -0.0001324   -0.0001288     0.0000711    0.0000318 
   0.011552876    -0.7268488    0.5982837    -0.0001018    0.0002441    -0.0002050   -0.0001472     0.0000117    0.0005855 
   0.011652901    -0.7276275    0.5984018     0.0009458   -0.0003924    -0.0000562   -0.0002612     0.0004386    0.0000949 
   0.011752926    -0.7302610    0.6136508     0.0002651    0.0001866    -0.0003520   -0.0002969    -0.0002298   -0.0000422 
   0.011852951    -0.7197112    0.6028555     0.0003790   -0.0000364    -0.0000794   -0.0000850    -0.0001984   -0.0002449 
   0.011952976    -0.7155919    0.6232496     0.0003027   -0.0000777     0.0001086   -0.0001861     0.0000325    0.0000255 
   0.012053002    -0.7128036    0.6259918     0.0003218    0.0002989    -0.0001782   -0.0003229     0.0004013    0.0005418 
   0.012153027    -0.7048855    0.6325115     0.0007940    0.0006933    -0.0002115   -0.0003309    -0.0002998    0.0001800 
   0.012253052    -0.7084598    0.6248340     0.0002599    0.0003984     0.0002264    0.0001752     0.0006415    0.0004131 
   0.012353077    -0.6988456    0.6241293     0.0001946   -0.0004438     0.0000336   -0.0001237     0.0003122    0.0002713 
   0.012453102    -0.6875978    0.6438828    -0.0013193   -0.0000899     0.0000679   -0.0000188    -0.0000946    0.0002564 
   0.012553127    -0.6910574    0.6408103     0.0004140    0.0007633     0.0000837   -0.0001450     0.0002142    0.0002424 
   0.012653152    -0.6997033    0.6428093    -0.0000745    0.0006340    -0.0000192   -0.0002817     0.0001590    0.0002155 
   0.012753177    -0.6774448    0.6487906    -0.0004271    0.0004222     0.0000069    0.0002406    -0.0001046    0.0003119 
   0.012853202    -0.6797098    0.6629139     0.0011005   -0.0004465    -0.0000463   -0.0001012     0.0005820    0.0003144 
   0.012953227    -0.6636270    0.6545802     0.0001276   -0.0007930     0.0001401   -0.0001472     0.0002643    0.0002423 
   0.013053252    -0.6639530    0.6818125    -0.0009154    0.0001607    -0.0000543   -0.0001226     0.0002104    0.0000992 
   0.013153277    -0.6658517    0.6651218     0.0001646   -0.0002829     0.0001073    0.0000473    -0.0002380   -0.0002203 
   0.013253302    -0.6568661    0.6644105     0.0001819    0.0005052     0.0000442    0.0001697     0.0000071   -0.0000816 
   0.013353327    -0.6601810    0.6777468    -0.0002899    0.0000454    -0.0002253   -0.0003744     0.0003714    0.0001158 
   0.013453352    -0.6594341    0.6834922     0.0002574    0.0006015     0.0002224   -0.0001024     0.0002803    0.0001120 
   0.013553377    -0.6574451    0.6942040     0.0002687   -0.0003167    -0.0003814    0.0002751    -0.0000569    0.0003878 
   0.013653402    -0.6495227    0.6875353     0.0005428   -0.0004642     0.0003658    0.0001016    -0.0000084    0.0002374 
   0.013753427    -0.6568978    0.6973399     0.0007446   -0.0001805    -0.0003332   -0.0000230    -0.0004750   -0.0001082 
   0.013853452    -0.6469188    0.6898212    -0.0007440   -0.0007409    -0.0002674   -0.0002526    -0.0001543    0.0002919 
   0.013953477    -0.6371026    0.6952194     0.0012804   -0.0003001    -0.0002806    0.0000078     0.0000377   -0.0000480 
   0.014053502    -0.6301229    0.7025386    -0.0008217    0.0004925    -0.0002720   -0.0002615     0.0007421    0.0003294 
   0.014153527    -0.6330806    0.6999804    -0.0001502   -0.0008222     0.0000067    0.0002274    -0.0001043    0.0003790 
   0.014253552    -0.6182880    0.7088950    -0.0010715    0.0003546    -0.0000711    0.0001419     0.0004698    0.0002083 
   0.014353577    -0.6230187    0.7162628     0.0002606   -0.0006325    -0.0000167   -0.0000513     0.0000925   -0.0001766 
   0.014453602    -0.6030173    0.7211052    -0.0004134    0.0003952    -0.0001113   -0.0001757    -0.0002124    0.0006418 
   0.014553627    -0.6152537    0.7244733     0.0006032   -0.0004281     0.0002087   -0.0002942    -0.0003057    0.0001098 
   0.014653652    -0.5912467    0.7259534     0.0008415    0.0008462    -0.0000532   -0.0002038    -0.0000109    0.0003353 
   0.014753677    -0.6004124    0.7240626     0.0000555   -0.0006843     0.0002640    0.0001137     0.0001805    0.0007185 
   0.014853702    -0.6042356    0.7324470    -0.0000431    0.0007440     0.0001334   -0.0002485     0.0000523    0.0002523 
   0.014953727    -0.5748768    0.7266330     0.0010559    0.0001625     0.0000099   -0.0001314     0.0001716    0.0006003 
   0.015053752    -0.5963452    0.7445683    -0.0002556    0.0006399     0.0000123    0.0000065    -0.0000859    0.0004515 
   0.015153777    -0.5886018    0.7322544     0.0003173    0.0003659    -0.0002197    0.0005706     0.0001615    0.0004553 
   0.015253802    -0.5747560    0.7619625     0.0007451    0.0005466     0.0000497   -0.0001416     0.0002269   -0.0001570 
   0.015353827    -0.5833527    0.7576716     0.0004007    0.0004094    -0.0000765    0.0000216     0.0000464   -0.0002336 
   0.015453852    -0.5650840    0.7445814     0.0004203    0.0005461     0.0000731    0.0001906    -0.0005785   -0.0000411 
   0.015553877    -0.5641828    0.7453544    -0.0007384    0.0002721    -0.0004838   -0.0002867    -0.0000424    0.0007427 
   0.015653902    -0.5542127    0.7716445    -0.0005147   -0.0003799    -0.0000005    0.0000789    -0.0001337    0.0007241 
