! 19-Feb-26 2:06:08 PM
! E:\VNA_MEASUREMENTS\RECBLOCK\RECBLOCKSDRREV0.S2P
! CHANNEL.1
! TR.MEASUREMENT
! CORRECTED.DATA
# GHZ S RI R 50.0
! FREQ.GHZ         S11RE         S11IM         S21RE         S21IM         S12RE         S12IM         S22RE         S22IM         
!; PortSelection: Port_12
   0.000050000    -0.7524191    0.8124931    -2.1954020    1.5204520     0.0001823    0.0033764    -0.9392284   -0.0026275 
   0.000150025     0.0443249    1.5040780    -3.5958380   -1.2541800     0.0010348   -0.0001757    -0.9621900    0.0132612 
   0.000250050     1.4826180   -0.3360955     1.7335940   -0.1171277    -0.0017044   -0.0006332    -0.9730463    0.0224558 
   0.000350075     0.0045002    0.0048106    -0.0009820   -0.0012355     0.0001903   -0.0002859    -0.9615322    0.0201480 
   0.000450100    -0.0024157   -0.0080088    -0.0022760   -0.0059559    -0.0002876    0.0000381    -0.9705499    0.0363747 
   0.000550125    -0.0043041    0.0026295    -0.0016322   -0.0037724    -0.0005192    0.0000903    -0.9633893    0.0355663 
   0.000650150     0.0006934    0.0040050    -0.0025750   -0.0064900    -0.0002673    0.0000674    -0.9643427    0.0410180 
   0.000750175    -0.0066390    0.0012326    -0.0023206   -0.0039372     0.0002194    0.0001509    -0.9657258    0.0436892 
   0.000850200    -0.0010657   -0.0001742    -0.0048893   -0.0055805     0.0001495    0.0002428    -0.9611781    0.0550630 
   0.000950225     0.0021464   -0.0006089    -0.0068086   -0.0053800     0.0000767    0.0000857    -0.9676559    0.0518542 
   0.001050250    -0.0015302   -0.0003592    -0.0053688   -0.0027872     0.0000663    0.0003910    -0.9528373    0.0645409 
   0.001150275     0.0074385    0.0019724    -0.0047498   -0.0026002    -0.0005129    0.0000438    -0.9607630    0.0639106 
   0.001250300    -0.0017409   -0.0031898    -0.0063107   -0.0032225    -0.0001337   -0.0002685    -0.9573395    0.0756804 
   0.001350325    -0.0018584    0.0012420    -0.0037276   -0.0008863    -0.0002394    0.0004333    -0.9580789    0.0790794 
   0.001450350     0.0027888   -0.0020121    -0.0042891   -0.0019921     0.0002108    0.0003364    -0.9601530    0.0847005 
   0.001550375     0.0003895    0.0014495    -0.0040733   -0.0010822     0.0005596    0.0003000    -0.9580300    0.0897422 
   0.001650400     0.0014844   -0.0004843    -0.0042609   -0.0011731    -0.0005226   -0.0002641    -0.9572480    0.0928086 
   0.001750425    -0.0022320    0.0021508    -0.0042587   -0.0000869    -0.0000540   -0.0001349    -0.9633629    0.1066125 
   0.001850450     0.0019783    0.0008488    -0.0024920   -0.0017317     0.0002145   -0.0000377    -0.9620349    0.1065555 
   0.001950475    -0.0026001    0.0014353    -0.0048994    0.0014432     0.0003934   -0.0002568    -0.9556072    0.1122565 
   0.002050500    -0.0008694   -0.0021667    -0.0023541    0.0021787     0.0001526    0.0002568    -0.9595917    0.1232161 
   0.002150525     0.0003772   -0.0003205    -0.0027992    0.0005111     0.0002344   -0.0000475    -0.9568164    0.1264209 
   0.002250550     0.0022356    0.0021285    -0.0044208    0.0016058     0.0000340    0.0003389    -0.9588185    0.1360539 
   0.002350575     0.0004882    0.0011326    -0.0039914    0.0000161    -0.0000284    0.0000481    -0.9537258    0.1308713 
   0.002450600     0.0003762   -0.0001843    -0.0043268    0.0027369     0.0004233   -0.0002724    -0.9515061    0.1397003 
   0.002550625     0.0041360    0.0022556    -0.0029792    0.0000444    -0.0002917   -0.0000529    -0.9577201    0.1438580 
   0.002650650    -0.0007039    0.0010532    -0.0018126    0.0002629    -0.0003402    0.0000144    -0.9485569    0.1506659 
   0.002750675    -0.0002798    0.0039338    -0.0008320    0.0016908    -0.0001758   -0.0000858    -0.9535736    0.1563245 
   0.002850700     0.0028795    0.0000068    -0.0023911   -0.0002490    -0.0003747    0.0002278    -0.9506611    0.1665945 
   0.002950725    -0.0007878   -0.0000788    -0.0008722    0.0015467     0.0002992   -0.0001809    -0.9480388    0.1649362 
   0.003050750    -0.0008765   -0.0032842    -0.0019251    0.0016814     0.0002775   -0.0000865    -0.9459861    0.1759407 
   0.003150775     0.0003424   -0.0042582    -0.0029911    0.0005234     0.0000562   -0.0000292    -0.9463345    0.1869052 
   0.003250800     0.0005130   -0.0035442    -0.0017487    0.0000635     0.0002338   -0.0000902    -0.9436647    0.1868909 
   0.003350825    -0.0005266   -0.0030771    -0.0024436    0.0011838    -0.0002128    0.0000817    -0.9434086    0.1872385 
   0.003450850     0.0022788   -0.0014552    -0.0010293    0.0009058     0.0000169    0.0004657    -0.9397655    0.1997891 
   0.003550875    -0.0018458    0.0044288    -0.0002480    0.0005568    -0.0002100    0.0000871    -0.9421130    0.1995859 
   0.003650900     0.0003271    0.0012806    -0.0012490    0.0019082    -0.0000339   -0.0000199    -0.9438502    0.2095086 
   0.003750925     0.0009634    0.0035752    -0.0016143    0.0009017    -0.0001336   -0.0002314    -0.9372050    0.2159496 
   0.003850950     0.0000085   -0.0002465     0.0013590    0.0015163    -0.0000692   -0.0003501    -0.9365861    0.2192595 
   0.003950975    -0.0032809    0.0003798    -0.0011968    0.0013003    -0.0001138   -0.0001194    -0.9302338    0.2241003 
   0.004051001     0.0024001   -0.0017199    -0.0022050    0.0008122    -0.0002690    0.0002194    -0.9321234    0.2257449 
   0.004151026     0.0006207   -0.0016671    -0.0005953    0.0011585     0.0001067    0.0002576    -0.9267376    0.2364047 
   0.004251051     0.0002053   -0.0002008    -0.0002626    0.0007489     0.0002556    0.0002814    -0.9307066    0.2377528 
   0.004351076     0.0001309   -0.0002701     0.0006920   -0.0004032     0.0000099    0.0001604    -0.9240155    0.2467370 
   0.004451101    -0.0002407   -0.0016632     0.0014378    0.0003617    -0.0002124    0.0001681    -0.9293430    0.2471666 
   0.004551126     0.0015223   -0.0002955    -0.0018766    0.0001456     0.0001687   -0.0001509    -0.9211539    0.2591816 
   0.004651151     0.0001836   -0.0000096    -0.0003684    0.0002877     0.0003381   -0.0003556    -0.9206654    0.2631530 
   0.004751176     0.0014683    0.0019134    -0.0000723    0.0005589    -0.0001811    0.0002914    -0.9219729    0.2668383 
   0.004851201     0.0037565    0.0012494    -0.0007918   -0.0000267    -0.0001872    0.0001455    -0.9204641    0.2717640 
   0.004951226    -0.0041595   -0.0015658    -0.0011031    0.0007425    -0.0001452    0.0002903    -0.9144929    0.2821123 
   0.005051251     0.0016907    0.0001947     0.0004089    0.0008196    -0.0001852    0.0001331    -0.9171435    0.2842366 
   0.005151276    -0.0018910    0.0006892    -0.0005811   -0.0003400     0.0001175    0.0002039    -0.9171162    0.2872647 
   0.005251301     0.0006115   -0.0007625    -0.0010371    0.0003596     0.0003113   -0.0004489    -0.9176732    0.2992191 
   0.005351326     0.0017001   -0.0041149    -0.0000668    0.0011148    -0.0002582    0.0003701    -0.9122122    0.3031557 
   0.005451351     0.0007539   -0.0005356    -0.0002919    0.0012837    -0.0003936    0.0001845    -0.9113337    0.3072508 
   0.005551376     0.0010610    0.0000679     0.0004683   -0.0006385     0.0002706    0.0003043    -0.9023340    0.3105063 
   0.005651401     0.0017176   -0.0014882    -0.0002380    0.0008727    -0.0003853   -0.0001813    -0.9046759    0.3173022 
   0.005751426     0.0002228    0.0016323     0.0001124    0.0001426    -0.0001800    0.0004778    -0.9025996    0.3205282 
   0.005851451     0.0022148   -0.0015169     0.0000853    0.0003512    -0.0002083   -0.0000961    -0.8965619    0.3241006 
   0.005951476     0.0005861    0.0017798     0.0004041    0.0008577    -0.0000007   -0.0000287    -0.8979279    0.3308195 
   0.006051501     0.0012093   -0.0005478    -0.0009476    0.0001164     0.0000488    0.0001911    -0.8931950    0.3420256 
   0.006151526    -0.0021598   -0.0026085     0.0011665   -0.0001020    -0.0000587    0.0000506    -0.8964539    0.3447835 
   0.006251551    -0.0025589    0.0008556    -0.0013768   -0.0001783     0.0001181   -0.0000605    -0.8872262    0.3465895 
   0.006351576     0.0012711   -0.0002650    -0.0003044    0.0002389     0.0003754   -0.0001044    -0.8900709    0.3540389 
   0.006451601    -0.0001340    0.0021659     0.0002058    0.0004355     0.0000798    0.0000187    -0.8858132    0.3561925 
   0.006551626    -0.0003218   -0.0000142     0.0005327    0.0006468    -0.0003016    0.0002512    -0.8864058    0.3646244 
   0.006651651     0.0017637    0.0002939     0.0006867    0.0006912     0.0001714    0.0001581    -0.8824919    0.3661158 
   0.006751676     0.0002518    0.0011251    -0.0013429   -0.0017651    -0.0000277   -0.0000238    -0.8838124    0.3763397 
   0.006851701     0.0001318    0.0001360    -0.0010707    0.0000014     0.0003671    0.0001972    -0.8825669    0.3795389 
   0.006951726     0.0006813    0.0015391    -0.0007202    0.0010216    -0.0003897   -0.0001125    -0.8773779    0.3866669 
   0.007051751     0.0003987   -0.0007784     0.0002514   -0.0000936    -0.0000824   -0.0002184    -0.8708063    0.3893054 
   0.007151776     0.0011144    0.0029243    -0.0003519   -0.0002821    -0.0000418   -0.0000054    -0.8700283    0.3924614 
   0.007251801     0.0015406    0.0010582     0.0005663   -0.0005292     0.0001479    0.0001983    -0.8645955    0.3968785 
   0.007351826    -0.0002697    0.0013571    -0.0005437    0.0007278    -0.0001300    0.0003193    -0.8625137    0.4050844 
   0.007451851    -0.0010013   -0.0001726     0.0004405    0.0003877     0.0002305   -0.0001767    -0.8629455    0.4077896 
   0.007551876     0.0008411   -0.0008122    -0.0010042    0.0003442    -0.0000708    0.0001294    -0.8601484    0.4160308 
   0.007651901    -0.0005223    0.0013358    -0.0002511   -0.0002734     0.0000828    0.0004376    -0.8599651    0.4217346 
   0.007751926    -0.0000894   -0.0026113     0.0005740    0.0002944     0.0000284    0.0001700    -0.8526697    0.4224034 
   0.007851951    -0.0006591    0.0006374    -0.0005675    0.0000260     0.0001182    0.0000663    -0.8505109    0.4292658 
   0.007951976    -0.0008582   -0.0015364    -0.0001388   -0.0002466     0.0000809    0.0001905    -0.8507819    0.4341680 
   0.008052001     0.0003575   -0.0005434     0.0008578    0.0000818    -0.0001061   -0.0001365    -0.8478125    0.4363599 
   0.008152026    -0.0004223   -0.0023433    -0.0002009   -0.0001791    -0.0001286   -0.0002473    -0.8436477    0.4445935 
   0.008252051    -0.0000404   -0.0020888    -0.0010028   -0.0010180    -0.0003042   -0.0001136    -0.8446575    0.4473847 
   0.008352076    -0.0001425   -0.0008200     0.0002394   -0.0003149    -0.0000161    0.0000672    -0.8387704    0.4550223 
   0.008452101    -0.0015365   -0.0007343    -0.0007697    0.0002518    -0.0000589   -0.0000848    -0.8362339    0.4562623 
   0.008552126     0.0001952    0.0004010    -0.0002548   -0.0000192    -0.0001316    0.0000008    -0.8340847    0.4659387 
   0.008652151    -0.0014946    0.0004018    -0.0007863   -0.0000738     0.0001483    0.0000855    -0.8271094    0.4674791 
   0.008752176    -0.0007804    0.0014264     0.0000248    0.0001630     0.0000955   -0.0000781    -0.8235276    0.4711730 
   0.008852201    -0.0001172    0.0001834    -0.0004956   -0.0006262     0.0000491   -0.0001106    -0.8252434    0.4779943 
   0.008952226    -0.0015532    0.0004467     0.0005008    0.0004788    -0.0000583   -0.0002065    -0.8202348    0.4824327 
   0.009052251    -0.0010303   -0.0010377     0.0006567   -0.0010901     0.0002735   -0.0003503    -0.8142666    0.4892623 
   0.009152276     0.0006910    0.0018998     0.0006923   -0.0005024     0.0003585    0.0001323    -0.8140103    0.4894066 
   0.009252301    -0.0003108    0.0002056     0.0015947    0.0000018     0.0001691    0.0001270    -0.8114924    0.4969814 
   0.009352326    -0.0004746    0.0014861     0.0002367    0.0002562     0.0000066   -0.0003515    -0.8055875    0.4995539 
   0.009452351     0.0000223    0.0007204    -0.0001230    0.0001983    -0.0001414   -0.0000176    -0.8080930    0.5088399 
   0.009552376     0.0005191    0.0004517    -0.0003736    0.0010671    -0.0000001    0.0000290    -0.8017871    0.5100360 
   0.009652401     0.0006415    0.0005547     0.0013080    0.0001105    -0.0002739   -0.0001363    -0.7984870    0.5148325 
   0.009752426     0.0005377    0.0005126    -0.0005558   -0.0005769     0.0000137   -0.0001336    -0.7988040    0.5212573 
   0.009852451    -0.0007027   -0.0005695    -0.0002944   -0.0000079     0.0001928    0.0000067    -0.7916005    0.5265883 
   0.009952476     0.0001533    0.0003787    -0.0008590    0.0007073     0.0001970   -0.0000704    -0.7901929    0.5305989 
   0.010052501     0.0003123    0.0018725     0.0003271   -0.0004921    -0.0000612    0.0001374    -0.7879578    0.5342953 
   0.010152526    -0.0004311    0.0001737     0.0006622   -0.0000675    -0.0001620   -0.0002461    -0.7841312    0.5407010 
   0.010252551     0.0013373    0.0010544     0.0000157    0.0006483    -0.0001268    0.0000482    -0.7817311    0.5468000 
   0.010352576     0.0000283    0.0006770     0.0007506    0.0001247     0.0002269    0.0000071    -0.7743992    0.5501238 
   0.010452601    -0.0001529   -0.0001953     0.0004923    0.0004109     0.0001530    0.0000412    -0.7726476    0.5512965 
   0.010552626     0.0012444   -0.0000284     0.0002214    0.0002971     0.0002776    0.0000900    -0.7717723    0.5583346 
   0.010652651    -0.0014073   -0.0023886    -0.0005252    0.0005677     0.0002141   -0.0001712    -0.7677608    0.5564670 
   0.010752676    -0.0003030   -0.0004570     0.0008252    0.0006059     0.0001325   -0.0000119    -0.7583221    0.5639290 
   0.010852701    -0.0005863    0.0002665    -0.0002982   -0.0001890     0.0000700    0.0000753    -0.7611064    0.5691391 
   0.010952726    -0.0012741   -0.0002830    -0.0009753   -0.0011513     0.0000457    0.0002504    -0.7530897    0.5737980 
   0.011052751     0.0014086   -0.0015651    -0.0002862   -0.0008254     0.0001268    0.0001209    -0.7498339    0.5799908 
   0.011152776     0.0000447   -0.0010126     0.0001735    0.0000472     0.0001609   -0.0002562    -0.7463388    0.5834017 
   0.011252801    -0.0008241   -0.0000765    -0.0009590    0.0001359    -0.0000646    0.0000502    -0.7474625    0.5877290 
   0.011352826    -0.0007890    0.0006711    -0.0002961   -0.0002061     0.0001598    0.0002322    -0.7415677    0.5926532 
   0.011452851    -0.0020626   -0.0013119     0.0001212    0.0001914    -0.0003168    0.0000804    -0.7359825    0.5984026 
   0.011552876    -0.0008010    0.0006097    -0.0006876    0.0000784     0.0001627    0.0000756    -0.7307876    0.6016244 
   0.011652901    -0.0009891   -0.0002968    -0.0002797   -0.0010701     0.0002018    0.0000841    -0.7287140    0.6068962 
   0.011752926    -0.0012711    0.0007791    -0.0005283   -0.0002293     0.0000321   -0.0001684    -0.7261809    0.6075339 
   0.011852951     0.0003551    0.0011804    -0.0007298    0.0003219     0.0001838   -0.0001265    -0.7187268    0.6108667 
   0.011952976    -0.0011302   -0.0014415    -0.0001430    0.0005332    -0.0000736    0.0002208    -0.7150338    0.6165779 
   0.012053002    -0.0008254    0.0000275    -0.0001413    0.0001707     0.0000486   -0.0001111    -0.7111455    0.6212883 
   0.012153027    -0.0008761    0.0009947     0.0001277   -0.0001607    -0.0000596   -0.0001226    -0.7155868    0.6251371 
   0.012253052    -0.0016545    0.0007807    -0.0004215   -0.0007062     0.0003087    0.0000807    -0.7085075    0.6309426 
   0.012353077    -0.0019278   -0.0001167    -0.0004270    0.0001848    -0.0000184    0.0001672    -0.6972370    0.6346838 
   0.012453102    -0.0011560   -0.0000419    -0.0006184   -0.0000691     0.0001896   -0.0000149    -0.6971175    0.6408131 
   0.012553127     0.0011938    0.0005301    -0.0001254    0.0000934    -0.0001569    0.0000872    -0.6960374    0.6454524 
   0.012653152    -0.0003961    0.0011209    -0.0000263    0.0006848    -0.0000911    0.0001158    -0.6905901    0.6472114 
   0.012753177     0.0000301    0.0007193    -0.0002585   -0.0001950     0.0000380    0.0002561    -0.6898334    0.6488176 
   0.012853202    -0.0021229    0.0007053     0.0008707    0.0000695    -0.0000500   -0.0000277    -0.6814589    0.6554127 
   0.012953227    -0.0002497   -0.0008784     0.0012835    0.0005637    -0.0001624    0.0001940    -0.6775100    0.6582170 
   0.013053252     0.0002191   -0.0012131    -0.0005135   -0.0005604     0.0001086   -0.0001936    -0.6793083    0.6654454 
   0.013153277    -0.0009150   -0.0009655    -0.0002615    0.0010780     0.0000393    0.0000469    -0.6700376    0.6678267 
   0.013253302    -0.0011634    0.0013818     0.0001786   -0.0004559     0.0000911   -0.0000351    -0.6659247    0.6664870 
   0.013353327     0.0004601   -0.0000398    -0.0001507    0.0001467    -0.0000236    0.0001329    -0.6591408    0.6768916 
   0.013453352    -0.0005715    0.0001186    -0.0005071    0.0002566     0.0001139   -0.0002067    -0.6530604    0.6780147 
   0.013553377    -0.0003067   -0.0002701     0.0000582    0.0006947    -0.0000093    0.0001777    -0.6522557    0.6807820 
   0.013653402    -0.0005475   -0.0011979     0.0000775    0.0001554     0.0001744   -0.0002668    -0.6501561    0.6890315 
   0.013753427     0.0021860    0.0003356     0.0007790   -0.0003455     0.0001303   -0.0001088    -0.6454918    0.6863105 
   0.013853452     0.0013047   -0.0006034     0.0003927   -0.0001010    -0.0002018   -0.0000751    -0.6409019    0.6916680 
   0.013953477    -0.0012386    0.0010002     0.0004550   -0.0005191     0.0002795    0.0001278    -0.6344306    0.6995616 
   0.014053502     0.0006362   -0.0021070    -0.0000391   -0.0007809     0.0003744    0.0000007    -0.6307626    0.7012932 
   0.014153527    -0.0007889    0.0001188     0.0001715    0.0015420    -0.0000697    0.0001857    -0.6227771    0.7068904 
   0.014253552    -0.0008774   -0.0007573    -0.0003513    0.0008960    -0.0001207    0.0001496    -0.6225780    0.7083429 
   0.014353577     0.0011295   -0.0000998    -0.0006974   -0.0001319     0.0000367    0.0002544    -0.6199263    0.7153832 
   0.014453602    -0.0012569   -0.0006944     0.0003572   -0.0002545     0.0000559    0.0000747    -0.6122745    0.7143815 
   0.014553627     0.0002138   -0.0005960     0.0000406    0.0000922     0.0000338    0.0000073    -0.6132348    0.7200795 
   0.014653652     0.0000208    0.0027204    -0.0002391    0.0005400    -0.0001042   -0.0002300    -0.6026663    0.7238976 
   0.014753677    -0.0006241    0.0013336    -0.0004677   -0.0005194    -0.0002265    0.0000597    -0.5980992    0.7290468 
   0.014853702    -0.0011154    0.0011649    -0.0012305   -0.0001874     0.0001200    0.0002068    -0.5963289    0.7320238 
   0.014953727    -0.0004572    0.0003858     0.0008444    0.0006610    -0.0000174   -0.0000382    -0.5914354    0.7328140 
   0.015053752    -0.0010492   -0.0007486    -0.0004176    0.0007429     0.0001694   -0.0001451    -0.5869280    0.7422332 
   0.015153777     0.0001776   -0.0011973     0.0009159    0.0005980    -0.0000494   -0.0000163    -0.5820144    0.7404346 
   0.015253802    -0.0015896    0.0007141    -0.0005002   -0.0000210    -0.0002026    0.0001648    -0.5752074    0.7438199 
   0.015353827    -0.0001998   -0.0002663     0.0001676    0.0004687     0.0001931    0.0001155    -0.5697624    0.7465160 
   0.015453852    -0.0002722   -0.0001009     0.0000226    0.0000637    -0.0000317   -0.0001273    -0.5696000    0.7522536 
   0.015553877    -0.0019551    0.0008513    -0.0003619    0.0000868    -0.0000893   -0.0000237    -0.5618404    0.7545191 
   0.015653902    -0.0000565    0.0008688     0.0002656    0.0003099    -0.0000407   -0.0000552    -0.5545086    0.7593237 
