! 19-Feb-26 1:53:23 PM
! E:\VNA_MEASUREMENTS\RECBLOCK\RECBLOCK0.S2P
! CHANNEL.1
! TR.MEASUREMENT
! CORRECTED.DATA
# GHZ S RI R 50.0
! FREQ.GHZ         S11RE         S11IM         S21RE         S21IM         S12RE         S12IM         S22RE         S22IM         
!; PortSelection: Port_12
   0.000050000     0.0607536    0.6082850     0.3104651    0.4815929    -0.0013860   -0.0024034     0.4235082   -0.1429637 
   0.000150025    -0.5452785   -0.2476575    -2.6459530    1.0880750     0.0011652   -0.0013331     0.2218180   -0.3776982 
   0.000250050     1.1571890   -0.1555516     0.1617492   -0.9692608    -0.0009682   -0.0002135    -0.0363610   -0.3005388 
   0.000350075    -0.9684117    0.0198761    -0.0006032   -0.0020012     0.0000235   -0.0001199    -0.0963253   -0.1489000 
   0.000450100    -0.9681891    0.0334671    -0.0007009   -0.0022796     0.0001295   -0.0002044    -0.0803592   -0.0677365 
   0.000550125    -0.9641112    0.0339538    -0.0018007   -0.0016607     0.0001322   -0.0001612    -0.0533581   -0.0284997 
   0.000650150    -0.9547045    0.0397753    -0.0015120   -0.0023344     0.0001708   -0.0000979    -0.0345259   -0.0094805 
   0.000750175    -0.9624277    0.0403614    -0.0009227   -0.0010809    -0.0001067    0.0000895    -0.0213626    0.0006573 
   0.000850200    -0.9636294    0.0532947    -0.0009221   -0.0008606     0.0002317    0.0000017    -0.0075849    0.0067451 
   0.000950225    -0.9645117    0.0451680    -0.0012496   -0.0022199     0.0000932    0.0000379    -0.0010669    0.0108959 
   0.001050250    -0.9552780    0.0555694    -0.0013878   -0.0018939    -0.0001868   -0.0000530     0.0067492    0.0103674 
   0.001150275    -0.9648637    0.0689339    -0.0022187   -0.0008314     0.0001295   -0.0001178     0.0115083    0.0120926 
   0.001250300    -0.9647303    0.0773377    -0.0026178   -0.0012279    -0.0001655   -0.0001436     0.0151983    0.0098565 
   0.001350325    -0.9710844    0.0822681    -0.0018726   -0.0011688     0.0000107    0.0001411     0.0208190    0.0123157 
   0.001450350    -0.9569736    0.0841939    -0.0022970   -0.0000932     0.0000284    0.0000360     0.0205496    0.0113858 
   0.001550375    -0.9630396    0.0990845    -0.0018905   -0.0007836    -0.0001583    0.0000618     0.0237220    0.0119255 
   0.001650400    -0.9640949    0.1028450    -0.0035314   -0.0016694     0.0001582   -0.0001979     0.0250623    0.0118701 
   0.001750425    -0.9618106    0.0948807    -0.0031510   -0.0010478    -0.0001112    0.0000000     0.0278898    0.0099145 
   0.001850450    -0.9617427    0.1035362    -0.0028859   -0.0007320     0.0001359   -0.0000338     0.0276988    0.0105814 
   0.001950475    -0.9504039    0.1119541    -0.0029074    0.0004400     0.0000377   -0.0000745     0.0297848    0.0107852 
   0.002050500    -0.9570885    0.1100995    -0.0022145    0.0008530    -0.0000259   -0.0000561     0.0310225    0.0099827 
   0.002150525    -0.9588332    0.1317082    -0.0024885    0.0001794     0.0001292    0.0000374     0.0329954    0.0097524 
   0.002250550    -0.9559413    0.1216466    -0.0027973    0.0000488    -0.0000490    0.0000320     0.0313224    0.0076645 
   0.002350575    -0.9546610    0.1350767    -0.0032786   -0.0001423    -0.0001880   -0.0001302     0.0333961    0.0086408 
   0.002450600    -0.9670779    0.1428686    -0.0026553    0.0001772     0.0003328    0.0000685     0.0348375    0.0085634 
   0.002550625    -0.9514694    0.1510453    -0.0030051   -0.0000304    -0.0000100    0.0000222     0.0356152    0.0075329 
   0.002650650    -0.9502112    0.1647644    -0.0032252   -0.0002167    -0.0001382    0.0000336     0.0349781    0.0057431 
   0.002750675    -0.9438828    0.1598875    -0.0032044    0.0011240     0.0001053    0.0000412     0.0365096    0.0055734 
   0.002850700    -0.9521772    0.1705382    -0.0033952    0.0004318     0.0000987   -0.0001240     0.0357526    0.0055557 
   0.002950725    -0.9485193    0.1800381    -0.0051041   -0.0004067    -0.0000367    0.0000454     0.0379538    0.0053652 
   0.003050750    -0.9406225    0.1856273    -0.0040118    0.0009805     0.0002535    0.0001315     0.0379175    0.0054593 
   0.003150775    -0.9374931    0.1899221    -0.0034735    0.0009830    -0.0000184   -0.0001348     0.0379123    0.0038059 
   0.003250800    -0.9458651    0.1889736    -0.0037984    0.0007247    -0.0002914   -0.0002256     0.0386291    0.0037866 
   0.003350825    -0.9491069    0.2066684    -0.0042081    0.0002748     0.0000074    0.0001544     0.0381520    0.0036546 
   0.003450850    -0.9319342    0.2035538    -0.0047840    0.0013654     0.0000047    0.0000556     0.0392794    0.0032193 
   0.003550875    -0.9468235    0.2058044    -0.0041238    0.0013412     0.0000035   -0.0000529     0.0384266    0.0027275 
   0.003650900    -0.9400595    0.2173376    -0.0052685    0.0007235    -0.0000729    0.0000686     0.0398120    0.0028187 
   0.003750925    -0.9429526    0.2150500    -0.0047748    0.0013090     0.0000241    0.0002057     0.0395518    0.0018446 
   0.003850950    -0.9345254    0.2138964    -0.0043468    0.0013973    -0.0001571    0.0001053     0.0399859    0.0004840 
   0.003950975    -0.9312783    0.2303367    -0.0049438    0.0005784     0.0002352   -0.0000786     0.0406229    0.0011574 
   0.004051001    -0.9350895    0.2344902    -0.0047675    0.0006866    -0.0000688    0.0001667     0.0405678    0.0008301 
   0.004151026    -0.9368278    0.2412382    -0.0050279    0.0018811    -0.0000410   -0.0000300     0.0410870    0.0009669 
   0.004251051    -0.9283188    0.2441702    -0.0061342    0.0014839    -0.0002938    0.0001995     0.0410870    0.0006601 
   0.004351076    -0.9226046    0.2601333    -0.0061496    0.0014392     0.0000339   -0.0001503     0.0404501    0.0006677 
   0.004451101    -0.9289198    0.2560275    -0.0063535    0.0019567    -0.0000398   -0.0001889     0.0414394   -0.0007720 
   0.004551126    -0.9210961    0.2634951    -0.0066325    0.0017902    -0.0000297   -0.0000147     0.0416398   -0.0002764 
   0.004651151    -0.9266536    0.2710890    -0.0068980    0.0013482    -0.0000689   -0.0000625     0.0419104   -0.0015857 
   0.004751176    -0.9254430    0.2714663    -0.0072838    0.0018314    -0.0000305   -0.0002436     0.0408158   -0.0025358 
   0.004851201    -0.9201133    0.2809074    -0.0073672    0.0023361    -0.0000382   -0.0001325     0.0418072   -0.0027883 
   0.004951226    -0.9171126    0.2777916    -0.0072463    0.0014836     0.0000398    0.0001861     0.0420787   -0.0034191 
   0.005051251    -0.9196724    0.2868513    -0.0079082    0.0022528     0.0001081   -0.0000453     0.0420770   -0.0026502 
   0.005151276    -0.9087738    0.2971000    -0.0086133    0.0023027    -0.0000127   -0.0000499     0.0414494   -0.0033591 
   0.005251301    -0.9137206    0.2982565    -0.0086279    0.0022155     0.0001546   -0.0000503     0.0415267   -0.0048036 
   0.005351326    -0.9186001    0.3042353    -0.0084195    0.0020887    -0.0002227    0.0003206     0.0424672   -0.0038475 
   0.005451351    -0.9073681    0.3069524    -0.0084443    0.0017653     0.0000962    0.0000023     0.0424791   -0.0048578 
   0.005551376    -0.9108497    0.3106005    -0.0086313    0.0029672     0.0001668    0.0001490     0.0428220   -0.0054592 
   0.005651401    -0.8939932    0.3271109    -0.0097117    0.0025082    -0.0000411   -0.0001909     0.0420378   -0.0060106 
   0.005751426    -0.8939170    0.3268869    -0.0102827    0.0034002     0.0001968    0.0001332     0.0431570   -0.0053472 
   0.005851451    -0.8956771    0.3274281    -0.0099987    0.0036702     0.0003360   -0.0000385     0.0419298   -0.0065391 
   0.005951476    -0.8996449    0.3227382    -0.0103558    0.0034412     0.0003203   -0.0001643     0.0432508   -0.0069703 
   0.006051501    -0.8912195    0.3352309    -0.0110753    0.0027111     0.0001859   -0.0001093     0.0433425   -0.0069105 
   0.006151526    -0.8890695    0.3348236    -0.0108609    0.0044814     0.0001321   -0.0001549     0.0430656   -0.0075084 
   0.006251551    -0.8918583    0.3557374    -0.0120050    0.0033077     0.0001370   -0.0000321     0.0424444   -0.0082536 
   0.006351576    -0.8862347    0.3593274    -0.0118428    0.0044436     0.0000134    0.0000729     0.0434431   -0.0089668 
   0.006451601    -0.8876035    0.3650026    -0.0124300    0.0029441     0.0000001   -0.0000824     0.0429620   -0.0090795 
   0.006551626    -0.8835750    0.3780330    -0.0126796    0.0046119     0.0000399    0.0001517     0.0435162   -0.0090836 
   0.006651651    -0.8763430    0.3816343    -0.0125182    0.0044294    -0.0000073   -0.0000011     0.0433574   -0.0089224 
   0.006751676    -0.8897777    0.3728810    -0.0131110    0.0046674    -0.0000780    0.0000290     0.0437662   -0.0102250 
   0.006851701    -0.8758795    0.3813649    -0.0138485    0.0056262    -0.0001911    0.0000278     0.0432683   -0.0099752 
   0.006951726    -0.8891246    0.3972000    -0.0147024    0.0050424    -0.0000718   -0.0000905     0.0438251   -0.0089222 
   0.007051751    -0.8738346    0.4043423    -0.0140087    0.0047220     0.0001481    0.0001631     0.0429095   -0.0104391 
   0.007151776    -0.8716747    0.3975249    -0.0142098    0.0056604     0.0000036   -0.0000296     0.0431623   -0.0104142 
   0.007251801    -0.8587351    0.4033418    -0.0156846    0.0060912     0.0000803   -0.0001007     0.0430039   -0.0118288 
   0.007351826    -0.8577555    0.3998583    -0.0149663    0.0059565     0.0001183   -0.0001168     0.0433832   -0.0112552 
   0.007451851    -0.8488961    0.4228319    -0.0147484    0.0069215    -0.0002945   -0.0000762     0.0432515   -0.0123748 
   0.007551876    -0.8555672    0.4226882    -0.0153620    0.0065264    -0.0001600    0.0000550     0.0435653   -0.0125256 
   0.007651901    -0.8518379    0.4298786    -0.0170586    0.0065917    -0.0000476    0.0000224     0.0432535   -0.0125674 
   0.007751926    -0.8411897    0.4238459    -0.0159889    0.0082101     0.0001292    0.0000120     0.0429506   -0.0124908 
   0.007851951    -0.8656681    0.4426742    -0.0168364    0.0073353     0.0001146    0.0002301     0.0433236   -0.0139452 
   0.007951976    -0.8531162    0.4452289    -0.0173604    0.0082465     0.0001538   -0.0000274     0.0432517   -0.0130822 
   0.008052001    -0.8399203    0.4400593    -0.0180922    0.0076663    -0.0000919    0.0000779     0.0434251   -0.0132811 
   0.008152026    -0.8446064    0.4507390    -0.0186175    0.0083221     0.0001221    0.0000225     0.0430764   -0.0144149 
   0.008252051    -0.8427938    0.4574547    -0.0182908    0.0074511     0.0001885    0.0000012     0.0435106   -0.0147462 
   0.008352076    -0.8437367    0.4533639    -0.0180943    0.0086933    -0.0002453   -0.0000095     0.0434139   -0.0139036 
   0.008452101    -0.8324154    0.4617023    -0.0194926    0.0098607     0.0000236   -0.0001608     0.0439589   -0.0151430 
   0.008552126    -0.8286777    0.4674655    -0.0189841    0.0089650     0.0000226    0.0000514     0.0430968   -0.0159580 
   0.008652151    -0.8265473    0.4647782    -0.0209285    0.0094068    -0.0000945    0.0000293     0.0431099   -0.0156020 
   0.008752176    -0.8234876    0.4703461    -0.0200085    0.0097469     0.0000789   -0.0001693     0.0436823   -0.0164758 
   0.008852201    -0.8193175    0.4875583    -0.0217784    0.0095054     0.0001599    0.0001531     0.0432953   -0.0167054 
   0.008952226    -0.8290095    0.4830127    -0.0214375    0.0109616    -0.0002020   -0.0001078     0.0436474   -0.0167805 
   0.009052251    -0.8289409    0.4938022    -0.0220462    0.0116347    -0.0001019   -0.0001256     0.0433139   -0.0173666 
   0.009152276    -0.8191821    0.5001069    -0.0227947    0.0115750     0.0000603    0.0000334     0.0426522   -0.0172260 
   0.009252301    -0.8110134    0.5019389    -0.0223332    0.0111357     0.0000725   -0.0000882     0.0435499   -0.0177061 
   0.009352326    -0.8077288    0.4967309    -0.0223849    0.0124513     0.0000402    0.0001191     0.0438942   -0.0176232 
   0.009452351    -0.7957363    0.5119892    -0.0235141    0.0127911    -0.0000218    0.0000594     0.0430472   -0.0183073 
   0.009552376    -0.8011280    0.5131214    -0.0244014    0.0118094    -0.0000260    0.0000617     0.0429395   -0.0185486 
   0.009652401    -0.7994565    0.5259874    -0.0247266    0.0130149    -0.0000378   -0.0002801     0.0432239   -0.0186554 
   0.009752426    -0.8033352    0.5314035    -0.0262985    0.0133788     0.0000134   -0.0001457     0.0428025   -0.0197417 
   0.009852451    -0.7854319    0.5259174    -0.0264629    0.0124788     0.0000858   -0.0002872     0.0431486   -0.0195236 
   0.009952476    -0.7813701    0.5376779    -0.0265399    0.0136644    -0.0000405    0.0000626     0.0428566   -0.0198785 
   0.010052501    -0.7846830    0.5342109    -0.0267217    0.0145313    -0.0000813   -0.0000754     0.0428386   -0.0200539 
   0.010152526    -0.7943038    0.5466669    -0.0286900    0.0164393    -0.0003098   -0.0000347     0.0428879   -0.0210345 
   0.010252551    -0.7859224    0.5470141    -0.0280549    0.0149871    -0.0000205    0.0000636     0.0419512   -0.0207985 
   0.010352576    -0.7753192    0.5475962    -0.0278788    0.0155968     0.0000015   -0.0000406     0.0424514   -0.0213985 
   0.010452601    -0.7659227    0.5638389    -0.0292062    0.0168065    -0.0000137    0.0000516     0.0427323   -0.0213243 
   0.010552626    -0.7677701    0.5543658    -0.0302636    0.0145988    -0.0001100   -0.0000204     0.0425886   -0.0217464 
   0.010652651    -0.7582067    0.5869626    -0.0302637    0.0182421     0.0000945   -0.0003638     0.0425207   -0.0225071 
   0.010752676    -0.7692626    0.5817783    -0.0311127    0.0171506     0.0000771   -0.0000536     0.0425942   -0.0224298 
   0.010852701    -0.7464733    0.5693095    -0.0307942    0.0177694     0.0001613   -0.0002256     0.0430439   -0.0222879 
   0.010952726    -0.7668552    0.5736504    -0.0315445    0.0179131     0.0002200   -0.0001033     0.0418941   -0.0237640 
   0.011052751    -0.7567225    0.5793991    -0.0315724    0.0185407    -0.0002274    0.0001211     0.0419093   -0.0233675 
   0.011152776    -0.7416872    0.5919936    -0.0321600    0.0194977    -0.0001230   -0.0002686     0.0421977   -0.0236387 
   0.011252801    -0.7460395    0.5870950    -0.0323015    0.0201140     0.0000070    0.0001227     0.0419372   -0.0238805 
   0.011352826    -0.7414925    0.5897258    -0.0325305    0.0197875    -0.0000913    0.0002183     0.0420761   -0.0248410 
   0.011452851    -0.7424144    0.6067891    -0.0331571    0.0216453    -0.0000507   -0.0000176     0.0411908   -0.0247479 
   0.011552876    -0.7284753    0.5985513    -0.0331775    0.0207606     0.0003815    0.0001227     0.0413808   -0.0246076 
   0.011652901    -0.7334626    0.6133671    -0.0346921    0.0215958     0.0001801   -0.0002595     0.0421548   -0.0252719 
   0.011752926    -0.7281341    0.6183257    -0.0342970    0.0223647     0.0001513    0.0003461     0.0418478   -0.0251315 
   0.011852951    -0.7161119    0.6015961    -0.0333646    0.0231257    -0.0000661   -0.0000894     0.0412211   -0.0262858 
   0.011952976    -0.7191832    0.6243736    -0.0363261    0.0234393    -0.0000300    0.0002393     0.0412276   -0.0262895 
   0.012053002    -0.7152511    0.6252251    -0.0367839    0.0248375     0.0001875    0.0000748     0.0416284   -0.0264919 
   0.012153027    -0.6999848    0.6143150    -0.0358344    0.0236217     0.0000682    0.0000773     0.0415338   -0.0269109 
   0.012253052    -0.7082752    0.6270715    -0.0374326    0.0245660     0.0001137    0.0000535     0.0413838   -0.0273664 
   0.012353077    -0.6992268    0.6390165    -0.0379155    0.0272028    -0.0000959   -0.0000907     0.0411783   -0.0273588 
   0.012453102    -0.6954997    0.6396759    -0.0380208    0.0251657    -0.0000090    0.0001716     0.0408251   -0.0276392 
   0.012553127    -0.6930630    0.6466695    -0.0384804    0.0280020     0.0001591   -0.0002246     0.0405918   -0.0279947 
   0.012653152    -0.6879323    0.6471957    -0.0400612    0.0291899     0.0000656    0.0000590     0.0411410   -0.0282396 
   0.012753177    -0.6847761    0.6559806    -0.0395501    0.0298342    -0.0001782    0.0000193     0.0408817   -0.0279751 
   0.012853202    -0.6827404    0.6604880    -0.0402260    0.0287787     0.0000365   -0.0000840     0.0411754   -0.0295102 
   0.012953227    -0.6618791    0.6565626    -0.0404548    0.0290171    -0.0003622   -0.0001359     0.0407797   -0.0293518 
   0.013053252    -0.6796319    0.6712971    -0.0427286    0.0306829    -0.0001436   -0.0002746     0.0407485   -0.0296058 
   0.013153277    -0.6624106    0.6576430    -0.0425632    0.0299255     0.0000141   -0.0001515     0.0403578   -0.0300853 
   0.013253302    -0.6640308    0.6589350    -0.0428537    0.0298744     0.0002201    0.0000069     0.0401318   -0.0303108 
   0.013353327    -0.6497578    0.6692653    -0.0423899    0.0321524    -0.0001809    0.0002095     0.0402835   -0.0301527 
   0.013453352    -0.6580778    0.6907359    -0.0428057    0.0336137    -0.0000628   -0.0003985     0.0404052   -0.0310390 
   0.013553377    -0.6447870    0.6812322    -0.0434988    0.0330475    -0.0000040    0.0000911     0.0399668   -0.0306189 
   0.013653402    -0.6506857    0.6845168    -0.0451400    0.0341595    -0.0000353   -0.0000495     0.0396689   -0.0313547 
   0.013753427    -0.6358294    0.6744107    -0.0451078    0.0330608     0.0002013    0.0001749     0.0395829   -0.0314847 
   0.013853452    -0.6262691    0.6863358    -0.0452410    0.0351994    -0.0001282   -0.0001561     0.0393568   -0.0316567 
   0.013953477    -0.6420319    0.6977959    -0.0473101    0.0344855     0.0001004   -0.0001574     0.0396803   -0.0327376 
   0.014053502    -0.6242771    0.7130094    -0.0469124    0.0379223     0.0000283    0.0001160     0.0394425   -0.0327655 
   0.014153527    -0.6370656    0.6860845    -0.0482167    0.0346354     0.0000912    0.0000685     0.0392152   -0.0324364 
   0.014253552    -0.6164069    0.7041066    -0.0487224    0.0372150     0.0002330    0.0000949     0.0394013   -0.0332537 
   0.014353577    -0.6238421    0.7075610    -0.0492130    0.0369569    -0.0005603   -0.0000329     0.0388737   -0.0337790 
   0.014453602    -0.5993205    0.7131684    -0.0501420    0.0365660    -0.0000297    0.0000893     0.0389648   -0.0333487 
   0.014553627    -0.6200263    0.7233639    -0.0498518    0.0378039    -0.0001257    0.0000631     0.0387994   -0.0339129 
   0.014653652    -0.6038447    0.7311991    -0.0523324    0.0361522    -0.0000168   -0.0001573     0.0390061   -0.0337941 
   0.014753677    -0.5949544    0.7228167    -0.0508335    0.0373817    -0.0000103    0.0000745     0.0386127   -0.0342112 
   0.014853702    -0.5853815    0.7249262    -0.0505413    0.0404028     0.0000842   -0.0001597     0.0383685   -0.0347610 
   0.014953727    -0.5890216    0.7393105    -0.0513746    0.0407110     0.0001834    0.0001732     0.0383385   -0.0351565 
   0.015053752    -0.5817172    0.7332782    -0.0508733    0.0401149     0.0000248   -0.0001020     0.0385255   -0.0349683 
   0.015153777    -0.5743391    0.7318106    -0.0531402    0.0418131    -0.0003481   -0.0000460     0.0383523   -0.0362614 
   0.015253802    -0.5682281    0.7434290    -0.0546366    0.0443462     0.0002739    0.0000568     0.0379427   -0.0364326 
   0.015353827    -0.5539399    0.7351090    -0.0549388    0.0445086    -0.0001496   -0.0001178     0.0373860   -0.0368065 
   0.015453852    -0.5732676    0.7532360    -0.0562774    0.0465541    -0.0002641    0.0002760     0.0373609   -0.0368815 
   0.015553877    -0.5712547    0.7508670    -0.0557517    0.0455265     0.0000247    0.0000819     0.0372839   -0.0369002 
   0.015653902    -0.5558177    0.7717961    -0.0575716    0.0477638    -0.0001480   -0.0002252     0.0372170   -0.0371829 
