! 19-Feb-26 3:17:00 PM
! E:\VNA_MEASUREMENTS\RECBLOCK\RECBLOCKREV2.S2P
! CHANNEL.1
! TR.MEASUREMENT
! CORRECTED.DATA
# GHZ S RI R 50.0
! FREQ.GHZ         S11RE         S11IM         S21RE         S21IM         S12RE         S12IM         S22RE         S22IM         
!; PortSelection: Port_12
   0.000050000     0.7142426   -0.3113908    -1.8769560    2.1325490    -0.0080885    0.0073429    -0.9519929   -0.0117479 
   0.000150025    -0.3021472    0.2224963     3.9727600   -0.3679460     0.0004462   -0.0003250    -0.9612250    0.0094881 
   0.000250050     0.0260583    0.4571191     1.8452720   -1.8942840     0.0005209   -0.0012962    -0.9713393    0.0225304 
   0.000350075    -0.0954839   -0.1428244    -0.0024516   -0.0054494     0.0002983    0.0011097    -0.9654921    0.0249415 
   0.000450100    -0.0828914   -0.0765784    -0.0012070   -0.0047611    -0.0002642   -0.0004372    -0.9725721    0.0305971 
   0.000550125    -0.0520044   -0.0252065    -0.0016599   -0.0055301    -0.0007548   -0.0000894    -0.9664661    0.0373127 
   0.000650150    -0.0368425   -0.0061502    -0.0015118   -0.0048928    -0.0008055   -0.0001653    -0.9626720    0.0410238 
   0.000750175    -0.0225021    0.0054347    -0.0015286   -0.0061248    -0.0003151   -0.0004743    -0.9669462    0.0444049 
   0.000850200    -0.0066115    0.0047253    -0.0064922   -0.0047779    -0.0003339    0.0000917    -0.9640917    0.0530701 
   0.000950225     0.0012700    0.0076196    -0.0054849   -0.0030156    -0.0004078   -0.0005342    -0.9659787    0.0623848 
   0.001050250     0.0069675    0.0118382    -0.0061579   -0.0040384    -0.0005009   -0.0008503    -0.9570664    0.0621798 
   0.001150275     0.0120502    0.0158040    -0.0076491   -0.0027936    -0.0008629   -0.0005611    -0.9602669    0.0672715 
   0.001250300     0.0104424    0.0124573    -0.0052084   -0.0018809    -0.0007134    0.0005030    -0.9586872    0.0771575 
   0.001350325     0.0191278    0.0123263    -0.0028352   -0.0024279    -0.0006711   -0.0001652    -0.9593144    0.0831534 
   0.001450350     0.0215464    0.0102162    -0.0049397   -0.0014521    -0.0009309    0.0002974    -0.9626458    0.0843919 
   0.001550375     0.0241156    0.0100360    -0.0047266   -0.0033186    -0.0007484   -0.0005314    -0.9592229    0.0882850 
   0.001650400     0.0266102    0.0106767    -0.0028333    0.0004587    -0.0011542   -0.0002913    -0.9531301    0.0917843 
   0.001750425     0.0297351    0.0095003    -0.0023639   -0.0017250    -0.0008255   -0.0001499    -0.9575755    0.1076459 
   0.001850450     0.0275266    0.0112567    -0.0038282    0.0006012    -0.0013043   -0.0002018    -0.9599346    0.1108131 
   0.001950475     0.0264068    0.0110061    -0.0036747    0.0005840    -0.0018186   -0.0001519    -0.9552656    0.1181103 
   0.002050500     0.0283153    0.0092600    -0.0050596    0.0011272    -0.0016375   -0.0003601    -0.9553398    0.1216630 
   0.002150525     0.0335636    0.0087492    -0.0052189    0.0013801    -0.0010318    0.0004837    -0.9541474    0.1252069 
   0.002250550     0.0307570    0.0100986    -0.0038214   -0.0006992    -0.0012327   -0.0001163    -0.9538206    0.1294103 
   0.002350575     0.0316868    0.0106293    -0.0019078    0.0015656    -0.0014697    0.0003086    -0.9578220    0.1306322 
   0.002450600     0.0337653    0.0069491    -0.0029008   -0.0001876    -0.0018376    0.0004041    -0.9464425    0.1426994 
   0.002550625     0.0367335    0.0081380    -0.0033459    0.0020272    -0.0023711   -0.0000393    -0.9521053    0.1478778 
   0.002650650     0.0366831    0.0073192    -0.0027140    0.0009712    -0.0022675    0.0008704    -0.9439823    0.1509476 
   0.002750675     0.0334191    0.0058583    -0.0026244    0.0016655    -0.0020918    0.0002015    -0.9524554    0.1610607 
   0.002850700     0.0395156    0.0031312    -0.0026776    0.0020894    -0.0027225    0.0000688    -0.9537905    0.1674519 
   0.002950725     0.0344416    0.0036800    -0.0017464    0.0003650    -0.0029121    0.0006003    -0.9485285    0.1676118 
   0.003050750     0.0373800    0.0014756    -0.0025442    0.0020046    -0.0021975    0.0002504    -0.9448595    0.1787765 
   0.003150775     0.0381781    0.0037741    -0.0011402    0.0029074    -0.0026831    0.0003047    -0.9397064    0.1839766 
   0.003250800     0.0379008    0.0016976    -0.0003510    0.0017012    -0.0030248    0.0006647    -0.9438419    0.1842488 
   0.003350825     0.0367288    0.0026646    -0.0002221    0.0015210    -0.0029076    0.0006385    -0.9427779    0.1879696 
   0.003450850     0.0391181    0.0045007    -0.0021618    0.0024788    -0.0032100    0.0004142    -0.9413347    0.2030684 
   0.003550875     0.0413676    0.0056890     0.0003631    0.0002635    -0.0035580    0.0006711    -0.9438497    0.2017899 
   0.003650900     0.0389671    0.0035685    -0.0015507    0.0011721    -0.0038478    0.0008096    -0.9415932    0.2092659 
   0.003750925     0.0394683    0.0022279    -0.0003095    0.0022562    -0.0040606    0.0010673    -0.9310484    0.2147353 
   0.003850950     0.0457980   -0.0021825    -0.0000430    0.0003352    -0.0046154    0.0007153    -0.9338931    0.2197955 
   0.003950975     0.0391031    0.0017443    -0.0015767    0.0024600    -0.0046812    0.0010439    -0.9292935    0.2195605 
   0.004051001     0.0419949   -0.0034315     0.0014608    0.0020264    -0.0050245    0.0011115    -0.9340099    0.2254970 
   0.004151026     0.0410520   -0.0001691    -0.0005316    0.0010912    -0.0050210    0.0008088    -0.9260810    0.2348087 
   0.004251051     0.0413362    0.0023004    -0.0000260    0.0011927    -0.0048351    0.0010002    -0.9343842    0.2406031 
   0.004351076     0.0371907    0.0002691    -0.0009279   -0.0010404    -0.0057077    0.0004473    -0.9251029    0.2480631 
   0.004451101     0.0408992   -0.0003869    -0.0004247    0.0016611    -0.0054749    0.0011735    -0.9266562    0.2508522 
   0.004551126     0.0426450    0.0003079     0.0004774    0.0010885    -0.0062259    0.0013692    -0.9173534    0.2611716 
   0.004651151     0.0414590   -0.0009914    -0.0011118   -0.0007075    -0.0067901    0.0017224    -0.9196369    0.2662407 
   0.004751176     0.0420763   -0.0024686     0.0002195    0.0002221    -0.0066045    0.0015046    -0.9206106    0.2692635 
   0.004851201     0.0418942   -0.0013241     0.0011373    0.0003534    -0.0068742    0.0019519    -0.9194025    0.2755639 
   0.004951226     0.0399164   -0.0020986     0.0000009    0.0024986    -0.0071426    0.0015472    -0.9176070    0.2824547 
   0.005051251     0.0442407   -0.0051834     0.0009771    0.0007850    -0.0079191    0.0016727    -0.9145027    0.2848714 
   0.005151276     0.0407768   -0.0043506    -0.0016160    0.0014243    -0.0078449    0.0018760    -0.9162318    0.2911413 
   0.005251301     0.0388619   -0.0059569    -0.0007598    0.0005284    -0.0082270    0.0026176    -0.9163376    0.3016824 
   0.005351326     0.0427101   -0.0066943    -0.0008543   -0.0005683    -0.0082118    0.0023244    -0.9108781    0.3004885 
   0.005451351     0.0429187   -0.0036325    -0.0010259    0.0010373    -0.0088014    0.0022812    -0.9051206    0.3083618 
   0.005551376     0.0434741   -0.0052210    -0.0001568    0.0001495    -0.0087533    0.0030089    -0.9011480    0.3130803 
   0.005651401     0.0408087   -0.0062078    -0.0006729    0.0005896    -0.0093283    0.0025957    -0.9011627    0.3167125 
   0.005751426     0.0453881   -0.0053866    -0.0002655    0.0002447    -0.0095011    0.0027814    -0.9022790    0.3230790 
   0.005851451     0.0435059   -0.0064352    -0.0010327    0.0006011    -0.0099028    0.0030570    -0.8941904    0.3251495 
   0.005951476     0.0437210   -0.0035715    -0.0001015    0.0007454    -0.0107173    0.0030870    -0.8978201    0.3273464 
   0.006051501     0.0430692   -0.0063504    -0.0013765    0.0006074    -0.0105100    0.0035279    -0.8936589    0.3366678 
   0.006151526     0.0427360   -0.0071167    -0.0003612    0.0013820    -0.0107775    0.0036461    -0.8946407    0.3443399 
   0.006251551     0.0419635   -0.0093038     0.0005432    0.0007241    -0.0113682    0.0039380    -0.8882208    0.3488058 
   0.006351576     0.0418648   -0.0094215    -0.0009786   -0.0001006    -0.0116447    0.0038022    -0.8882513    0.3533111 
   0.006451601     0.0416615   -0.0081691     0.0001652    0.0001867    -0.0117113    0.0037605    -0.8844086    0.3588381 
   0.006551626     0.0413996   -0.0086170    -0.0005409    0.0001364    -0.0124254    0.0038431    -0.8813506    0.3636091 
   0.006651651     0.0426378   -0.0064618    -0.0000780    0.0002942    -0.0126189    0.0043113    -0.8789026    0.3687533 
   0.006751676     0.0422498   -0.0076774     0.0002020   -0.0001664    -0.0128150    0.0045844    -0.8782932    0.3751833 
   0.006851701     0.0426344   -0.0091817    -0.0009144    0.0009171    -0.0134475    0.0049485    -0.8766512    0.3792778 
   0.006951726     0.0460731   -0.0091357     0.0003083    0.0003462    -0.0136885    0.0051655    -0.8754919    0.3898509 
   0.007051751     0.0438929   -0.0104146     0.0005485   -0.0007707    -0.0141070    0.0049885    -0.8708960    0.3898863 
   0.007151776     0.0421987   -0.0109706     0.0001876    0.0000938    -0.0142988    0.0053780    -0.8704253    0.3924058 
   0.007251801     0.0452195   -0.0101301     0.0008983    0.0001674    -0.0145931    0.0053063    -0.8648316    0.3997776 
   0.007351826     0.0431109   -0.0109403     0.0005691   -0.0002199    -0.0153724    0.0057184    -0.8621554    0.4079134 
   0.007451851     0.0405585   -0.0097226    -0.0003541    0.0000466    -0.0164131    0.0054512    -0.8601886    0.4109126 
   0.007551876     0.0429091   -0.0127303     0.0001128   -0.0003787    -0.0159752    0.0053716    -0.8599631    0.4195882 
   0.007651901     0.0401368   -0.0122173    -0.0013822    0.0001666    -0.0162951    0.0070162    -0.8583916    0.4205947 
   0.007751926     0.0447538   -0.0137058    -0.0000859    0.0006407    -0.0165213    0.0071787    -0.8512874    0.4207222 
   0.007851951     0.0410382   -0.0141805     0.0000938    0.0005494    -0.0172759    0.0071929    -0.8493147    0.4270200 
   0.007951976     0.0426959   -0.0136601    -0.0009565    0.0002590    -0.0173401    0.0069304    -0.8474836    0.4358755 
   0.008052001     0.0440913   -0.0141557    -0.0007170   -0.0003473    -0.0180582    0.0077681    -0.8453928    0.4380356 
   0.008152026     0.0436548   -0.0147742    -0.0003134   -0.0000424    -0.0183465    0.0074440    -0.8424032    0.4459614 
   0.008252051     0.0457982   -0.0172922     0.0001215    0.0010696    -0.0183041    0.0083028    -0.8415667    0.4488989 
   0.008352076     0.0401749   -0.0153917     0.0006881   -0.0002663    -0.0197181    0.0085910    -0.8359841    0.4521894 
   0.008452101     0.0433602   -0.0148312     0.0001125    0.0004509    -0.0201475    0.0089485    -0.8339127    0.4612143 
   0.008552126     0.0427068   -0.0134961    -0.0005479    0.0004972    -0.0206009    0.0084955    -0.8318533    0.4633239 
   0.008652151     0.0415971   -0.0140581    -0.0002983    0.0006395    -0.0203017    0.0098480    -0.8265417    0.4683709 
   0.008752176     0.0413792   -0.0164908     0.0009325    0.0005921    -0.0207125    0.0092893    -0.8226855    0.4738265 
   0.008852201     0.0414865   -0.0184544     0.0001862    0.0009702    -0.0215696    0.0100905    -0.8245428    0.4783300 
   0.008952226     0.0407588   -0.0163713    -0.0001156    0.0013158    -0.0219628    0.0100080    -0.8204132    0.4838622 
   0.009052251     0.0437148   -0.0169456     0.0005399    0.0004605    -0.0223426    0.0104462    -0.8142787    0.4874326 
   0.009152276     0.0432105   -0.0169090    -0.0007436   -0.0008659    -0.0227269    0.0110507    -0.8103374    0.4927247 
   0.009252301     0.0443990   -0.0185147     0.0004931   -0.0006652    -0.0233872    0.0115940    -0.8115745    0.4961933 
   0.009352326     0.0428798   -0.0158830     0.0007003   -0.0000257    -0.0242286    0.0113186    -0.8084109    0.5016872 
   0.009452351     0.0421804   -0.0187948    -0.0001360    0.0011629    -0.0236634    0.0116567    -0.8030698    0.5065261 
   0.009552376     0.0428016   -0.0180873    -0.0005868   -0.0000403    -0.0244913    0.0120999    -0.8034690    0.5095825 
   0.009652401     0.0427789   -0.0194004     0.0001355    0.0000104    -0.0248167    0.0126347    -0.7979468    0.5151439 
   0.009752426     0.0441897   -0.0180553    -0.0005530   -0.0000720    -0.0258765    0.0133395    -0.7950610    0.5192204 
   0.009852451     0.0432630   -0.0189208     0.0001512    0.0005034    -0.0262320    0.0136606    -0.7932267    0.5255089 
   0.009952476     0.0413059   -0.0192859    -0.0002555   -0.0007299    -0.0265106    0.0133941    -0.7896395    0.5294009 
   0.010052501     0.0427690   -0.0180169     0.0001472   -0.0002055    -0.0267578    0.0141627    -0.7872069    0.5344781 
   0.010152526     0.0437140   -0.0215252     0.0008676    0.0000531    -0.0272135    0.0143487    -0.7803353    0.5389995 
   0.010252551     0.0437968   -0.0202196    -0.0004750   -0.0012875    -0.0286625    0.0150234    -0.7808334    0.5447487 
   0.010352576     0.0429930   -0.0203623    -0.0008797    0.0001650    -0.0281185    0.0151932    -0.7744027    0.5479656 
   0.010452601     0.0427281   -0.0222545    -0.0001764   -0.0001014    -0.0285628    0.0156369    -0.7720749    0.5514096 
   0.010552626     0.0429480   -0.0213532    -0.0006310    0.0003486    -0.0290669    0.0170366    -0.7702144    0.5593532 
   0.010652651     0.0420588   -0.0226073    -0.0002618    0.0002393    -0.0294565    0.0168127    -0.7606178    0.5592492 
   0.010752676     0.0413346   -0.0246341     0.0000188    0.0000439    -0.0307156    0.0169836    -0.7595785    0.5665125 
   0.010852701     0.0415578   -0.0209933    -0.0002818   -0.0000518    -0.0310370    0.0172382    -0.7593628    0.5687300 
   0.010952726     0.0415308   -0.0243124    -0.0000471   -0.0001081    -0.0310764    0.0183100    -0.7511533    0.5744427 
   0.011052751     0.0430873   -0.0232120    -0.0001926   -0.0006478    -0.0317691    0.0190108    -0.7478445    0.5790419 
   0.011152776     0.0419917   -0.0246092    -0.0000574    0.0002848    -0.0327087    0.0191896    -0.7441387    0.5838052 
   0.011252801     0.0398854   -0.0219479     0.0001437    0.0010809    -0.0326907    0.0191179    -0.7419117    0.5867407 
   0.011352826     0.0422192   -0.0232176     0.0000503   -0.0000997    -0.0327895    0.0206465    -0.7402198    0.5909729 
   0.011452851     0.0424599   -0.0244837     0.0006044    0.0002051    -0.0337297    0.0202557    -0.7343994    0.5954984 
   0.011552876     0.0404429   -0.0234020     0.0001328    0.0004577    -0.0345282    0.0214876    -0.7307502    0.6011627 
   0.011652901     0.0412763   -0.0250900    -0.0002117    0.0002812    -0.0350770    0.0218368    -0.7278696    0.6060748 
   0.011752926     0.0408876   -0.0250824     0.0000668   -0.0005165    -0.0355885    0.0225795    -0.7252263    0.6085938 
   0.011852951     0.0398460   -0.0244300    -0.0000304    0.0002934    -0.0359890    0.0230654    -0.7169733    0.6104606 
   0.011952976     0.0409237   -0.0272679    -0.0005409   -0.0001590    -0.0369658    0.0237189    -0.7159782    0.6169875 
   0.012053002     0.0415579   -0.0263886    -0.0000296   -0.0005863    -0.0372117    0.0246068    -0.7097524    0.6236201 
   0.012153027     0.0408785   -0.0270955     0.0006187   -0.0003543    -0.0372639    0.0244501    -0.7094535    0.6237256 
   0.012253052     0.0404617   -0.0259479    -0.0004815    0.0003701    -0.0383768    0.0247137    -0.7045985    0.6293765 
   0.012353077     0.0399430   -0.0271129    -0.0000470   -0.0001236    -0.0385872    0.0259291    -0.6993889    0.6347687 
   0.012453102     0.0393818   -0.0285184     0.0003991   -0.0005406    -0.0391653    0.0266739    -0.6940284    0.6419821 
   0.012553127     0.0417556   -0.0288881    -0.0000355    0.0000138    -0.0395966    0.0274007    -0.6930171    0.6433400 
   0.012653152     0.0402698   -0.0285100     0.0008199   -0.0006963    -0.0399575    0.0276243    -0.6879834    0.6480713 
   0.012753177     0.0411078   -0.0281919    -0.0003561   -0.0002136    -0.0411269    0.0280055    -0.6853930    0.6520897 
   0.012853202     0.0400420   -0.0281973    -0.0000366   -0.0005706    -0.0421304    0.0291111    -0.6819122    0.6531547 
   0.012953227     0.0413941   -0.0286599     0.0000574    0.0005435    -0.0416481    0.0298865    -0.6751031    0.6570050 
   0.013053252     0.0404758   -0.0281278     0.0004350    0.0006321    -0.0430730    0.0303020    -0.6771066    0.6651383 
   0.013153277     0.0384480   -0.0304860    -0.0001272   -0.0008781    -0.0429583    0.0311486    -0.6699432    0.6644838 
   0.013253302     0.0410936   -0.0287535    -0.0011881   -0.0003362    -0.0437597    0.0321857    -0.6644670    0.6688216 
   0.013353327     0.0386494   -0.0306838     0.0009003    0.0006159    -0.0439249    0.0324793    -0.6585801    0.6739851 
   0.013453352     0.0384736   -0.0307195     0.0005365    0.0004271    -0.0442306    0.0333264    -0.6537872    0.6770240 
   0.013553377     0.0400759   -0.0302133     0.0002730    0.0000581    -0.0449602    0.0335839    -0.6483866    0.6830100 
   0.013653402     0.0393814   -0.0324822     0.0000802    0.0003500    -0.0458163    0.0347539    -0.6459411    0.6859775 
   0.013753427     0.0411882   -0.0302091    -0.0000610   -0.0003353    -0.0463428    0.0354390    -0.6420316    0.6862676 
   0.013853452     0.0405268   -0.0329531    -0.0001626    0.0004122    -0.0456084    0.0364114    -0.6374385    0.6921502 
   0.013953477     0.0376144   -0.0314729     0.0007802   -0.0013302    -0.0476577    0.0364506    -0.6321425    0.6973177 
   0.014053502     0.0390519   -0.0339707    -0.0000440   -0.0007175    -0.0474269    0.0373082    -0.6294518    0.7007927 
   0.014153527     0.0374697   -0.0323992     0.0005170    0.0001387    -0.0486246    0.0386459    -0.6226609    0.7075071 
   0.014253552     0.0372524   -0.0344231     0.0004092   -0.0001615    -0.0486675    0.0392790    -0.6232523    0.7071028 
   0.014353577     0.0386268   -0.0338348    -0.0006853    0.0007178    -0.0497094    0.0400585    -0.6194879    0.7128550 
   0.014453602     0.0374410   -0.0349842     0.0003567   -0.0001884    -0.0498456    0.0413591    -0.6090034    0.7151409 
   0.014553627     0.0386977   -0.0345627    -0.0009284   -0.0005265    -0.0508603    0.0415540    -0.6101449    0.7209703 
   0.014653652     0.0366885   -0.0329358     0.0006247   -0.0000072    -0.0513677    0.0431955    -0.6023486    0.7219262 
   0.014753677     0.0375768   -0.0324612    -0.0005124   -0.0004424    -0.0510339    0.0428868    -0.5967763    0.7284231 
   0.014853702     0.0364499   -0.0339916    -0.0006637   -0.0001483    -0.0525091    0.0436517    -0.5930901    0.7263746 
   0.014953727     0.0370829   -0.0344259     0.0000572    0.0003706    -0.0525947    0.0453420    -0.5914008    0.7334013 
   0.015053752     0.0375421   -0.0359219     0.0003382    0.0006381    -0.0529315    0.0461858    -0.5857358    0.7397554 
   0.015153777     0.0389154   -0.0361666    -0.0004259    0.0003189    -0.0540530    0.0473614    -0.5814571    0.7397419 
   0.015253802     0.0373552   -0.0360675     0.0001886    0.0006463    -0.0544913    0.0477699    -0.5778496    0.7431074 
   0.015353827     0.0373067   -0.0362166     0.0002055    0.0004680    -0.0542762    0.0492779    -0.5689406    0.7457702 
   0.015453852     0.0376129   -0.0358759     0.0004424    0.0001893    -0.0553288    0.0498669    -0.5662568    0.7484978 
   0.015553877     0.0357635   -0.0381515     0.0005345   -0.0001998    -0.0560255    0.0505069    -0.5606427    0.7547038 
   0.015653902     0.0372608   -0.0365314    -0.0000184    0.0000675    -0.0558539    0.0513124    -0.5550789    0.7575588 
