! 19-Feb-26 1:56:25 PM
! E:\VNA_MEASUREMENTS\RECBLOCK\RECBLOCKREV0.S2P
! CHANNEL.1
! TR.MEASUREMENT
! CORRECTED.DATA
# GHZ S RI R 50.0
! FREQ.GHZ         S11RE         S11IM         S21RE         S21IM         S12RE         S12IM         S22RE         S22IM         
!; PortSelection: Port_12
   0.000050000    -1.0828380    1.3567940    -2.3520240    5.6580400     0.0005506    0.0022552    -0.9364231    0.0030963 
   0.000150025     0.4022179    0.1379692     1.8773000   -1.2586540    -0.0003328    0.0014318    -0.9611867    0.0089106 
   0.000250050    -1.4400230    0.1056183     8.8731970   11.0027700     0.0000145   -0.0000617    -0.9679366    0.0194412 
   0.000350075    -0.0931065   -0.1516386     0.0001071   -0.0028357     0.0005873    0.0000482    -0.9666704    0.0255068 
   0.000450100    -0.0733826   -0.0686926    -0.0021036   -0.0029809     0.0001546   -0.0002449    -0.9763933    0.0299857 
   0.000550125    -0.0503549   -0.0247574    -0.0006784   -0.0046321    -0.0000849    0.0003288    -0.9604998    0.0327013 
   0.000650150    -0.0339037   -0.0051910    -0.0017720   -0.0064591    -0.0003796    0.0002165    -0.9660141    0.0414240 
   0.000750175    -0.0241780    0.0015810    -0.0033865   -0.0043725     0.0000834   -0.0000022    -0.9666614    0.0444688 
   0.000850200    -0.0054653    0.0084746    -0.0030055   -0.0045644    -0.0002154    0.0001778    -0.9621075    0.0539284 
   0.000950225     0.0016670    0.0107542    -0.0035082   -0.0023774    -0.0005031   -0.0001345    -0.9651111    0.0571754 
   0.001050250     0.0073163    0.0077149    -0.0043372   -0.0017908    -0.0006559   -0.0006690    -0.9612382    0.0641974 
   0.001150275     0.0169432    0.0130112    -0.0054060   -0.0017815    -0.0006369   -0.0006495    -0.9630009    0.0653731 
   0.001250300     0.0117964    0.0118874    -0.0045255   -0.0009929    -0.0002651    0.0000967    -0.9567189    0.0782659 
   0.001350325     0.0154539    0.0122655    -0.0045041   -0.0030585    -0.0006068    0.0002794    -0.9641023    0.0768409 
   0.001450350     0.0195404    0.0118581    -0.0049004   -0.0004488    -0.0005619   -0.0000890    -0.9678703    0.0891088 
   0.001550375     0.0216767    0.0114386    -0.0038867    0.0003868    -0.0007360    0.0003287    -0.9579238    0.0932888 
   0.001650400     0.0253056    0.0117175    -0.0043410    0.0011240    -0.0009551   -0.0005561    -0.9612042    0.0903776 
   0.001750425     0.0256139    0.0092676    -0.0034751    0.0019164    -0.0011855   -0.0003064    -0.9612425    0.1076142 
   0.001850450     0.0322676    0.0117172    -0.0027859   -0.0004235    -0.0012344   -0.0002235    -0.9637051    0.1079026 
   0.001950475     0.0263146    0.0133190    -0.0026250   -0.0007449    -0.0009345    0.0006594    -0.9573995    0.1120070 
   0.002050500     0.0258956    0.0124031    -0.0057684    0.0000245    -0.0010347    0.0003737    -0.9582260    0.1219108 
   0.002150525     0.0305670    0.0094026    -0.0035743    0.0014724    -0.0012750   -0.0006705    -0.9595251    0.1254433 
   0.002250550     0.0290771    0.0128636    -0.0028269    0.0014960    -0.0012859    0.0002022    -0.9638422    0.1354071 
   0.002350575     0.0336153    0.0086567    -0.0032436    0.0022108    -0.0018581   -0.0001102    -0.9559066    0.1316082 
   0.002450600     0.0333845    0.0063185    -0.0035560    0.0022928    -0.0014030   -0.0002881    -0.9486152    0.1401968 
   0.002550625     0.0355728    0.0091462    -0.0036859   -0.0008250    -0.0015569    0.0005207    -0.9559839    0.1439197 
   0.002650650     0.0351556    0.0061926    -0.0029174    0.0014585    -0.0026036   -0.0002373    -0.9497756    0.1539551 
   0.002750675     0.0327978    0.0043153    -0.0038501    0.0016058    -0.0024867    0.0009248    -0.9494516    0.1578974 
   0.002850700     0.0390117    0.0016660    -0.0003027    0.0009506    -0.0024246    0.0003920    -0.9529731    0.1673975 
   0.002950725     0.0370895    0.0049742    -0.0017922    0.0008084    -0.0026921    0.0001107    -0.9480291    0.1677366 
   0.003050750     0.0386878    0.0015530    -0.0026139   -0.0002063    -0.0032023    0.0001881    -0.9454423    0.1751156 
   0.003150775     0.0348236    0.0026248    -0.0019024    0.0020402    -0.0030182    0.0003559    -0.9443645    0.1822410 
   0.003250800     0.0403498    0.0035212    -0.0016936    0.0012593    -0.0032489    0.0007570    -0.9486653    0.1864071 
   0.003350825     0.0385638   -0.0009261    -0.0015151    0.0005653    -0.0036209    0.0005699    -0.9463496    0.1878910 
   0.003450850     0.0370594    0.0020982     0.0000960    0.0015671    -0.0033379    0.0006518    -0.9425650    0.1982810 
   0.003550875     0.0384114    0.0070226    -0.0004055    0.0018098    -0.0039600    0.0008796    -0.9426327    0.2007146 
   0.003650900     0.0428964    0.0019277    -0.0001611    0.0006348    -0.0040687    0.0005532    -0.9388160    0.2101146 
   0.003750925     0.0418821    0.0022105    -0.0011735    0.0022832    -0.0044102    0.0007237    -0.9312968    0.2148469 
   0.003850950     0.0399956   -0.0008057     0.0000310    0.0020197    -0.0042803    0.0011419    -0.9361103    0.2145225 
   0.003950975     0.0384033    0.0029605     0.0006805   -0.0001491    -0.0049587    0.0008369    -0.9295837    0.2224325 
   0.004051001     0.0455831    0.0007532    -0.0008408   -0.0003433    -0.0048483    0.0011703    -0.9351282    0.2271253 
   0.004151026     0.0392531    0.0004570    -0.0004435    0.0005111    -0.0048632    0.0011460    -0.9238424    0.2375765 
   0.004251051     0.0384337   -0.0001685     0.0008693    0.0010323    -0.0050023    0.0006813    -0.9336665    0.2451939 
   0.004351076     0.0409702   -0.0018249     0.0003842    0.0018706    -0.0052863    0.0014180    -0.9241123    0.2448136 
   0.004451101     0.0435157   -0.0037677    -0.0010450    0.0016990    -0.0059355    0.0015458    -0.9280027    0.2520286 
   0.004551126     0.0433311   -0.0026830    -0.0009286    0.0006364    -0.0060000    0.0009005    -0.9205310    0.2571411 
   0.004651151     0.0408137   -0.0032792    -0.0002940    0.0005747    -0.0065909    0.0020139    -0.9246822    0.2625930 
   0.004751176     0.0445730   -0.0007234    -0.0002213   -0.0000562    -0.0065466    0.0014695    -0.9209484    0.2719616 
   0.004851201     0.0430450   -0.0023707    -0.0004176    0.0006914    -0.0067570    0.0016402    -0.9179723    0.2720131 
   0.004951226     0.0413420   -0.0041497     0.0004853   -0.0008381    -0.0067686    0.0019266    -0.9182222    0.2802913 
   0.005051251     0.0420777   -0.0040100     0.0000818   -0.0001946    -0.0077961    0.0020847    -0.9179022    0.2870769 
   0.005151276     0.0413509   -0.0028580    -0.0004582    0.0004929    -0.0079154    0.0022444    -0.9134364    0.2895795 
   0.005251301     0.0432204   -0.0057045    -0.0006119    0.0006684    -0.0082815    0.0027823    -0.9118252    0.2958450 
   0.005351326     0.0440246   -0.0065146    -0.0006636    0.0001859    -0.0082215    0.0020006    -0.9101035    0.3013937 
   0.005451351     0.0425232   -0.0047007    -0.0011291    0.0005577    -0.0084838    0.0022284    -0.9076219    0.3009121 
   0.005551376     0.0408260   -0.0092043    -0.0001129    0.0002912    -0.0092795    0.0024987    -0.9006514    0.3071054 
   0.005651401     0.0455690   -0.0054387    -0.0005021    0.0021045    -0.0097830    0.0028905    -0.9071119    0.3162467 
   0.005751426     0.0437599   -0.0036195    -0.0002885   -0.0011022    -0.0097812    0.0032864    -0.9011433    0.3221461 
   0.005851451     0.0439339   -0.0055962    -0.0002580   -0.0001647    -0.0102112    0.0031002    -0.8989184    0.3235410 
   0.005951476     0.0415217   -0.0055480     0.0001910    0.0003088    -0.0103800    0.0030483    -0.8950146    0.3319093 
   0.006051501     0.0424707   -0.0079680     0.0003915    0.0010435    -0.0104491    0.0029827    -0.8937632    0.3385661 
   0.006151526     0.0433077   -0.0064588     0.0000852   -0.0006597    -0.0107612    0.0033405    -0.8955284    0.3431160 
   0.006251551     0.0428101   -0.0088688    -0.0000737   -0.0013150    -0.0114968    0.0034088    -0.8893479    0.3473624 
   0.006351576     0.0432301   -0.0075871    -0.0006124    0.0006126    -0.0116273    0.0035118    -0.8915559    0.3544639 
   0.006451601     0.0423370   -0.0073553     0.0002889    0.0004193    -0.0121375    0.0037586    -0.8837985    0.3585252 
   0.006551626     0.0424931   -0.0117828    -0.0010235    0.0005860    -0.0123317    0.0039780    -0.8833607    0.3655667 
   0.006651651     0.0421992   -0.0083569    -0.0014000   -0.0002948    -0.0124355    0.0044214    -0.8808249    0.3691945 
   0.006751676     0.0434917   -0.0096067     0.0004053   -0.0015990    -0.0129898    0.0045773    -0.8780297    0.3755280 
   0.006851701     0.0443883   -0.0096697     0.0001657    0.0009347    -0.0134918    0.0042891    -0.8776995    0.3776767 
   0.006951726     0.0447589   -0.0083224    -0.0002374   -0.0002027    -0.0141039    0.0045635    -0.8756315    0.3834463 
   0.007051751     0.0417797   -0.0112025    -0.0002829   -0.0007778    -0.0141831    0.0054558    -0.8737293    0.3882160 
   0.007151776     0.0444597   -0.0094728    -0.0005193   -0.0004726    -0.0139052    0.0048048    -0.8692141    0.3958178 
   0.007251801     0.0453664   -0.0131491     0.0018373   -0.0000314    -0.0149244    0.0054758    -0.8659723    0.3978637 
   0.007351826     0.0416703   -0.0113479    -0.0003260    0.0004623    -0.0152594    0.0052086    -0.8611761    0.4042754 
   0.007451851     0.0421472   -0.0116976     0.0000245    0.0008956    -0.0155690    0.0062192    -0.8585244    0.4086562 
   0.007551876     0.0442833   -0.0122120    -0.0010725    0.0001104    -0.0154315    0.0067698    -0.8629541    0.4191243 
   0.007651901     0.0419700   -0.0111265    -0.0000249   -0.0000488    -0.0165325    0.0064890    -0.8584897    0.4239989 
   0.007751926     0.0430230   -0.0132136     0.0005034   -0.0001067    -0.0163165    0.0068205    -0.8541116    0.4193994 
   0.007851951     0.0418190   -0.0131773    -0.0006315   -0.0000297    -0.0171296    0.0071984    -0.8488330    0.4300957 
   0.007951976     0.0411667   -0.0143841    -0.0007663    0.0000085    -0.0178051    0.0073056    -0.8472481    0.4356677 
   0.008052001     0.0435031   -0.0132330    -0.0003276   -0.0002411    -0.0181559    0.0077995    -0.8474247    0.4370444 
   0.008152026     0.0424287   -0.0175851    -0.0001824   -0.0013701    -0.0183436    0.0079684    -0.8441769    0.4463156 
   0.008252051     0.0453057   -0.0148460     0.0007795   -0.0007004    -0.0186623    0.0081436    -0.8444185    0.4462888 
   0.008352076     0.0422134   -0.0140049    -0.0005346    0.0005658    -0.0189135    0.0082500    -0.8365013    0.4525427 
   0.008452101     0.0425699   -0.0124091     0.0002367    0.0005051    -0.0197611    0.0084531    -0.8341402    0.4596402 
   0.008552126     0.0415193   -0.0127293    -0.0003078   -0.0003787    -0.0200031    0.0090310    -0.8343500    0.4620476 
   0.008652151     0.0424445   -0.0154507     0.0006581    0.0001983    -0.0207201    0.0093911    -0.8247543    0.4654497 
   0.008752176     0.0423727   -0.0145009    -0.0006505    0.0005304    -0.0212374    0.0099505    -0.8266660    0.4724672 
   0.008852201     0.0437631   -0.0152372     0.0001467    0.0004709    -0.0212112    0.0100663    -0.8222435    0.4791705 
   0.008952226     0.0424407   -0.0141820     0.0005573   -0.0003557    -0.0219667    0.0104216    -0.8204471    0.4844881 
   0.009052251     0.0441266   -0.0182263     0.0002716    0.0003299    -0.0223122    0.0104585    -0.8153397    0.4902841 
   0.009152276     0.0439027   -0.0150200    -0.0001903    0.0005316    -0.0223346    0.0106671    -0.8128305    0.4919004 
   0.009252301     0.0440241   -0.0183339    -0.0006983   -0.0010934    -0.0233153    0.0113133    -0.8124332    0.4959802 
   0.009352326     0.0435403   -0.0177943     0.0009241    0.0003676    -0.0231565    0.0110732    -0.8097126    0.4979670 
   0.009452351     0.0419399   -0.0158331    -0.0005574   -0.0002081    -0.0243154    0.0118126    -0.8049428    0.5062822 
   0.009552376     0.0431312   -0.0172743    -0.0005471   -0.0001466    -0.0248304    0.0119860    -0.7988417    0.5092524 
   0.009652401     0.0418537   -0.0188424     0.0004265   -0.0000097    -0.0249628    0.0126527    -0.7991179    0.5170305 
   0.009752426     0.0448664   -0.0207105     0.0000697    0.0006371    -0.0256509    0.0131217    -0.7958874    0.5166886 
   0.009852451     0.0424440   -0.0201570    -0.0001191    0.0000571    -0.0260557    0.0136443    -0.7942869    0.5280028 
   0.009952476     0.0409826   -0.0198701    -0.0006157   -0.0005825    -0.0268816    0.0136767    -0.7880017    0.5308245 
   0.010052501     0.0422273   -0.0186347    -0.0001268   -0.0009658    -0.0269960    0.0146940    -0.7864106    0.5335505 
   0.010152526     0.0413877   -0.0206029    -0.0001287    0.0000308    -0.0273990    0.0147764    -0.7835150    0.5404128 
   0.010252551     0.0432293   -0.0186478    -0.0005747    0.0002258    -0.0280802    0.0151928    -0.7799863    0.5449631 
   0.010352576     0.0414880   -0.0207112    -0.0012812   -0.0010801    -0.0284828    0.0154891    -0.7755358    0.5493191 
   0.010452601     0.0424522   -0.0223926     0.0003304   -0.0004968    -0.0286166    0.0157941    -0.7732204    0.5528181 
   0.010552626     0.0411650   -0.0221750     0.0006396   -0.0004982    -0.0296122    0.0162952    -0.7716941    0.5549573 
   0.010652651     0.0426731   -0.0231107     0.0002829   -0.0005672    -0.0296733    0.0168132    -0.7644106    0.5563740 
   0.010752676     0.0415674   -0.0256068     0.0006166    0.0006072    -0.0304133    0.0173367    -0.7632977    0.5658155 
   0.010852701     0.0416968   -0.0241876    -0.0001412    0.0006039    -0.0304934    0.0180410    -0.7563651    0.5721762 
   0.010952726     0.0418946   -0.0205751    -0.0006351   -0.0001615    -0.0311096    0.0183958    -0.7538329    0.5760539 
   0.011052751     0.0439303   -0.0240221    -0.0001540   -0.0002661    -0.0323092    0.0185985    -0.7488257    0.5800499 
   0.011152776     0.0415105   -0.0233001     0.0001178   -0.0005221    -0.0327084    0.0193029    -0.7487704    0.5830779 
   0.011252801     0.0420077   -0.0231438    -0.0002807    0.0014455    -0.0326153    0.0196686    -0.7453912    0.5868152 
   0.011352826     0.0420012   -0.0241442     0.0007506   -0.0004775    -0.0334901    0.0201873    -0.7438723    0.5923654 
   0.011452851     0.0397239   -0.0244076     0.0003481   -0.0001644    -0.0340003    0.0207794    -0.7348636    0.5969773 
   0.011552876     0.0413874   -0.0241113     0.0003718    0.0002327    -0.0349139    0.0218324    -0.7340030    0.6014393 
   0.011652901     0.0432413   -0.0258442     0.0005368    0.0004872    -0.0351009    0.0223421    -0.7254229    0.6059588 
   0.011752926     0.0424673   -0.0239116     0.0002712    0.0004861    -0.0357869    0.0220272    -0.7256243    0.6077345 
   0.011852951     0.0407307   -0.0254574     0.0000960   -0.0003224    -0.0361912    0.0227468    -0.7181413    0.6137002 
   0.011952976     0.0388762   -0.0267033    -0.0006769    0.0001410    -0.0369064    0.0237206    -0.7154234    0.6148994 
   0.012053002     0.0413066   -0.0276131    -0.0000700   -0.0006608    -0.0375409    0.0236170    -0.7123740    0.6211486 
   0.012153027     0.0404113   -0.0245722     0.0008855   -0.0003169    -0.0372702    0.0250523    -0.7099980    0.6235566 
   0.012253052     0.0392465   -0.0263427     0.0009762    0.0001745    -0.0377259    0.0252939    -0.7069293    0.6311246 
   0.012353077     0.0409226   -0.0270412     0.0002366   -0.0003173    -0.0387566    0.0260073    -0.6989858    0.6356131 
   0.012453102     0.0390718   -0.0269052    -0.0002625    0.0001552    -0.0399583    0.0265962    -0.6984719    0.6417782 
   0.012553127     0.0411267   -0.0269954     0.0001223    0.0003009    -0.0399704    0.0270373    -0.6937681    0.6448792 
   0.012653152     0.0425481   -0.0288001    -0.0004271   -0.0003454    -0.0402385    0.0283894    -0.6925976    0.6496988 
   0.012753177     0.0406403   -0.0280860     0.0002208    0.0002715    -0.0406154    0.0283152    -0.6837753    0.6497748 
   0.012853202     0.0401778   -0.0282729     0.0004667    0.0005194    -0.0410502    0.0290450    -0.6808388    0.6560935 
   0.012953227     0.0396225   -0.0303693    -0.0005341   -0.0003061    -0.0419826    0.0303413    -0.6768886    0.6610410 
   0.013053252     0.0409034   -0.0285099     0.0000800   -0.0005407    -0.0424737    0.0304431    -0.6748409    0.6654883 
   0.013153277     0.0401747   -0.0315596    -0.0007845   -0.0000236    -0.0429724    0.0309233    -0.6700917    0.6640885 
   0.013253302     0.0409416   -0.0286102    -0.0002586   -0.0002351    -0.0433031    0.0312806    -0.6657978    0.6667447 
   0.013353327     0.0398142   -0.0304685     0.0005080   -0.0006941    -0.0441657    0.0323017    -0.6593273    0.6745438 
   0.013453352     0.0405926   -0.0297166    -0.0001509   -0.0000279    -0.0443819    0.0332068    -0.6551747    0.6763995 
   0.013553377     0.0376797   -0.0301404     0.0004758   -0.0004518    -0.0455919    0.0335748    -0.6518835    0.6841293 
   0.013653402     0.0393082   -0.0317130    -0.0005804   -0.0000581    -0.0457658    0.0353597    -0.6484800    0.6861470 
   0.013753427     0.0417239   -0.0316795    -0.0002745   -0.0003098    -0.0464897    0.0352825    -0.6446813    0.6852693 
   0.013853452     0.0406964   -0.0321138    -0.0003635   -0.0002779    -0.0466339    0.0364625    -0.6391473    0.6912650 
   0.013953477     0.0362549   -0.0319339    -0.0000922    0.0000285    -0.0469830    0.0369820    -0.6349626    0.6967369 
   0.014053502     0.0393045   -0.0332282     0.0000690    0.0002375    -0.0479006    0.0376793    -0.6301815    0.7004546 
   0.014153527     0.0379863   -0.0313220    -0.0002272    0.0005954    -0.0481200    0.0384299    -0.6235334    0.7080812 
   0.014253552     0.0402510   -0.0332786    -0.0006601   -0.0000280    -0.0486192    0.0399794    -0.6224747    0.7099341 
   0.014353577     0.0393295   -0.0335856     0.0000518    0.0001017    -0.0494921    0.0397779    -0.6176845    0.7121006 
   0.014453602     0.0378752   -0.0340715    -0.0001617    0.0001356    -0.0498376    0.0412688    -0.6109537    0.7147133 
   0.014553627     0.0391147   -0.0340805     0.0008450   -0.0002945    -0.0508122    0.0417260    -0.6080679    0.7193428 
   0.014653652     0.0388453   -0.0340347    -0.0005555    0.0002615    -0.0514179    0.0421837    -0.6027582    0.7210518 
   0.014753677     0.0369663   -0.0323241     0.0002973    0.0001049    -0.0520563    0.0436507    -0.5993057    0.7318249 
   0.014853702     0.0378462   -0.0356485     0.0009760   -0.0003195    -0.0518474    0.0445248    -0.5910233    0.7295301 
   0.014953727     0.0373710   -0.0357124    -0.0006907   -0.0003136    -0.0523848    0.0456579    -0.5890343    0.7340297 
   0.015053752     0.0371173   -0.0349218    -0.0002545   -0.0006903    -0.0532566    0.0464100    -0.5854976    0.7433567 
   0.015153777     0.0381189   -0.0366750     0.0002597   -0.0005479    -0.0543469    0.0475939    -0.5806801    0.7423413 
   0.015253802     0.0361701   -0.0358592     0.0006225   -0.0000231    -0.0540643    0.0478347    -0.5751473    0.7447655 
   0.015353827     0.0370362   -0.0380803    -0.0007681    0.0001396    -0.0550375    0.0494515    -0.5705559    0.7472937 
   0.015453852     0.0371518   -0.0376002    -0.0003947    0.0003198    -0.0552462    0.0502213    -0.5671807    0.7513300 
   0.015553877     0.0364367   -0.0372517    -0.0002141   -0.0003354    -0.0555443    0.0514588    -0.5581850    0.7554823 
   0.015653902     0.0369318   -0.0361621     0.0001667   -0.0000968    -0.0563171    0.0512529    -0.5562877    0.7563434 
