! 19-Feb-26 3:14:26 PM
! E:\VNA_MEASUREMENTS\RECBLOCK\RECBLOCK3.S2P
! CHANNEL.1
! TR.MEASUREMENT
! CORRECTED.DATA
# GHZ S RI R 50.0
! FREQ.GHZ         S11RE         S11IM         S21RE         S21IM         S12RE         S12IM         S22RE         S22IM         
!; PortSelection: Port_12
   0.000050000    -0.0775817    0.3293471    -1.2465790   -1.4647590    -0.0011810   -0.0036217     0.4503135   -0.1274949 
   0.000150025    -0.0267231    0.1608244     2.6391420   -0.2035001    -0.0000625    0.0027609     0.2316007   -0.3640096 
   0.000250050     0.6213658    0.5911790    -0.0475322    0.1290167    -0.0003636    0.0015741    -0.0414060   -0.3031253 
   0.000350075    -0.9580805    0.0162621    -0.0007864   -0.0013628    -0.0000792   -0.0002839    -0.0938506   -0.1509140 
   0.000450100    -0.9744787    0.0323669    -0.0011522   -0.0019473     0.0000026   -0.0001820    -0.0803793   -0.0671311 
   0.000550125    -0.9642921    0.0364489    -0.0011236   -0.0010058    -0.0002031    0.0000797    -0.0538370   -0.0275316 
   0.000650150    -0.9586083    0.0421848    -0.0022960   -0.0023901    -0.0000976   -0.0002481    -0.0346910   -0.0103482 
   0.000750175    -0.9670805    0.0443117    -0.0004186   -0.0010516     0.0000576    0.0002011    -0.0209832    0.0004146 
   0.000850200    -0.9640164    0.0479797    -0.0013822   -0.0017152    -0.0003913    0.0002730    -0.0078596    0.0059217 
   0.000950225    -0.9624708    0.0435830    -0.0013256   -0.0015929     0.0002468    0.0000166    -0.0007253    0.0099926 
   0.001050250    -0.9631582    0.0581164    -0.0020680   -0.0011153    -0.0000794   -0.0000592     0.0059235    0.0112813 
   0.001150275    -0.9566998    0.0697101    -0.0023969   -0.0018108     0.0001906    0.0000523     0.0113893    0.0112254 
   0.001250300    -0.9677815    0.0715372    -0.0024290   -0.0023897    -0.0000382   -0.0001150     0.0148908    0.0111256 
   0.001350325    -0.9650145    0.0866649    -0.0023613   -0.0019167     0.0000869    0.0000413     0.0195918    0.0113490 
   0.001450350    -0.9578914    0.0890948    -0.0029016    0.0003888     0.0000307   -0.0000594     0.0215547    0.0122012 
   0.001550375    -0.9536312    0.1010049    -0.0026644   -0.0013589     0.0000170    0.0000322     0.0241682    0.0113554 
   0.001650400    -0.9644185    0.1055304    -0.0028226   -0.0006015    -0.0002345   -0.0000522     0.0263571    0.0107277 
   0.001750425    -0.9616480    0.0997582    -0.0025960   -0.0011955     0.0000598    0.0001635     0.0279199    0.0091018 
   0.001850450    -0.9618609    0.1036138    -0.0032432   -0.0005819    -0.0001009    0.0000203     0.0278468    0.0111989 
   0.001950475    -0.9515749    0.1181711    -0.0026004   -0.0008601     0.0000638   -0.0000483     0.0298342    0.0105063 
   0.002050500    -0.9602644    0.1129541    -0.0028897   -0.0003209     0.0000215   -0.0000889     0.0309751    0.0097390 
   0.002150525    -0.9483579    0.1246957    -0.0030661   -0.0007379    -0.0001115    0.0000908     0.0324574    0.0090456 
   0.002250550    -0.9509461    0.1280847    -0.0032027    0.0004990    -0.0001941   -0.0001357     0.0317803    0.0078299 
   0.002350575    -0.9501687    0.1375033    -0.0037599    0.0000004    -0.0000186    0.0000370     0.0348159    0.0084764 
   0.002450600    -0.9614978    0.1454008    -0.0029329    0.0001756    -0.0001190   -0.0001469     0.0341992    0.0071756 
   0.002550625    -0.9476326    0.1497960    -0.0034824    0.0005390     0.0000038    0.0000281     0.0341199    0.0086776 
   0.002650650    -0.9552643    0.1504779    -0.0033034    0.0003085     0.0002541    0.0001700     0.0357209    0.0059913 
   0.002750675    -0.9409242    0.1632637    -0.0028055    0.0002314    -0.0001342   -0.0003583     0.0364684    0.0062639 
   0.002850700    -0.9439968    0.1726022    -0.0035791    0.0008729    -0.0001286   -0.0000445     0.0359587    0.0058456 
   0.002950725    -0.9425971    0.1739838    -0.0040092   -0.0001277    -0.0000205    0.0000174     0.0371043    0.0061688 
   0.003050750    -0.9458864    0.1897204    -0.0034874    0.0002357    -0.0000027    0.0000983     0.0371677    0.0057940 
   0.003150775    -0.9376158    0.1771233    -0.0045106    0.0007534    -0.0001766    0.0000118     0.0375043    0.0042621 
   0.003250800    -0.9404987    0.1834691    -0.0042906    0.0013559     0.0000230    0.0000222     0.0380924    0.0041436 
   0.003350825    -0.9510430    0.2043466    -0.0040926    0.0012085    -0.0002339   -0.0003106     0.0392846    0.0036221 
   0.003450850    -0.9313703    0.2019775    -0.0049873    0.0012087    -0.0000407   -0.0000191     0.0396716    0.0034790 
   0.003550875    -0.9440653    0.2009050    -0.0042524    0.0010843    -0.0001678   -0.0000953     0.0384335    0.0024876 
   0.003650900    -0.9367872    0.2144741    -0.0055965    0.0007365    -0.0002194    0.0000003     0.0401774    0.0026610 
   0.003750925    -0.9405329    0.2147270    -0.0053837    0.0012483    -0.0001025   -0.0000778     0.0396154    0.0021295 
   0.003850950    -0.9361867    0.2234074    -0.0051986    0.0018802     0.0002000   -0.0000462     0.0394357    0.0010531 
   0.003950975    -0.9378010    0.2286886    -0.0053338    0.0016404     0.0000805    0.0000960     0.0407784    0.0019214 
   0.004051001    -0.9362952    0.2333197    -0.0062200    0.0017489    -0.0000802    0.0000544     0.0406866    0.0007499 
   0.004151026    -0.9360865    0.2406980    -0.0057959    0.0014247    -0.0000779    0.0001545     0.0406787    0.0007743 
   0.004251051    -0.9279613    0.2404527    -0.0061164    0.0016181    -0.0000730    0.0002075     0.0409051   -0.0001171 
   0.004351076    -0.9311304    0.2530769    -0.0064409    0.0014431     0.0000476    0.0001235     0.0410239   -0.0002909 
   0.004451101    -0.9248033    0.2574818    -0.0069530    0.0020070     0.0001687   -0.0000579     0.0418108   -0.0010617 
   0.004551126    -0.9205981    0.2686565    -0.0064835    0.0013951     0.0003116    0.0000538     0.0413939   -0.0006676 
   0.004651151    -0.9260450    0.2722644    -0.0068880    0.0023021    -0.0000377   -0.0000987     0.0423146   -0.0014804 
   0.004751176    -0.9283962    0.2695527    -0.0076836    0.0020363     0.0000211   -0.0000503     0.0409281   -0.0024545 
   0.004851201    -0.9255668    0.2838730    -0.0073220    0.0022739    -0.0000357    0.0001001     0.0421859   -0.0016928 
   0.004951226    -0.9201251    0.2773758    -0.0075002    0.0020963     0.0000099    0.0002405     0.0419700   -0.0034651 
   0.005051251    -0.9129761    0.2968724    -0.0077392    0.0023539    -0.0001943    0.0000341     0.0422578   -0.0034097 
   0.005151276    -0.9159806    0.2894245    -0.0077982    0.0021193    -0.0000465    0.0002131     0.0420535   -0.0035882 
   0.005251301    -0.9200859    0.2932118    -0.0088834    0.0027173    -0.0001539   -0.0001143     0.0421505   -0.0043523 
   0.005351326    -0.8982240    0.2985401    -0.0085171    0.0025588    -0.0001042   -0.0000840     0.0422470   -0.0040663 
   0.005451351    -0.9054587    0.3098258    -0.0080843    0.0032484     0.0002191   -0.0000005     0.0424494   -0.0050585 
   0.005551376    -0.9085471    0.3082747    -0.0092098    0.0028324     0.0001750   -0.0002436     0.0434961   -0.0058992 
   0.005651401    -0.8990780    0.3264677    -0.0097105    0.0025193    -0.0000621   -0.0000541     0.0429049   -0.0059651 
   0.005751426    -0.8994523    0.3227875    -0.0101921    0.0026651     0.0000549    0.0000302     0.0427085   -0.0053184 
   0.005851451    -0.9043112    0.3304119    -0.0104249    0.0038468     0.0000522    0.0000518     0.0426440   -0.0070396 
   0.005951476    -0.8941491    0.3345964    -0.0112267    0.0036692    -0.0000171    0.0001092     0.0430016   -0.0068463 
   0.006051501    -0.8856894    0.3412127    -0.0108887    0.0036381    -0.0000469    0.0000935     0.0423965   -0.0066830 
   0.006151526    -0.8902969    0.3371760    -0.0108169    0.0037795    -0.0001382   -0.0001185     0.0426759   -0.0067648 
   0.006251551    -0.8932545    0.3557576    -0.0116075    0.0041651    -0.0000010    0.0000379     0.0432899   -0.0083670 
   0.006351576    -0.8828873    0.3686171    -0.0116626    0.0038896     0.0001347    0.0001057     0.0436038   -0.0080392 
   0.006451601    -0.8796377    0.3735841    -0.0119491    0.0044020     0.0000070    0.0000184     0.0434318   -0.0085883 
   0.006551626    -0.8886470    0.3693831    -0.0133053    0.0053254    -0.0001005    0.0000728     0.0433790   -0.0088405 
   0.006651651    -0.8712523    0.3693002    -0.0127178    0.0051375    -0.0005157   -0.0000814     0.0428984   -0.0094903 
   0.006751676    -0.8846819    0.3847379    -0.0137400    0.0054297    -0.0000681   -0.0001931     0.0435530   -0.0089007 
   0.006851701    -0.8672596    0.3885016    -0.0143525    0.0049317     0.0000951    0.0001329     0.0433710   -0.0099405 
   0.006951726    -0.8702394    0.3805524    -0.0135250    0.0059276    -0.0000711   -0.0001121     0.0436392   -0.0102866 
   0.007051751    -0.8743809    0.3890942    -0.0147568    0.0050564     0.0001696    0.0000214     0.0435765   -0.0105601 
   0.007151776    -0.8728189    0.3978270    -0.0144879    0.0055076    -0.0003244    0.0001892     0.0432636   -0.0100563 
   0.007251801    -0.8618680    0.4066626    -0.0147325    0.0055951    -0.0001380   -0.0000137     0.0435924   -0.0107813 
   0.007351826    -0.8567911    0.4019320    -0.0149831    0.0047995    -0.0000529    0.0000763     0.0440590   -0.0113313 
   0.007451851    -0.8609663    0.4221607    -0.0167198    0.0064252    -0.0002641    0.0001713     0.0432120   -0.0123926 
   0.007551876    -0.8658127    0.4277727    -0.0158709    0.0072719     0.0001238   -0.0001039     0.0430077   -0.0119625 
   0.007651901    -0.8543925    0.4379969    -0.0171625    0.0074399     0.0001220    0.0001023     0.0433440   -0.0126571 
   0.007751926    -0.8447612    0.4211100    -0.0160748    0.0072503     0.0000504   -0.0001054     0.0436970   -0.0127072 
   0.007851951    -0.8547266    0.4320424    -0.0173068    0.0068542    -0.0002573    0.0001306     0.0436495   -0.0130901 
   0.007951976    -0.8440350    0.4408591    -0.0176197    0.0068545    -0.0000685    0.0000135     0.0439235   -0.0124142 
   0.008052001    -0.8398684    0.4435666    -0.0172640    0.0084884     0.0000596   -0.0000197     0.0434122   -0.0132032 
   0.008152026    -0.8505713    0.4471989    -0.0178016    0.0076111     0.0001767    0.0000079     0.0429714   -0.0145827 
   0.008252051    -0.8359954    0.4573936    -0.0185098    0.0084631    -0.0000177   -0.0001583     0.0439562   -0.0147024 
   0.008352076    -0.8357149    0.4529887    -0.0186086    0.0085139    -0.0001796   -0.0000881     0.0431768   -0.0144211 
   0.008452101    -0.8422449    0.4683627    -0.0202320    0.0094996    -0.0003098   -0.0003272     0.0442370   -0.0156422 
   0.008552126    -0.8282878    0.4690863    -0.0194487    0.0101369     0.0001087    0.0000567     0.0439723   -0.0156725 
   0.008652151    -0.8223356    0.4637154    -0.0211099    0.0089159     0.0000103   -0.0001487     0.0426590   -0.0158662 
   0.008752176    -0.8238656    0.4781730    -0.0209011    0.0099283    -0.0001353    0.0000167     0.0431632   -0.0156263 
   0.008852201    -0.8166085    0.4777369    -0.0208086    0.0096504    -0.0000580   -0.0001116     0.0437438   -0.0166756 
   0.008952226    -0.8231237    0.4812882    -0.0211318    0.0098584     0.0001349   -0.0000005     0.0433546   -0.0164768 
   0.009052251    -0.8025665    0.4959454    -0.0224250    0.0113950     0.0001054   -0.0000564     0.0439029   -0.0169918 
   0.009152276    -0.8108829    0.4983981    -0.0230068    0.0112695    -0.0002558   -0.0000854     0.0430863   -0.0175847 
   0.009252301    -0.8068807    0.5076132    -0.0232667    0.0110837     0.0002457    0.0002092     0.0438321   -0.0174576 
   0.009352326    -0.7932480    0.5160180    -0.0229437    0.0131634    -0.0000592    0.0003615     0.0436731   -0.0176937 
   0.009452351    -0.8038269    0.5080696    -0.0242950    0.0127268    -0.0001350    0.0001678     0.0435288   -0.0185338 
   0.009552376    -0.7961943    0.5079671    -0.0235906    0.0113866     0.0001768   -0.0000455     0.0431155   -0.0185955 
   0.009652401    -0.8016673    0.5243683    -0.0251863    0.0126347    -0.0001318    0.0000456     0.0438394   -0.0180587 
   0.009752426    -0.7919841    0.5228780    -0.0252360    0.0132807    -0.0000274    0.0000146     0.0434191   -0.0194752 
   0.009852451    -0.7909306    0.5302071    -0.0259505    0.0142875    -0.0000972    0.0001509     0.0431813   -0.0194842 
   0.009952476    -0.7854271    0.5266355    -0.0260744    0.0128773    -0.0000872   -0.0001183     0.0434066   -0.0199036 
   0.010052501    -0.7972850    0.5326732    -0.0272890    0.0140103     0.0000100   -0.0000063     0.0436721   -0.0200928 
   0.010152526    -0.7906409    0.5384386    -0.0271091    0.0142209     0.0000482    0.0002510     0.0427385   -0.0206118 
   0.010252551    -0.7808042    0.5473967    -0.0275369    0.0154382     0.0000124    0.0001265     0.0425033   -0.0205051 
   0.010352576    -0.7712008    0.5510871    -0.0293813    0.0144856     0.0001658   -0.0000788     0.0422033   -0.0210996 
   0.010452601    -0.7692696    0.5703855    -0.0293831    0.0163037    -0.0001396    0.0001285     0.0428883   -0.0213364 
   0.010552626    -0.7669965    0.5561681    -0.0304149    0.0156794    -0.0001571   -0.0000108     0.0426809   -0.0218626 
   0.010652651    -0.7601612    0.5744998    -0.0305877    0.0179526    -0.0000253    0.0001602     0.0426511   -0.0221016 
   0.010752676    -0.7734908    0.5753450    -0.0307219    0.0172305    -0.0001489    0.0003267     0.0423653   -0.0230815 
   0.010852701    -0.7556938    0.5625982    -0.0313783    0.0170934     0.0001504    0.0000791     0.0428044   -0.0224861 
   0.010952726    -0.7528666    0.5710844    -0.0320772    0.0169171     0.0000948   -0.0001641     0.0419092   -0.0231760 
   0.011052751    -0.7558426    0.5733984    -0.0326722    0.0177938    -0.0001382    0.0000272     0.0420362   -0.0233011 
   0.011152776    -0.7331644    0.5913909    -0.0316475    0.0187755     0.0001222   -0.0000965     0.0425642   -0.0240585 
   0.011252801    -0.7523851    0.5928338    -0.0334780    0.0195880    -0.0002028    0.0000956     0.0423905   -0.0236486 
   0.011352826    -0.7331471    0.5902431    -0.0340766    0.0193245     0.0001081    0.0001115     0.0417973   -0.0241746 
   0.011452851    -0.7375999    0.5965869    -0.0338795    0.0197310    -0.0000890   -0.0002136     0.0417429   -0.0244441 
   0.011552876    -0.7395542    0.5962715    -0.0336681    0.0211703    -0.0002075    0.0001554     0.0418543   -0.0245864 
   0.011652901    -0.7344663    0.6154627    -0.0341696    0.0223246     0.0000029   -0.0003865     0.0418678   -0.0250040 
   0.011752926    -0.7375661    0.6137484    -0.0347478    0.0221585     0.0001991   -0.0001044     0.0420307   -0.0250359 
   0.011852951    -0.7184707    0.6042668    -0.0345223    0.0226412     0.0000523    0.0001052     0.0414511   -0.0256918 
   0.011952976    -0.7098112    0.6144637    -0.0346892    0.0230558     0.0001017   -0.0001538     0.0410711   -0.0257897 
   0.012053002    -0.7174369    0.6283380    -0.0352524    0.0236967    -0.0002290   -0.0000820     0.0415226   -0.0263502 
   0.012153027    -0.7116911    0.6351627    -0.0381886    0.0248728     0.0002155   -0.0000041     0.0413792   -0.0269990 
   0.012253052    -0.7169337    0.6324159    -0.0373791    0.0250223     0.0000374    0.0000316     0.0416440   -0.0268916 
   0.012353077    -0.6951491    0.6303117    -0.0367112    0.0253117    -0.0001958    0.0001921     0.0409184   -0.0273162 
   0.012453102    -0.6903491    0.6330251    -0.0370051    0.0261055     0.0001359   -0.0003751     0.0411207   -0.0274427 
   0.012553127    -0.6882935    0.6435007    -0.0384876    0.0275023     0.0002235   -0.0000528     0.0410392   -0.0277520 
   0.012653152    -0.6884612    0.6584663    -0.0399684    0.0285127     0.0000637   -0.0000966     0.0407473   -0.0283762 
   0.012753177    -0.6901156    0.6554998    -0.0412274    0.0271531     0.0001910    0.0001824     0.0413584   -0.0277951 
   0.012853202    -0.6913117    0.6615648    -0.0399823    0.0291042    -0.0000301   -0.0002165     0.0411997   -0.0292767 
   0.012953227    -0.6643733    0.6573863    -0.0410152    0.0287825     0.0002051   -0.0003735     0.0407998   -0.0288462 
   0.013053252    -0.6541864    0.6755461    -0.0408865    0.0315055     0.0002029   -0.0001351     0.0405321   -0.0298641 
   0.013153277    -0.6666585    0.6684195    -0.0416064    0.0305250     0.0003960    0.0000127     0.0406370   -0.0296147 
   0.013253302    -0.6578537    0.6579848    -0.0425317    0.0305842     0.0001056    0.0000950     0.0396974   -0.0297701 
   0.013353327    -0.6606799    0.6841495    -0.0439125    0.0321079    -0.0002687   -0.0001909     0.0406587   -0.0298564 
   0.013453352    -0.6510780    0.6811011    -0.0432514    0.0322980     0.0000170    0.0000684     0.0401029   -0.0306249 
   0.013553377    -0.6441226    0.6821230    -0.0434787    0.0336806     0.0001277    0.0000181     0.0401731   -0.0307964 
   0.013653402    -0.6500880    0.6855406    -0.0455987    0.0338295     0.0001855   -0.0002011     0.0397941   -0.0312687 
   0.013753427    -0.6352738    0.6988267    -0.0457737    0.0358045    -0.0002414   -0.0001752     0.0396466   -0.0320520 
   0.013853452    -0.6414106    0.6967563    -0.0469036    0.0349337     0.0003426    0.0001863     0.0393438   -0.0319117 
   0.013953477    -0.6273299    0.7029307    -0.0470032    0.0366505    -0.0000788   -0.0001884     0.0396783   -0.0324066 
   0.014053502    -0.6316056    0.6939793    -0.0484332    0.0349517    -0.0003146   -0.0000667     0.0398698   -0.0326401 
   0.014153527    -0.6348853    0.7008621    -0.0486379    0.0359379    -0.0002415   -0.0000570     0.0393729   -0.0327022 
   0.014253552    -0.6151214    0.7035179    -0.0482830    0.0374025    -0.0003004   -0.0000125     0.0392693   -0.0331508 
   0.014353577    -0.6357758    0.7020189    -0.0492376    0.0352569    -0.0002638    0.0000789     0.0391556   -0.0331403 
   0.014453602    -0.5985426    0.7098140    -0.0504008    0.0373055    -0.0001654   -0.0001879     0.0388589   -0.0331805 
   0.014553627    -0.6164452    0.7240796    -0.0507310    0.0396213     0.0000989    0.0001073     0.0388911   -0.0338549 
   0.014653652    -0.5929878    0.7247964    -0.0499658    0.0379206    -0.0003418    0.0002019     0.0387809   -0.0338584 
   0.014753677    -0.5973423    0.7209652    -0.0493815    0.0371562    -0.0003327    0.0001270     0.0386350   -0.0340973 
   0.014853702    -0.6020906    0.7417193    -0.0526671    0.0393033     0.0002188    0.0001366     0.0384835   -0.0344542 
   0.014953727    -0.5857967    0.7330800    -0.0522552    0.0412249     0.0000974   -0.0003715     0.0386253   -0.0347590 
   0.015053752    -0.5722210    0.7390964    -0.0505963    0.0420631     0.0002902   -0.0002370     0.0382405   -0.0352526 
   0.015153777    -0.5848657    0.7302543    -0.0538241    0.0417635     0.0000732    0.0006438     0.0382919   -0.0357775 
   0.015253802    -0.5693104    0.7546406    -0.0549033    0.0433301    -0.0000344   -0.0001643     0.0380944   -0.0364576 
   0.015353827    -0.5617473    0.7365672    -0.0542693    0.0438167    -0.0001195    0.0001249     0.0376351   -0.0365753 
   0.015453852    -0.5666835    0.7450319    -0.0561211    0.0465333    -0.0001077   -0.0004576     0.0378351   -0.0361795 
   0.015553877    -0.5665266    0.7486131    -0.0565965    0.0457112    -0.0002064   -0.0000661     0.0375282   -0.0363120 
   0.015653902    -0.5594555    0.7579571    -0.0583019    0.0481427     0.0004306    0.0002678     0.0372730   -0.0367831 
