! 19-Feb-26 3:23:24 PM
! E:\VNA_MEASUREMENTS\RECBLOCK\RECBLOCKSDRREV3.S2P
! CHANNEL.1
! TR.MEASUREMENT
! CORRECTED.DATA
# GHZ S RI R 50.0
! FREQ.GHZ         S11RE         S11IM         S21RE         S21IM         S12RE         S12IM         S22RE         S22IM         
!; PortSelection: Port_12
   0.000050000     0.4490048    0.4175012    -1.3696520    1.0931670     0.0008465    0.0017649    -0.9532299    0.0024542 
   0.000150025     0.3243307    0.0608749     2.5407330    1.1701530     0.0013910   -0.0016857    -0.9574092    0.0086839 
   0.000250050     1.3515190    0.0566016    -3.1075020    2.6631000     0.0007772    0.0014038    -0.9768130    0.0153126 
   0.000350075    -0.0035113    0.0079473    -0.0000874   -0.0073090    -0.0004097   -0.0005014    -0.9676542    0.0256746 
   0.000450100    -0.0023755   -0.0015061    -0.0026146   -0.0042620     0.0000896   -0.0002766    -0.9716247    0.0278251 
   0.000550125    -0.0006906    0.0023903    -0.0022643   -0.0036015     0.0001238    0.0002872    -0.9637417    0.0314919 
   0.000650150    -0.0050140    0.0041454    -0.0031698   -0.0038525     0.0005552   -0.0000023    -0.9664885    0.0411756 
   0.000750175     0.0003993    0.0031066    -0.0018601   -0.0099769     0.0003425   -0.0002025    -0.9654293    0.0446358 
   0.000850200     0.0022215   -0.0002208    -0.0051276   -0.0067080     0.0000581   -0.0004809    -0.9602378    0.0569678 
   0.000950225     0.0005088   -0.0023878    -0.0039951   -0.0042054     0.0002788    0.0005252    -0.9640807    0.0615369 
   0.001050250    -0.0007175   -0.0044709    -0.0051604   -0.0022550    -0.0001606   -0.0004072    -0.9603384    0.0657577 
   0.001150275     0.0039870    0.0051750    -0.0072215   -0.0023338    -0.0000637    0.0002910    -0.9602050    0.0649181 
   0.001250300     0.0011431   -0.0018920    -0.0068826   -0.0021732    -0.0004110    0.0004284    -0.9565268    0.0788336 
   0.001350325    -0.0045739    0.0015142    -0.0040779   -0.0020463     0.0002685   -0.0001605    -0.9544799    0.0779927 
   0.001450350     0.0017232    0.0016959    -0.0059222   -0.0004701    -0.0006499   -0.0002962    -0.9607761    0.0849332 
   0.001550375     0.0022835    0.0017833    -0.0042257   -0.0027409    -0.0001109    0.0000176    -0.9548720    0.0892604 
   0.001650400     0.0012561   -0.0008015    -0.0041884   -0.0006832    -0.0002447    0.0003655    -0.9555446    0.0918357 
   0.001750425    -0.0019911   -0.0024238    -0.0044116   -0.0000370     0.0005376   -0.0002089    -0.9617255    0.1067463 
   0.001850450     0.0011116    0.0013920    -0.0048711    0.0003235    -0.0001355   -0.0002307    -0.9588341    0.1133553 
   0.001950475    -0.0021857    0.0021548    -0.0047517   -0.0006722    -0.0002538    0.0002892    -0.9555145    0.1140690 
   0.002050500    -0.0022938   -0.0019824    -0.0034915    0.0016468    -0.0003027   -0.0001716    -0.9587037    0.1179409 
   0.002150525     0.0020041    0.0012078    -0.0044108    0.0005557     0.0006035    0.0002059    -0.9586551    0.1318837 
   0.002250550    -0.0013055    0.0022751    -0.0035832   -0.0010396     0.0001000   -0.0000246    -0.9630821    0.1313842 
   0.002350575    -0.0018995    0.0000127    -0.0039822    0.0018766     0.0002805   -0.0000585    -0.9542546    0.1314928 
   0.002450600    -0.0000839   -0.0009071    -0.0036378    0.0022723    -0.0004366   -0.0003974    -0.9481127    0.1413791 
   0.002550625    -0.0003254    0.0006263    -0.0020805    0.0023008    -0.0001542   -0.0001815    -0.9524048    0.1444103 
   0.002650650    -0.0026225   -0.0035486    -0.0043034   -0.0005862     0.0001581   -0.0002771    -0.9451030    0.1521378 
   0.002750675    -0.0010337   -0.0020842    -0.0028444    0.0016626     0.0006450    0.0000529    -0.9486802    0.1592787 
   0.002850700     0.0033315    0.0017481    -0.0042612    0.0018134    -0.0000074    0.0003992    -0.9525657    0.1678140 
   0.002950725     0.0002966   -0.0026205    -0.0017364    0.0015685     0.0003298    0.0002128    -0.9466888    0.1696745 
   0.003050750    -0.0006214   -0.0018445    -0.0011311    0.0014306     0.0002803   -0.0000132    -0.9447917    0.1785495 
   0.003150775     0.0015429   -0.0047590    -0.0016147    0.0004960    -0.0001643   -0.0000086    -0.9443802    0.1785291 
   0.003250800    -0.0015390   -0.0015903    -0.0022996    0.0009023     0.0002587    0.0001866    -0.9410763    0.1882867 
   0.003350825     0.0004179   -0.0009882    -0.0022606   -0.0000215     0.0002949    0.0000279    -0.9436127    0.1917673 
   0.003450850     0.0006524   -0.0012017    -0.0017901    0.0026057     0.0000512   -0.0006734    -0.9423514    0.2034456 
   0.003550875    -0.0008602    0.0045937    -0.0012775   -0.0011147     0.0003242   -0.0002501    -0.9436215    0.2025106 
   0.003650900     0.0012515    0.0006558    -0.0000649   -0.0000122     0.0002164   -0.0000651    -0.9352107    0.2081091 
   0.003750925     0.0010678    0.0016719    -0.0009938    0.0020837     0.0000620   -0.0001554    -0.9324741    0.2132892 
   0.003850950     0.0001098   -0.0031140    -0.0006993    0.0000090     0.0001855    0.0001086    -0.9404201    0.2173328 
   0.003950975    -0.0014803   -0.0005435    -0.0011972    0.0007006     0.0001628   -0.0003355    -0.9338034    0.2241962 
   0.004051001     0.0037274    0.0000221    -0.0006130    0.0022924     0.0001349    0.0000973    -0.9318889    0.2272139 
   0.004151026    -0.0003663   -0.0009620    -0.0022223    0.0002084     0.0000632    0.0001828    -0.9248179    0.2360848 
   0.004251051     0.0019636    0.0012865    -0.0003925    0.0013218    -0.0002511    0.0000451    -0.9318473    0.2399431 
   0.004351076    -0.0025348   -0.0010643    -0.0008435    0.0016343     0.0001310    0.0002571    -0.9247143    0.2475570 
   0.004451101     0.0005316    0.0009716    -0.0007874   -0.0013665    -0.0001935    0.0003072    -0.9237904    0.2480503 
   0.004551126     0.0007380   -0.0005095    -0.0004127    0.0008802     0.0002970   -0.0002132    -0.9210859    0.2605227 
   0.004651151     0.0004243   -0.0010411    -0.0010447    0.0014439    -0.0002790    0.0001075    -0.9221295    0.2662568 
   0.004751176     0.0013187    0.0005465    -0.0011170    0.0014395     0.0000862   -0.0000030    -0.9188973    0.2720357 
   0.004851201     0.0008416    0.0009114    -0.0002257    0.0004718     0.0000684   -0.0000994    -0.9175076    0.2762595 
   0.004951226    -0.0007275   -0.0002452    -0.0013012   -0.0006742     0.0001081   -0.0000219    -0.9190835    0.2831077 
   0.005051251    -0.0016085   -0.0001330    -0.0018880    0.0016009    -0.0002160    0.0000996    -0.9195171    0.2892592 
   0.005151276    -0.0014706   -0.0013523     0.0004280    0.0010132     0.0001788    0.0001229    -0.9127280    0.2914289 
   0.005251301     0.0000238    0.0004064     0.0000188   -0.0003159     0.0002050   -0.0004688    -0.9129445    0.3010734 
   0.005351326     0.0000217   -0.0006968    -0.0002375    0.0004355    -0.0002108   -0.0002609    -0.9112432    0.3042623 
   0.005451351     0.0008432    0.0012186     0.0002493   -0.0002290    -0.0000010   -0.0001013    -0.9069806    0.3083356 
   0.005551376     0.0015800    0.0023299     0.0002377    0.0009333     0.0000120   -0.0001017    -0.8991871    0.3109170 
   0.005651401     0.0015487   -0.0031181    -0.0005187   -0.0003938    -0.0003945    0.0001272    -0.9040731    0.3157690 
   0.005751426    -0.0013314    0.0014208    -0.0001719    0.0000180     0.0000547   -0.0003033    -0.9002213    0.3256208 
   0.005851451    -0.0006403    0.0007391    -0.0015408   -0.0009972    -0.0003066    0.0001226    -0.8937086    0.3255222 
   0.005951476    -0.0010205    0.0014169    -0.0009648   -0.0005308    -0.0002733   -0.0002774    -0.8945776    0.3319580 
   0.006051501     0.0003569   -0.0001940    -0.0004826   -0.0002079    -0.0001113    0.0001407    -0.8954573    0.3404840 
   0.006151526    -0.0015108    0.0012427    -0.0007906    0.0001941     0.0000885   -0.0002655    -0.8979738    0.3479972 
   0.006251551    -0.0026181   -0.0023298    -0.0011182    0.0005678    -0.0002666    0.0000233    -0.8879105    0.3483861 
   0.006351576     0.0017844    0.0005901    -0.0015784    0.0004865     0.0001151   -0.0004576    -0.8866034    0.3518739 
   0.006451601     0.0001201    0.0009573    -0.0012898    0.0000588     0.0001702   -0.0001390    -0.8865673    0.3608799 
   0.006551626    -0.0019090   -0.0011755    -0.0006965    0.0004591     0.0001447    0.0002004    -0.8810933    0.3647624 
   0.006651651    -0.0010267    0.0016217     0.0009939    0.0014128    -0.0000801   -0.0002414    -0.8771655    0.3702343 
   0.006751676     0.0014946    0.0013951    -0.0007000   -0.0002603     0.0000001    0.0001573    -0.8806840    0.3759460 
   0.006851701    -0.0013181   -0.0003793    -0.0002725    0.0004310    -0.0001721    0.0001314    -0.8752678    0.3795780 
   0.006951726     0.0013980    0.0008506     0.0010470    0.0003346     0.0000829    0.0002353    -0.8769180    0.3852010 
   0.007051751    -0.0011063   -0.0008689     0.0013093    0.0015334    -0.0002215   -0.0001372    -0.8749855    0.3899720 
   0.007151776    -0.0020883    0.0022574    -0.0005907    0.0003405     0.0003474   -0.0000933    -0.8688046    0.3975056 
   0.007251801     0.0022406   -0.0011374    -0.0001670    0.0000541     0.0000538    0.0001699    -0.8644550    0.3986245 
   0.007351826    -0.0011717    0.0000506    -0.0001894    0.0004370    -0.0002037   -0.0001780    -0.8625857    0.4087727 
   0.007451851    -0.0007683    0.0004497    -0.0003672    0.0004067     0.0002013   -0.0000789    -0.8564126    0.4086238 
   0.007551876     0.0010560    0.0001610     0.0013073   -0.0005864    -0.0002190   -0.0002741    -0.8595744    0.4150544 
   0.007651901    -0.0005069    0.0007481     0.0000676    0.0008405     0.0001706   -0.0002216    -0.8544306    0.4218707 
   0.007751926    -0.0006332   -0.0000004     0.0001449   -0.0007923    -0.0000432   -0.0000927    -0.8513863    0.4229831 
   0.007851951    -0.0004110   -0.0003505     0.0011250    0.0006752    -0.0002492   -0.0000223    -0.8500644    0.4251727 
   0.007951976    -0.0020630   -0.0002156     0.0006307   -0.0001008     0.0000064    0.0001123    -0.8492154    0.4378363 
   0.008052001     0.0004334   -0.0000724     0.0011791   -0.0001767    -0.0000389    0.0003739    -0.8468935    0.4385316 
   0.008152026     0.0012210   -0.0017083    -0.0003378    0.0001498     0.0000417    0.0000430    -0.8411537    0.4455814 
   0.008252051     0.0023282    0.0003365    -0.0003222    0.0009131     0.0000829    0.0000585    -0.8423564    0.4480985 
   0.008352076    -0.0004371    0.0016625    -0.0003048   -0.0000050    -0.0000723    0.0000557    -0.8349831    0.4550850 
   0.008452101    -0.0013467    0.0008600     0.0002904    0.0004851    -0.0004463   -0.0001086    -0.8320641    0.4574732 
   0.008552126    -0.0007454    0.0007226     0.0001281   -0.0011165     0.0000158    0.0000376    -0.8336602    0.4635288 
   0.008652151    -0.0016777    0.0005876    -0.0012454   -0.0005829    -0.0000686    0.0000162    -0.8259359    0.4690269 
   0.008752176    -0.0001364    0.0006190     0.0000786    0.0004924     0.0001323   -0.0000438    -0.8236822    0.4737611 
   0.008852201    -0.0000547   -0.0004260     0.0000383   -0.0001768     0.0001256   -0.0000149    -0.8210929    0.4778627 
   0.008952226    -0.0003565    0.0003635     0.0000593    0.0007358     0.0000913    0.0002812    -0.8207127    0.4828975 
   0.009052251     0.0009994   -0.0000542     0.0004696    0.0000084    -0.0001848   -0.0000780    -0.8147367    0.4911726 
   0.009152276    -0.0013303    0.0002288    -0.0006753   -0.0005730    -0.0000301   -0.0000390    -0.8134028    0.4925613 
   0.009252301    -0.0005378   -0.0008193    -0.0000141    0.0001442    -0.0001060   -0.0001361    -0.8099790    0.4972791 
   0.009352326     0.0013125   -0.0001798     0.0000112   -0.0008407     0.0001406    0.0001263    -0.8058531    0.4995136 
   0.009452351     0.0006762    0.0018420    -0.0004257    0.0001696     0.0001128   -0.0000877    -0.8046438    0.5088904 
   0.009552376     0.0000438   -0.0003189    -0.0005543    0.0000298    -0.0003297    0.0001061    -0.8004391    0.5079169 
   0.009652401    -0.0007134   -0.0000507    -0.0001943    0.0004043    -0.0000418   -0.0001631    -0.8018336    0.5140829 
   0.009752426     0.0011946   -0.0000198     0.0000816    0.0003061    -0.0001879    0.0001580    -0.7963352    0.5172240 
   0.009852451     0.0002441    0.0012661    -0.0003352   -0.0006282     0.0000110    0.0003023    -0.7898125    0.5267226 
   0.009952476    -0.0011811    0.0001381    -0.0005046   -0.0002309    -0.0000526    0.0001271    -0.7872794    0.5298159 
   0.010052501    -0.0006829    0.0002346     0.0001722   -0.0011141    -0.0002653   -0.0002152    -0.7861876    0.5344647 
   0.010152526     0.0009082   -0.0004021     0.0005420   -0.0001725    -0.0002794    0.0001121    -0.7803543    0.5453594 
   0.010252551     0.0012042    0.0022198    -0.0005179    0.0000999     0.0001033    0.0000678    -0.7775903    0.5456409 
   0.010352576     0.0006003    0.0006144    -0.0000499   -0.0005441     0.0000069   -0.0003377    -0.7770985    0.5479387 
   0.010452601     0.0019384   -0.0003407     0.0001824    0.0000814    -0.0001516    0.0001265    -0.7734180    0.5508943 
   0.010552626    -0.0003124    0.0008019     0.0001331   -0.0006040    -0.0002363   -0.0000819    -0.7676669    0.5572731 
   0.010652651    -0.0005303   -0.0013658    -0.0000398    0.0000857     0.0001238    0.0000928    -0.7627816    0.5580733 
   0.010752676    -0.0003826    0.0001021     0.0003894   -0.0003669    -0.0001907   -0.0001118    -0.7604359    0.5658683 
   0.010852701    -0.0000133    0.0000040    -0.0007184    0.0004165    -0.0000295    0.0000532    -0.7609010    0.5728885 
   0.010952726     0.0011495   -0.0010384    -0.0010138   -0.0009471    -0.0000708   -0.0002114    -0.7513153    0.5777315 
   0.011052751     0.0012421    0.0000831     0.0002820   -0.0007562     0.0000374   -0.0000452    -0.7481534    0.5801808 
   0.011152776     0.0000053   -0.0004569     0.0002119    0.0000415    -0.0000564   -0.0000453    -0.7476210    0.5828955 
   0.011252801    -0.0004495    0.0002861     0.0008687   -0.0008768     0.0000683   -0.0002624    -0.7434667    0.5893627 
   0.011352826    -0.0019387    0.0003312     0.0003212    0.0000833    -0.0001391   -0.0003032    -0.7400229    0.5925032 
   0.011452851    -0.0012285   -0.0021063     0.0007882   -0.0002061    -0.0000015   -0.0000647    -0.7361766    0.5978699 
   0.011552876     0.0002921    0.0007100    -0.0003498   -0.0007239    -0.0000886    0.0002601    -0.7326936    0.6022455 
   0.011652901     0.0003829   -0.0011504     0.0002872   -0.0003041    -0.0001307    0.0004136    -0.7237739    0.6081245 
   0.011752926    -0.0013885    0.0010789    -0.0003823   -0.0008259     0.0002637   -0.0000939    -0.7247775    0.6093170 
   0.011852951     0.0000107    0.0005673     0.0006284   -0.0006074    -0.0001705   -0.0001487    -0.7181892    0.6117105 
   0.011952976    -0.0006301   -0.0009888    -0.0003771   -0.0001639    -0.0000871   -0.0001846    -0.7138727    0.6152288 
   0.012053002     0.0003101   -0.0002102    -0.0006654    0.0002927     0.0000872    0.0001953    -0.7119808    0.6215764 
   0.012153027     0.0005268    0.0008352     0.0009337    0.0003832    -0.0000483   -0.0001969    -0.7118804    0.6251678 
   0.012253052    -0.0013487    0.0003838    -0.0000623   -0.0003383     0.0000361    0.0000206    -0.7050522    0.6302409 
   0.012353077    -0.0010602   -0.0012334    -0.0000832    0.0006531     0.0002454    0.0001824    -0.6969839    0.6365162 
   0.012453102    -0.0010402    0.0007742     0.0004006   -0.0000896     0.0003304    0.0001710    -0.6978127    0.6395297 
   0.012553127     0.0009097   -0.0002428     0.0002874    0.0003536     0.0000823   -0.0001760    -0.6925986    0.6417310 
   0.012653152    -0.0007835    0.0006016    -0.0004034    0.0005610    -0.0000307   -0.0000689    -0.6883032    0.6470413 
   0.012753177     0.0012158    0.0008726     0.0005429   -0.0005314     0.0000708   -0.0001372    -0.6854410    0.6513020 
   0.012853202    -0.0010505    0.0006983    -0.0001633    0.0007183     0.0002790    0.0001761    -0.6828763    0.6546330 
   0.012953227    -0.0000748   -0.0005705     0.0003927    0.0005726     0.0001072   -0.0000510    -0.6779188    0.6576045 
   0.013053252    -0.0004861   -0.0003067    -0.0002580   -0.0005990    -0.0001598   -0.0000595    -0.6737180    0.6642644 
   0.013153277     0.0002830   -0.0000307     0.0002843    0.0000375     0.0004428   -0.0003651    -0.6689023    0.6662534 
   0.013253302     0.0004704    0.0007521     0.0003481   -0.0000032    -0.0002357   -0.0001396    -0.6651564    0.6703247 
   0.013353327     0.0005597   -0.0004002    -0.0004862    0.0002138    -0.0002187   -0.0001773    -0.6601496    0.6772904 
   0.013453352    -0.0014438    0.0000584    -0.0004574   -0.0001906     0.0002001   -0.0002261    -0.6531605    0.6752642 
   0.013553377    -0.0013488    0.0012809    -0.0002324   -0.0005604    -0.0002492    0.0001777    -0.6511756    0.6836005 
   0.013653402     0.0003155   -0.0021095     0.0005240    0.0003247     0.0000152   -0.0000214    -0.6469055    0.6874674 
   0.013753427     0.0024740    0.0008457     0.0010028    0.0004486    -0.0000991   -0.0000876    -0.6452528    0.6895292 
   0.013853452     0.0004827   -0.0005816    -0.0002829    0.0002370    -0.0003852    0.0000192    -0.6374682    0.6913764 
   0.013953477    -0.0006869    0.0019256     0.0000544    0.0008591    -0.0001264   -0.0000549    -0.6348417    0.6982807 
   0.014053502    -0.0002862   -0.0013997    -0.0000205   -0.0003100    -0.0001524    0.0001760    -0.6312071    0.7010777 
   0.014153527     0.0001545   -0.0003336    -0.0013463   -0.0011017     0.0000506   -0.0000991    -0.6229446    0.7053921 
   0.014253552    -0.0002049   -0.0008307     0.0002191    0.0007936     0.0000410   -0.0000075    -0.6207790    0.7077448 
   0.014353577     0.0001819   -0.0013144     0.0005426   -0.0001775     0.0002049   -0.0000817    -0.6151894    0.7133400 
   0.014453602    -0.0009894   -0.0015647     0.0001522    0.0004510    -0.0002163    0.0000557    -0.6131981    0.7158881 
   0.014553627    -0.0007108   -0.0005286    -0.0001024   -0.0006227    -0.0000820    0.0001801    -0.6090156    0.7200236 
   0.014653652    -0.0000675    0.0010071     0.0006200    0.0001052     0.0000481   -0.0000151    -0.6043875    0.7233825 
   0.014753677     0.0005703    0.0013935     0.0003696   -0.0008493    -0.0000558    0.0000044    -0.5982483    0.7302689 
   0.014853702    -0.0016412   -0.0003271    -0.0006816    0.0003735    -0.0001057   -0.0001008    -0.5924538    0.7285174 
   0.014953727     0.0013150   -0.0001237    -0.0004685   -0.0001967     0.0000610    0.0000212    -0.5892458    0.7315688 
   0.015053752     0.0001333   -0.0008806    -0.0000124    0.0002852     0.0000108    0.0001276    -0.5842139    0.7392875 
   0.015153777     0.0001406   -0.0015976     0.0005359   -0.0001499    -0.0001410    0.0001159    -0.5800148    0.7413736 
   0.015253802     0.0012771   -0.0006953     0.0007485   -0.0003925    -0.0000327   -0.0000684    -0.5751441    0.7432530 
   0.015353827    -0.0002504   -0.0010604     0.0008051    0.0001968     0.0000176   -0.0000264    -0.5694135    0.7461794 
   0.015453852    -0.0009813   -0.0017991     0.0003831    0.0001402     0.0000829    0.0000326    -0.5653622    0.7486380 
   0.015553877    -0.0032530    0.0001653     0.0007032    0.0005436     0.0000876   -0.0001246    -0.5595675    0.7540180 
   0.015653902     0.0000126    0.0016870     0.0003386    0.0000606     0.0001621    0.0000717    -0.5583361    0.7549124 
