! 19-Feb-26 3:28:24 PM
! E:\VNA_MEASUREMENTS\RECBLOCK\RECBLOCKSDR3.S2P
! CHANNEL.1
! TR.MEASUREMENT
! CORRECTED.DATA
# GHZ S RI R 50.0
! FREQ.GHZ         S11RE         S11IM         S21RE         S21IM         S12RE         S12IM         S22RE         S22IM         
!; PortSelection: Port_12
   0.000050000     0.5816387    0.4441033     0.8422436    1.4105130     0.0027750    0.0047061     0.0211351    0.0132439 
   0.000150025     2.4446230    0.2691122   -27.5302700   12.8056100     0.0041496   -0.0002656    -0.0334158    0.0146385 
   0.000250050     1.0003990    0.2151879    -0.8344994    0.8449960     0.0016241    0.0010164    -0.0061270   -0.0020502 
   0.000350075    -0.9641033    0.0134940    -0.0005831   -0.0018128     0.0001198   -0.0000784    -0.0012495   -0.0002395 
   0.000450100    -0.9752564    0.0225593    -0.0010511   -0.0011917    -0.0001740   -0.0000524     0.0008958    0.0000843 
   0.000550125    -0.9653446    0.0320331    -0.0004770   -0.0014079     0.0001186   -0.0000090    -0.0001931    0.0005183 
   0.000650150    -0.9594671    0.0409707    -0.0006950   -0.0024881     0.0000143    0.0000202     0.0007441   -0.0004261 
   0.000750175    -0.9643881    0.0378825    -0.0018712   -0.0011639     0.0001704   -0.0000466    -0.0008691   -0.0002798 
   0.000850200    -0.9658772    0.0505807    -0.0026217   -0.0019485     0.0000615   -0.0000968     0.0002203    0.0008847 
   0.000950225    -0.9669403    0.0493882    -0.0020544   -0.0019067    -0.0000644   -0.0001555     0.0005602    0.0017370 
   0.001050250    -0.9586731    0.0595778    -0.0007659   -0.0008092     0.0001871    0.0000581     0.0003194    0.0002301 
   0.001150275    -0.9535682    0.0681123    -0.0008004   -0.0021798     0.0000923    0.0000853    -0.0000206   -0.0001254 
   0.001250300    -0.9656000    0.0713302    -0.0017587   -0.0019981     0.0001750    0.0001618     0.0011684   -0.0015280 
   0.001350325    -0.9680660    0.0822148    -0.0020607   -0.0004825    -0.0001452   -0.0002034     0.0014052   -0.0006520 
   0.001450350    -0.9601063    0.0855573    -0.0012119   -0.0011971    -0.0000025   -0.0001050    -0.0003617   -0.0000974 
   0.001550375    -0.9614763    0.0971634    -0.0018927   -0.0017221    -0.0001115   -0.0000758    -0.0000446    0.0002860 
   0.001650400    -0.9544962    0.1068362    -0.0010980   -0.0005045     0.0000396    0.0001112     0.0004982    0.0005799 
   0.001750425    -0.9584755    0.0987370    -0.0015776   -0.0009232     0.0000858   -0.0001311     0.0004313    0.0002655 
   0.001850450    -0.9523261    0.1076061    -0.0008242   -0.0007343     0.0000503    0.0000860    -0.0010251    0.0002343 
   0.001950475    -0.9569480    0.1235765    -0.0011930   -0.0012179     0.0001545    0.0001259     0.0005171   -0.0003396 
   0.002050500    -0.9609696    0.1177182    -0.0015357   -0.0008697    -0.0001087    0.0000833    -0.0000372    0.0002707 
   0.002150525    -0.9509540    0.1263459    -0.0022099    0.0002604     0.0002651    0.0000310     0.0009473    0.0009169 
   0.002250550    -0.9504993    0.1243569    -0.0017543   -0.0008658     0.0000449   -0.0002220    -0.0008303   -0.0001422 
   0.002350575    -0.9580384    0.1406173    -0.0021284   -0.0005527     0.0000579    0.0000619    -0.0000447    0.0003456 
   0.002450600    -0.9641979    0.1425704    -0.0008556   -0.0007047     0.0001172   -0.0002703    -0.0001151   -0.0004851 
   0.002550625    -0.9485038    0.1470480    -0.0009549   -0.0001450    -0.0000582   -0.0000334     0.0001059    0.0006162 
   0.002650650    -0.9513723    0.1573047    -0.0010187    0.0001707     0.0001206    0.0002800     0.0003957   -0.0015407 
   0.002750675    -0.9394401    0.1643198    -0.0008393    0.0000834     0.0001457   -0.0000626     0.0006242   -0.0001626 
   0.002850700    -0.9528511    0.1724153    -0.0015434   -0.0000993     0.0002172    0.0001242    -0.0007345   -0.0000565 
   0.002950725    -0.9455578    0.1834924    -0.0007269    0.0001784     0.0001859    0.0001719     0.0005537   -0.0002648 
   0.003050750    -0.9440825    0.1845778    -0.0009486   -0.0003058     0.0000973   -0.0000785    -0.0006522    0.0003794 
   0.003150775    -0.9340193    0.1767950    -0.0010977    0.0002434    -0.0002481    0.0001374    -0.0000931    0.0003191 
   0.003250800    -0.9444330    0.1903612    -0.0005445    0.0014682    -0.0000706   -0.0001625    -0.0000265   -0.0000365 
   0.003350825    -0.9423452    0.2011170    -0.0005731    0.0001993    -0.0000293   -0.0000176    -0.0002719   -0.0003761 
   0.003450850    -0.9448458    0.1996588    -0.0010408    0.0000665    -0.0001187   -0.0001463     0.0003565   -0.0003201 
   0.003550875    -0.9373431    0.1964452    -0.0014284   -0.0002054     0.0000836    0.0000249    -0.0003852   -0.0000368 
   0.003650900    -0.9334975    0.2079654    -0.0005629    0.0001605     0.0000232   -0.0001645     0.0007822    0.0006467 
   0.003750925    -0.9365513    0.2148095    -0.0011076    0.0003423    -0.0000050    0.0000447     0.0002358    0.0002628 
   0.003850950    -0.9348612    0.2232545    -0.0015329    0.0008533    -0.0000774   -0.0002108    -0.0003305   -0.0001998 
   0.003950975    -0.9298223    0.2282915     0.0002341    0.0003174     0.0000764   -0.0000713     0.0000930    0.0001021 
   0.004051001    -0.9307445    0.2376068    -0.0005890    0.0001496    -0.0000017    0.0002216     0.0000708    0.0003461 
   0.004151026    -0.9331063    0.2397986    -0.0006427   -0.0002273     0.0002780   -0.0001684     0.0000997    0.0007433 
   0.004251051    -0.9358426    0.2426863    -0.0007419    0.0001993    -0.0000923   -0.0000142    -0.0001170    0.0002735 
   0.004351076    -0.9277397    0.2540398    -0.0002849    0.0002020    -0.0000512   -0.0001000     0.0000064    0.0006858 
   0.004451101    -0.9264206    0.2505703    -0.0011365   -0.0002056    -0.0002756    0.0000602     0.0005021   -0.0001578 
   0.004551126    -0.9255517    0.2593803    -0.0010433   -0.0008423     0.0000100   -0.0000311    -0.0003528    0.0009752 
   0.004651151    -0.9195170    0.2722818    -0.0005421    0.0004370     0.0001038    0.0000859     0.0007994    0.0001421 
   0.004751176    -0.9278979    0.2814758    -0.0011201   -0.0003493    -0.0001281    0.0002132    -0.0005908    0.0003088 
   0.004851201    -0.9286984    0.2892261    -0.0001920    0.0007796    -0.0000272   -0.0000993     0.0005089    0.0005841 
   0.004951226    -0.9206738    0.2761831     0.0000908   -0.0004366     0.0001841    0.0001939    -0.0008681   -0.0004233 
   0.005051251    -0.9076278    0.2903813    -0.0006921    0.0000454     0.0000788   -0.0000436     0.0007805    0.0003064 
   0.005151276    -0.9091982    0.2979434    -0.0008790    0.0003290    -0.0000539   -0.0000143    -0.0003918    0.0003156 
   0.005251301    -0.9146612    0.2950097    -0.0004840    0.0001812    -0.0001760   -0.0000829     0.0008016    0.0002852 
   0.005351326    -0.9116151    0.3045223    -0.0006723   -0.0002781     0.0000793    0.0001135    -0.0004229    0.0003775 
   0.005451351    -0.9070602    0.3041306    -0.0003963    0.0001635     0.0002680    0.0000677     0.0002362    0.0001993 
   0.005551376    -0.9074518    0.3101355    -0.0002651    0.0004432     0.0001963   -0.0001000     0.0011642    0.0002571 
   0.005651401    -0.9012835    0.3210584     0.0004052   -0.0010574    -0.0000775    0.0000789     0.0005931    0.0005514 
   0.005751426    -0.8945738    0.3291932    -0.0004395    0.0010375    -0.0000647   -0.0003131     0.0000541    0.0007021 
   0.005851451    -0.8920514    0.3271961    -0.0003266   -0.0005412    -0.0000735    0.0002603     0.0001203    0.0001923 
   0.005951476    -0.8904724    0.3413913    -0.0002438   -0.0000164     0.0001578    0.0000729    -0.0004717    0.0000960 
   0.006051501    -0.8964753    0.3323529     0.0001251    0.0002637    -0.0001908    0.0000316    -0.0001786    0.0003640 
   0.006151526    -0.8929786    0.3368153    -0.0009028   -0.0004542     0.0001406   -0.0000517    -0.0004233    0.0003985 
   0.006251551    -0.8914564    0.3585209     0.0000542   -0.0003801    -0.0001832    0.0000116    -0.0003563   -0.0005312 
   0.006351576    -0.8807489    0.3613423     0.0002588    0.0001036     0.0000408   -0.0000419     0.0005363   -0.0003298 
   0.006451601    -0.8897114    0.3611219    -0.0003337   -0.0000014     0.0000197    0.0001776     0.0004586    0.0004481 
   0.006551626    -0.8758235    0.3673012     0.0004195    0.0001825     0.0000311   -0.0001166     0.0010142    0.0004343 
   0.006651651    -0.8784472    0.3688101    -0.0007259    0.0007220    -0.0000976   -0.0001536     0.0002511   -0.0001370 
   0.006751676    -0.8893635    0.3778860     0.0009014    0.0001202     0.0001265    0.0000887     0.0002387    0.0002130 
   0.006851701    -0.8620620    0.3866986    -0.0001743    0.0000205    -0.0000452   -0.0000663     0.0003382   -0.0002411 
   0.006951726    -0.8715817    0.3873932    -0.0000974    0.0000664     0.0001496   -0.0002058     0.0002373    0.0004692 
   0.007051751    -0.8728456    0.3975464    -0.0012754    0.0004436    -0.0000456    0.0003347     0.0003944    0.0000973 
   0.007151776    -0.8679483    0.4061066     0.0002034    0.0006649     0.0000751   -0.0000306     0.0002795    0.0008742 
   0.007251801    -0.8673943    0.3952186     0.0000225   -0.0007031     0.0000057    0.0002550    -0.0000080   -0.0001207 
   0.007351826    -0.8517628    0.4065971    -0.0005319   -0.0000327     0.0000255    0.0002796     0.0004682    0.0006397 
   0.007451851    -0.8626034    0.4141183    -0.0002580    0.0000550    -0.0001451   -0.0000041     0.0005178    0.0001072 
   0.007551876    -0.8528382    0.4261306    -0.0002560   -0.0007084     0.0001331   -0.0000851     0.0003780    0.0000460 
   0.007651901    -0.8587143    0.4267128     0.0006612    0.0007849     0.0000425    0.0000016     0.0000022    0.0006692 
   0.007751926    -0.8453702    0.4263993     0.0007410   -0.0003824    -0.0000893    0.0000062     0.0001329    0.0003527 
   0.007851951    -0.8520373    0.4407696    -0.0002282   -0.0002611    -0.0000073   -0.0001608     0.0005739    0.0000705 
   0.007951976    -0.8428943    0.4360835    -0.0005335    0.0005097     0.0001993    0.0000058     0.0008928    0.0005967 
   0.008052001    -0.8538162    0.4416918    -0.0007491    0.0002988    -0.0000136   -0.0000532     0.0002278    0.0007324 
   0.008152026    -0.8426083    0.4531671     0.0000647    0.0003087    -0.0000544   -0.0000687    -0.0000423   -0.0000511 
   0.008252051    -0.8372638    0.4395855    -0.0006177   -0.0000143     0.0000558    0.0000998     0.0004529    0.0001819 
   0.008352076    -0.8391776    0.4542860    -0.0015389   -0.0001231     0.0001807    0.0000489     0.0000728    0.0008331 
   0.008452101    -0.8345075    0.4573020    -0.0003619    0.0001991     0.0001180   -0.0000813     0.0004070    0.0003044 
   0.008552126    -0.8264232    0.4679271     0.0003018   -0.0003098     0.0002672   -0.0001240     0.0000266   -0.0001286 
   0.008652151    -0.8305550    0.4558138     0.0008774    0.0002409    -0.0001626    0.0002142     0.0003237    0.0003840 
   0.008752176    -0.8208554    0.4768090    -0.0007965    0.0008955     0.0000419    0.0000239     0.0002180    0.0005200 
   0.008852201    -0.8149439    0.4867882     0.0003630    0.0000601     0.0000794    0.0001557     0.0002715   -0.0000701 
   0.008952226    -0.8363346    0.4719467     0.0002248   -0.0001146     0.0000564    0.0002415     0.0007753    0.0002984 
   0.009052251    -0.8108233    0.4934506     0.0002827   -0.0006722    -0.0001805    0.0002402     0.0006753    0.0003141 
   0.009152276    -0.8149743    0.4963050    -0.0002932    0.0013888    -0.0000172   -0.0004807     0.0001377    0.0002019 
   0.009252301    -0.8096761    0.4936941     0.0017628   -0.0012809     0.0000468    0.0000068     0.0002231   -0.0000995 
   0.009352326    -0.8072000    0.5070616    -0.0008543   -0.0002739    -0.0000963   -0.0002059     0.0004388    0.0005444 
   0.009452351    -0.7942321    0.5107127     0.0007396    0.0004131    -0.0002899    0.0000326     0.0007289    0.0007839 
   0.009552376    -0.8021065    0.5139064    -0.0007635    0.0004971    -0.0000221   -0.0001644    -0.0001128    0.0003368 
   0.009652401    -0.8068506    0.5118094    -0.0009143    0.0000340     0.0001148    0.0002085     0.0003023    0.0008534 
   0.009752426    -0.8038045    0.5183134    -0.0005365   -0.0003089     0.0000459   -0.0000376     0.0002660    0.0001825 
   0.009852451    -0.7896320    0.5334806    -0.0011117   -0.0004547    -0.0000469   -0.0001105     0.0002429    0.0006514 
   0.009952476    -0.7892299    0.5312423     0.0002049    0.0011908    -0.0001434   -0.0001293     0.0006265    0.0006877 
   0.010052501    -0.7872913    0.5378301     0.0003122    0.0000488     0.0002323    0.0001018     0.0005460    0.0004185 
   0.010152526    -0.7880817    0.5475628    -0.0000272   -0.0005018    -0.0000587    0.0001523     0.0002982    0.0000462 
   0.010252551    -0.7786019    0.5455211     0.0002200    0.0001321     0.0002403   -0.0001511     0.0001907    0.0001167 
   0.010352576    -0.7787602    0.5475923    -0.0009336   -0.0003362     0.0002502   -0.0004387    -0.0000937    0.0002549 
   0.010452601    -0.7666461    0.5690194     0.0005544    0.0001510    -0.0001885   -0.0000309     0.0003140    0.0005131 
   0.010552626    -0.7595083    0.5534953    -0.0000464    0.0004134     0.0000420   -0.0002363     0.0005893    0.0000513 
   0.010652651    -0.7717296    0.5689483    -0.0007028    0.0004336     0.0000892   -0.0000332     0.0005231    0.0001630 
   0.010752676    -0.7744204    0.5726464     0.0006990    0.0003002     0.0000403    0.0002042     0.0006235    0.0003746 
   0.010852701    -0.7495754    0.5695919     0.0004071   -0.0003534     0.0000949    0.0001706     0.0005662    0.0006121 
   0.010952726    -0.7580048    0.5736014    -0.0001987    0.0005330    -0.0002162   -0.0000371    -0.0004421    0.0003122 
   0.011052751    -0.7590297    0.5696602    -0.0001251   -0.0001548    -0.0000515    0.0001420     0.0000239    0.0005219 
   0.011152776    -0.7392998    0.5867186     0.0002615    0.0005526     0.0000759    0.0002697     0.0006763    0.0004918 
   0.011252801    -0.7394400    0.5929217    -0.0009028    0.0015297    -0.0000176   -0.0000994     0.0004450    0.0007780 
   0.011352826    -0.7358823    0.5931492     0.0004516   -0.0003826     0.0002678   -0.0001112    -0.0002204    0.0006649 
   0.011452851    -0.7351744    0.6087820    -0.0006486   -0.0009542     0.0000472    0.0002108     0.0007227    0.0004128 
   0.011552876    -0.7313494    0.6063150    -0.0000948    0.0002055    -0.0001010    0.0000089    -0.0001978    0.0005889 
   0.011652901    -0.7314502    0.5992503     0.0004887   -0.0002052     0.0000783   -0.0000549     0.0004849   -0.0002626 
   0.011752926    -0.7342216    0.6163368    -0.0007303    0.0009381    -0.0001751   -0.0000633     0.0005712    0.0005563 
   0.011852951    -0.7259678    0.6101180     0.0003234    0.0002902     0.0000294   -0.0001049     0.0002741    0.0002029 
   0.011952976    -0.7158057    0.6211616    -0.0000849    0.0004090     0.0000392   -0.0002298     0.0002470    0.0003415 
   0.012053002    -0.7109298    0.6347221     0.0000674    0.0000674     0.0000985    0.0000054     0.0005248    0.0003036 
   0.012153027    -0.7153522    0.6230353     0.0008847   -0.0008373    -0.0001972    0.0001888    -0.0000016    0.0006001 
   0.012253052    -0.7153017    0.6275573     0.0010533    0.0007644     0.0003252   -0.0000728     0.0006440    0.0007665 
   0.012353077    -0.7016479    0.6335246    -0.0009367   -0.0002956     0.0002559    0.0002105     0.0003092    0.0004653 
   0.012453102    -0.6934798    0.6386581     0.0001155    0.0010814     0.0000374   -0.0000534     0.0000614    0.0006061 
   0.012553127    -0.6878231    0.6273596     0.0010310   -0.0004005    -0.0000408   -0.0001335    -0.0001104    0.0004357 
   0.012653152    -0.6795819    0.6400886     0.0010212    0.0000588    -0.0000590    0.0002789     0.0005184    0.0004948 
   0.012753177    -0.6809955    0.6561429    -0.0002889   -0.0005066    -0.0004059    0.0000896     0.0007365    0.0005649 
   0.012853202    -0.6904382    0.6489077     0.0005231    0.0005647     0.0000520   -0.0002738     0.0006773    0.0001593 
   0.012953227    -0.6694422    0.6666161    -0.0009504    0.0009230    -0.0001345   -0.0001631     0.0004898    0.0002221 
   0.013053252    -0.6642234    0.6664432    -0.0005642    0.0000776     0.0001387    0.0000492     0.0006451    0.0001101 
   0.013153277    -0.6651721    0.6642627    -0.0007819   -0.0012691     0.0000919   -0.0000510     0.0003524    0.0002074 
   0.013253302    -0.6521487    0.6641186    -0.0002273   -0.0001496    -0.0002252    0.0004844     0.0003921    0.0004125 
   0.013353327    -0.6544500    0.6859819     0.0008382   -0.0001565    -0.0000324    0.0000341     0.0005859    0.0008035 
   0.013453352    -0.6654561    0.6756610     0.0001288    0.0006244     0.0000245   -0.0000027     0.0003064    0.0004903 
   0.013553377    -0.6396861    0.6839347    -0.0003985   -0.0003703    -0.0000371    0.0000839     0.0007366    0.0008071 
   0.013653402    -0.6505169    0.6839945    -0.0008120   -0.0003893    -0.0002307   -0.0001692     0.0001616    0.0006591 
   0.013753427    -0.6394705    0.6952017     0.0001031   -0.0010874     0.0000416   -0.0002120    -0.0001297    0.0002206 
   0.013853452    -0.6277266    0.6807964    -0.0003073   -0.0006435    -0.0000741    0.0000481     0.0001881    0.0005728 
   0.013953477    -0.6309123    0.6987531     0.0000253    0.0011633    -0.0000345   -0.0000564    -0.0000073    0.0002889 
   0.014053502    -0.6265072    0.7021558     0.0008232    0.0003672     0.0002335   -0.0002679     0.0007304    0.0003360 
   0.014153527    -0.6268691    0.7017480     0.0011383    0.0002688    -0.0001613    0.0001141    -0.0000683    0.0005459 
   0.014253552    -0.6197444    0.7092735     0.0000191   -0.0002778     0.0003665    0.0001791     0.0006174    0.0004872 
   0.014353577    -0.6293026    0.7107517     0.0002645   -0.0001130    -0.0002164    0.0004306     0.0001752    0.0001088 
   0.014453602    -0.6043265    0.7131140    -0.0005725    0.0004723    -0.0002292    0.0003236    -0.0000088    0.0007325 
   0.014553627    -0.6107745    0.7186404     0.0006060   -0.0007857    -0.0001173    0.0002451     0.0000302    0.0003673 
   0.014653652    -0.5883632    0.7256964    -0.0005075   -0.0007983    -0.0001817    0.0002034     0.0002824    0.0008650 
   0.014753677    -0.6021727    0.7357922     0.0016839    0.0001461     0.0000469   -0.0000077     0.0004247    0.0005319 
   0.014853702    -0.5989968    0.7249475    -0.0003201    0.0000859    -0.0001767    0.0002247    -0.0001124    0.0006347 
   0.014953727    -0.5864736    0.7288274     0.0004039   -0.0006483    -0.0001167   -0.0001455     0.0002000    0.0009106 
   0.015053752    -0.5845890    0.7458023     0.0012094    0.0008220    -0.0000437    0.0001647    -0.0001444    0.0008727 
   0.015153777    -0.5877291    0.7226532     0.0006729   -0.0007820     0.0002831    0.0000111     0.0002311    0.0001468 
   0.015253802    -0.5785759    0.7463397    -0.0001120   -0.0005022    -0.0000437   -0.0004273     0.0004715    0.0001486 
   0.015353827    -0.5685401    0.7461744     0.0005087   -0.0004428     0.0001819    0.0002586     0.0001051    0.0004593 
   0.015453852    -0.5834635    0.7516343    -0.0010051    0.0001073     0.0001171   -0.0001912     0.0000092    0.0004514 
   0.015553877    -0.5675289    0.7396680     0.0004761    0.0008305    -0.0000468   -0.0001155     0.0002817    0.0007661 
   0.015653902    -0.5416180    0.7580612    -0.0002495    0.0000282     0.0000621    0.0001062    -0.0000745    0.0006887 
