! 19-Feb-26 2:13:26 PM
! E:\VNA_MEASUREMENTS\RECBLOCK\RECBLOCKSDRREV1.S2P
! CHANNEL.1
! TR.MEASUREMENT
! CORRECTED.DATA
# GHZ S RI R 50.0
! FREQ.GHZ         S11RE         S11IM         S21RE         S21IM         S12RE         S12IM         S22RE         S22IM         
!; PortSelection: Port_12
   0.000050000     0.0852882    0.6253827    -0.7073486   -0.9157340     0.0058276   -0.0014010    -0.9649854   -0.0231423 
   0.000150025     0.0742716    0.1804667    -0.0397752   -0.0806224     0.0000542    0.0002975    -0.9574986    0.0157584 
   0.000250050     0.7637833   -0.1684927    -0.1238209   -1.0944250    -0.0016363    0.0008397    -0.9728778    0.0152660 
   0.000350075    -0.0018317   -0.0008347    -0.0033517   -0.0045031     0.0003202   -0.0010207    -0.9686123    0.0217762 
   0.000450100    -0.0004672   -0.0041025     0.0009114   -0.0061455     0.0003641    0.0000977    -0.9744954    0.0308736 
   0.000550125     0.0016624    0.0033035    -0.0039791   -0.0045768     0.0003130   -0.0002469    -0.9619042    0.0354059 
   0.000650150    -0.0018961    0.0027798    -0.0027366   -0.0042874     0.0005631   -0.0001904    -0.9636137    0.0472849 
   0.000750175    -0.0038078    0.0031193     0.0006797   -0.0027384    -0.0003946    0.0006564    -0.9633490    0.0414589 
   0.000850200     0.0028273    0.0020140    -0.0028976   -0.0059710    -0.0002218    0.0003595    -0.9620212    0.0524529 
   0.000950225    -0.0005057    0.0023046    -0.0052850   -0.0023722     0.0005008   -0.0005540    -0.9684192    0.0578854 
   0.001050250     0.0001991   -0.0028436    -0.0048562   -0.0031967    -0.0001160   -0.0006188    -0.9599886    0.0644958 
   0.001150275     0.0086816    0.0053701    -0.0052900   -0.0010201    -0.0001274    0.0004263    -0.9595073    0.0643480 
   0.001250300     0.0004064    0.0022855    -0.0053558   -0.0040508     0.0003611    0.0001682    -0.9611717    0.0743760 
   0.001350325    -0.0039054   -0.0011987    -0.0068105   -0.0028198    -0.0001094    0.0000988    -0.9606211    0.0782142 
   0.001450350    -0.0008206    0.0007722    -0.0035751   -0.0021841     0.0000371   -0.0003069    -0.9664375    0.0881277 
   0.001550375    -0.0014547   -0.0003466    -0.0043857   -0.0003885    -0.0001158    0.0001193    -0.9606891    0.0877094 
   0.001650400    -0.0006266   -0.0021593    -0.0040682    0.0016713     0.0003220   -0.0000870    -0.9597599    0.0985420 
   0.001750425     0.0018013    0.0007753    -0.0044890   -0.0000108    -0.0001898    0.0003404    -0.9637210    0.1044016 
   0.001850450     0.0017784   -0.0011274    -0.0066735    0.0015668     0.0001885   -0.0002819    -0.9632615    0.1049466 
   0.001950475    -0.0025814    0.0046437    -0.0042141    0.0000096     0.0002288   -0.0003756    -0.9598773    0.1180069 
   0.002050500    -0.0069199    0.0007828    -0.0029349    0.0009858    -0.0001396   -0.0002423    -0.9609920    0.1231405 
   0.002150525    -0.0013657    0.0011912    -0.0022325   -0.0011251     0.0000764   -0.0002813    -0.9590984    0.1284777 
   0.002250550     0.0000828    0.0012868    -0.0046739    0.0016017    -0.0001227    0.0005812    -0.9594359    0.1330956 
   0.002350575    -0.0030311    0.0000956    -0.0039817    0.0022144     0.0000785    0.0001292    -0.9537190    0.1347831 
   0.002450600     0.0033900   -0.0010013    -0.0016209    0.0001377     0.0000866   -0.0004025    -0.9508417    0.1438134 
   0.002550625     0.0016699   -0.0017271    -0.0022127    0.0019171    -0.0000890    0.0002483    -0.9544638    0.1459063 
   0.002650650    -0.0020765   -0.0024275    -0.0001330    0.0016712    -0.0001792   -0.0000940    -0.9459459    0.1485015 
   0.002750675     0.0016902   -0.0027567    -0.0010451    0.0027743    -0.0005037   -0.0006010    -0.9496902    0.1579702 
   0.002850700     0.0017172   -0.0028484    -0.0036393    0.0012031    -0.0000602    0.0001394    -0.9498729    0.1687852 
   0.002950725     0.0000138   -0.0026789    -0.0037167    0.0023885     0.0002121    0.0000750    -0.9494942    0.1651321 
   0.003050750     0.0010904    0.0006999    -0.0018129   -0.0012446    -0.0000525   -0.0005108    -0.9429946    0.1769329 
   0.003150775     0.0025660   -0.0020190    -0.0019367    0.0012787    -0.0002458   -0.0000921    -0.9412927    0.1808240 
   0.003250800     0.0008840   -0.0009997     0.0003170    0.0007059    -0.0000507    0.0002649    -0.9458501    0.1845782 
   0.003350825    -0.0013729   -0.0018843    -0.0008396    0.0020422    -0.0000236    0.0000911    -0.9395720    0.1865727 
   0.003450850     0.0005125    0.0021858     0.0008521    0.0021722     0.0001771    0.0004651    -0.9433056    0.1969714 
   0.003550875    -0.0021643    0.0000782    -0.0016167   -0.0001044     0.0001064    0.0001805    -0.9480876    0.2028522 
   0.003650900    -0.0016011   -0.0017925    -0.0024060    0.0017843     0.0000205    0.0001315    -0.9428614    0.2104254 
   0.003750925     0.0008382    0.0023542    -0.0005836    0.0014669    -0.0000761    0.0003671    -0.9366176    0.2136540 
   0.003850950     0.0024588   -0.0001019    -0.0012193    0.0029893    -0.0003675   -0.0000487    -0.9370443    0.2185489 
   0.003950975    -0.0015028   -0.0015766     0.0007600    0.0017325     0.0003184   -0.0001735    -0.9353263    0.2214371 
   0.004051001     0.0010070   -0.0001645    -0.0001525    0.0016747     0.0001127    0.0001516    -0.9344673    0.2305966 
   0.004151026    -0.0006140    0.0012837    -0.0014939    0.0025376    -0.0000153   -0.0001005    -0.9253899    0.2390406 
   0.004251051     0.0018788    0.0007310    -0.0001496    0.0003865     0.0001627   -0.0003265    -0.9325011    0.2371773 
   0.004351076    -0.0015655   -0.0012513    -0.0002465    0.0006055     0.0000366    0.0003380    -0.9244273    0.2497310 
   0.004451101     0.0038129    0.0004835    -0.0004497    0.0017161    -0.0001234   -0.0003752    -0.9230992    0.2481091 
   0.004551126     0.0005350    0.0004267    -0.0006931   -0.0011027    -0.0001356    0.0000832    -0.9159318    0.2597863 
   0.004651151     0.0006217    0.0005046    -0.0003853   -0.0001227     0.0001946   -0.0003948    -0.9253264    0.2649591 
   0.004751176    -0.0005507   -0.0001759    -0.0002810    0.0002259    -0.0001363    0.0002363    -0.9203047    0.2685909 
   0.004851201     0.0007424    0.0005526    -0.0006021    0.0019160     0.0001118   -0.0000115    -0.9194826    0.2736536 
   0.004951226    -0.0020122   -0.0012607     0.0006533    0.0005335     0.0001256   -0.0000557    -0.9172656    0.2807846 
   0.005051251    -0.0013160   -0.0015236     0.0001243   -0.0001498    -0.0001617   -0.0001577    -0.9182175    0.2843676 
   0.005151276    -0.0002027   -0.0020156    -0.0001833    0.0005665    -0.0000507    0.0002292    -0.9115881    0.2900535 
   0.005251301     0.0017726   -0.0011309    -0.0000682    0.0010373    -0.0000696   -0.0001360    -0.9126620    0.2978390 
   0.005351326     0.0016138   -0.0009424    -0.0009378   -0.0010522     0.0000642   -0.0000052    -0.9110717    0.3043207 
   0.005451351     0.0014203   -0.0012586     0.0000540    0.0005760    -0.0001183   -0.0001498    -0.9033191    0.3031020 
   0.005551376    -0.0019789   -0.0000306    -0.0002993    0.0001479     0.0001055    0.0000153    -0.8977869    0.3123285 
   0.005651401     0.0010880   -0.0003337    -0.0011701    0.0000468    -0.0005252    0.0000499    -0.9021021    0.3167884 
   0.005751426    -0.0000066    0.0019248    -0.0006651    0.0010234    -0.0000832    0.0002735    -0.8979682    0.3204100 
   0.005851451     0.0017632   -0.0012378     0.0005399    0.0008978     0.0003569   -0.0000952    -0.8951561    0.3235555 
   0.005951476     0.0004222    0.0013491    -0.0007034   -0.0013651     0.0001005   -0.0002221    -0.8960309    0.3312229 
   0.006051501    -0.0007480   -0.0014394    -0.0007107    0.0006504    -0.0000351    0.0001589    -0.8956441    0.3431900 
   0.006151526     0.0004618    0.0001018    -0.0012930   -0.0008292     0.0002167    0.0000048    -0.8928550    0.3455915 
   0.006251551     0.0004883   -0.0015715     0.0010383    0.0007314    -0.0001166   -0.0000798    -0.8874326    0.3467305 
   0.006351576    -0.0000755   -0.0002536     0.0004260   -0.0002950     0.0000035   -0.0002087    -0.8885616    0.3519011 
   0.006451601     0.0005645    0.0018005    -0.0002530   -0.0002036    -0.0001119   -0.0000670    -0.8841509    0.3588781 
   0.006551626    -0.0004761   -0.0011456     0.0002195   -0.0005511     0.0002662    0.0000899    -0.8863084    0.3662336 
   0.006651651     0.0006306    0.0007925    -0.0010243    0.0002899    -0.0000728    0.0000191    -0.8775827    0.3677520 
   0.006751676     0.0008219    0.0018222    -0.0002189    0.0009053     0.0000933    0.0001059    -0.8815652    0.3749867 
   0.006851701    -0.0007574   -0.0007564     0.0002755   -0.0000772    -0.0000333    0.0002046    -0.8775097    0.3805799 
   0.006951726    -0.0003330    0.0005154    -0.0000891    0.0004090     0.0002028    0.0002700    -0.8755215    0.3887329 
   0.007051751    -0.0006907    0.0012925     0.0003639   -0.0005338     0.0000389   -0.0000334    -0.8719621    0.3890718 
   0.007151776     0.0013966    0.0010608    -0.0009341   -0.0005962    -0.0000525    0.0000116    -0.8687491    0.3948456 
   0.007251801     0.0002986   -0.0001867     0.0002435    0.0005357    -0.0001812   -0.0002651    -0.8667108    0.3984560 
   0.007351826    -0.0004878    0.0011844     0.0001028    0.0003905    -0.0000652   -0.0001910    -0.8633409    0.4047275 
   0.007451851    -0.0007276   -0.0004057     0.0001422   -0.0009753    -0.0001499    0.0000664    -0.8626722    0.4103299 
   0.007551876    -0.0011389   -0.0000098     0.0010112   -0.0002988    -0.0000085    0.0001531    -0.8604128    0.4162613 
   0.007651901    -0.0018849    0.0010142    -0.0006689    0.0010326     0.0000168    0.0001641    -0.8576311    0.4224892 
   0.007751926    -0.0005219   -0.0016777    -0.0009406    0.0001032     0.0000652   -0.0000381    -0.8544453    0.4217215 
   0.007851951    -0.0003841    0.0002668    -0.0000453    0.0009421    -0.0001418    0.0000785    -0.8494249    0.4267561 
   0.007951976    -0.0005694   -0.0015909     0.0004845    0.0006604    -0.0001751   -0.0001805    -0.8500861    0.4350497 
   0.008052001    -0.0001541    0.0010779     0.0009924   -0.0002158     0.0002058    0.0002180    -0.8447261    0.4377136 
   0.008152026    -0.0014596   -0.0025839    -0.0013614    0.0009879    -0.0000317   -0.0001624    -0.8432009    0.4460138 
   0.008252051     0.0014305   -0.0007700    -0.0011399   -0.0001422    -0.0001321    0.0000888    -0.8401066    0.4478954 
   0.008352076    -0.0006235   -0.0003660    -0.0000468   -0.0005218     0.0001049    0.0002592    -0.8399581    0.4564443 
   0.008452101    -0.0007156    0.0016475    -0.0004687    0.0002084     0.0001323    0.0000351    -0.8332521    0.4548543 
   0.008552126    -0.0004703    0.0000556    -0.0006567   -0.0002766    -0.0000021   -0.0001864    -0.8330872    0.4601961 
   0.008652151    -0.0018196    0.0006136    -0.0002394    0.0001487     0.0000796   -0.0001169    -0.8264359    0.4709631 
   0.008752176     0.0003583    0.0011346    -0.0000567    0.0007253     0.0000290   -0.0000213    -0.8253592    0.4724513 
   0.008852201     0.0003162    0.0015590    -0.0000788    0.0003129    -0.0000435   -0.0001526    -0.8280390    0.4803533 
   0.008952226     0.0005851    0.0002364    -0.0003100    0.0003249    -0.0000562   -0.0001001    -0.8200029    0.4836958 
   0.009052251     0.0001114   -0.0017333     0.0006298   -0.0003484     0.0001778    0.0000290    -0.8157512    0.4911350 
   0.009152276     0.0006800    0.0008969    -0.0002034   -0.0000632    -0.0000631    0.0000470    -0.8166777    0.4922407 
   0.009252301     0.0008320    0.0003392    -0.0007225   -0.0000334     0.0000136   -0.0001872    -0.8132378    0.4969717 
   0.009352326     0.0000667    0.0004531     0.0005413    0.0005965     0.0000583    0.0000086    -0.8094617    0.4998507 
   0.009452351    -0.0000966   -0.0007371    -0.0002340   -0.0002333     0.0000599   -0.0002464    -0.8046994    0.5094517 
   0.009552376    -0.0005970    0.0000677     0.0002429    0.0002666     0.0000059   -0.0002110    -0.7990525    0.5108747 
   0.009652401    -0.0006717    0.0007674    -0.0000705   -0.0003996    -0.0000813    0.0000915    -0.8010064    0.5156351 
   0.009752426     0.0009408    0.0003222    -0.0004399    0.0004502     0.0001662   -0.0000557    -0.7956426    0.5177601 
   0.009852451     0.0004383    0.0016431    -0.0006285    0.0000324     0.0002322   -0.0001891    -0.7927545    0.5266618 
   0.009952476    -0.0018675    0.0014525    -0.0000824    0.0001637    -0.0001945    0.0002668    -0.7881969    0.5326173 
   0.010052501     0.0009725    0.0007871    -0.0009278    0.0003112     0.0000251    0.0002525    -0.7880764    0.5340521 
   0.010152526     0.0003272    0.0003717    -0.0007154   -0.0005161    -0.0001777   -0.0002023    -0.7830114    0.5400870 
   0.010252551     0.0000276    0.0007329    -0.0003231   -0.0009194     0.0000049   -0.0003668    -0.7779805    0.5439195 
   0.010352576     0.0010495    0.0010836     0.0005410    0.0002889    -0.0000517   -0.0003217    -0.7742258    0.5487954 
   0.010452601     0.0015798   -0.0011186    -0.0006985   -0.0009711    -0.0002688   -0.0002344    -0.7733608    0.5517811 
   0.010552626     0.0023071   -0.0001448     0.0000210   -0.0002078    -0.0002020    0.0002158    -0.7698243    0.5585219 
   0.010652651    -0.0000949   -0.0006201     0.0005039    0.0004961     0.0002033   -0.0002013    -0.7666553    0.5617449 
   0.010752676     0.0004992   -0.0012844     0.0003142   -0.0004682    -0.0000247   -0.0002510    -0.7607316    0.5640413 
   0.010852701     0.0006640   -0.0009159     0.0001022   -0.0000659    -0.0000052    0.0001281    -0.7583547    0.5686108 
   0.010952726     0.0003810    0.0008524    -0.0000437    0.0001023     0.0000929    0.0000538    -0.7509567    0.5767023 
   0.011052751     0.0013754    0.0001946    -0.0004402    0.0001805    -0.0001962   -0.0001956    -0.7501181    0.5792201 
   0.011152776     0.0004935    0.0005510    -0.0000134   -0.0004946    -0.0003529   -0.0001755    -0.7466686    0.5835584 
   0.011252801    -0.0008647   -0.0001124    -0.0001976    0.0008740     0.0001215    0.0002264    -0.7440295    0.5912327 
   0.011352826    -0.0012071   -0.0007036     0.0005198    0.0003388     0.0001840   -0.0001487    -0.7425471    0.5925077 
   0.011452851    -0.0022805   -0.0002035    -0.0004720    0.0004682     0.0000328   -0.0002142    -0.7333950    0.5971156 
   0.011552876    -0.0005219    0.0007621     0.0005319   -0.0001079    -0.0000602    0.0001119    -0.7304124    0.6024039 
   0.011652901     0.0007134   -0.0006300    -0.0002252   -0.0006197     0.0000022    0.0000955    -0.7227691    0.6064589 
   0.011752926    -0.0010964    0.0019225     0.0005277   -0.0003068    -0.0000902   -0.0002802    -0.7281572    0.6063375 
   0.011852951     0.0003431    0.0005085    -0.0003181    0.0005323     0.0000980   -0.0000091    -0.7178512    0.6135109 
   0.011952976    -0.0007329   -0.0008480    -0.0004638   -0.0000684     0.0001491    0.0000719    -0.7141302    0.6144172 
   0.012053002    -0.0003117    0.0000207     0.0005218   -0.0003996     0.0002321    0.0000647    -0.7127834    0.6216748 
   0.012153027     0.0001182    0.0010920    -0.0000562    0.0003110     0.0001102   -0.0000220    -0.7134040    0.6258104 
   0.012253052    -0.0001044    0.0004793    -0.0004360   -0.0000226    -0.0000587    0.0000737    -0.7063393    0.6327088 
   0.012353077    -0.0006915   -0.0015337    -0.0001957   -0.0001995     0.0000723    0.0003349    -0.6972588    0.6316204 
   0.012453102     0.0000861   -0.0008502     0.0005711   -0.0005722     0.0000128   -0.0000891    -0.6962101    0.6406232 
   0.012553127     0.0000772    0.0004966    -0.0002806    0.0005535    -0.0001907   -0.0001550    -0.6925371    0.6451344 
   0.012653152    -0.0003153    0.0012116    -0.0001969    0.0004508     0.0002039    0.0002192    -0.6892292    0.6461368 
   0.012753177    -0.0002807    0.0010177     0.0000319    0.0004798    -0.0002098   -0.0000695    -0.6851264    0.6499144 
   0.012853202    -0.0004781   -0.0008471     0.0003837    0.0001392     0.0000582   -0.0000538    -0.6840693    0.6561666 
   0.012953227    -0.0003904   -0.0008766    -0.0006659    0.0005584     0.0000410    0.0003431    -0.6759694    0.6614202 
   0.013053252     0.0005079    0.0006558    -0.0001107   -0.0004195    -0.0002024    0.0001398    -0.6741661    0.6657580 
   0.013153277    -0.0007617   -0.0014209    -0.0005581   -0.0000517    -0.0001508   -0.0000766    -0.6682666    0.6654201 
   0.013253302    -0.0004544    0.0014374     0.0006655   -0.0009276     0.0000861   -0.0000380    -0.6648935    0.6693452 
   0.013353327    -0.0008121    0.0002034    -0.0001986    0.0000869     0.0000772    0.0001384    -0.6581533    0.6746589 
   0.013453352    -0.0019293    0.0004353    -0.0001279   -0.0010585     0.0001770    0.0000085    -0.6528771    0.6776795 
   0.013553377     0.0003805    0.0006538    -0.0006333   -0.0012115     0.0000101   -0.0000222    -0.6510159    0.6831321 
   0.013653402    -0.0003335   -0.0010693     0.0005852   -0.0006393    -0.0000187   -0.0001268    -0.6459383    0.6879189 
   0.013753427    -0.0005890    0.0009633    -0.0006067    0.0000215    -0.0001877   -0.0000289    -0.6436498    0.6887830 
   0.013853452     0.0003567   -0.0006955    -0.0002286   -0.0001945     0.0001419   -0.0001009    -0.6386393    0.6913503 
   0.013953477    -0.0005917    0.0005829    -0.0003042   -0.0001437    -0.0002842    0.0002287    -0.6381659    0.6968639 
   0.014053502    -0.0009514   -0.0016601     0.0004846    0.0000579    -0.0001615    0.0003111    -0.6320195    0.7048565 
   0.014153527    -0.0006967    0.0002642     0.0004497   -0.0004331     0.0001033   -0.0001666    -0.6274047    0.7067012 
   0.014253552    -0.0005665   -0.0009102     0.0003691   -0.0006282     0.0000888    0.0001460    -0.6231142    0.7081450 
   0.014353577    -0.0003653   -0.0005660    -0.0004345    0.0000935     0.0001008    0.0001471    -0.6177399    0.7125133 
   0.014453602    -0.0000212    0.0000711     0.0013117   -0.0004414     0.0002153    0.0000974    -0.6150994    0.7143638 
   0.014553627    -0.0004859   -0.0001810    -0.0006225    0.0002658    -0.0000160    0.0000502    -0.6098313    0.7239587 
   0.014653652    -0.0004559    0.0011275     0.0003573   -0.0002994    -0.0001674    0.0000126    -0.6028014    0.7227799 
   0.014753677    -0.0002329    0.0014102    -0.0003067   -0.0000668     0.0003446    0.0000448    -0.5992656    0.7318308 
   0.014853702    -0.0013260    0.0001627     0.0000288   -0.0002479     0.0000589   -0.0002567    -0.5939490    0.7295883 
   0.014953727    -0.0000648    0.0007029     0.0001867    0.0003497    -0.0002580    0.0003129    -0.5900593    0.7311001 
   0.015053752    -0.0008691    0.0003446    -0.0002976    0.0001178    -0.0001089    0.0001766    -0.5867414    0.7413498 
   0.015153777    -0.0004148   -0.0003374     0.0003605    0.0002316     0.0000882    0.0000252    -0.5813177    0.7413980 
   0.015253802     0.0000523    0.0016135    -0.0000184    0.0000845     0.0003174   -0.0000802    -0.5786225    0.7458655 
   0.015353827     0.0001023   -0.0000359     0.0001483   -0.0001739    -0.0000961   -0.0000409    -0.5724437    0.7472108 
   0.015453852    -0.0010253    0.0002245    -0.0000249   -0.0000572    -0.0000531   -0.0002147    -0.5683867    0.7524183 
   0.015553877    -0.0021265    0.0001218     0.0002531   -0.0007305     0.0000123    0.0000173    -0.5602205    0.7538181 
   0.015653902     0.0003339    0.0013281    -0.0003420   -0.0000084    -0.0000861   -0.0001364    -0.5565760    0.7576120 
