! 19-Feb-26 3:26:35 PM
! E:\VNA_MEASUREMENTS\RECBLOCK\RECBLOCKSDR2.S2P
! CHANNEL.1
! TR.MEASUREMENT
! CORRECTED.DATA
# GHZ S RI R 50.0
! FREQ.GHZ         S11RE         S11IM         S21RE         S21IM         S12RE         S12IM         S22RE         S22IM         
!; PortSelection: Port_12
   0.000050000    -0.3754956    1.1949180    -3.1545600   -0.1538769    -0.0001454   -0.0000238     0.0263853    0.0076334 
   0.000150025    -0.5587030    0.8943989     0.7526033    0.4373844    -0.0004242    0.0002957     0.0023447   -0.0005214 
   0.000250050     0.8516780    0.4098548     2.0997980    1.5652380     0.0013240   -0.0009718    -0.0001718   -0.0010985 
   0.000350075    -0.9531560    0.0179133    -0.0000722   -0.0008073     0.0001025    0.0001185     0.0007602   -0.0017093 
   0.000450100    -0.9662338    0.0319484    -0.0009019   -0.0009778    -0.0001283    0.0002936    -0.0011622    0.0010729 
   0.000550125    -0.9570910    0.0387985    -0.0005342   -0.0014871    -0.0000530   -0.0000380     0.0005802    0.0001180 
   0.000650150    -0.9628133    0.0445588    -0.0006403   -0.0021229     0.0000394   -0.0001154     0.0018311   -0.0009170 
   0.000750175    -0.9641103    0.0360140    -0.0013920   -0.0019560    -0.0000407    0.0002438    -0.0006269   -0.0007747 
   0.000850200    -0.9657071    0.0389791    -0.0016562   -0.0017769     0.0000630   -0.0001038     0.0000036    0.0006707 
   0.000950225    -0.9662462    0.0610665    -0.0008641   -0.0018266     0.0000236    0.0000499    -0.0001873    0.0010763 
   0.001050250    -0.9626098    0.0578356    -0.0009887   -0.0015349    -0.0000625    0.0000166     0.0000643    0.0001710 
   0.001150275    -0.9541997    0.0781489    -0.0021408   -0.0018488     0.0001226    0.0001310     0.0005099   -0.0005962 
   0.001250300    -0.9730139    0.0677859    -0.0011601   -0.0011759     0.0000869    0.0000262     0.0005617   -0.0012459 
   0.001350325    -0.9681288    0.0826027    -0.0020699   -0.0014087    -0.0000644    0.0000595     0.0020682   -0.0003909 
   0.001450350    -0.9544995    0.0827387    -0.0011670   -0.0011091    -0.0000564   -0.0001171     0.0000094    0.0004820 
   0.001550375    -0.9590598    0.1004570    -0.0023874   -0.0007140    -0.0000700   -0.0000995     0.0002014    0.0003808 
   0.001650400    -0.9606169    0.1051413    -0.0010346   -0.0005776     0.0001190    0.0000119     0.0008985    0.0009669 
   0.001750425    -0.9677234    0.0999252    -0.0009908   -0.0005053     0.0000915    0.0002044     0.0002792   -0.0003740 
   0.001850450    -0.9586644    0.1037592    -0.0009280   -0.0008089     0.0001417    0.0000178    -0.0004483    0.0012392 
   0.001950475    -0.9613892    0.1152961    -0.0013581   -0.0007017     0.0000058    0.0001016     0.0007111    0.0004478 
   0.002050500    -0.9605983    0.1176269    -0.0017589   -0.0004503    -0.0000309    0.0000335     0.0009031    0.0001170 
   0.002150525    -0.9485201    0.1222883    -0.0018917    0.0000241    -0.0001318    0.0001278     0.0013114    0.0000290 
   0.002250550    -0.9597533    0.1232935    -0.0008447   -0.0002681    -0.0000935    0.0000199    -0.0011761   -0.0004100 
   0.002350575    -0.9586831    0.1384122    -0.0018553    0.0000302    -0.0000409   -0.0000194     0.0012039    0.0000424 
   0.002450600    -0.9619408    0.1406875    -0.0015109    0.0001636    -0.0000231    0.0000100    -0.0006778   -0.0002989 
   0.002550625    -0.9523638    0.1443295    -0.0019695   -0.0004724    -0.0001844   -0.0001300     0.0008486    0.0009612 
   0.002650650    -0.9521104    0.1645869    -0.0016243   -0.0000768     0.0000360   -0.0001155     0.0012015   -0.0001872 
   0.002750675    -0.9446002    0.1555672    -0.0001611    0.0005777     0.0001191    0.0001896     0.0016322   -0.0004025 
   0.002850700    -0.9470119    0.1670200    -0.0001459    0.0004434    -0.0000739   -0.0000493     0.0003272    0.0008935 
   0.002950725    -0.9364731    0.1818872    -0.0017708   -0.0003298     0.0000817   -0.0002028     0.0007730    0.0003437 
   0.003050750    -0.9470906    0.1827700    -0.0014445    0.0006684    -0.0001279   -0.0001128     0.0002655    0.0012699 
   0.003150775    -0.9422948    0.1809483    -0.0008580   -0.0000163    -0.0001757   -0.0000930     0.0003706    0.0003640 
   0.003250800    -0.9388575    0.1932920    -0.0010840    0.0002849    -0.0000393    0.0000828     0.0002277    0.0004654 
   0.003350825    -0.9384531    0.2010100    -0.0001162    0.0006352    -0.0002044    0.0000474     0.0002399    0.0005801 
   0.003450850    -0.9377537    0.2031707    -0.0012185    0.0001712     0.0000477    0.0001446     0.0003849    0.0008425 
   0.003550875    -0.9331688    0.1950471    -0.0003913   -0.0000988    -0.0000453    0.0000088     0.0000287    0.0001898 
   0.003650900    -0.9339401    0.2144388    -0.0009969    0.0005712    -0.0000410   -0.0000127     0.0007827    0.0005236 
   0.003750925    -0.9472667    0.2126038    -0.0000618    0.0005324    -0.0000855   -0.0001449     0.0002256    0.0004268 
   0.003850950    -0.9345306    0.2244533    -0.0005547    0.0013475     0.0001623   -0.0001036    -0.0003317   -0.0008270 
   0.003950975    -0.9352133    0.2259735    -0.0007695    0.0006025     0.0000009   -0.0000008     0.0001621    0.0001072 
   0.004051001    -0.9300318    0.2353534    -0.0006365    0.0009954    -0.0000417    0.0001512     0.0001752    0.0011385 
   0.004151026    -0.9306556    0.2424629    -0.0004241    0.0002787    -0.0000419   -0.0000103     0.0002956    0.0007763 
   0.004251051    -0.9356229    0.2429071    -0.0009785    0.0002094    -0.0000832   -0.0000601    -0.0001685    0.0006216 
   0.004351076    -0.9307246    0.2468181     0.0003869    0.0005733     0.0000798   -0.0000608    -0.0003283    0.0010195 
   0.004451101    -0.9251031    0.2616988    -0.0008262   -0.0001194     0.0000462   -0.0001892     0.0009237   -0.0002575 
   0.004551126    -0.9225522    0.2625386     0.0000277   -0.0003335    -0.0001061   -0.0002411     0.0001041    0.0005552 
   0.004651151    -0.9268207    0.2670739    -0.0012328    0.0008810    -0.0001506    0.0000894     0.0000487   -0.0001938 
   0.004751176    -0.9295567    0.2707305    -0.0002815    0.0001582    -0.0000803   -0.0000702     0.0002129    0.0005639 
   0.004851201    -0.9314889    0.2875028    -0.0008090   -0.0001552     0.0001488   -0.0000871     0.0006477    0.0003921 
   0.004951226    -0.9175586    0.2812318    -0.0010306    0.0004326    -0.0000911   -0.0000925    -0.0000120   -0.0007462 
   0.005051251    -0.9142909    0.2901988    -0.0001427   -0.0004170    -0.0001093   -0.0002283     0.0005406    0.0008649 
   0.005151276    -0.9142164    0.2960163    -0.0005108   -0.0001212     0.0002212    0.0000829    -0.0000292    0.0001168 
   0.005251301    -0.9148951    0.3016973    -0.0000079    0.0008544    -0.0000526    0.0001419     0.0003215   -0.0000042 
   0.005351326    -0.9075522    0.3017513    -0.0003184    0.0003248     0.0000316    0.0001186     0.0001637    0.0007829 
   0.005451351    -0.9078841    0.3156873    -0.0006843   -0.0001924    -0.0000040   -0.0001411     0.0003962   -0.0000377 
   0.005551376    -0.9070027    0.3169327    -0.0003908    0.0003498    -0.0002235   -0.0002275     0.0003327    0.0000066 
   0.005651401    -0.9047082    0.3237706    -0.0010153   -0.0006356     0.0000524   -0.0000854     0.0003224    0.0000764 
   0.005751426    -0.8974937    0.3332951    -0.0003160   -0.0000046     0.0000916   -0.0001843     0.0000242    0.0000026 
   0.005851451    -0.8910025    0.3349676    -0.0013353   -0.0006766     0.0000876    0.0000757    -0.0005191    0.0002424 
   0.005951476    -0.9089603    0.3415434    -0.0004718   -0.0002795    -0.0000232   -0.0001262     0.0006754    0.0005311 
   0.006051501    -0.8866197    0.3451591    -0.0000049   -0.0001286     0.0001868    0.0001656     0.0004483    0.0004415 
   0.006151526    -0.8959222    0.3512765    -0.0001178   -0.0001765     0.0000085    0.0002145    -0.0001807    0.0004440 
   0.006251551    -0.8902157    0.3596669    -0.0007537   -0.0002292     0.0000142    0.0000249    -0.0005099    0.0002590 
   0.006351576    -0.8852068    0.3567084     0.0003740   -0.0006591     0.0002175    0.0000618     0.0003725    0.0001307 
   0.006451601    -0.8833271    0.3744295    -0.0008333    0.0007697     0.0000443   -0.0000485     0.0001298    0.0004557 
   0.006551626    -0.8778437    0.3711435     0.0005329    0.0006179    -0.0002249    0.0002595     0.0006836    0.0005337 
   0.006651651    -0.8789002    0.3799923    -0.0000502    0.0002777     0.0000222   -0.0001038     0.0006317   -0.0000568 
   0.006751676    -0.8812811    0.3864503    -0.0005534    0.0004381    -0.0000792   -0.0001869     0.0000965    0.0003690 
   0.006851701    -0.8696162    0.3865301     0.0005342   -0.0002006    -0.0000825    0.0001215     0.0002066    0.0001835 
   0.006951726    -0.8725225    0.3847579    -0.0009897    0.0007727     0.0003702   -0.0000281     0.0007059    0.0007612 
   0.007051751    -0.8757364    0.3941940    -0.0005157    0.0009048    -0.0001734   -0.0002823    -0.0005619    0.0006666 
   0.007151776    -0.8715562    0.4041493     0.0001167    0.0004636    -0.0001299   -0.0001590     0.0001608    0.0005548 
   0.007251801    -0.8599342    0.3939763     0.0001811   -0.0005048    -0.0002935    0.0002937    -0.0002372    0.0002793 
   0.007351826    -0.8640162    0.4088758     0.0008514   -0.0007541    -0.0002586    0.0001841     0.0004966    0.0004701 
   0.007451851    -0.8571664    0.4152063    -0.0007627   -0.0001642    -0.0001718   -0.0000834    -0.0000188   -0.0000935 
   0.007551876    -0.8555959    0.4136563    -0.0000504   -0.0001656    -0.0000303    0.0000898    -0.0001238    0.0005567 
   0.007651901    -0.8618873    0.4327719     0.0002264   -0.0009660     0.0002273   -0.0000781     0.0003451    0.0002963 
   0.007751926    -0.8536649    0.4216140    -0.0003182   -0.0004342     0.0000946   -0.0002326     0.0002026    0.0003960 
   0.007851951    -0.8615494    0.4279915    -0.0003040    0.0005416     0.0001894    0.0002694     0.0012780    0.0003965 
   0.007951976    -0.8470395    0.4433777    -0.0000528    0.0006583     0.0001517   -0.0002425     0.0005509    0.0000559 
   0.008052001    -0.8426061    0.4436837    -0.0001432    0.0005467    -0.0000823    0.0000771     0.0000377    0.0009957 
   0.008152026    -0.8441958    0.4484239    -0.0006717   -0.0001183    -0.0000449   -0.0001887     0.0001034    0.0002832 
   0.008252051    -0.8427267    0.4476750    -0.0009987   -0.0002152    -0.0001450    0.0002342     0.0005255   -0.0005567 
   0.008352076    -0.8439975    0.4549976    -0.0005360    0.0004375     0.0001280   -0.0000573     0.0004082    0.0008350 
   0.008452101    -0.8389654    0.4562019    -0.0007579    0.0000647     0.0002003   -0.0001151     0.0006086    0.0004471 
   0.008552126    -0.8248309    0.4577141     0.0005174   -0.0000654     0.0001887   -0.0001753     0.0002375    0.0001449 
   0.008652151    -0.8228147    0.4691722    -0.0004180   -0.0008424     0.0001484   -0.0001424     0.0006341    0.0002498 
   0.008752176    -0.8118169    0.4776311     0.0004490   -0.0011250    -0.0002268   -0.0000615     0.0003164    0.0001713 
   0.008852201    -0.8170739    0.4771806    -0.0002850   -0.0009087     0.0000674   -0.0002403    -0.0000859    0.0000729 
   0.008952226    -0.8200046    0.4800393    -0.0002509    0.0001548    -0.0001343    0.0001040     0.0005606    0.0006256 
   0.009052251    -0.8138719    0.4850512    -0.0003726   -0.0003243     0.0001844   -0.0003786     0.0007691    0.0004633 
   0.009152276    -0.8107607    0.5061315    -0.0000652    0.0002598    -0.0001836   -0.0000029     0.0002497    0.0003834 
   0.009252301    -0.8029986    0.4996981     0.0000731   -0.0005112    -0.0001539    0.0001393     0.0001579    0.0001319 
   0.009352326    -0.8030384    0.5048264    -0.0007402    0.0018253    -0.0001096   -0.0001061     0.0004142    0.0003311 
   0.009452351    -0.8011731    0.5052686     0.0001090   -0.0001412    -0.0000567    0.0000932     0.0005726    0.0002878 
   0.009552376    -0.7969715    0.5192652     0.0004420   -0.0003540    -0.0002164   -0.0000912     0.0001229    0.0005730 
   0.009652401    -0.8157952    0.5183952     0.0000385   -0.0001594     0.0002804    0.0000355     0.0007520    0.0008755 
   0.009752426    -0.8004960    0.5240431    -0.0003588   -0.0000025     0.0000379   -0.0002418     0.0003353    0.0000385 
   0.009852451    -0.7894676    0.5308292     0.0000062    0.0005395     0.0000433    0.0001719     0.0000288    0.0005188 
   0.009952476    -0.7892396    0.5365751     0.0002015   -0.0000501     0.0000623    0.0000754     0.0002514    0.0006264 
   0.010052501    -0.7821381    0.5327572     0.0008178    0.0002248    -0.0000422    0.0000378     0.0003312    0.0002208 
   0.010152526    -0.8061738    0.5401593     0.0001549   -0.0013025    -0.0001247    0.0004918    -0.0000256    0.0005022 
   0.010252551    -0.7889035    0.5498037    -0.0006373    0.0003035     0.0001217   -0.0000115     0.0001449    0.0003928 
   0.010352576    -0.7709574    0.5473219    -0.0002248   -0.0013528     0.0001483   -0.0001523     0.0007006    0.0000252 
   0.010452601    -0.7715050    0.5592299    -0.0005029    0.0002773    -0.0000360    0.0000601     0.0003249    0.0002025 
   0.010552626    -0.7631491    0.5638736    -0.0000681    0.0002535     0.0000971   -0.0001423     0.0004717    0.0000699 
   0.010652651    -0.7598152    0.5746356    -0.0000114   -0.0002290    -0.0001386    0.0001368     0.0007295   -0.0000274 
   0.010752676    -0.7728676    0.5722048    -0.0000257    0.0004719     0.0001209   -0.0002286     0.0006333    0.0002438 
   0.010852701    -0.7684655    0.5738119    -0.0002621    0.0002790    -0.0000276   -0.0000652     0.0005586    0.0002515 
   0.010952726    -0.7568940    0.5747278    -0.0004055    0.0000007    -0.0002347   -0.0001160    -0.0001438    0.0001857 
   0.011052751    -0.7575599    0.5781510     0.0003666   -0.0001400     0.0000562   -0.0001331     0.0002708    0.0009632 
   0.011152776    -0.7413872    0.5903602    -0.0001179    0.0010635    -0.0001602    0.0000277     0.0006716    0.0007318 
   0.011252801    -0.7479634    0.5939572     0.0002941    0.0004396     0.0000942   -0.0002206     0.0004594    0.0008858 
   0.011352826    -0.7335321    0.5916904     0.0002792   -0.0001868     0.0001504   -0.0002487     0.0000331    0.0001817 
   0.011452851    -0.7315431    0.5875036     0.0000093    0.0004054    -0.0001693   -0.0002581     0.0003309    0.0004141 
   0.011552876    -0.7262568    0.6050852     0.0001774    0.0002337    -0.0004106   -0.0000182     0.0000249    0.0006003 
   0.011652901    -0.7323860    0.6096977     0.0003898    0.0005909    -0.0000836   -0.0002613     0.0004404    0.0006869 
   0.011752926    -0.7320054    0.6080229     0.0010583   -0.0003920    -0.0001031    0.0003484     0.0003453    0.0006881 
   0.011852951    -0.7248728    0.6115161    -0.0007936    0.0005167     0.0000561   -0.0000732     0.0001887    0.0004219 
   0.011952976    -0.7301768    0.6188673    -0.0005711   -0.0011417    -0.0002219   -0.0001020    -0.0000866    0.0002667 
   0.012053002    -0.7255896    0.6199584    -0.0005494   -0.0006508     0.0002629   -0.0000800     0.0003885    0.0002343 
   0.012153027    -0.7026775    0.6164705    -0.0011022    0.0008017     0.0001389   -0.0006041    -0.0000393    0.0005088 
   0.012253052    -0.7043595    0.6277030     0.0010917   -0.0010167     0.0001403    0.0000537     0.0007396    0.0005124 
   0.012353077    -0.7070092    0.6243275     0.0002852   -0.0003506    -0.0003535    0.0000059     0.0002365    0.0003569 
   0.012453102    -0.6815568    0.6328413    -0.0001847   -0.0004003    -0.0000952    0.0000642     0.0001578    0.0004490 
   0.012553127    -0.6818417    0.6479208    -0.0003095   -0.0001014     0.0003019   -0.0000145    -0.0000922    0.0003178 
   0.012653152    -0.6841169    0.6468229     0.0009047   -0.0002003     0.0002127    0.0002044     0.0006291    0.0006262 
   0.012753177    -0.6869288    0.6559908    -0.0002990    0.0018529    -0.0000087    0.0001668     0.0006686    0.0008830 
   0.012853202    -0.6957312    0.6514967    -0.0005461   -0.0005427    -0.0001259    0.0002037     0.0007634    0.0001243 
   0.012953227    -0.6616175    0.6608388    -0.0007602    0.0006609    -0.0000645   -0.0002442     0.0005816    0.0002636 
   0.013053252    -0.6609128    0.6616976     0.0000800    0.0004471    -0.0002730   -0.0000504     0.0004906    0.0002235 
   0.013153277    -0.6565645    0.6806167     0.0004737    0.0003888     0.0002801   -0.0000015     0.0003900    0.0004387 
   0.013253302    -0.6513863    0.6546999     0.0006761   -0.0006367     0.0000270    0.0000159     0.0003696    0.0004274 
   0.013353327    -0.6523581    0.6888987     0.0002517   -0.0008691    -0.0000811    0.0000335     0.0002314    0.0007086 
   0.013453352    -0.6581391    0.6782827     0.0000532    0.0007085    -0.0002749    0.0001963     0.0005268    0.0003226 
   0.013553377    -0.6462998    0.6771820    -0.0003424   -0.0008272    -0.0001521    0.0002486     0.0005278    0.0006113 
   0.013653402    -0.6479597    0.6958668     0.0004062   -0.0008379     0.0000388    0.0000730     0.0000529    0.0008671 
   0.013753427    -0.6315851    0.6981734    -0.0005672   -0.0005934     0.0003579    0.0001224     0.0001240    0.0004767 
   0.013853452    -0.6136866    0.6820315    -0.0006205   -0.0007361    -0.0002341    0.0003292    -0.0000100    0.0008218 
   0.013953477    -0.6305119    0.6942688     0.0000223   -0.0003279    -0.0001361    0.0000597     0.0002417   -0.0000041 
   0.014053502    -0.6360866    0.6929417     0.0002190   -0.0001857     0.0000597   -0.0000278     0.0007281    0.0005303 
   0.014153527    -0.6327298    0.7057255     0.0000285    0.0000064     0.0001070   -0.0001937     0.0004889    0.0009667 
   0.014253552    -0.6108226    0.7012105     0.0001373   -0.0002389     0.0000677    0.0001227     0.0008238    0.0006119 
   0.014353577    -0.6338708    0.7183743    -0.0007655   -0.0002194    -0.0001043   -0.0002449    -0.0000371   -0.0000666 
   0.014453602    -0.6063810    0.7187067     0.0002794    0.0005563     0.0001570   -0.0000173     0.0002739    0.0004435 
   0.014553627    -0.6101749    0.7208377     0.0000473   -0.0007843     0.0000377    0.0001010     0.0001922    0.0006239 
   0.014653652    -0.6101990    0.7421430    -0.0000586    0.0008130     0.0002937   -0.0000708     0.0004488    0.0005159 
   0.014753677    -0.5984925    0.7245648    -0.0000610   -0.0004837    -0.0000482   -0.0001405     0.0003367    0.0004574 
   0.014853702    -0.6012310    0.7221374    -0.0000139   -0.0004919     0.0002119    0.0001664     0.0000392    0.0009282 
   0.014953727    -0.5777220    0.7357745     0.0005513    0.0000566     0.0001802    0.0002148     0.0003311    0.0006252 
   0.015053752    -0.5860165    0.7507035    -0.0001379   -0.0001737    -0.0000886    0.0000791     0.0005777    0.0012857 
   0.015153777    -0.5718630    0.7275763     0.0005524   -0.0000214     0.0000672    0.0002316     0.0003013    0.0004394 
   0.015253802    -0.5791715    0.7613783    -0.0001711    0.0002256    -0.0000345    0.0001105     0.0000332   -0.0003341 
   0.015353827    -0.5698932    0.7443363     0.0006296    0.0010565     0.0000741    0.0002396    -0.0001148   -0.0000109 
   0.015453852    -0.5614223    0.7559056     0.0001400    0.0010090     0.0004325    0.0001732     0.0001289    0.0008711 
   0.015553877    -0.5713280    0.7646019     0.0006394    0.0002029    -0.0000735    0.0000186     0.0000629    0.0005728 
   0.015653902    -0.5535727    0.7678833    -0.0011360   -0.0005164     0.0007046    0.0003019     0.0002257    0.0006975 
