! 19-Feb-26 2:02:22 PM
! E:\VNA_MEASUREMENTS\RECBLOCK\RECBLOCKREV1.S2P
! CHANNEL.1
! TR.MEASUREMENT
! CORRECTED.DATA
# GHZ S RI R 50.0
! FREQ.GHZ         S11RE         S11IM         S21RE         S21IM         S12RE         S12IM         S22RE         S22IM         
!; PortSelection: Port_12
   0.000050000     1.2639470    0.2908554     0.1071071    1.9203610    -0.0049538    0.0084432    -0.9878461   -0.0181632 
   0.000150025     0.4590952   -0.3775111     1.4712230    4.4766380    -0.0012957    0.0001711    -0.9635303    0.0046344 
   0.000250050     1.0482310   -0.2244688    -2.8405600   -3.2932940    -0.0000552   -0.0013857    -0.9757741    0.0235439 
   0.000350075    -0.0922846   -0.1480661    -0.0043979   -0.0026859    -0.0004823    0.0001988    -0.9698669    0.0237635 
   0.000450100    -0.0858070   -0.0704943    -0.0012676   -0.0059820     0.0001012   -0.0004233    -0.9731635    0.0270140 
   0.000550125    -0.0508199   -0.0258231    -0.0018685   -0.0070007     0.0000348   -0.0002482    -0.9618792    0.0329414 
   0.000650150    -0.0323337   -0.0058627    -0.0022459   -0.0036580     0.0001368   -0.0000058    -0.9642342    0.0440238 
   0.000750175    -0.0219129    0.0041331    -0.0033692   -0.0027827    -0.0000720   -0.0001933    -0.9633477    0.0449391 
   0.000850200    -0.0092696    0.0080335    -0.0047602   -0.0063149    -0.0006307   -0.0008849    -0.9583868    0.0565113 
   0.000950225     0.0006291    0.0063157    -0.0031903   -0.0042506    -0.0004375    0.0005489    -0.9641806    0.0570806 
   0.001050250     0.0060347    0.0089144    -0.0046296   -0.0013379    -0.0007682   -0.0000888    -0.9547903    0.0636294 
   0.001150275     0.0140041    0.0149543    -0.0043785   -0.0027509     0.0003445    0.0006658    -0.9608294    0.0662203 
   0.001250300     0.0142133    0.0141881    -0.0061759   -0.0026053    -0.0006236   -0.0003096    -0.9602003    0.0756781 
   0.001350325     0.0172251    0.0152075    -0.0041554   -0.0025266    -0.0006294   -0.0006870    -0.9615849    0.0797419 
   0.001450350     0.0167084    0.0149254    -0.0037678   -0.0013455    -0.0004601   -0.0002555    -0.9630646    0.0829324 
   0.001550375     0.0229805    0.0108102    -0.0046759   -0.0008280    -0.0010981    0.0000160    -0.9594551    0.0931868 
   0.001650400     0.0270739    0.0084716    -0.0021087   -0.0019152    -0.0000476    0.0001358    -0.9609352    0.0930420 
   0.001750425     0.0279610    0.0121946    -0.0024284   -0.0000945    -0.0005338    0.0002146    -0.9623556    0.1084558 
   0.001850450     0.0285275    0.0095266    -0.0027645    0.0000058    -0.0011217    0.0000253    -0.9610944    0.1016955 
   0.001950475     0.0300126    0.0149351    -0.0034466    0.0004755    -0.0013173    0.0004411    -0.9566585    0.1132673 
   0.002050500     0.0262274    0.0100081    -0.0046490    0.0012679    -0.0013207    0.0005205    -0.9582347    0.1204920 
   0.002150525     0.0286383    0.0089102    -0.0041268    0.0015188    -0.0013326    0.0000539    -0.9549942    0.1252174 
   0.002250550     0.0304700    0.0142432    -0.0034363    0.0013020    -0.0016018    0.0007758    -0.9572256    0.1330945 
   0.002350575     0.0331505    0.0088007    -0.0038775    0.0021144    -0.0020073    0.0000205    -0.9518406    0.1345261 
   0.002450600     0.0351303    0.0058404    -0.0020178    0.0010021    -0.0019616    0.0003755    -0.9473942    0.1457854 
   0.002550625     0.0329670    0.0038106    -0.0048450    0.0018980    -0.0024310    0.0009249    -0.9565763    0.1441230 
   0.002650650     0.0340864    0.0086619    -0.0025438    0.0024976    -0.0025341    0.0005976    -0.9465026    0.1492131 
   0.002750675     0.0344968    0.0036553    -0.0030389    0.0012839    -0.0021577   -0.0000589    -0.9473608    0.1597334 
   0.002850700     0.0412188    0.0035825    -0.0012010    0.0015531    -0.0024344    0.0000591    -0.9471125    0.1657577 
   0.002950725     0.0354561    0.0003253    -0.0018730    0.0002031    -0.0024364    0.0003064    -0.9468967    0.1665202 
   0.003050750     0.0374828   -0.0007383    -0.0031301    0.0009485    -0.0031073    0.0003548    -0.9469358    0.1784002 
   0.003150775     0.0416558    0.0006716    -0.0020388    0.0011132    -0.0030614    0.0007049    -0.9434852    0.1821319 
   0.003250800     0.0389644    0.0032365    -0.0020639    0.0008167    -0.0031037    0.0002879    -0.9451786    0.1831445 
   0.003350825     0.0360129    0.0006438    -0.0011154   -0.0007494    -0.0035006    0.0010418    -0.9405219    0.1889732 
   0.003450850     0.0403647    0.0037049     0.0001618    0.0005085    -0.0032411    0.0006826    -0.9428520    0.1995017 
   0.003550875     0.0379367    0.0046945    -0.0014913   -0.0001927    -0.0039298    0.0012438    -0.9426576    0.2037350 
   0.003650900     0.0396286    0.0039306    -0.0021796    0.0017291    -0.0047255    0.0009394    -0.9373728    0.2111128 
   0.003750925     0.0401977    0.0013604    -0.0012312    0.0001733    -0.0041819    0.0003967    -0.9327062    0.2161921 
   0.003850950     0.0431713   -0.0023466    -0.0003044    0.0006832    -0.0044266    0.0014457    -0.9314778    0.2198326 
   0.003950975     0.0399690   -0.0002757     0.0005323    0.0004987    -0.0047957    0.0011277    -0.9324241    0.2253041 
   0.004051001     0.0433451   -0.0011299    -0.0005836    0.0016872    -0.0046887    0.0004597    -0.9346763    0.2335300 
   0.004151026     0.0430187   -0.0007715     0.0013940    0.0010025    -0.0050394    0.0006853    -0.9237387    0.2377856 
   0.004251051     0.0401364    0.0013982    -0.0002986    0.0000697    -0.0056549    0.0007580    -0.9319417    0.2400284 
   0.004351076     0.0390345   -0.0025408     0.0003109    0.0009758    -0.0059751    0.0016309    -0.9239895    0.2463223 
   0.004451101     0.0424747    0.0004115     0.0001771    0.0010818    -0.0057360    0.0016331    -0.9265064    0.2522638 
   0.004551126     0.0382925   -0.0025943    -0.0010101    0.0003801    -0.0056778    0.0013496    -0.9212664    0.2553025 
   0.004651151     0.0441497   -0.0008609    -0.0004723    0.0017574    -0.0062521    0.0013473    -0.9252021    0.2634892 
   0.004751176     0.0437522   -0.0002553     0.0001566    0.0021555    -0.0069472    0.0013404    -0.9153335    0.2710384 
   0.004851201     0.0428309   -0.0029594     0.0002756    0.0016121    -0.0066453    0.0019133    -0.9193016    0.2723595 
   0.004951226     0.0387481   -0.0055088    -0.0002419   -0.0004627    -0.0072921    0.0021313    -0.9198006    0.2817978 
   0.005051251     0.0431369   -0.0033226     0.0000526    0.0007055    -0.0077612    0.0017512    -0.9172474    0.2828757 
   0.005151276     0.0428639   -0.0025514     0.0001104    0.0004248    -0.0078519    0.0024263    -0.9137760    0.2915180 
   0.005251301     0.0447996   -0.0043441    -0.0002500    0.0011756    -0.0084965    0.0019593    -0.9102230    0.2987888 
   0.005351326     0.0451458   -0.0049764    -0.0007959   -0.0001376    -0.0079674    0.0022805    -0.9097772    0.3030750 
   0.005451351     0.0423336   -0.0066016     0.0002143    0.0018388    -0.0086522    0.0024499    -0.9045579    0.3046356 
   0.005551376     0.0430645   -0.0048884    -0.0012901    0.0002679    -0.0085604    0.0025463    -0.9029307    0.3110694 
   0.005651401     0.0436411   -0.0056910    -0.0011486    0.0011909    -0.0096005    0.0030950    -0.9026121    0.3205697 
   0.005751426     0.0446551   -0.0037987    -0.0002890    0.0000186    -0.0095409    0.0033249    -0.9019046    0.3215244 
   0.005851451     0.0428377   -0.0054946    -0.0012394    0.0002251    -0.0097058    0.0028931    -0.8967437    0.3249473 
   0.005951476     0.0426117   -0.0018396    -0.0005733    0.0004156    -0.0101164    0.0024133    -0.8967289    0.3314066 
   0.006051501     0.0435570   -0.0080762    -0.0002200   -0.0001551    -0.0105717    0.0035021    -0.8960821    0.3395340 
   0.006151526     0.0431195   -0.0056988    -0.0010163    0.0005140    -0.0108965    0.0035150    -0.8987334    0.3441871 
   0.006251551     0.0414704   -0.0097363    -0.0005776    0.0000168    -0.0116341    0.0036493    -0.8919525    0.3498537 
   0.006351576     0.0437436   -0.0096446     0.0009793   -0.0003930    -0.0114541    0.0037141    -0.8904210    0.3516323 
   0.006451601     0.0404864   -0.0063723    -0.0014470   -0.0009075    -0.0121491    0.0037358    -0.8852665    0.3602482 
   0.006551626     0.0415880   -0.0097676    -0.0002801    0.0002228    -0.0122974    0.0040915    -0.8828614    0.3653113 
   0.006651651     0.0451866   -0.0085257     0.0010174    0.0004247    -0.0129083    0.0045430    -0.8801422    0.3697271 
   0.006751676     0.0443483   -0.0083480    -0.0001516    0.0000629    -0.0133511    0.0045028    -0.8827739    0.3738842 
   0.006851701     0.0420940   -0.0077097    -0.0012416    0.0004412    -0.0137963    0.0045832    -0.8744771    0.3800785 
   0.006951726     0.0437137   -0.0107811    -0.0002227   -0.0001709    -0.0137348    0.0045527    -0.8743249    0.3837075 
   0.007051751     0.0414812   -0.0094250     0.0000204    0.0009582    -0.0139236    0.0053454    -0.8732349    0.3876253 
   0.007151776     0.0429244   -0.0093149     0.0004137    0.0004270    -0.0142856    0.0052806    -0.8676301    0.3928436 
   0.007251801     0.0457595   -0.0130339    -0.0000257    0.0002656    -0.0148471    0.0048198    -0.8640804    0.4011987 
   0.007351826     0.0424229   -0.0110132    -0.0008293   -0.0002920    -0.0156209    0.0056748    -0.8633682    0.4075094 
   0.007451851     0.0426127   -0.0130679     0.0009161   -0.0000869    -0.0158640    0.0057365    -0.8618692    0.4102443 
   0.007551876     0.0411760   -0.0119697    -0.0003303   -0.0002965    -0.0161116    0.0063850    -0.8643737    0.4152673 
   0.007651901     0.0408951   -0.0117392    -0.0008445    0.0001225    -0.0161663    0.0064469    -0.8573987    0.4228897 
   0.007751926     0.0421433   -0.0141494    -0.0005322    0.0005299    -0.0172091    0.0060316    -0.8508859    0.4193860 
   0.007851951     0.0450065   -0.0131194     0.0018331   -0.0002642    -0.0171320    0.0073217    -0.8475326    0.4278222 
   0.007951976     0.0415491   -0.0133961    -0.0003092   -0.0010966    -0.0173364    0.0073481    -0.8517821    0.4366515 
   0.008052001     0.0435219   -0.0154243     0.0003094    0.0003867    -0.0178063    0.0078880    -0.8459956    0.4384543 
   0.008152026     0.0435985   -0.0159250     0.0001539   -0.0004541    -0.0190176    0.0079224    -0.8435464    0.4457729 
   0.008252051     0.0430578   -0.0149122    -0.0000081    0.0001168    -0.0185261    0.0083495    -0.8433796    0.4497271 
   0.008352076     0.0444086   -0.0154337    -0.0005437    0.0000438    -0.0192285    0.0083214    -0.8370090    0.4516770 
   0.008452101     0.0427016   -0.0133523    -0.0007181    0.0000844    -0.0197503    0.0087709    -0.8350657    0.4583347 
   0.008552126     0.0427567   -0.0154081     0.0001825   -0.0004244    -0.0203753    0.0085529    -0.8332515    0.4639038 
   0.008652151     0.0413929   -0.0141440    -0.0003501    0.0003591    -0.0205289    0.0088388    -0.8302616    0.4663996 
   0.008752176     0.0421050   -0.0172940    -0.0009472    0.0001863    -0.0205492    0.0097479    -0.8262951    0.4730434 
   0.008852201     0.0430360   -0.0149938     0.0006599    0.0011971    -0.0222090    0.0094874    -0.8237816    0.4793748 
   0.008952226     0.0420690   -0.0168243    -0.0010447   -0.0006807    -0.0221752    0.0100709    -0.8211860    0.4840091 
   0.009052251     0.0427321   -0.0189152     0.0008693    0.0001626    -0.0226611    0.0103547    -0.8149176    0.4892209 
   0.009152276     0.0440109   -0.0150826     0.0002789   -0.0004997    -0.0222467    0.0111302    -0.8130841    0.4920725 
   0.009252301     0.0425847   -0.0185701     0.0010162   -0.0000614    -0.0234683    0.0112179    -0.8103248    0.4975477 
   0.009352326     0.0433174   -0.0159950     0.0002405    0.0002109    -0.0240683    0.0114436    -0.8070478    0.5005690 
   0.009452351     0.0423070   -0.0180852    -0.0009544    0.0007237    -0.0241153    0.0119007    -0.8052052    0.5060955 
   0.009552376     0.0428039   -0.0175314    -0.0004901   -0.0000781    -0.0245064    0.0120072    -0.7997295    0.5083688 
   0.009652401     0.0440587   -0.0193336    -0.0003526   -0.0001421    -0.0251878    0.0127768    -0.7999825    0.5140351 
   0.009752426     0.0449268   -0.0184970    -0.0002346    0.0002296    -0.0256985    0.0130224    -0.7936267    0.5207255 
   0.009852451     0.0441417   -0.0182846     0.0002294    0.0005652    -0.0253468    0.0132618    -0.7915199    0.5276344 
   0.009952476     0.0402498   -0.0196161     0.0001559   -0.0004641    -0.0263555    0.0134662    -0.7889050    0.5313442 
   0.010052501     0.0443937   -0.0185019     0.0008568    0.0001361    -0.0270065    0.0143187    -0.7870634    0.5327179 
   0.010152526     0.0433099   -0.0201788     0.0009224   -0.0006470    -0.0274687    0.0146205    -0.7840447    0.5419415 
   0.010252551     0.0419258   -0.0193516    -0.0002390    0.0005498    -0.0280346    0.0150146    -0.7792541    0.5471340 
   0.010352576     0.0417318   -0.0224939     0.0009540    0.0003090    -0.0280492    0.0155142    -0.7759841    0.5493761 
   0.010452601     0.0443000   -0.0232051     0.0002606   -0.0011213    -0.0292113    0.0165182    -0.7716628    0.5522519 
   0.010552626     0.0425851   -0.0211962    -0.0010542    0.0004553    -0.0296839    0.0162939    -0.7718796    0.5561445 
   0.010652651     0.0413417   -0.0244355     0.0009130   -0.0002262    -0.0303722    0.0172449    -0.7635639    0.5588672 
   0.010752676     0.0434080   -0.0237648     0.0002178    0.0004737    -0.0305800    0.0173037    -0.7600538    0.5678834 
   0.010852701     0.0419378   -0.0228279     0.0001341    0.0007826    -0.0309869    0.0176078    -0.7573704    0.5698938 
   0.010952726     0.0422988   -0.0246395     0.0000448   -0.0010017    -0.0316066    0.0180258    -0.7534705    0.5733365 
   0.011052751     0.0439085   -0.0233224     0.0000995    0.0000874    -0.0319138    0.0190829    -0.7495246    0.5809872 
   0.011152776     0.0407095   -0.0230679     0.0005780   -0.0004468    -0.0325250    0.0191309    -0.7476659    0.5822281 
   0.011252801     0.0416741   -0.0225939    -0.0001290    0.0001158    -0.0331540    0.0199187    -0.7454036    0.5864264 
   0.011352826     0.0399467   -0.0229638     0.0003342   -0.0005885    -0.0335407    0.0200473    -0.7405924    0.5925478 
   0.011452851     0.0415906   -0.0254497     0.0004472   -0.0003547    -0.0341137    0.0211675    -0.7356977    0.5964188 
   0.011552876     0.0406171   -0.0253542     0.0002938   -0.0001198    -0.0344120    0.0212617    -0.7316190    0.6007121 
   0.011652901     0.0405268   -0.0255728     0.0003667   -0.0007025    -0.0349428    0.0219259    -0.7274578    0.6056702 
   0.011752926     0.0404062   -0.0241234    -0.0006737    0.0003977    -0.0353189    0.0225867    -0.7257850    0.6098378 
   0.011852951     0.0417116   -0.0253813    -0.0004205   -0.0002109    -0.0362889    0.0228487    -0.7160877    0.6116844 
   0.011952976     0.0389669   -0.0258181    -0.0000513    0.0001644    -0.0368882    0.0235141    -0.7142582    0.6171660 
   0.012053002     0.0411333   -0.0260931     0.0006442   -0.0003015    -0.0373807    0.0244738    -0.7097664    0.6230984 
   0.012153027     0.0405968   -0.0263072    -0.0006486   -0.0009854    -0.0375202    0.0244067    -0.7112672    0.6244900 
   0.012253052     0.0392082   -0.0276151    -0.0008195    0.0004682    -0.0387016    0.0249963    -0.7056479    0.6303623 
   0.012353077     0.0393838   -0.0263881     0.0003355   -0.0003306    -0.0386018    0.0258302    -0.6987426    0.6363086 
   0.012453102     0.0393227   -0.0276827     0.0000833    0.0006610    -0.0397005    0.0266966    -0.6957379    0.6442908 
   0.012553127     0.0413460   -0.0266428    -0.0000446   -0.0000150    -0.0399275    0.0268956    -0.6931297    0.6451205 
   0.012653152     0.0401809   -0.0271465    -0.0005740    0.0003227    -0.0402889    0.0277979    -0.6903820    0.6479475 
   0.012753177     0.0418769   -0.0264453    -0.0006170    0.0004530    -0.0413793    0.0279647    -0.6856343    0.6504306 
   0.012853202     0.0398325   -0.0294484    -0.0011403   -0.0000731    -0.0409174    0.0292585    -0.6821852    0.6549926 
   0.012953227     0.0421543   -0.0300972     0.0004677   -0.0001693    -0.0424587    0.0293866    -0.6765836    0.6582835 
   0.013053252     0.0393668   -0.0289003     0.0004500   -0.0001382    -0.0426488    0.0305021    -0.6739680    0.6654497 
   0.013153277     0.0385879   -0.0301415    -0.0003035    0.0001521    -0.0430134    0.0305811    -0.6681581    0.6677802 
   0.013253302     0.0415061   -0.0296128     0.0006471    0.0002431    -0.0439445    0.0312543    -0.6641879    0.6675563 
   0.013353327     0.0388263   -0.0306899    -0.0002581    0.0003657    -0.0437183    0.0324958    -0.6587616    0.6768480 
   0.013453352     0.0395953   -0.0289498     0.0008072   -0.0001192    -0.0443435    0.0335020    -0.6554503    0.6756619 
   0.013553377     0.0397777   -0.0311652    -0.0002861   -0.0002841    -0.0452603    0.0336447    -0.6538558    0.6837945 
   0.013653402     0.0391406   -0.0322311    -0.0001368    0.0005887    -0.0452968    0.0341733    -0.6480700    0.6878803 
   0.013753427     0.0405428   -0.0317259    -0.0002243   -0.0001257    -0.0459364    0.0358182    -0.6438539    0.6893058 
   0.013853452     0.0405833   -0.0319765     0.0003628    0.0003740    -0.0464528    0.0365403    -0.6391851    0.6926957 
   0.013953477     0.0384876   -0.0304998    -0.0003916   -0.0008157    -0.0471636    0.0373504    -0.6355054    0.7005263 
   0.014053502     0.0388244   -0.0340843     0.0001104    0.0004869    -0.0478519    0.0370119    -0.6314424    0.7020958 
   0.014153527     0.0380748   -0.0319591     0.0005464    0.0008890    -0.0483602    0.0388690    -0.6248012    0.7064989 
   0.014253552     0.0380025   -0.0343909    -0.0007265    0.0001771    -0.0478575    0.0393911    -0.6220994    0.7086510 
   0.014353577     0.0387017   -0.0330103    -0.0005555    0.0000061    -0.0496442    0.0403397    -0.6189625    0.7124783 
   0.014453602     0.0378720   -0.0348153    -0.0003125    0.0004999    -0.0494776    0.0405572    -0.6113178    0.7154155 
   0.014553627     0.0390746   -0.0335839     0.0002922   -0.0012151    -0.0500719    0.0412421    -0.6078122    0.7193817 
   0.014653652     0.0374993   -0.0328390    -0.0001257   -0.0004340    -0.0512486    0.0429581    -0.6010916    0.7225979 
   0.014753677     0.0374920   -0.0317137     0.0003584    0.0001462    -0.0526675    0.0440598    -0.6001001    0.7323887 
   0.014853702     0.0372531   -0.0346324    -0.0003597    0.0010881    -0.0521237    0.0446292    -0.5919306    0.7306890 
   0.014953727     0.0382255   -0.0358690     0.0003762    0.0008244    -0.0522558    0.0450882    -0.5929726    0.7347082 
   0.015053752     0.0381967   -0.0364678     0.0003297    0.0003315    -0.0525796    0.0457447    -0.5849518    0.7400567 
   0.015153777     0.0383331   -0.0366258     0.0003658    0.0004474    -0.0538146    0.0473297    -0.5817566    0.7396848 
   0.015253802     0.0370003   -0.0357199     0.0007154   -0.0000621    -0.0538929    0.0476781    -0.5737704    0.7446262 
   0.015353827     0.0384312   -0.0364419     0.0002395    0.0001190    -0.0545713    0.0489092    -0.5661894    0.7447169 
   0.015453852     0.0368437   -0.0375729     0.0000424   -0.0003084    -0.0550693    0.0498161    -0.5672913    0.7501784 
   0.015553877     0.0372491   -0.0372436    -0.0001339   -0.0007731    -0.0554118    0.0501502    -0.5587543    0.7514700 
   0.015653902     0.0376893   -0.0359499     0.0005984   -0.0001193    -0.0563660    0.0520174    -0.5559739    0.7590376 
