! 19-Feb-26 3:21:29 PM
! E:\VNA_MEASUREMENTS\RECBLOCK\RECBLOCKSDRREV2.S2P
! CHANNEL.1
! TR.MEASUREMENT
! CORRECTED.DATA
# GHZ S RI R 50.0
! FREQ.GHZ         S11RE         S11IM         S21RE         S21IM         S12RE         S12IM         S22RE         S22IM         
!; PortSelection: Port_12
   0.000050000     0.0087659    0.3096183     0.4880558    2.6941600    -0.0024720    0.0077421    -0.9618514   -0.0306967 
   0.000150025     0.3182132   -0.0042633     0.7812982   -0.5659963    -0.0001740   -0.0003718    -0.9607707    0.0160126 
   0.000250050     0.5621917    0.2776874    10.3518800    1.4681120    -0.0002088    0.0013391    -0.9707682    0.0245766 
   0.000350075    -0.0018351   -0.0003246    -0.0007565   -0.0048341     0.0001859   -0.0004289    -0.9667541    0.0155664 
   0.000450100     0.0033037   -0.0074490    -0.0020277   -0.0052581     0.0001283   -0.0003408    -0.9697687    0.0281599 
   0.000550125     0.0023298    0.0046098    -0.0018423   -0.0042913    -0.0002257   -0.0001475    -0.9630416    0.0338826 
   0.000650150     0.0013294    0.0028063    -0.0027934   -0.0038717    -0.0004998   -0.0000771    -0.9655371    0.0431403 
   0.000750175    -0.0059138    0.0020559    -0.0033069   -0.0051520    -0.0000710    0.0002348    -0.9645231    0.0443724 
   0.000850200    -0.0005074    0.0005709    -0.0025589   -0.0062981    -0.0005554    0.0000944    -0.9626719    0.0560473 
   0.000950225    -0.0028329   -0.0001604    -0.0051763   -0.0023535    -0.0007425   -0.0005807    -0.9668677    0.0611016 
   0.001050250     0.0020927   -0.0005668    -0.0049415   -0.0028358     0.0004349   -0.0006276    -0.9617946    0.0656031 
   0.001150275     0.0067184    0.0030871    -0.0046354   -0.0029884     0.0001522    0.0000284    -0.9572181    0.0616291 
   0.001250300     0.0016931    0.0025059    -0.0036285   -0.0024770    -0.0002144   -0.0000394    -0.9609954    0.0808460 
   0.001350325    -0.0011203   -0.0006968    -0.0050331   -0.0029377     0.0006921   -0.0000817    -0.9620323    0.0781396 
   0.001450350     0.0015596    0.0007577    -0.0056465   -0.0036971    -0.0002095   -0.0002490    -0.9640173    0.0872474 
   0.001550375    -0.0011672    0.0012349    -0.0037566    0.0000263     0.0001516   -0.0002288    -0.9563152    0.0902571 
   0.001650400     0.0016996   -0.0001454    -0.0043421    0.0011197    -0.0002776    0.0001455    -0.9618166    0.0932129 
   0.001750425    -0.0002847   -0.0018463    -0.0023182    0.0002975     0.0000316   -0.0002148    -0.9511393    0.1059020 
   0.001850450     0.0016700    0.0007229    -0.0021633   -0.0000031     0.0000121    0.0001730    -0.9583340    0.1088136 
   0.001950475    -0.0014106    0.0017431    -0.0036642   -0.0013790     0.0001983   -0.0001339    -0.9541509    0.1167500 
   0.002050500    -0.0015145   -0.0007905    -0.0023254    0.0010193    -0.0000479   -0.0001749    -0.9600111    0.1196151 
   0.002150525    -0.0012695   -0.0013277    -0.0027484    0.0012681     0.0003066    0.0003448    -0.9588156    0.1297198 
   0.002250550    -0.0003791    0.0029810    -0.0016100    0.0013996    -0.0004632   -0.0002974    -0.9574827    0.1319005 
   0.002350575     0.0002200    0.0015317    -0.0033967    0.0012946     0.0003044   -0.0003195    -0.9599774    0.1313953 
   0.002450600     0.0008028    0.0007425    -0.0030032    0.0004763    -0.0004361    0.0000474    -0.9516398    0.1432352 
   0.002550625    -0.0002687    0.0000450    -0.0024761    0.0001543    -0.0004303    0.0002919    -0.9533730    0.1486792 
   0.002650650    -0.0013588   -0.0002401    -0.0028888    0.0013831     0.0002282   -0.0001482    -0.9449989    0.1526741 
   0.002750675    -0.0005921    0.0010379    -0.0011286   -0.0002380     0.0000797    0.0000469    -0.9506001    0.1582735 
   0.002850700     0.0033195   -0.0010748    -0.0018821    0.0008772     0.0000221    0.0003966    -0.9503829    0.1699385 
   0.002950725    -0.0017712    0.0004170    -0.0019222    0.0004619     0.0000159    0.0000468    -0.9449652    0.1705493 
   0.003050750    -0.0007372   -0.0007881    -0.0023380    0.0010139     0.0003268    0.0004010    -0.9452947    0.1776883 
   0.003150775     0.0004203   -0.0033844    -0.0034963    0.0010327     0.0002917    0.0002183    -0.9436122    0.1821570 
   0.003250800     0.0007671    0.0004235    -0.0000780    0.0003878     0.0002558   -0.0000826    -0.9437326    0.1834550 
   0.003350825    -0.0019822   -0.0025818    -0.0012188    0.0014164     0.0002052    0.0000175    -0.9434493    0.1882837 
   0.003450850     0.0003950    0.0007957     0.0010028    0.0001328     0.0002089   -0.0001410    -0.9457977    0.2042953 
   0.003550875    -0.0015526    0.0061489    -0.0011139    0.0020710     0.0001731    0.0005314    -0.9390593    0.2015488 
   0.003650900     0.0008585   -0.0015987    -0.0005145    0.0001280     0.0002029   -0.0000441    -0.9378430    0.2108726 
   0.003750925     0.0008572    0.0029316    -0.0001456   -0.0005107    -0.0001076   -0.0000686    -0.9346086    0.2125598 
   0.003850950     0.0001379   -0.0022604    -0.0010183    0.0002278     0.0000188    0.0000111    -0.9342644    0.2204348 
   0.003950975    -0.0007479    0.0007733    -0.0002257    0.0014463    -0.0003336    0.0002054    -0.9343072    0.2252990 
   0.004051001     0.0015970   -0.0008641    -0.0000660    0.0009643    -0.0001273   -0.0002661    -0.9337498    0.2315541 
   0.004151026    -0.0007448   -0.0021107    -0.0007373   -0.0010138    -0.0001316    0.0001114    -0.9206228    0.2371581 
   0.004251051    -0.0014603   -0.0002215    -0.0004635    0.0008459    -0.0002098   -0.0001408    -0.9317392    0.2394736 
   0.004351076    -0.0027094   -0.0004264    -0.0005199   -0.0000362    -0.0000787   -0.0000244    -0.9280952    0.2455524 
   0.004451101    -0.0003966   -0.0006462    -0.0006532    0.0007271     0.0000703   -0.0002620    -0.9292824    0.2476943 
   0.004551126     0.0024310    0.0008777    -0.0015355    0.0004079    -0.0006483    0.0001122    -0.9183924    0.2566592 
   0.004651151     0.0001133    0.0007946    -0.0006647   -0.0007134    -0.0003419   -0.0002796    -0.9259354    0.2651563 
   0.004751176     0.0026024    0.0017566    -0.0002788   -0.0000201    -0.0001589   -0.0002170    -0.9185042    0.2706105 
   0.004851201     0.0016442    0.0007637     0.0002342    0.0013107    -0.0002983   -0.0000611    -0.9206306    0.2749832 
   0.004951226    -0.0034566    0.0008666     0.0004592    0.0002501     0.0001163   -0.0002388    -0.9173540    0.2829595 
   0.005051251    -0.0001733   -0.0007908    -0.0006127    0.0000338    -0.0001275    0.0001631    -0.9158567    0.2834382 
   0.005151276    -0.0017603   -0.0011912    -0.0002920    0.0001451    -0.0001547    0.0001076    -0.9144207    0.2892125 
   0.005251301    -0.0025219   -0.0010755     0.0004246    0.0016070     0.0001362   -0.0002617    -0.9144439    0.3016711 
   0.005351326     0.0011310   -0.0026967    -0.0015979    0.0001239     0.0001338    0.0000785    -0.9094516    0.3035331 
   0.005451351     0.0009293    0.0008925    -0.0003343    0.0005681    -0.0002174    0.0002378    -0.9067422    0.3048799 
   0.005551376    -0.0006565    0.0016047    -0.0015456    0.0008249     0.0002749   -0.0003000    -0.8997184    0.3120898 
   0.005651401    -0.0014950   -0.0007035    -0.0003999    0.0007589     0.0000365   -0.0000484    -0.9012948    0.3193816 
   0.005751426     0.0009215    0.0009750     0.0000336    0.0010578     0.0001188   -0.0004624    -0.9013296    0.3191670 
   0.005851451     0.0028276    0.0001148    -0.0012814    0.0009028     0.0002054   -0.0000173    -0.9000231    0.3261870 
   0.005951476    -0.0008260    0.0007432    -0.0008535    0.0002536     0.0000000   -0.0003386    -0.8933895    0.3289930 
   0.006051501    -0.0010253   -0.0015747    -0.0004928    0.0001950     0.0003507   -0.0001038    -0.8920109    0.3394128 
   0.006151526    -0.0001780    0.0008086    -0.0003871   -0.0001704    -0.0001370    0.0000595    -0.8951808    0.3455233 
   0.006251551    -0.0030023    0.0006244    -0.0009586    0.0007045     0.0000846   -0.0000772    -0.8866466    0.3479694 
   0.006351576     0.0008262    0.0005491    -0.0009000   -0.0000107     0.0001912   -0.0000991    -0.8893452    0.3514135 
   0.006451601    -0.0016475   -0.0008927    -0.0011597    0.0004884    -0.0000212   -0.0001092    -0.8828856    0.3609282 
   0.006551626    -0.0006068   -0.0023938    -0.0003440   -0.0000884     0.0001612   -0.0000374    -0.8826234    0.3642770 
   0.006651651     0.0004870    0.0009833    -0.0005296    0.0001643     0.0000598    0.0000458    -0.8770345    0.3704570 
   0.006751676     0.0005889    0.0020055     0.0014510    0.0003354     0.0001009   -0.0000093    -0.8816375    0.3740302 
   0.006851701     0.0014161    0.0030129    -0.0000315    0.0014935    -0.0000946   -0.0000124    -0.8752313    0.3817407 
   0.006951726    -0.0000404    0.0003175    -0.0000291   -0.0015995    -0.0001172   -0.0000663    -0.8724505    0.3871157 
   0.007051751    -0.0018929    0.0026966    -0.0004888   -0.0011182     0.0000398    0.0001166    -0.8734724    0.3868434 
   0.007151776     0.0014990    0.0015681     0.0004456    0.0007654    -0.0001772   -0.0000495    -0.8715383    0.3945801 
   0.007251801     0.0017062   -0.0010668     0.0007992    0.0000657     0.0000353   -0.0000779    -0.8659260    0.4001972 
   0.007351826    -0.0008646    0.0007680    -0.0000708    0.0003166    -0.0000556   -0.0001297    -0.8626776    0.4072947 
   0.007451851     0.0002080    0.0011420     0.0002882   -0.0001496    -0.0001691    0.0000984    -0.8593985    0.4052658 
   0.007551876     0.0000201    0.0010062     0.0002678   -0.0000708    -0.0001372    0.0001071    -0.8595276    0.4183878 
   0.007651901    -0.0009091    0.0007780     0.0004394   -0.0009475     0.0000651    0.0002757    -0.8567307    0.4222903 
   0.007751926    -0.0009360   -0.0002886    -0.0003764    0.0003073    -0.0003821   -0.0003444    -0.8516362    0.4206210 
   0.007851951    -0.0026942    0.0010243    -0.0007611    0.0000214     0.0003169   -0.0001915    -0.8498903    0.4243486 
   0.007951976    -0.0011347   -0.0014991    -0.0002692   -0.0014205    -0.0001838    0.0001834    -0.8496350    0.4352952 
   0.008052001     0.0003908    0.0007643    -0.0007745    0.0014775    -0.0000190   -0.0000365    -0.8482706    0.4378325 
   0.008152026    -0.0010304   -0.0018069     0.0004834   -0.0005206     0.0001003   -0.0001558    -0.8412898    0.4443838 
   0.008252051     0.0008012   -0.0003213    -0.0006236    0.0000431     0.0000391    0.0000740    -0.8467388    0.4467877 
   0.008352076    -0.0007291   -0.0008686     0.0001231    0.0006761     0.0002153    0.0000211    -0.8371097    0.4530855 
   0.008452101    -0.0007780   -0.0005730    -0.0009892    0.0002570    -0.0001371    0.0002331    -0.8347936    0.4588567 
   0.008552126     0.0010496   -0.0003998    -0.0006781    0.0003261     0.0000492   -0.0001657    -0.8340399    0.4626795 
   0.008652151    -0.0005107    0.0002322    -0.0001103   -0.0001995    -0.0001373   -0.0000613    -0.8246206    0.4677639 
   0.008752176    -0.0011987   -0.0000020    -0.0005043    0.0003685    -0.0001414   -0.0000762    -0.8223249    0.4731003 
   0.008852201     0.0008649    0.0000936     0.0010729    0.0006303     0.0001661    0.0004254    -0.8239452    0.4812957 
   0.008952226    -0.0003221   -0.0005406     0.0001293   -0.0003086    -0.0001096   -0.0000424    -0.8210089    0.4827405 
   0.009052251    -0.0001992   -0.0005852     0.0005980    0.0001790    -0.0001116   -0.0000255    -0.8115312    0.4893289 
   0.009152276     0.0000275    0.0003975    -0.0014236    0.0002103     0.0002098   -0.0000574    -0.8108954    0.4922744 
   0.009252301    -0.0007201    0.0010655    -0.0013749   -0.0007258    -0.0000092    0.0000687    -0.8101308    0.4962502 
   0.009352326     0.0004185    0.0007483     0.0002033   -0.0005957    -0.0000900   -0.0002797    -0.8064646    0.4974921 
   0.009452351    -0.0001346    0.0006302    -0.0008000    0.0003806     0.0000820   -0.0000698    -0.8031012    0.5093137 
   0.009552376    -0.0012161    0.0004454    -0.0003145    0.0007175    -0.0002144   -0.0000997    -0.8040445    0.5072758 
   0.009652401     0.0003158   -0.0000352     0.0001143   -0.0002462     0.0000931   -0.0001184    -0.7978112    0.5153232 
   0.009752426     0.0001744   -0.0005817     0.0008673   -0.0005607    -0.0000364   -0.0000046    -0.7969604    0.5179265 
   0.009852451     0.0001008    0.0006463    -0.0000520   -0.0003005    -0.0000509   -0.0000393    -0.7903636    0.5241268 
   0.009952476    -0.0011364    0.0016314     0.0000209    0.0007983    -0.0000608    0.0000835    -0.7884322    0.5308787 
   0.010052501     0.0014536    0.0008660    -0.0004271   -0.0001578     0.0000604   -0.0001565    -0.7841235    0.5347926 
   0.010152526     0.0006137    0.0008477     0.0003031    0.0000482    -0.0001429   -0.0001106    -0.7812963    0.5391439 
   0.010252551    -0.0005615    0.0004327    -0.0012906    0.0003618     0.0002342   -0.0001273    -0.7797667    0.5433069 
   0.010352576     0.0009714    0.0005429    -0.0004208    0.0001753    -0.0001758   -0.0000916    -0.7772692    0.5463550 
   0.010452601     0.0013977   -0.0012524    -0.0005083    0.0008227     0.0002340   -0.0000924    -0.7729794    0.5516465 
   0.010552626     0.0019776   -0.0003975    -0.0003250   -0.0008330     0.0000322    0.0003210    -0.7708849    0.5571767 
   0.010652651    -0.0002021   -0.0007953    -0.0001347    0.0000541    -0.0000722    0.0002703    -0.7634807    0.5610417 
   0.010752676     0.0002733   -0.0008654     0.0002012   -0.0001716     0.0001209    0.0000938    -0.7596415    0.5663166 
   0.010852701    -0.0006698    0.0001091    -0.0006129    0.0003085    -0.0001435    0.0001424    -0.7563941    0.5707921 
   0.010952726    -0.0004988   -0.0006583    -0.0007121    0.0005045    -0.0000146   -0.0003327    -0.7535505    0.5763867 
   0.011052751     0.0003958    0.0005784    -0.0006082   -0.0000212     0.0000302   -0.0003024    -0.7480783    0.5775369 
   0.011152776    -0.0010823   -0.0001630     0.0002386   -0.0000188    -0.0000876   -0.0001732    -0.7458996    0.5822313 
   0.011252801    -0.0013681    0.0009629    -0.0006077    0.0002625     0.0000339    0.0000327    -0.7432984    0.5881564 
   0.011352826    -0.0018938    0.0012748     0.0004439    0.0001826    -0.0000042   -0.0001087    -0.7419379    0.5914434 
   0.011452851    -0.0008954   -0.0006012     0.0001162    0.0006846    -0.0002618    0.0002458    -0.7346595    0.5963933 
   0.011552876    -0.0001724    0.0013260    -0.0004460   -0.0008054    -0.0001184    0.0000397    -0.7311634    0.6006892 
   0.011652901     0.0005166   -0.0001974    -0.0001920    0.0003708    -0.0004066   -0.0001051    -0.7269863    0.6036420 
   0.011752926    -0.0008399    0.0013820    -0.0001209   -0.0002444    -0.0000352   -0.0001527    -0.7231294    0.6096726 
   0.011852951     0.0002858    0.0009125    -0.0000993   -0.0000485     0.0001750    0.0001428    -0.7179375    0.6141149 
   0.011952976    -0.0012525   -0.0004296     0.0012724    0.0001111     0.0000461    0.0000031    -0.7172436    0.6135611 
   0.012053002    -0.0004474   -0.0001032    -0.0003763    0.0005187    -0.0000494    0.0002290    -0.7106407    0.6246246 
   0.012153027     0.0008166    0.0004990     0.0003170   -0.0004832     0.0001192   -0.0002165    -0.7115260    0.6247930 
   0.012253052    -0.0013865    0.0013217     0.0003841    0.0003101    -0.0000383    0.0000126    -0.7055987    0.6318350 
   0.012353077    -0.0001636   -0.0001453     0.0007119    0.0004577    -0.0001996    0.0000163    -0.6978190    0.6366438 
   0.012453102    -0.0002691    0.0005009    -0.0001493   -0.0008351     0.0000811   -0.0003083    -0.6976554    0.6427799 
   0.012553127     0.0008595    0.0006742     0.0002444    0.0002142     0.0000011   -0.0000679    -0.6901279    0.6416576 
   0.012653152     0.0005420    0.0006611     0.0009450    0.0005078     0.0002844    0.0000239    -0.6891252    0.6469315 
   0.012753177     0.0006233    0.0005801    -0.0001470    0.0008051    -0.0000675   -0.0000678    -0.6832684    0.6489000 
   0.012853202    -0.0002596   -0.0018413     0.0003511    0.0000134     0.0000658    0.0000964    -0.6823262    0.6543464 
   0.012953227     0.0005682   -0.0006366    -0.0000775   -0.0003301     0.0001613   -0.0001438    -0.6764229    0.6598899 
   0.013053252    -0.0006617   -0.0001883     0.0002246   -0.0006513    -0.0000490   -0.0000498    -0.6747925    0.6660437 
   0.013153277    -0.0006395   -0.0006466     0.0005162    0.0000160    -0.0001254    0.0000563    -0.6692265    0.6653084 
   0.013253302    -0.0013558    0.0014445     0.0001693   -0.0004478    -0.0001862    0.0000609    -0.6633481    0.6680466 
   0.013353327     0.0007228   -0.0003655     0.0000004    0.0004143     0.0001136   -0.0002463    -0.6568924    0.6732404 
   0.013453352    -0.0002858    0.0006850     0.0006969    0.0007388     0.0000508   -0.0000929    -0.6534819    0.6804933 
   0.013553377    -0.0002834    0.0003054    -0.0007230   -0.0001703    -0.0000339   -0.0000419    -0.6501089    0.6818541 
   0.013653402    -0.0000414   -0.0006969    -0.0003564   -0.0006538    -0.0002080   -0.0000316    -0.6504395    0.6835094 
   0.013753427     0.0013911    0.0008591     0.0004734    0.0003728     0.0000159    0.0000878    -0.6446883    0.6864205 
   0.013853452     0.0001342   -0.0014563     0.0007921   -0.0007542     0.0000074    0.0001342    -0.6380658    0.6936926 
   0.013953477     0.0002882    0.0005133    -0.0002780   -0.0010048     0.0000339   -0.0001817    -0.6351529    0.6982583 
   0.014053502    -0.0008935   -0.0016877     0.0001528    0.0008068     0.0001233   -0.0002781    -0.6279939    0.7035248 
   0.014153527    -0.0009192    0.0004774     0.0005150    0.0006243    -0.0001644    0.0001097    -0.6248357    0.7081046 
   0.014253552    -0.0007132   -0.0013574     0.0001998   -0.0000370     0.0000528   -0.0001115    -0.6237894    0.7064695 
   0.014353577    -0.0003935    0.0004036     0.0008393   -0.0000391    -0.0000895    0.0001126    -0.6141971    0.7133718 
   0.014453602    -0.0015547    0.0003333    -0.0002637   -0.0001438     0.0001290   -0.0000050    -0.6112214    0.7140235 
   0.014553627     0.0004858    0.0002532    -0.0001778    0.0006327    -0.0002460   -0.0001462    -0.6086732    0.7200005 
   0.014653652     0.0000303    0.0014606     0.0001862   -0.0002525    -0.0002575   -0.0003313    -0.6047741    0.7209321 
   0.014753677    -0.0009650    0.0013404     0.0002761    0.0000484     0.0003650    0.0000038    -0.5990263    0.7290894 
   0.014853702    -0.0010125   -0.0004485    -0.0001600    0.0007002     0.0000062   -0.0000586    -0.5922887    0.7296809 
   0.014953727     0.0004222    0.0004982     0.0005766    0.0001901    -0.0000938   -0.0000879    -0.5925428    0.7322077 
   0.015053752    -0.0007359    0.0004352     0.0004089    0.0003343    -0.0002484    0.0001962    -0.5884092    0.7408187 
   0.015153777     0.0004452   -0.0013965     0.0000274   -0.0001676     0.0000323   -0.0001061    -0.5852776    0.7377087 
   0.015253802    -0.0003479    0.0006101    -0.0002511   -0.0010738     0.0000866   -0.0000888    -0.5746129    0.7458234 
   0.015353827     0.0004836   -0.0007995     0.0011451    0.0007527     0.0000753    0.0002182    -0.5692568    0.7490255 
   0.015453852    -0.0003045   -0.0008772     0.0000930   -0.0006141     0.0000249    0.0000057    -0.5668138    0.7491504 
   0.015553877    -0.0012787    0.0004970    -0.0008722    0.0007166    -0.0002758   -0.0001381    -0.5628568    0.7520342 
   0.015653902     0.0000324    0.0015788     0.0012009    0.0000391     0.0000476    0.0003224    -0.5560856    0.7570134 
