! 19-Feb-26 1:59:19 PM
! E:\VNA_MEASUREMENTS\RECBLOCK\RECBLOCK1.S2P
! CHANNEL.1
! TR.MEASUREMENT
! CORRECTED.DATA
# GHZ S RI R 50.0
! FREQ.GHZ         S11RE         S11IM         S21RE         S21IM         S12RE         S12IM         S22RE         S22IM         
!; PortSelection: Port_12
   0.000050000    -0.8308393   -0.1804989    -2.6985450    0.8029383     0.0032037   -0.0034908     0.4596448   -0.1564941 
   0.000150025    -0.7104633   -0.2387549    -0.7174507    1.7746560     0.0006543    0.0008238     0.2209506   -0.3803210 
   0.000250050     2.9205770    0.5099228     0.6373191   -1.4369190     0.0019062    0.0003213    -0.0391781   -0.3032946 
   0.000350075    -0.9602646    0.0098896    -0.0001949   -0.0016548     0.0003154    0.0000289    -0.0941052   -0.1492106 
   0.000450100    -0.9627956    0.0347438    -0.0003200   -0.0023671    -0.0000748    0.0000417    -0.0793975   -0.0685128 
   0.000550125    -0.9632527    0.0420332    -0.0017590   -0.0025238     0.0000691   -0.0000946    -0.0541040   -0.0282105 
   0.000650150    -0.9634998    0.0420240    -0.0015002   -0.0029561     0.0000134    0.0001972    -0.0339984   -0.0091595 
   0.000750175    -0.9594035    0.0400481    -0.0014374   -0.0021096    -0.0000565   -0.0001451    -0.0213278    0.0005265 
   0.000850200    -0.9707694    0.0445713    -0.0011366   -0.0021165     0.0000403   -0.0000626    -0.0081625    0.0071797 
   0.000950225    -0.9674331    0.0576059    -0.0018717   -0.0019734    -0.0001615   -0.0000580    -0.0013989    0.0103212 
   0.001050250    -0.9624376    0.0581713    -0.0024014   -0.0014868     0.0000730   -0.0002283     0.0054392    0.0110460 
   0.001150275    -0.9665359    0.0679616    -0.0018588   -0.0009625     0.0000420    0.0000880     0.0117817    0.0102416 
   0.001250300    -0.9737405    0.0649510    -0.0020784   -0.0004921     0.0000149   -0.0000431     0.0155853    0.0113881 
   0.001350325    -0.9665393    0.0901837    -0.0022811   -0.0013567    -0.0000595    0.0000582     0.0197347    0.0117500 
   0.001450350    -0.9604288    0.0858599    -0.0023518   -0.0013415     0.0001317    0.0002667     0.0214159    0.0117253 
   0.001550375    -0.9535600    0.1040647    -0.0034907   -0.0012349    -0.0000557   -0.0001641     0.0233083    0.0122805 
   0.001650400    -0.9575875    0.1025405    -0.0025131   -0.0005836    -0.0000136   -0.0000854     0.0261835    0.0118932 
   0.001750425    -0.9498993    0.1000662    -0.0024026   -0.0005717     0.0002433    0.0000817     0.0265807    0.0098335 
   0.001850450    -0.9504303    0.1034362    -0.0034516   -0.0007382    -0.0001764    0.0000725     0.0274817    0.0111846 
   0.001950475    -0.9495661    0.1144723    -0.0034466   -0.0008460     0.0002320    0.0002643     0.0298797    0.0097479 
   0.002050500    -0.9671504    0.1149184    -0.0027275    0.0001945     0.0000041   -0.0000513     0.0312236    0.0095051 
   0.002150525    -0.9483755    0.1244934    -0.0030335   -0.0004447    -0.0001112    0.0000999     0.0327397    0.0087303 
   0.002250550    -0.9536982    0.1219381    -0.0028049    0.0013262     0.0000734    0.0000655     0.0313171    0.0068647 
   0.002350575    -0.9589440    0.1373773    -0.0031245    0.0008993     0.0001191    0.0000645     0.0351204    0.0079516 
   0.002450600    -0.9609776    0.1463262    -0.0032308   -0.0007681     0.0001008    0.0000683     0.0342204    0.0076827 
   0.002550625    -0.9499844    0.1520626    -0.0029295    0.0003997     0.0000077    0.0000664     0.0351903    0.0074104 
   0.002650650    -0.9449847    0.1530986    -0.0037035   -0.0004028     0.0000582   -0.0000433     0.0360950    0.0048800 
   0.002750675    -0.9394007    0.1617073    -0.0028938    0.0012722    -0.0000473    0.0000916     0.0362075    0.0068439 
   0.002850700    -0.9539549    0.1648259    -0.0042398    0.0005446     0.0002005    0.0003265     0.0367616    0.0058479 
   0.002950725    -0.9441639    0.1810131    -0.0040462   -0.0001105    -0.0001331    0.0000021     0.0387466    0.0045208 
   0.003050750    -0.9605595    0.1819345    -0.0044647    0.0015298     0.0001852   -0.0001635     0.0378139    0.0045560 
   0.003150775    -0.9396597    0.1812543    -0.0043036    0.0014683     0.0000606    0.0000043     0.0375133    0.0045673 
   0.003250800    -0.9441736    0.1949081    -0.0044005    0.0004816     0.0001484    0.0000771     0.0376294    0.0036486 
   0.003350825    -0.9495451    0.2040096    -0.0041830   -0.0000646    -0.0001612    0.0000421     0.0375699    0.0035005 
   0.003450850    -0.9410527    0.2027614    -0.0041405    0.0015608    -0.0000833   -0.0000223     0.0397425    0.0033008 
   0.003550875    -0.9348201    0.1950270    -0.0050128    0.0011317     0.0000361    0.0001421     0.0389399    0.0024880 
   0.003650900    -0.9288969    0.2121117    -0.0046899    0.0004659     0.0000486   -0.0000042     0.0395726    0.0018099 
   0.003750925    -0.9394684    0.2185790    -0.0054143    0.0010582    -0.0000435   -0.0000191     0.0399091    0.0015943 
   0.003850950    -0.9348160    0.2212471    -0.0049577    0.0006895    -0.0000080   -0.0001298     0.0388364    0.0004867 
   0.003950975    -0.9369643    0.2339617    -0.0062119    0.0003709     0.0000047   -0.0002523     0.0409400    0.0009040 
   0.004051001    -0.9241118    0.2388719    -0.0051107    0.0007384    -0.0000809    0.0000339     0.0404815    0.0006615 
   0.004151026    -0.9351556    0.2421190    -0.0048278    0.0017320    -0.0000494    0.0001844     0.0409927    0.0009318 
   0.004251051    -0.9366459    0.2399049    -0.0047470    0.0016205    -0.0003260    0.0000599     0.0407254    0.0008076 
   0.004351076    -0.9184626    0.2519551    -0.0065824    0.0011089    -0.0001799   -0.0001576     0.0405581   -0.0003990 
   0.004451101    -0.9243392    0.2551596    -0.0059392    0.0020892    -0.0000970    0.0001608     0.0420889   -0.0016266 
   0.004551126    -0.9229946    0.2635604    -0.0071289    0.0016392     0.0000680    0.0000661     0.0400310   -0.0004561 
   0.004651151    -0.9270333    0.2735338    -0.0071237    0.0023990     0.0000860    0.0000905     0.0418886   -0.0022227 
   0.004751176    -0.9291125    0.2721592    -0.0066127    0.0017097     0.0000350   -0.0000636     0.0412829   -0.0025165 
   0.004851201    -0.9284744    0.2891145    -0.0070494    0.0023236     0.0000390    0.0001042     0.0416335   -0.0018398 
   0.004951226    -0.9237862    0.2799715    -0.0075915    0.0019294    -0.0000993    0.0000351     0.0416728   -0.0033552 
   0.005051251    -0.9255595    0.2850697    -0.0070516    0.0028807    -0.0000640    0.0000255     0.0416037   -0.0026949 
   0.005151276    -0.9152316    0.2969724    -0.0090688    0.0025253     0.0000322   -0.0001474     0.0420453   -0.0038511 
   0.005251301    -0.9188589    0.2981031    -0.0077132    0.0025142    -0.0000798    0.0000596     0.0424591   -0.0045422 
   0.005351326    -0.9090430    0.3001591    -0.0085208    0.0016834     0.0000879    0.0000858     0.0429609   -0.0038494 
   0.005451351    -0.9082189    0.3114907    -0.0093737    0.0024185    -0.0001343    0.0001508     0.0426917   -0.0050175 
   0.005551376    -0.9179537    0.3019854    -0.0092648    0.0024035    -0.0000728    0.0000204     0.0431035   -0.0049091 
   0.005651401    -0.8995072    0.3260423    -0.0101727    0.0016366    -0.0000204   -0.0000311     0.0426447   -0.0053717 
   0.005751426    -0.9003345    0.3327779    -0.0093747    0.0038313    -0.0000458    0.0002416     0.0426733   -0.0056398 
   0.005851451    -0.8938110    0.3277394    -0.0099467    0.0029297     0.0000139   -0.0000183     0.0424951   -0.0067743 
   0.005951476    -0.9083214    0.3356201    -0.0110673    0.0025710     0.0001018    0.0003225     0.0426385   -0.0065383 
   0.006051501    -0.8919602    0.3401959    -0.0101204    0.0029245    -0.0001974   -0.0000308     0.0428962   -0.0068467 
   0.006151526    -0.8989507    0.3434418    -0.0111534    0.0036851     0.0000250    0.0000395     0.0429107   -0.0078424 
   0.006251551    -0.8855399    0.3628761    -0.0111651    0.0045283    -0.0000499    0.0000660     0.0426773   -0.0081807 
   0.006351576    -0.8812682    0.3607882    -0.0115159    0.0043889    -0.0000789   -0.0001851     0.0433562   -0.0080909 
   0.006451601    -0.8839543    0.3706358    -0.0124506    0.0041855    -0.0001505    0.0000690     0.0429578   -0.0081660 
   0.006551626    -0.8860645    0.3745256    -0.0119654    0.0048642     0.0001482    0.0001534     0.0432997   -0.0088707 
   0.006651651    -0.8824351    0.3785105    -0.0123376    0.0045214    -0.0001453    0.0000797     0.0430303   -0.0092895 
   0.006751676    -0.8801287    0.3760093    -0.0143844    0.0047022     0.0000781   -0.0001422     0.0433342   -0.0098647 
   0.006851701    -0.8596505    0.3888068    -0.0138082    0.0047921    -0.0000595   -0.0002343     0.0431745   -0.0097118 
   0.006951726    -0.8764729    0.3877832    -0.0137620    0.0064844    -0.0000453    0.0000669     0.0432949   -0.0102298 
   0.007051751    -0.8728029    0.3919442    -0.0144701    0.0046573     0.0000978   -0.0003011     0.0430286   -0.0103126 
   0.007151776    -0.8727397    0.3995374    -0.0138892    0.0051386     0.0000162    0.0001770     0.0437759   -0.0102128 
   0.007251801    -0.8610834    0.4067484    -0.0160198    0.0057527     0.0002252    0.0000684     0.0431176   -0.0111969 
   0.007351826    -0.8613033    0.4072473    -0.0156658    0.0062186     0.0001057   -0.0001068     0.0442793   -0.0112469 
   0.007451851    -0.8631105    0.4243336    -0.0160731    0.0063787    -0.0001339   -0.0000372     0.0436239   -0.0121487 
   0.007551876    -0.8552209    0.4203992    -0.0158598    0.0072206     0.0001322   -0.0000587     0.0432203   -0.0120376 
   0.007651901    -0.8571666    0.4277746    -0.0177130    0.0065233     0.0001035   -0.0000125     0.0433924   -0.0126350 
   0.007751926    -0.8549362    0.4328423    -0.0169029    0.0064101    -0.0001946    0.0001770     0.0429585   -0.0121811 
   0.007851951    -0.8585656    0.4378070    -0.0177976    0.0073877    -0.0000166   -0.0000029     0.0444500   -0.0132510 
   0.007951976    -0.8474827    0.4385990    -0.0179977    0.0072353    -0.0000627    0.0000715     0.0437113   -0.0137890 
   0.008052001    -0.8424516    0.4514151    -0.0176120    0.0077326    -0.0001669   -0.0000483     0.0432445   -0.0136684 
   0.008152026    -0.8446142    0.4432987    -0.0176140    0.0095914     0.0000239    0.0000217     0.0432304   -0.0141374 
   0.008252051    -0.8421551    0.4493380    -0.0183394    0.0087946     0.0002207   -0.0000219     0.0434458   -0.0152591 
   0.008352076    -0.8446062    0.4469874    -0.0188547    0.0092051     0.0001617    0.0000121     0.0430484   -0.0144361 
   0.008452101    -0.8401468    0.4647154    -0.0190871    0.0094676    -0.0000897    0.0002286     0.0435218   -0.0153737 
   0.008552126    -0.8273073    0.4685918    -0.0200433    0.0094864     0.0000373   -0.0000082     0.0432367   -0.0156234 
   0.008652151    -0.8311419    0.4713030    -0.0207061    0.0102982     0.0001677    0.0002291     0.0434216   -0.0157291 
   0.008752176    -0.8110058    0.4760967    -0.0205158    0.0109315    -0.0001470    0.0000544     0.0433524   -0.0162488 
   0.008852201    -0.8160840    0.4742586    -0.0202396    0.0094171     0.0000461    0.0001237     0.0430985   -0.0167232 
   0.008952226    -0.8289821    0.4772690    -0.0216762    0.0101927    -0.0000230    0.0002231     0.0439673   -0.0168026 
   0.009052251    -0.8082922    0.4930208    -0.0225159    0.0118672    -0.0001533   -0.0000248     0.0438121   -0.0170760 
   0.009152276    -0.7914726    0.4925865    -0.0222751    0.0104083    -0.0000652    0.0002308     0.0430809   -0.0180612 
   0.009252301    -0.8070458    0.5018556    -0.0238067    0.0113336    -0.0000460   -0.0001266     0.0430024   -0.0181523 
   0.009352326    -0.8149760    0.4942274    -0.0236716    0.0109014    -0.0001870   -0.0000498     0.0433759   -0.0172974 
   0.009452351    -0.8016999    0.5120597    -0.0240180    0.0136489     0.0001854    0.0001056     0.0435334   -0.0183331 
   0.009552376    -0.8001702    0.5136800    -0.0248878    0.0126825     0.0000488    0.0000907     0.0428621   -0.0185725 
   0.009652401    -0.8042501    0.5251592    -0.0248736    0.0136395    -0.0001349    0.0001622     0.0432455   -0.0188516 
   0.009752426    -0.7996784    0.5221999    -0.0251165    0.0130354     0.0002149    0.0000768     0.0430103   -0.0199709 
   0.009852451    -0.7918667    0.5306481    -0.0255911    0.0135915    -0.0000005   -0.0000194     0.0428697   -0.0190650 
   0.009952476    -0.7800621    0.5407379    -0.0264388    0.0141412     0.0000889   -0.0000054     0.0430075   -0.0196657 
   0.010052501    -0.7783327    0.5259048    -0.0271525    0.0148416     0.0000956   -0.0001378     0.0434195   -0.0200628 
   0.010152526    -0.7851427    0.5474102    -0.0278894    0.0136011    -0.0000961    0.0001297     0.0422728   -0.0210477 
   0.010252551    -0.7837358    0.5535040    -0.0292797    0.0148352    -0.0002659   -0.0001480     0.0420669   -0.0207280 
   0.010352576    -0.7730025    0.5412567    -0.0287702    0.0144232     0.0003674    0.0003055     0.0427878   -0.0214739 
   0.010452601    -0.7649333    0.5573000    -0.0295350    0.0157603    -0.0000462    0.0004622     0.0426866   -0.0214302 
   0.010552626    -0.7622026    0.5519049    -0.0299085    0.0162650    -0.0003688   -0.0000025     0.0424122   -0.0220402 
   0.010652651    -0.7670124    0.5740135    -0.0305136    0.0174651    -0.0002790   -0.0001102     0.0422818   -0.0220875 
   0.010752676    -0.7687055    0.5782813    -0.0308038    0.0171866     0.0000453    0.0003923     0.0421303   -0.0225001 
   0.010852701    -0.7542909    0.5688214    -0.0312841    0.0187993     0.0001274    0.0000173     0.0430385   -0.0231157 
   0.010952726    -0.7562383    0.5800864    -0.0317668    0.0185804     0.0000890    0.0000066     0.0419454   -0.0235616 
   0.011052751    -0.7539115    0.5710142    -0.0313627    0.0184059     0.0000199    0.0000544     0.0418502   -0.0231576 
   0.011152776    -0.7509870    0.5863836    -0.0325565    0.0178824     0.0000622    0.0002624     0.0428849   -0.0236152 
   0.011252801    -0.7365214    0.5859187    -0.0316318    0.0187287    -0.0001153   -0.0000290     0.0423041   -0.0234170 
   0.011352826    -0.7403193    0.5998737    -0.0317863    0.0202274    -0.0000932    0.0004612     0.0420681   -0.0246570 
   0.011452851    -0.7328663    0.6051590    -0.0337059    0.0211475     0.0000798   -0.0001358     0.0417709   -0.0246718 
   0.011552876    -0.7328277    0.6102716    -0.0339184    0.0202728    -0.0001856    0.0000784     0.0418713   -0.0250618 
   0.011652901    -0.7258882    0.6016681    -0.0335807    0.0213981    -0.0002655   -0.0001257     0.0416027   -0.0250566 
   0.011752926    -0.7335702    0.6155878    -0.0349024    0.0223622     0.0001634    0.0000855     0.0418814   -0.0249658 
   0.011852951    -0.7204477    0.6203482    -0.0340871    0.0235636     0.0000869    0.0003830     0.0414236   -0.0261534 
   0.011952976    -0.7180349    0.6122050    -0.0347808    0.0229273    -0.0003558    0.0000173     0.0413730   -0.0263136 
   0.012053002    -0.7224063    0.6207857    -0.0355383    0.0251005    -0.0002669   -0.0000609     0.0419301   -0.0261161 
   0.012153027    -0.7065997    0.6167480    -0.0361001    0.0244993    -0.0000291   -0.0003362     0.0410428   -0.0267200 
   0.012253052    -0.7015135    0.6170937    -0.0360116    0.0242007     0.0001708   -0.0002672     0.0416259   -0.0272732 
   0.012353077    -0.7050943    0.6301922    -0.0370848    0.0260997    -0.0000441    0.0000661     0.0408798   -0.0270696 
   0.012453102    -0.7010657    0.6508849    -0.0379809    0.0269110     0.0000363   -0.0000044     0.0411785   -0.0273925 
   0.012553127    -0.6856461    0.6413465    -0.0379453    0.0269553     0.0002408    0.0001171     0.0403747   -0.0282704 
   0.012653152    -0.6910597    0.6418020    -0.0386877    0.0272216     0.0000874   -0.0001139     0.0411405   -0.0278409 
   0.012753177    -0.6890563    0.6515649    -0.0401218    0.0277354    -0.0002273    0.0001696     0.0415644   -0.0280906 
   0.012853202    -0.6926349    0.6635020    -0.0413649    0.0286540     0.0001459    0.0002882     0.0412071   -0.0291554 
   0.012953227    -0.6591845    0.6648655    -0.0395468    0.0290349    -0.0001042    0.0003331     0.0407602   -0.0296504 
   0.013053252    -0.6693009    0.6749051    -0.0424782    0.0306405    -0.0003294    0.0000752     0.0407348   -0.0295522 
   0.013153277    -0.6679540    0.6632370    -0.0423399    0.0298660     0.0002304    0.0000155     0.0403963   -0.0299091 
   0.013253302    -0.6697025    0.6687563    -0.0412360    0.0308078     0.0001373    0.0001139     0.0403745   -0.0304229 
   0.013353327    -0.6683483    0.6797510    -0.0438557    0.0317001     0.0000766   -0.0000736     0.0404113   -0.0303651 
   0.013453352    -0.6613639    0.6806393    -0.0439611    0.0319250    -0.0002395   -0.0000659     0.0401373   -0.0305903 
   0.013553377    -0.6542585    0.6898676    -0.0448511    0.0336958    -0.0000956   -0.0000446     0.0400149   -0.0311517 
   0.013653402    -0.6538032    0.6904396    -0.0454168    0.0332289    -0.0000793    0.0000479     0.0398868   -0.0306738 
   0.013753427    -0.6490805    0.6912896    -0.0459063    0.0335512     0.0000889   -0.0002993     0.0392023   -0.0316879 
   0.013853452    -0.6361105    0.6794958    -0.0464328    0.0339590     0.0003040   -0.0000052     0.0395837   -0.0316926 
   0.013953477    -0.6404408    0.7073112    -0.0466460    0.0364241     0.0002262   -0.0000199     0.0399628   -0.0321103 
   0.014053502    -0.6301483    0.6969513    -0.0481613    0.0360132    -0.0002713   -0.0000406     0.0396350   -0.0323932 
   0.014153527    -0.6279164    0.7030367    -0.0475201    0.0352262     0.0000616   -0.0000042     0.0392953   -0.0325847 
   0.014253552    -0.6114997    0.7197556    -0.0487560    0.0384698     0.0000556    0.0000675     0.0396203   -0.0331621 
   0.014353577    -0.6224928    0.7071791    -0.0486584    0.0367831     0.0002116    0.0000188     0.0388038   -0.0336063 
   0.014453602    -0.5975829    0.7226340    -0.0500778    0.0379645    -0.0001043    0.0003589     0.0388126   -0.0338088 
   0.014553627    -0.6190333    0.7169722    -0.0509741    0.0384243     0.0000233    0.0003696     0.0389600   -0.0339972 
   0.014653652    -0.6045839    0.7350491    -0.0511448    0.0383396    -0.0002322   -0.0001597     0.0389285   -0.0342904 
   0.014753677    -0.6003430    0.7258471    -0.0507589    0.0395605    -0.0002962   -0.0001960     0.0384440   -0.0340907 
   0.014853702    -0.6032532    0.7360434    -0.0516649    0.0398474    -0.0001501   -0.0001175     0.0381927   -0.0347779 
   0.014953727    -0.5954744    0.7256722    -0.0515283    0.0403036     0.0000868    0.0002887     0.0387291   -0.0354630 
   0.015053752    -0.5898201    0.7478299    -0.0516987    0.0434543     0.0000773    0.0000585     0.0384368   -0.0349071 
   0.015153777    -0.5774909    0.7244838    -0.0528744    0.0406604     0.0000486   -0.0000531     0.0382472   -0.0360551 
   0.015253802    -0.5637671    0.7507465    -0.0530530    0.0446437    -0.0001356    0.0002621     0.0379400   -0.0362638 
   0.015353827    -0.5668601    0.7482393    -0.0548888    0.0466941     0.0002337    0.0000599     0.0372399   -0.0366067 
   0.015453852    -0.5649487    0.7515599    -0.0566134    0.0453000    -0.0001239   -0.0000568     0.0376126   -0.0366937 
   0.015553877    -0.5598111    0.7563817    -0.0563350    0.0474287     0.0002236    0.0003640     0.0375092   -0.0365055 
   0.015653902    -0.5560870    0.7598533    -0.0579650    0.0479963    -0.0000339    0.0001270     0.0374208   -0.0370209 
