! 19-Feb-26 3:08:32 PM
! E:\VNA_MEASUREMENTS\RECBLOCK\RSPDXREV1.S2P
! CHANNEL.1
! TR.MEASUREMENT
! CORRECTED.DATA
# GHZ S RI R 50.0
! FREQ.GHZ         S11RE         S11IM         S21RE         S21IM         S12RE         S12IM         S22RE         S22IM         
!; PortSelection: Port_12
   0.000050000     0.2882178    0.6163337     0.5494297   -0.1827280    -0.0045538   -0.0016233     0.0138058   -0.4844064 
   0.000150025     0.5484632    0.5071518    -0.8012725   -1.1428230     0.0002604   -0.0003375    -0.3381182   -0.4211998 
   0.000250050     0.8993029   -1.5290080    -5.4189000    0.8805016     0.0018945    0.0002501    -0.5245552   -0.3559785 
   0.000350075     0.0015716    0.0023309    -0.0019443   -0.0046689     0.0003427    0.0001219    -0.6405011   -0.2444529 
   0.000450100    -0.0013914   -0.0003803    -0.0023326   -0.0086694     0.0000199   -0.0002196    -0.6577966   -0.1311483 
   0.000550125     0.0012069    0.0025259     0.0001258   -0.0072338     0.0000793    0.0001621    -0.6787488   -0.1163559 
   0.000650150    -0.0019343    0.0038656    -0.0030870   -0.0061953    -0.0000942    0.0004035    -0.7051858   -0.0302847 
   0.000750175     0.0007632    0.0025788    -0.0050243   -0.0056051     0.0000100    0.0000788    -0.6937647    0.0445459 
   0.000850200     0.0026729    0.0021759    -0.0056106   -0.0046707     0.0003718    0.0001096    -0.6534259    0.1071539 
   0.000950225     0.0005007    0.0004440    -0.0009341   -0.0060452    -0.0001736   -0.0001900    -0.6065263    0.1430288 
   0.001050250     0.0048409    0.0008360    -0.0029704   -0.0029941    -0.0002798   -0.0000013    -0.5457439    0.1394938 
   0.001150275     0.0070068    0.0054173    -0.0054800   -0.0022882    -0.0003896   -0.0002286    -0.5367476    0.1066659 
   0.001250300    -0.0038009    0.0026878    -0.0048398   -0.0041703    -0.0001707   -0.0003808    -0.5560402    0.1333273 
   0.001350325    -0.0046765    0.0003775    -0.0058267   -0.0010201    -0.0000370    0.0006067    -0.5132072    0.1815360 
   0.001450350     0.0023855    0.0009828    -0.0048608   -0.0031407     0.0000048    0.0003420    -0.4507791    0.1903210 
   0.001550375     0.0016709   -0.0002935    -0.0042290    0.0002249    -0.0003269   -0.0002512    -0.3797500    0.1551790 
   0.001650400    -0.0008930   -0.0004513    -0.0053602   -0.0023035    -0.0002510   -0.0002874    -0.3286513    0.0783996 
   0.001750425    -0.0002840   -0.0024448    -0.0038545   -0.0005129     0.0000588   -0.0002373    -0.3385350   -0.0450392 
   0.001850450     0.0037690   -0.0006816    -0.0038985    0.0005656    -0.0002249    0.0001796    -0.4651047   -0.1403612 
   0.001950475    -0.0041209   -0.0001779    -0.0043819    0.0011305     0.0001243   -0.0000730    -0.6193091   -0.0916503 
   0.002050500    -0.0014488   -0.0030778    -0.0030093   -0.0001098    -0.0001788   -0.0003533    -0.6686340    0.0275324 
   0.002150525    -0.0022494    0.0017574    -0.0030904    0.0014404     0.0000996    0.0000946    -0.6536875    0.1124213 
   0.002250550    -0.0021120    0.0003890    -0.0035427    0.0010695    -0.0001896    0.0003084    -0.6179030    0.1640088 
   0.002350575     0.0011179    0.0019240    -0.0030484    0.0017154    -0.0005147    0.0001452    -0.5807751    0.1866811 
   0.002450600    -0.0019167   -0.0026027    -0.0024143    0.0015274     0.0000088   -0.0000077    -0.5477227    0.2019925 
   0.002550625     0.0008306    0.0011008    -0.0029033    0.0030050    -0.0004275   -0.0002667    -0.5217963    0.2097934 
   0.002650650     0.0028999   -0.0013450    -0.0028976   -0.0000186     0.0003766    0.0003491    -0.4972530    0.2121742 
   0.002750675    -0.0029445   -0.0023913    -0.0030078    0.0018001     0.0003561    0.0001930    -0.4787439    0.2149348 
   0.002850700     0.0037053   -0.0008444    -0.0019899    0.0013750     0.0000862   -0.0001841    -0.4661940    0.2144375 
   0.002950725     0.0001887   -0.0015760    -0.0025784    0.0016521    -0.0001302    0.0001988    -0.4497163    0.2096744 
   0.003050750    -0.0007532   -0.0015962    -0.0003227    0.0014743     0.0000067   -0.0001486    -0.4374092    0.2099898 
   0.003150775    -0.0026052   -0.0023740    -0.0013538    0.0005317     0.0001367    0.0004346    -0.4254771    0.2070130 
   0.003250800    -0.0004221   -0.0003965    -0.0012717    0.0018277     0.0000230   -0.0004283    -0.4171441    0.2041661 
   0.003350825    -0.0008467   -0.0023525    -0.0007557    0.0014645    -0.0004647   -0.0005042    -0.4072934    0.2016458 
   0.003450850     0.0021304    0.0000623     0.0003030    0.0010935     0.0001522   -0.0003284    -0.4006488    0.1981244 
   0.003550875    -0.0020559    0.0021110    -0.0015889    0.0011669     0.0000293   -0.0000675    -0.3947497    0.1973149 
   0.003650900     0.0006573   -0.0027084     0.0002265    0.0009498     0.0005260    0.0001390    -0.3880859    0.1943529 
   0.003750925     0.0020234    0.0021128    -0.0014095    0.0001996    -0.0000177   -0.0003346    -0.3798766    0.1907414 
   0.003850950    -0.0003722   -0.0020102    -0.0007612    0.0021680     0.0002483    0.0001890    -0.3764167    0.1873032 
   0.003950975    -0.0023090    0.0000321    -0.0000385    0.0015519     0.0001103    0.0000410    -0.3709903    0.1851393 
   0.004051001     0.0031066   -0.0013647    -0.0002430    0.0004049    -0.0001912    0.0000727    -0.3658960    0.1842836 
   0.004151026    -0.0006720   -0.0010709    -0.0007569    0.0007362    -0.0001237    0.0001794    -0.3600744    0.1810828 
   0.004251051    -0.0017119    0.0012980    -0.0029934   -0.0000342    -0.0000330    0.0000642    -0.3588389    0.1800815 
   0.004351076    -0.0010732    0.0012272    -0.0002331    0.0003980    -0.0000091   -0.0003993    -0.3522544    0.1776311 
   0.004451101     0.0005954    0.0007575     0.0007469    0.0018619    -0.0002546   -0.0002787    -0.3493325    0.1741693 
   0.004551126    -0.0013529    0.0008570     0.0011770   -0.0001968     0.0002930   -0.0000769    -0.3447287    0.1718278 
   0.004651151     0.0005232   -0.0012049     0.0001837    0.0000646    -0.0004200   -0.0000003    -0.3405250    0.1702604 
   0.004751176     0.0020014    0.0026504     0.0005415   -0.0000538     0.0001413   -0.0003877    -0.3385311    0.1690587 
   0.004851201     0.0024587    0.0012308     0.0008619    0.0010388    -0.0001050   -0.0000632    -0.3338368    0.1674562 
   0.004951226    -0.0030377    0.0004010    -0.0013674    0.0018748    -0.0000824   -0.0003477    -0.3326669    0.1647724 
   0.005051251    -0.0005569   -0.0031031     0.0007410   -0.0005204    -0.0001055    0.0001848    -0.3288102    0.1639682 
   0.005151276    -0.0023890   -0.0006903    -0.0019514   -0.0000804    -0.0002903   -0.0002075    -0.3270688    0.1616362 
   0.005251301    -0.0002479    0.0001273     0.0010815   -0.0001822    -0.0000580   -0.0000959    -0.3234295    0.1616994 
   0.005351326    -0.0006024   -0.0021200    -0.0001847    0.0011721     0.0001069    0.0000923    -0.3209031    0.1595355 
   0.005451351     0.0011850   -0.0000059     0.0005900    0.0004718    -0.0000993    0.0002402    -0.3174910    0.1565874 
   0.005551376    -0.0007141    0.0002395    -0.0003849    0.0017020     0.0002363    0.0001164    -0.3142810    0.1544515 
   0.005651401    -0.0013630    0.0005597    -0.0006552   -0.0003119     0.0003628   -0.0001551    -0.3121489    0.1532788 
   0.005751426    -0.0010127    0.0012645    -0.0009005    0.0004760    -0.0000928   -0.0000075    -0.3096035    0.1516142 
   0.005851451    -0.0000280    0.0007909    -0.0005997    0.0006501     0.0002199    0.0002388    -0.3072222    0.1493781 
   0.005951476    -0.0002249    0.0013379    -0.0010679    0.0002736     0.0001990   -0.0001065    -0.3042071    0.1478379 
   0.006051501     0.0000278   -0.0015810    -0.0014479    0.0009716    -0.0002409    0.0000815    -0.3019964    0.1474108 
   0.006151526    -0.0006054    0.0000103     0.0005084    0.0001169     0.0001588   -0.0001252    -0.3003169    0.1461883 
   0.006251551    -0.0026488   -0.0018850     0.0005665   -0.0003538     0.0001704   -0.0002922    -0.2972594    0.1432340 
   0.006351576     0.0009476   -0.0014753     0.0010552   -0.0003388     0.0000477    0.0000893    -0.2963371    0.1419825 
   0.006451601    -0.0026974    0.0019129    -0.0000046    0.0003998    -0.0000077    0.0000767    -0.2922632    0.1409488 
   0.006551626     0.0008399   -0.0003683     0.0000942    0.0005617     0.0001156    0.0001425    -0.2917282    0.1394964 
   0.006651651     0.0007013   -0.0001444    -0.0005030    0.0007482     0.0001710    0.0000374    -0.2895350    0.1368767 
   0.006751676    -0.0003648    0.0017993    -0.0004816    0.0001713     0.0001679    0.0001155    -0.2892652    0.1369751 
   0.006851701    -0.0003616   -0.0003906     0.0015417   -0.0007980    -0.0002081    0.0002642    -0.2862607    0.1345373 
   0.006951726     0.0010950    0.0002594    -0.0000757   -0.0003453    -0.0000384   -0.0000769    -0.2852899    0.1335376 
   0.007051751    -0.0011611   -0.0001818     0.0008487    0.0001493     0.0002741   -0.0002410    -0.2836887    0.1317407 
   0.007151776     0.0021469    0.0016885    -0.0007406    0.0007091    -0.0000949   -0.0000357    -0.2800995    0.1310434 
   0.007251801     0.0009907   -0.0006972    -0.0009141   -0.0000305    -0.0002687    0.0001559    -0.2786034    0.1286726 
   0.007351826    -0.0001432    0.0005286     0.0006356   -0.0004188    -0.0001320    0.0002263    -0.2778192    0.1282859 
   0.007451851     0.0001805   -0.0006675    -0.0005551    0.0004898    -0.0001235   -0.0000158    -0.2740371    0.1250764 
   0.007551876    -0.0009297    0.0006121    -0.0012858    0.0004093     0.0000874   -0.0004376    -0.2749878    0.1255665 
   0.007651901    -0.0019326    0.0006877     0.0004668    0.0000711    -0.0001922    0.0002467    -0.2714216    0.1231125 
   0.007751926    -0.0020260    0.0004948    -0.0012821    0.0008275    -0.0001436   -0.0000200    -0.2702685    0.1201822 
   0.007851951    -0.0001428    0.0008821    -0.0000845   -0.0003467     0.0001726   -0.0000452    -0.2689435    0.1197724 
   0.007951976    -0.0001186   -0.0014754     0.0006062    0.0011433     0.0000906   -0.0000029    -0.2678186    0.1188933 
   0.008052001     0.0003011    0.0020098    -0.0005774    0.0001971     0.0000292    0.0000506    -0.2664733    0.1164770 
   0.008152026    -0.0030280   -0.0016158    -0.0003215    0.0001618    -0.0000874   -0.0001967    -0.2642014    0.1147230 
   0.008252051     0.0011867   -0.0010566     0.0005871   -0.0005454    -0.0001977    0.0001249    -0.2639603    0.1127490 
   0.008352076    -0.0014985   -0.0010461    -0.0006132   -0.0001036    -0.0003871   -0.0000998    -0.2624330    0.1122403 
   0.008452101     0.0006770    0.0009060     0.0009725   -0.0001261     0.0000898   -0.0000314    -0.2591457    0.1103764 
   0.008552126    -0.0003983   -0.0006850    -0.0010912   -0.0000374    -0.0000518    0.0003153    -0.2599180    0.1085898 
   0.008652151    -0.0009100    0.0009645    -0.0004984   -0.0002431     0.0003175    0.0003078    -0.2571478    0.1077158 
   0.008752176    -0.0003576   -0.0003639     0.0000664   -0.0004228     0.0001662   -0.0000071    -0.2565915    0.1058212 
   0.008852201     0.0003491    0.0002580    -0.0007788   -0.0008324    -0.0000243   -0.0000538    -0.2563974    0.1034970 
   0.008952226     0.0010002    0.0012215    -0.0007637   -0.0007923     0.0000522   -0.0002293    -0.2545171    0.1024535 
   0.009052251     0.0016641    0.0001427     0.0004981    0.0010952     0.0001463   -0.0002181    -0.2522308    0.1011582 
   0.009152276     0.0001624    0.0015028    -0.0000722   -0.0006681     0.0000621    0.0002122    -0.2512437    0.0980519 
   0.009252301     0.0009692   -0.0001076    -0.0007258    0.0008980     0.0000579   -0.0000546    -0.2513284    0.0967450 
   0.009352326     0.0006669    0.0005316    -0.0000809    0.0010668    -0.0000038   -0.0002192    -0.2501469    0.0949559 
   0.009452351    -0.0003258    0.0003479    -0.0002015    0.0001931    -0.0001030    0.0001073    -0.2488405    0.0935583 
   0.009552376    -0.0018336    0.0000516    -0.0003292    0.0000965    -0.0001810    0.0001300    -0.2474654    0.0913077 
   0.009652401    -0.0005507    0.0000065     0.0001357   -0.0002560     0.0000133   -0.0000474    -0.2473453    0.0904680 
   0.009752426     0.0009115    0.0010848    -0.0006659   -0.0003373     0.0000658   -0.0000840    -0.2470452    0.0875043 
   0.009852451     0.0003065    0.0000848    -0.0007183   -0.0000289    -0.0000076    0.0001105    -0.2461305    0.0862089 
   0.009952476    -0.0002399    0.0014542    -0.0007403    0.0004044     0.0000396   -0.0000461    -0.2448095    0.0850535 
   0.010052501     0.0007492    0.0006104    -0.0000892    0.0005281     0.0000024    0.0000374    -0.2437563    0.0828799 
   0.010152526    -0.0001513   -0.0000996    -0.0001104   -0.0005481     0.0001694   -0.0002064    -0.2440554    0.0814879 
   0.010252551     0.0021581    0.0024436    -0.0000384   -0.0014941    -0.0000502    0.0001222    -0.2435969    0.0796148 
   0.010352576    -0.0000121    0.0004746     0.0007160    0.0001669     0.0001206    0.0002925    -0.2437288    0.0779074 
   0.010452601     0.0018424   -0.0006190    -0.0002548   -0.0005130     0.0001362    0.0002208    -0.2428146    0.0762085 
   0.010552626     0.0003760   -0.0005895     0.0007230    0.0001176    -0.0000347    0.0001161    -0.2425956    0.0743325 
   0.010652651    -0.0008853   -0.0024504    -0.0009628    0.0003957    -0.0001363   -0.0000955    -0.2417298    0.0716519 
   0.010752676     0.0006233   -0.0014445     0.0002212    0.0001236    -0.0000728   -0.0001138    -0.2411670    0.0713876 
   0.010852701    -0.0004027   -0.0003675     0.0009798   -0.0005923    -0.0000604    0.0000396    -0.2419800    0.0694280 
   0.010952726    -0.0009904   -0.0003099     0.0005359   -0.0001786    -0.0001498    0.0001116    -0.2416956    0.0679070 
   0.011052751     0.0026170   -0.0010946     0.0001742    0.0005998     0.0000750   -0.0000856    -0.2420845    0.0660723 
   0.011152776     0.0010114    0.0004210     0.0001030   -0.0002820    -0.0000576   -0.0000817    -0.2416780    0.0641088 
   0.011252801    -0.0008781    0.0012313    -0.0002105   -0.0004229     0.0000621   -0.0001781    -0.2417570    0.0631140 
   0.011352826    -0.0019541    0.0003958    -0.0002150   -0.0006865    -0.0001195   -0.0001504    -0.2423983    0.0615776 
   0.011452851    -0.0012073   -0.0003489    -0.0001259    0.0000416    -0.0001762    0.0000147    -0.2426738    0.0595411 
   0.011552876    -0.0013900    0.0005091    -0.0002436   -0.0007365    -0.0000311    0.0003245    -0.2435115    0.0589253 
   0.011652901     0.0001196    0.0000670     0.0002060    0.0001913    -0.0000376   -0.0001260    -0.2433344    0.0575990 
   0.011752926    -0.0015620    0.0019048    -0.0005296    0.0006345     0.0001031   -0.0000531    -0.2440659    0.0558970 
   0.011852951    -0.0013689    0.0013530    -0.0000091    0.0004545    -0.0001113    0.0000274    -0.2446436    0.0551456 
   0.011952976    -0.0016310   -0.0004537    -0.0002840   -0.0011860     0.0000409   -0.0001145    -0.2447333    0.0535267 
   0.012053002     0.0004383    0.0004799     0.0004238   -0.0000047     0.0000597   -0.0002341    -0.2449779    0.0529136 
   0.012153027    -0.0005429    0.0007287     0.0004008    0.0000776    -0.0000326    0.0001552    -0.2466230    0.0521259 
   0.012253052    -0.0011085    0.0023206    -0.0000585   -0.0001675     0.0001848   -0.0000902    -0.2462926    0.0519410 
   0.012353077     0.0008354   -0.0003191     0.0001382   -0.0000541     0.0000293   -0.0000123    -0.2465715    0.0514006 
   0.012453102    -0.0002320    0.0005760    -0.0001773    0.0003689     0.0003159   -0.0000608    -0.2488908    0.0505847 
   0.012553127     0.0004422    0.0005585     0.0003597   -0.0002980     0.0001506    0.0000400    -0.2482481    0.0501472 
   0.012653152    -0.0008960    0.0017025     0.0007047    0.0003104    -0.0002650   -0.0000086    -0.2482818    0.0500139 
   0.012753177     0.0005582   -0.0000901     0.0001436   -0.0006329    -0.0000461    0.0001655    -0.2486315    0.0488873 
   0.012853202    -0.0006528   -0.0004748    -0.0003802   -0.0006574    -0.0000544    0.0001526    -0.2499984    0.0492310 
   0.012953227     0.0005676   -0.0005811    -0.0003506   -0.0001197    -0.0001359    0.0000321    -0.2503428    0.0494325 
   0.013053252    -0.0008454    0.0002373    -0.0000002    0.0005643     0.0000236    0.0000001    -0.2499944    0.0491073 
   0.013153277    -0.0010547   -0.0016233    -0.0006866   -0.0000349    -0.0002308   -0.0001815    -0.2510923    0.0494328 
   0.013253302     0.0004662    0.0017197    -0.0001387   -0.0007167    -0.0000235    0.0000086    -0.2507193    0.0498793 
   0.013353327     0.0002941   -0.0013160    -0.0005448   -0.0002216    -0.0002741   -0.0001880    -0.2511885    0.0507798 
   0.013453352     0.0006968   -0.0000757    -0.0001903    0.0006233     0.0002059    0.0000144    -0.2502767    0.0493540 
   0.013553377     0.0007450   -0.0004230     0.0004109    0.0007698     0.0000768   -0.0000004    -0.2507245    0.0503133 
   0.013653402     0.0009470   -0.0007207    -0.0006408    0.0003084    -0.0000633   -0.0000084    -0.2513946    0.0507827 
   0.013753427     0.0009453    0.0003984    -0.0002668   -0.0008411     0.0000872    0.0001166    -0.2502477    0.0501643 
   0.013853452     0.0019640   -0.0006663    -0.0003130    0.0000811    -0.0000463    0.0000952    -0.2505044    0.0505058 
   0.013953477    -0.0005435    0.0011867     0.0004922    0.0009146     0.0000614    0.0000423    -0.2494595    0.0508135 
   0.014053502    -0.0003423   -0.0014861    -0.0004584   -0.0002575    -0.0001209   -0.0000939    -0.2491630    0.0515213 
   0.014153527    -0.0004857   -0.0006877    -0.0002409    0.0003053     0.0001748   -0.0002102    -0.2482279    0.0530331 
   0.014253552    -0.0002571   -0.0018739     0.0001324    0.0002600     0.0000292    0.0001074    -0.2476094    0.0515251 
   0.014353577     0.0001910   -0.0009264    -0.0000372   -0.0008720    -0.0000503    0.0000627    -0.2472644    0.0523127 
   0.014453602    -0.0008180   -0.0001826    -0.0000237   -0.0001115    -0.0001410   -0.0000704    -0.2465499    0.0527629 
   0.014553627     0.0002543    0.0001392     0.0001345   -0.0003416     0.0000011   -0.0000492    -0.2459436    0.0525946 
   0.014653652     0.0005144    0.0007343    -0.0001595    0.0000973     0.0002250    0.0001671    -0.2446361    0.0516462 
   0.014753677    -0.0008554    0.0007012    -0.0003373   -0.0004086    -0.0000637   -0.0000786    -0.2436073    0.0526704 
   0.014853702    -0.0012586   -0.0001522    -0.0003177   -0.0002940     0.0001859   -0.0001597    -0.2425027    0.0518600 
   0.014953727    -0.0006414    0.0002862     0.0004280    0.0001266    -0.0000591    0.0002334    -0.2413904    0.0522387 
   0.015053752    -0.0010810   -0.0005585    -0.0003254    0.0001473     0.0000170   -0.0002016    -0.2408467    0.0526572 
   0.015153777     0.0006986   -0.0017924     0.0007480   -0.0005302     0.0000777   -0.0001597    -0.2396495    0.0510701 
   0.015253802    -0.0010362    0.0005795     0.0001494    0.0003302    -0.0001808    0.0000821    -0.2384370    0.0511614 
   0.015353827    -0.0001063   -0.0011881     0.0002271    0.0011122     0.0000491   -0.0003528    -0.2371165    0.0508270 
   0.015453852    -0.0022204   -0.0005964    -0.0001631    0.0000512    -0.0000992   -0.0001559    -0.2357905    0.0505905 
   0.015553877    -0.0011105   -0.0001750     0.0000075    0.0003788    -0.0000416    0.0002725    -0.2344451    0.0508393 
   0.015653902    -0.0002211    0.0018542     0.0007713   -0.0008977     0.0002737   -0.0000401    -0.2329743    0.0491563 
