! 19-Feb-26 1:45:47 PM
! E:\VNA_MEASUREMENTS\RECBLOCK\RSPDXREV0.S2P
! CHANNEL.1
! TR.MEASUREMENT
! CORRECTED.DATA
# GHZ S RI R 50.0
! FREQ.GHZ         S11RE         S11IM         S21RE         S21IM         S12RE         S12IM         S22RE         S22IM         
!; PortSelection: Port_12
   0.000050000    -0.1704966    0.3839425    -0.2409066   -0.4316087    -0.0024522    0.0033997     0.0322637   -0.4922810 
   0.000150025    -0.0055206    0.4813389     1.5443850   -1.3160180     0.0006558    0.0002686    -0.3367792   -0.4243793 
   0.000250050     1.2367130    0.5190738    -3.0660950    1.1623500    -0.0007550    0.0005196    -0.5281504   -0.3613537 
   0.000350075     0.0083671   -0.0002471    -0.0022883   -0.0062178     0.0002672   -0.0002342    -0.6400941   -0.2402581 
   0.000450100    -0.0000825   -0.0005879     0.0010846   -0.0023893    -0.0005851    0.0005116    -0.6558436   -0.1325569 
   0.000550125    -0.0020780   -0.0006884    -0.0011333   -0.0039182     0.0001846    0.0000739    -0.6766284   -0.1139653 
   0.000650150    -0.0004445    0.0038811    -0.0036607   -0.0036690     0.0004097   -0.0005778    -0.7073805   -0.0312138 
   0.000750175    -0.0057770    0.0037812    -0.0042698   -0.0056371    -0.0003738    0.0004565    -0.6957355    0.0445987 
   0.000850200    -0.0022543    0.0003654    -0.0061543   -0.0028978     0.0005329   -0.0003276    -0.6525365    0.1050047 
   0.000950225     0.0047669   -0.0015532    -0.0030186   -0.0050309     0.0004390   -0.0005761    -0.6055090    0.1393870 
   0.001050250    -0.0000264    0.0008560    -0.0063085   -0.0049764     0.0005159    0.0000887    -0.5430004    0.1426290 
   0.001150275     0.0019368    0.0049036    -0.0039006   -0.0021683     0.0001494    0.0002472    -0.5340942    0.1065667 
   0.001250300    -0.0037058   -0.0024026    -0.0047176   -0.0014690    -0.0000276   -0.0001070    -0.5517116    0.1343817 
   0.001350325    -0.0029159   -0.0011525    -0.0044016   -0.0003306     0.0000896   -0.0002519    -0.5131071    0.1817974 
   0.001450350     0.0028178    0.0013356    -0.0056933   -0.0004645     0.0000296   -0.0000374    -0.4468921    0.1880737 
   0.001550375    -0.0003897    0.0001150    -0.0036354   -0.0004369     0.0000214   -0.0002177    -0.3767956    0.1520440 
   0.001650400     0.0019686   -0.0011984    -0.0040049   -0.0005696     0.0001783   -0.0001779    -0.3271426    0.0741308 
   0.001750425    -0.0040733   -0.0013213    -0.0026226   -0.0020795    -0.0000457    0.0001735    -0.3414209   -0.0486580 
   0.001850450     0.0037505   -0.0003958    -0.0023269    0.0013302    -0.0004722    0.0002207    -0.4733392   -0.1421745 
   0.001950475     0.0006338    0.0004994    -0.0026677   -0.0003045     0.0005944    0.0001743    -0.6228700   -0.0851488 
   0.002050500    -0.0004978    0.0037474    -0.0011510   -0.0000965     0.0000587    0.0001010    -0.6709359    0.0310661 
   0.002150525     0.0005823    0.0007588    -0.0042245    0.0011619     0.0002581   -0.0003420    -0.6509653    0.1146337 
   0.002250550    -0.0026683    0.0028700    -0.0055291    0.0025366     0.0000484   -0.0000688    -0.6146786    0.1607656 
   0.002350575    -0.0017084   -0.0000539    -0.0054284   -0.0012033    -0.0001713    0.0001440    -0.5786177    0.1898478 
   0.002450600     0.0009082    0.0010790    -0.0010003    0.0006692    -0.0001386    0.0001369    -0.5450982    0.2016156 
   0.002550625    -0.0021155   -0.0006368    -0.0045154    0.0014784     0.0001446   -0.0000699    -0.5241974    0.2078301 
   0.002650650    -0.0014229   -0.0005898    -0.0019665    0.0027774     0.0000804   -0.0001408    -0.4958758    0.2110766 
   0.002750675    -0.0004829   -0.0008771    -0.0031037    0.0008843     0.0003359    0.0001079    -0.4780256    0.2124936 
   0.002850700     0.0025598   -0.0007283    -0.0025904    0.0023893    -0.0000066    0.0000700    -0.4655995    0.2140048 
   0.002950725     0.0026277   -0.0005765    -0.0016573    0.0018222     0.0000328   -0.0004684    -0.4489753    0.2099239 
   0.003050750     0.0009014   -0.0022267    -0.0014072    0.0002925     0.0005345    0.0002040    -0.4380619    0.2096020 
   0.003150775    -0.0001667   -0.0005446    -0.0013353    0.0013454     0.0000214   -0.0000607    -0.4248585    0.2070502 
   0.003250800     0.0021663   -0.0031757    -0.0005362    0.0011629    -0.0001625    0.0000590    -0.4166504    0.2043763 
   0.003350825     0.0011082   -0.0020060    -0.0023355   -0.0001109     0.0003730   -0.0001909    -0.4088826    0.2009366 
   0.003450850    -0.0008072   -0.0016157    -0.0018833    0.0007019     0.0001224   -0.0006465    -0.4005477    0.1988088 
   0.003550875    -0.0035353    0.0064817    -0.0015387    0.0018278     0.0001595   -0.0001049    -0.3947528    0.1960515 
   0.003650900     0.0033416   -0.0005292    -0.0010850   -0.0005763     0.0000220   -0.0000748    -0.3852959    0.1944221 
   0.003750925    -0.0002725    0.0027148    -0.0016360    0.0003012    -0.0000595    0.0000496    -0.3800440    0.1915544 
   0.003850950     0.0008708   -0.0016683     0.0007149    0.0016655    -0.0002856    0.0000910    -0.3756625    0.1863277 
   0.003950975    -0.0012270    0.0014818     0.0002725    0.0000540     0.0000655    0.0000516    -0.3692827    0.1854401 
   0.004051001     0.0031888   -0.0009510     0.0005119    0.0000271    -0.0000363    0.0000745    -0.3654447    0.1847834 
   0.004151026    -0.0012125    0.0009938    -0.0003836    0.0007262    -0.0001891   -0.0002962    -0.3581634    0.1810783 
   0.004251051    -0.0001373    0.0002560    -0.0008450    0.0008671     0.0002089    0.0001688    -0.3565224    0.1797864 
   0.004351076     0.0001577   -0.0013284    -0.0001162    0.0009611    -0.0001137    0.0000475    -0.3520752    0.1768543 
   0.004451101     0.0034134   -0.0004191    -0.0002006    0.0027846     0.0000935   -0.0000755    -0.3483132    0.1750451 
   0.004551126     0.0012925    0.0006051     0.0003513    0.0025704    -0.0000713   -0.0003583    -0.3441384    0.1723718 
   0.004651151    -0.0002830    0.0005526    -0.0010993    0.0012424     0.0002320    0.0003588    -0.3407876    0.1708473 
   0.004751176     0.0006555    0.0014264     0.0001456    0.0003359    -0.0002903    0.0001894    -0.3368481    0.1692598 
   0.004851201     0.0018808    0.0002281    -0.0009639    0.0005947    -0.0001203    0.0000783    -0.3347187    0.1668489 
   0.004951226    -0.0047116   -0.0011077    -0.0010127    0.0020301     0.0000929    0.0002896    -0.3321722    0.1652286 
   0.005051251    -0.0000066   -0.0007240    -0.0018586    0.0005012    -0.0002407   -0.0002672    -0.3275289    0.1646063 
   0.005151276    -0.0019640   -0.0009120     0.0004015   -0.0005299     0.0001392   -0.0002745    -0.3256182    0.1609174 
   0.005251301     0.0009049   -0.0001770    -0.0000204    0.0013834     0.0000962   -0.0000107    -0.3231040    0.1599769 
   0.005351326     0.0001392   -0.0020445    -0.0009154    0.0006019    -0.0000154    0.0001161    -0.3196255    0.1594527 
   0.005451351     0.0028900    0.0000901    -0.0009812   -0.0005677    -0.0004336   -0.0001958    -0.3172210    0.1564195 
   0.005551376    -0.0010429   -0.0012622    -0.0007680    0.0004890     0.0000903    0.0001231    -0.3128227    0.1564906 
   0.005651401    -0.0008263    0.0002262    -0.0008502    0.0011436    -0.0000925   -0.0002414    -0.3117851    0.1528686 
   0.005751426     0.0018123    0.0014176    -0.0004982    0.0002612    -0.0001170    0.0001988    -0.3096467    0.1513050 
   0.005851451     0.0015485   -0.0004235     0.0000312    0.0012481     0.0000720   -0.0003455    -0.3073248    0.1487932 
   0.005951476    -0.0001608    0.0010533    -0.0009376    0.0008276     0.0002828    0.0000846    -0.3041017    0.1479270 
   0.006051501    -0.0002119    0.0002702    -0.0010784    0.0009930    -0.0000658    0.0000826    -0.3030277    0.1472591 
   0.006151526    -0.0014823    0.0009751    -0.0005568    0.0012645    -0.0002278    0.0001432    -0.3007984    0.1465682 
   0.006251551    -0.0021385   -0.0019122    -0.0002695    0.0010237     0.0001386    0.0003395    -0.2983707    0.1442235 
   0.006351576    -0.0000056   -0.0007740    -0.0006354    0.0001805    -0.0000120    0.0000884    -0.2963173    0.1418998 
   0.006451601    -0.0003340    0.0011066    -0.0007606   -0.0002201    -0.0001924   -0.0000055    -0.2926729    0.1404610 
   0.006551626     0.0004901    0.0004006     0.0000448    0.0012840     0.0000770   -0.0000469    -0.2909742    0.1390659 
   0.006651651     0.0012968   -0.0001334    -0.0002142   -0.0004719    -0.0000654    0.0000203    -0.2892337    0.1365004 
   0.006751676     0.0009407    0.0014682    -0.0007531   -0.0000578    -0.0001664    0.0001597    -0.2885283    0.1372591 
   0.006851701    -0.0011872    0.0012523    -0.0013106   -0.0003163    -0.0001764   -0.0003952    -0.2856218    0.1343346 
   0.006951726    -0.0002759    0.0017602    -0.0003111    0.0006357    -0.0000381   -0.0001370    -0.2844217    0.1328486 
   0.007051751    -0.0011936   -0.0007026    -0.0010184   -0.0011992     0.0003712   -0.0000784    -0.2825349    0.1318824 
   0.007151776     0.0008508    0.0012135    -0.0004219    0.0006488     0.0001915   -0.0003079    -0.2800131    0.1297450 
   0.007251801    -0.0006766   -0.0018404    -0.0003524    0.0006387     0.0000675    0.0001249    -0.2786115    0.1282316 
   0.007351826    -0.0023957    0.0004068    -0.0010356   -0.0002982     0.0000084    0.0000472    -0.2775331    0.1271541 
   0.007451851     0.0001936   -0.0002983     0.0008380    0.0012961     0.0001119   -0.0000849    -0.2745828    0.1247225 
   0.007551876     0.0012209   -0.0001041     0.0001720    0.0007494     0.0000565   -0.0001118    -0.2740792    0.1242049 
   0.007651901    -0.0011346    0.0001498    -0.0012587    0.0006224     0.0000881    0.0002805    -0.2719499    0.1237754 
   0.007751926    -0.0012615   -0.0020066     0.0001101   -0.0005341     0.0000658    0.0003494    -0.2706165    0.1203441 
   0.007851951    -0.0019285    0.0003332    -0.0005107   -0.0002181     0.0002817    0.0001244    -0.2687804    0.1196262 
   0.007951976    -0.0023501   -0.0010432    -0.0006771    0.0007907     0.0000117   -0.0000574    -0.2668600    0.1177468 
   0.008052001     0.0002187    0.0009867    -0.0008977    0.0005925     0.0000736   -0.0000274    -0.2649175    0.1157701 
   0.008152026    -0.0009225   -0.0012862    -0.0015026   -0.0000865     0.0001397   -0.0001750    -0.2639776    0.1146124 
   0.008252051     0.0015285   -0.0016381    -0.0000827    0.0007792     0.0000185    0.0000214    -0.2625214    0.1127905 
   0.008352076    -0.0000838   -0.0006090     0.0000865   -0.0007713    -0.0000298    0.0001110    -0.2621595    0.1123836 
   0.008452101    -0.0017573    0.0004649    -0.0000937   -0.0007989     0.0000049   -0.0000630    -0.2600173    0.1102617 
   0.008552126    -0.0006085    0.0008658     0.0000663    0.0011420    -0.0000652    0.0000274    -0.2594386    0.1079691 
   0.008652151    -0.0005601    0.0014704    -0.0005710    0.0000372     0.0000214   -0.0000300    -0.2573096    0.1065602 
   0.008752176    -0.0009574    0.0007073     0.0001284   -0.0000628     0.0000287   -0.0000835    -0.2559662    0.1056919 
   0.008852201    -0.0007654   -0.0000391    -0.0004025   -0.0001177     0.0003846   -0.0000242    -0.2559750    0.1034163 
   0.008952226    -0.0001639    0.0016666    -0.0007113    0.0005626     0.0002570   -0.0000712    -0.2539235    0.1026602 
   0.009052251     0.0014222   -0.0014400    -0.0006983    0.0002521     0.0000474   -0.0000009    -0.2519670    0.1007771 
   0.009152276    -0.0005752    0.0003575     0.0004668    0.0004389     0.0002313    0.0001242    -0.2513855    0.0990449 
   0.009252301     0.0009675   -0.0004563    -0.0013766    0.0000763     0.0000214    0.0001538    -0.2507035    0.0966562 
   0.009352326     0.0009530    0.0014538     0.0000481    0.0004807     0.0000774    0.0001185    -0.2495392    0.0943874 
   0.009452351     0.0001611   -0.0001511     0.0001876    0.0001192    -0.0000199   -0.0001749    -0.2490914    0.0943942 
   0.009552376    -0.0009145    0.0011970    -0.0011723   -0.0000740     0.0001504   -0.0000601    -0.2476432    0.0914109 
   0.009652401     0.0013774    0.0010454     0.0000950    0.0000816    -0.0000562   -0.0000557    -0.2470261    0.0911603 
   0.009752426     0.0000014   -0.0004066    -0.0002960    0.0005245     0.0000874   -0.0002478    -0.2461372    0.0881595 
   0.009852451     0.0007167    0.0010997     0.0003035   -0.0002320    -0.0001465    0.0001669    -0.2452569    0.0864247 
   0.009952476    -0.0002454    0.0011466    -0.0001974    0.0005159     0.0001271    0.0000705    -0.2443173    0.0844159 
   0.010052501     0.0004693    0.0010763     0.0000003   -0.0002744    -0.0001080    0.0003247    -0.2436330    0.0827743 
   0.010152526     0.0000077   -0.0007162    -0.0005264    0.0008731     0.0002104    0.0001017    -0.2434460    0.0812612 
   0.010252551     0.0000851    0.0014652     0.0008539    0.0001540     0.0002719    0.0000984    -0.2432250    0.0797979 
   0.010352576     0.0004139    0.0006007     0.0002523    0.0002259    -0.0001258    0.0000257    -0.2426192    0.0785200 
   0.010452601    -0.0002581   -0.0002725    -0.0003829    0.0006670    -0.0000908    0.0000527    -0.2424109    0.0765069 
   0.010552626     0.0007897    0.0003945    -0.0000528   -0.0000991     0.0001842    0.0000581    -0.2419456    0.0745928 
   0.010652651    -0.0010948   -0.0017653    -0.0009618   -0.0002865     0.0000701   -0.0001265    -0.2406405    0.0713624 
   0.010752676     0.0007283    0.0002126    -0.0000113   -0.0005393     0.0005006   -0.0002071    -0.2412190    0.0709363 
   0.010852701     0.0000330   -0.0002078    -0.0005457   -0.0000669    -0.0001515    0.0000122    -0.2416057    0.0689282 
   0.010952726     0.0008479    0.0005255    -0.0010229    0.0005102     0.0001776    0.0003065    -0.2413535    0.0672825 
   0.011052751     0.0010063    0.0003499    -0.0004117   -0.0001668     0.0002011   -0.0001265    -0.2414668    0.0658985 
   0.011152776    -0.0001092    0.0006710     0.0002131   -0.0011878     0.0001103    0.0001680    -0.2407458    0.0647657 
   0.011252801    -0.0012268    0.0008583    -0.0000195   -0.0009026    -0.0001241   -0.0000481    -0.2414082    0.0626201 
   0.011352826    -0.0012723    0.0002808    -0.0003910    0.0003414    -0.0001298   -0.0000555    -0.2425451    0.0614684 
   0.011452851    -0.0026517   -0.0016524    -0.0000897    0.0002235    -0.0001256   -0.0001092    -0.2419742    0.0602137 
   0.011552876    -0.0013174    0.0004541     0.0006440    0.0007554    -0.0001781    0.0001424    -0.2432924    0.0589217 
   0.011652901     0.0002112    0.0011942    -0.0007785   -0.0005296     0.0000088    0.0000839    -0.2432366    0.0573719 
   0.011752926     0.0001369    0.0008122    -0.0000709   -0.0003416    -0.0001163    0.0000032    -0.2443881    0.0558002 
   0.011852951    -0.0010814    0.0016051    -0.0001795    0.0006445     0.0001320   -0.0000295    -0.2440495    0.0554251 
   0.011952976     0.0001264    0.0003278    -0.0004271    0.0003833     0.0000065   -0.0002198    -0.2441554    0.0537590 
   0.012053002     0.0004007    0.0004666    -0.0004195    0.0004346     0.0000197    0.0002066    -0.2446023    0.0529844 
   0.012153027    -0.0011134    0.0010301    -0.0004261   -0.0005654    -0.0000829    0.0000023    -0.2459651    0.0521615 
   0.012253052    -0.0015144   -0.0004011     0.0003814   -0.0001691     0.0000988   -0.0000467    -0.2463906    0.0522316 
   0.012353077    -0.0006693   -0.0014243    -0.0005299   -0.0004983     0.0001637    0.0001004    -0.2464597    0.0516487 
   0.012453102    -0.0011889   -0.0009072     0.0000079   -0.0000645     0.0001567   -0.0000025    -0.2484692    0.0505243 
   0.012553127     0.0007764    0.0007364     0.0006490    0.0010779    -0.0001620   -0.0001003    -0.2481002    0.0505842 
   0.012653152     0.0002343    0.0010444    -0.0003293   -0.0000013     0.0002326   -0.0002195    -0.2492361    0.0501452 
   0.012753177     0.0003193    0.0007690     0.0000861    0.0001875    -0.0001477   -0.0000440    -0.2487966    0.0502247 
   0.012853202    -0.0013361   -0.0007096    -0.0008336   -0.0001321    -0.0004412   -0.0000788    -0.2495919    0.0487951 
   0.012953227     0.0001980   -0.0002259    -0.0000974   -0.0001920     0.0001036    0.0000123    -0.2498312    0.0492691 
   0.013053252     0.0001927   -0.0000590     0.0010231    0.0002037    -0.0002104   -0.0001608    -0.2501214    0.0494351 
   0.013153277    -0.0012447   -0.0007292    -0.0001682   -0.0007222     0.0000592   -0.0000018    -0.2504221    0.0488270 
   0.013253302    -0.0020711    0.0003017    -0.0002243    0.0003736    -0.0001825    0.0001304    -0.2509653    0.0496897 
   0.013353327    -0.0014822   -0.0001204     0.0004285   -0.0003713     0.0000372   -0.0000113    -0.2502479    0.0501121 
   0.013453352     0.0000143    0.0014280    -0.0001744   -0.0002581     0.0002010    0.0001047    -0.2503121    0.0497301 
   0.013553377    -0.0003264    0.0001907    -0.0003809   -0.0002548    -0.0000383   -0.0001340    -0.2498407    0.0502106 
   0.013653402    -0.0006736   -0.0009633    -0.0008098    0.0003451     0.0000524   -0.0002028    -0.2509286    0.0500827 
   0.013753427     0.0002839   -0.0003764    -0.0001474    0.0003013    -0.0000851    0.0000229    -0.2495931    0.0506088 
   0.013853452     0.0005936   -0.0007907    -0.0001838   -0.0006093     0.0002031    0.0001030    -0.2503508    0.0504299 
   0.013953477    -0.0006931    0.0011516    -0.0002473   -0.0000603     0.0002823    0.0000532    -0.2496135    0.0505558 
   0.014053502     0.0007122   -0.0010197    -0.0002923    0.0002143    -0.0001769    0.0001549    -0.2483059    0.0514861 
   0.014153527    -0.0018375    0.0002119     0.0005676   -0.0001027    -0.0001593    0.0000342    -0.2476461    0.0517542 
   0.014253552    -0.0010248    0.0000376     0.0004642    0.0002775     0.0002361    0.0000514    -0.2479918    0.0512832 
   0.014353577    -0.0012382    0.0000112    -0.0001619    0.0000826    -0.0002594   -0.0000761    -0.2471173    0.0523016 
   0.014453602    -0.0017154   -0.0021693    -0.0012355    0.0009955    -0.0003661    0.0000032    -0.2460103    0.0519106 
   0.014553627    -0.0000388    0.0003300     0.0005535    0.0006890     0.0002061    0.0002454    -0.2450641    0.0524397 
   0.014653652    -0.0002260    0.0013622     0.0001525    0.0001048    -0.0000003   -0.0000555    -0.2440140    0.0523976 
   0.014753677    -0.0008552    0.0022658    -0.0001596    0.0000327     0.0000933    0.0002056    -0.2438159    0.0527905 
   0.014853702    -0.0021190   -0.0000512    -0.0000881   -0.0004834    -0.0001726   -0.0000354    -0.2416196    0.0516287 
   0.014953727     0.0002445    0.0010440     0.0000210    0.0006802     0.0000115    0.0000254    -0.2414594    0.0521898 
   0.015053752    -0.0010833    0.0002683    -0.0007882    0.0004985    -0.0001054    0.0000666    -0.2402436    0.0522443 
   0.015153777    -0.0003207   -0.0003002    -0.0007397   -0.0004825    -0.0003360    0.0001409    -0.2386462    0.0515799 
   0.015253802    -0.0004540   -0.0000107     0.0005601   -0.0006763    -0.0000354    0.0002321    -0.2383558    0.0518309 
   0.015353827    -0.0004354    0.0005160     0.0002827   -0.0000232    -0.0001993    0.0001366    -0.2363974    0.0502565 
   0.015453852    -0.0003870   -0.0005346    -0.0007282    0.0000382    -0.0000729   -0.0001074    -0.2357574    0.0501296 
   0.015553877    -0.0017242    0.0006614     0.0002587    0.0005175     0.0000253    0.0000637    -0.2340150    0.0504437 
   0.015653902     0.0014750   -0.0005905     0.0000253    0.0005142    -0.0002382   -0.0001698    -0.2334215    0.0497334 
