! 19-Feb-26 1:43:40 PM
! E:\VNA_MEASUREMENTS\RECBLOCK\RSPDX0.S2P
! CHANNEL.1
! TR.MEASUREMENT
! CORRECTED.DATA
# GHZ S RI R 50.0
! FREQ.GHZ         S11RE         S11IM         S21RE         S21IM         S12RE         S12IM         S22RE         S22IM         
!; PortSelection: Port_12
   0.000050000     0.0839058   -0.1121704     1.1165580    0.4112424    -0.0094668    0.0037045     0.0024567    0.0114774 
   0.000150025    -0.4557368   -0.1295194     2.4192760   -1.5668210    -0.0012886    0.0004733    -0.0088415    0.0022952 
   0.000250050     0.8246461    0.2175762    -0.9812661    0.7436941     0.0011884   -0.0002793    -0.0039944    0.0000958 
   0.000350075    -0.6199721   -0.2567302    -0.0011652   -0.0034745    -0.0000873   -0.0001782    -0.0022955    0.0005665 
   0.000450100    -0.6536508   -0.1284218    -0.0023789   -0.0036446    -0.0000531   -0.0000708    -0.0009996    0.0005851 
   0.000550125    -0.6597525   -0.1116044    -0.0016195   -0.0018514    -0.0002173    0.0002009    -0.0000071    0.0005916 
   0.000650150    -0.6898263   -0.0378912    -0.0023591   -0.0025016     0.0003382    0.0000317     0.0003440   -0.0001003 
   0.000750175    -0.6940886    0.0360177    -0.0014826   -0.0020792     0.0002692    0.0001359    -0.0007355   -0.0015523 
   0.000850200    -0.6582916    0.1086731    -0.0015948   -0.0024627    -0.0002627   -0.0000135    -0.0002482    0.0015176 
   0.000950225    -0.6063091    0.1446169    -0.0026987   -0.0022868     0.0002862    0.0001298    -0.0002409    0.0002762 
   0.001050250    -0.5429185    0.1398922    -0.0031418   -0.0016319     0.0003740    0.0002620     0.0001012    0.0003985 
   0.001150275    -0.5263445    0.1197422    -0.0025367   -0.0028367     0.0002349   -0.0000019    -0.0001080    0.0001094 
   0.001250300    -0.5559262    0.1315766    -0.0035228   -0.0015847     0.0006009    0.0002681     0.0005517   -0.0006219 
   0.001350325    -0.5232348    0.1894723    -0.0046587   -0.0007385     0.0000237    0.0000894     0.0012525    0.0005152 
   0.001450350    -0.4438759    0.1883637    -0.0044654   -0.0014242    -0.0000976   -0.0003646    -0.0010038    0.0008435 
   0.001550375    -0.3820126    0.1599983    -0.0020474   -0.0014253    -0.0000331    0.0002018    -0.0004235    0.0010970 
   0.001650400    -0.3259686    0.0838074    -0.0049296    0.0000606     0.0001183    0.0004051     0.0006458    0.0005676 
   0.001750425    -0.3324317   -0.0423731    -0.0039142   -0.0019658    -0.0002347    0.0001541    -0.0004803   -0.0002974 
   0.001850450    -0.4608335   -0.1484618    -0.0017782   -0.0003246     0.0003022    0.0000633    -0.0007754    0.0002760 
   0.001950475    -0.6131747   -0.0920769    -0.0023682    0.0001752     0.0001757    0.0000485    -0.0008458    0.0011921 
   0.002050500    -0.6746631    0.0220807    -0.0025224    0.0006946    -0.0000315    0.0000259    -0.0004291    0.0001686 
   0.002150525    -0.6514625    0.1073648    -0.0025211    0.0006604    -0.0000246    0.0000816     0.0000108   -0.0000813 
   0.002250550    -0.6230390    0.1594587    -0.0023780   -0.0003546     0.0000648   -0.0000978    -0.0014539   -0.0003209 
   0.002350575    -0.5802187    0.1926130    -0.0016117    0.0001420     0.0002263    0.0000927     0.0009153    0.0000202 
   0.002450600    -0.5526123    0.2158925    -0.0023977    0.0011905     0.0001718    0.0001086    -0.0003776    0.0002763 
   0.002550625    -0.5135495    0.2176784    -0.0013665   -0.0001428     0.0003333    0.0002338     0.0004099    0.0007222 
   0.002650650    -0.5039993    0.2121850    -0.0020351    0.0004457     0.0000386    0.0002083     0.0004923   -0.0007509 
   0.002750675    -0.4747990    0.2109234    -0.0007581    0.0003795    -0.0000739   -0.0001068     0.0005256   -0.0003368 
   0.002850700    -0.4545323    0.2196933    -0.0012542    0.0000271     0.0002934    0.0001268     0.0003717   -0.0002357 
   0.002950725    -0.4426667    0.2140968    -0.0024672    0.0011538    -0.0001085    0.0000174     0.0008551   -0.0003481 
   0.003050750    -0.4315649    0.2134289    -0.0015862   -0.0000966    -0.0000339    0.0000840     0.0003117    0.0001837 
   0.003150775    -0.4223783    0.2025971    -0.0011488    0.0016953     0.0000902   -0.0000400     0.0001419   -0.0001787 
   0.003250800    -0.4201505    0.2012777    -0.0003671    0.0016743     0.0002855   -0.0002884     0.0009280    0.0006041 
   0.003350825    -0.4055964    0.2007726    -0.0010580    0.0007246     0.0002870    0.0003042    -0.0000563   -0.0002976 
   0.003450850    -0.3966959    0.1981102    -0.0028562    0.0005962    -0.0001378   -0.0002333     0.0001342    0.0000536 
   0.003550875    -0.3917331    0.1987191    -0.0011398    0.0002278    -0.0000671   -0.0000196     0.0001326    0.0004391 
   0.003650900    -0.3883311    0.1889159     0.0003962    0.0004914    -0.0001343   -0.0000047     0.0004053    0.0000458 
   0.003750925    -0.3786784    0.1965591    -0.0013142    0.0007189    -0.0001495    0.0000282    -0.0000159    0.0003020 
   0.003850950    -0.3798235    0.1897198    -0.0013610    0.0012845     0.0001771    0.0001141    -0.0003552   -0.0002876 
   0.003950975    -0.3679375    0.1845388    -0.0018185   -0.0002906    -0.0000423   -0.0002058    -0.0003124    0.0001081 
   0.004051001    -0.3641079    0.1863967    -0.0005208   -0.0009789    -0.0003159   -0.0000473    -0.0004870    0.0004206 
   0.004151026    -0.3636785    0.1812578    -0.0008667    0.0004380    -0.0000370   -0.0001961     0.0004647    0.0000805 
   0.004251051    -0.3527664    0.1766396     0.0003834   -0.0007812    -0.0000004   -0.0000271     0.0002156    0.0005724 
   0.004351076    -0.3486425    0.1771575    -0.0009810    0.0004219     0.0002437    0.0002857    -0.0003822    0.0008441 
   0.004451101    -0.3395134    0.1687872    -0.0008362    0.0011708     0.0001727    0.0000461     0.0003233   -0.0000176 
   0.004551126    -0.3418347    0.1731636    -0.0002366   -0.0002961    -0.0001041   -0.0001396    -0.0003994    0.0007318 
   0.004651151    -0.3420601    0.1744202    -0.0000320   -0.0002792    -0.0000524   -0.0000090     0.0005898    0.0001556 
   0.004751176    -0.3372162    0.1783056    -0.0012607    0.0007941    -0.0000270    0.0000923    -0.0003133    0.0003166 
   0.004851201    -0.3312949    0.1719031    -0.0004977    0.0005375     0.0002073   -0.0002795     0.0003566    0.0004952 
   0.004951226    -0.3360011    0.1628037     0.0000019    0.0007168    -0.0000322   -0.0000545    -0.0003472   -0.0004017 
   0.005051251    -0.3273721    0.1627121     0.0002526    0.0001587    -0.0001580   -0.0001356     0.0003138    0.0009548 
   0.005151276    -0.3233817    0.1614779    -0.0008685    0.0001472    -0.0000779    0.0000196    -0.0003770    0.0002765 
   0.005251301    -0.3191345    0.1614880    -0.0007188    0.0000025    -0.0000161    0.0001410    -0.0001004    0.0000792 
   0.005351326    -0.3163568    0.1587834     0.0008235   -0.0007330    -0.0001319    0.0003862     0.0000305    0.0006587 
   0.005451351    -0.3082958    0.1598569    -0.0010136    0.0009287     0.0002232    0.0002356    -0.0000281    0.0003052 
   0.005551376    -0.3138815    0.1565658    -0.0002589   -0.0008831    -0.0001830   -0.0001681     0.0006354    0.0002532 
   0.005651401    -0.3095590    0.1544865    -0.0003138    0.0002446    -0.0000837    0.0002223     0.0004811    0.0000909 
   0.005751426    -0.3099970    0.1540870     0.0013507    0.0013553    -0.0000328    0.0003752    -0.0001863    0.0003917 
   0.005851451    -0.2986773    0.1477910     0.0013337    0.0002297     0.0000579    0.0000477    -0.0004523   -0.0003108 
   0.005951476    -0.3021086    0.1484018     0.0006951    0.0001746    -0.0002165   -0.0000107    -0.0002984   -0.0000449 
   0.006051501    -0.3043056    0.1450503    -0.0003999    0.0006423    -0.0000660    0.0000546    -0.0002226    0.0006710 
   0.006151526    -0.3020007    0.1411841    -0.0000118    0.0004890    -0.0001894   -0.0000257     0.0002659   -0.0001782 
   0.006251551    -0.2977296    0.1451088    -0.0005924    0.0011184     0.0002042    0.0000413    -0.0004507   -0.0004455 
   0.006351576    -0.2936970    0.1420833    -0.0007359    0.0003740    -0.0000058   -0.0002465     0.0004810    0.0001518 
   0.006451601    -0.2934366    0.1433263    -0.0001646    0.0009903    -0.0001218    0.0000994     0.0006218    0.0002917 
   0.006551626    -0.2907785    0.1380726    -0.0003077    0.0000041     0.0002116   -0.0002021     0.0000146    0.0005225 
   0.006651651    -0.2878094    0.1362369    -0.0006804    0.0008581     0.0001041    0.0001781    -0.0000137   -0.0002061 
   0.006751676    -0.2860933    0.1391995    -0.0003261   -0.0000893    -0.0003158   -0.0000606     0.0000007    0.0002906 
   0.006851701    -0.2844208    0.1344252    -0.0004846   -0.0001530     0.0000126    0.0000178     0.0003685    0.0003253 
   0.006951726    -0.2836716    0.1339939     0.0001393    0.0001967     0.0000252   -0.0000308    -0.0001644    0.0003551 
   0.007051751    -0.2781606    0.1347483    -0.0001710   -0.0003541     0.0000621   -0.0000143    -0.0000574    0.0002849 
   0.007151776    -0.2792961    0.1280825     0.0001853   -0.0001834     0.0000845   -0.0002626    -0.0001368    0.0003919 
   0.007251801    -0.2748782    0.1275942    -0.0002419    0.0005508     0.0001771   -0.0000681    -0.0002925   -0.0002996 
   0.007351826    -0.2766004    0.1257041    -0.0003284    0.0001547    -0.0000039    0.0000448    -0.0001207    0.0005580 
   0.007451851    -0.2714350    0.1282723    -0.0005824    0.0002443    -0.0000399    0.0000081     0.0001850   -0.0001424 
   0.007551876    -0.2737299    0.1247413    -0.0002322    0.0005875    -0.0000521    0.0000279    -0.0001126   -0.0001812 
   0.007651901    -0.2705304    0.1323826    -0.0006235    0.0001278     0.0002277   -0.0000071    -0.0001655   -0.0001099 
   0.007751926    -0.2677984    0.1162438    -0.0010457    0.0013534     0.0002466   -0.0002246    -0.0001637   -0.0003582 
   0.007851951    -0.2692987    0.1230661    -0.0003455    0.0002371     0.0001718    0.0000390     0.0001843    0.0003670 
   0.007951976    -0.2673856    0.1184605     0.0001158    0.0015361    -0.0000440    0.0001674     0.0003438   -0.0002521 
   0.008052001    -0.2640630    0.1182644     0.0005321    0.0000819     0.0001681    0.0001712    -0.0001109    0.0000062 
   0.008152026    -0.2650334    0.1128519    -0.0004881   -0.0000473    -0.0000097   -0.0001397    -0.0002182   -0.0002179 
   0.008252051    -0.2631114    0.1084395     0.0001178    0.0002552     0.0000481    0.0000377    -0.0000614    0.0000514 
   0.008352076    -0.2614349    0.1083571    -0.0004167    0.0001673     0.0002288    0.0000986     0.0000066    0.0003239 
   0.008452101    -0.2598547    0.1099345    -0.0001957   -0.0007807    -0.0000123   -0.0000958     0.0006304    0.0002740 
   0.008552126    -0.2570540    0.1099827     0.0001022    0.0002446     0.0000577   -0.0000681     0.0003186   -0.0000690 
   0.008652151    -0.2582890    0.1058186    -0.0000896   -0.0000692     0.0001675    0.0001947    -0.0001058    0.0005292 
   0.008752176    -0.2553373    0.1061148     0.0011252   -0.0002940    -0.0001964    0.0000087     0.0000639    0.0002511 
   0.008852201    -0.2512712    0.1034192     0.0006147   -0.0000104     0.0000046   -0.0000201     0.0001594   -0.0002502 
   0.008952226    -0.2557780    0.1008974    -0.0002173   -0.0000129     0.0002722   -0.0001079     0.0003268    0.0000731 
   0.009052251    -0.2537094    0.0971869    -0.0007839    0.0004434     0.0000529   -0.0001206     0.0006514   -0.0000377 
   0.009152276    -0.2494064    0.1004792     0.0006356    0.0004284     0.0000497   -0.0000408     0.0000022    0.0000077 
   0.009252301    -0.2495126    0.0952248     0.0000889    0.0002850    -0.0001141   -0.0001681     0.0006648    0.0000217 
   0.009352326    -0.2483588    0.0950192     0.0001018   -0.0005884     0.0002346   -0.0000021     0.0001709    0.0002606 
   0.009452351    -0.2468039    0.0927802    -0.0007245    0.0003768    -0.0000434   -0.0003248     0.0004676    0.0002542 
   0.009552376    -0.2471996    0.0903354    -0.0002575    0.0003513     0.0000243    0.0001717    -0.0004190    0.0001550 
   0.009652401    -0.2482561    0.0892477     0.0004477    0.0008519     0.0000375   -0.0003017     0.0002507    0.0007810 
   0.009752426    -0.2447015    0.0903067    -0.0002439    0.0002329     0.0001718   -0.0000675     0.0000024   -0.0000839 
   0.009852451    -0.2452175    0.0901896    -0.0002226    0.0006698     0.0000370    0.0000924    -0.0002682   -0.0000724 
   0.009952476    -0.2429870    0.0863822    -0.0005218   -0.0001144    -0.0001296   -0.0000743     0.0002216    0.0001735 
   0.010052501    -0.2439675    0.0809399    -0.0007402   -0.0001173     0.0001522   -0.0000830     0.0002534    0.0002494 
   0.010152526    -0.2448727    0.0824464     0.0006246    0.0004978     0.0000136    0.0001817    -0.0001648    0.0000076 
   0.010252551    -0.2434472    0.0800782    -0.0014692   -0.0004479     0.0000366    0.0001491    -0.0002282    0.0001617 
   0.010352576    -0.2408361    0.0775315    -0.0000944   -0.0003203    -0.0000482    0.0001274     0.0002857   -0.0001295 
   0.010452601    -0.2413021    0.0796040    -0.0006464    0.0007231    -0.0002843   -0.0000304    -0.0002452    0.0002796 
   0.010552626    -0.2412691    0.0745724    -0.0002164    0.0005070    -0.0001680   -0.0000542     0.0000861    0.0001543 
   0.010652651    -0.2394165    0.0714907     0.0003946    0.0001144    -0.0000844   -0.0001068     0.0003732   -0.0004283 
   0.010752676    -0.2447544    0.0742510     0.0001976    0.0003595    -0.0000465   -0.0002296     0.0005108   -0.0000140 
   0.010852701    -0.2416846    0.0689768     0.0001232   -0.0000459     0.0002664    0.0000873     0.0006236    0.0005588 
   0.010952726    -0.2435734    0.0671276     0.0001231    0.0003577     0.0000542   -0.0000697     0.0000008    0.0001069 
   0.011052751    -0.2424404    0.0660250     0.0000172   -0.0006883     0.0000440   -0.0000863    -0.0000219    0.0008678 
   0.011152776    -0.2395547    0.0659124    -0.0007040    0.0001258     0.0000411    0.0000247     0.0004834    0.0002789 
   0.011252801    -0.2424915    0.0628504    -0.0005320    0.0004636     0.0001429    0.0001413    -0.0000568    0.0006495 
   0.011352826    -0.2424012    0.0613901    -0.0002643    0.0000420     0.0002300    0.0000520     0.0001128    0.0002912 
   0.011452851    -0.2449359    0.0612618    -0.0002287    0.0000163    -0.0001522   -0.0000973    -0.0000198    0.0005357 
   0.011552876    -0.2437548    0.0575002    -0.0005232   -0.0000173    -0.0002579   -0.0000858    -0.0000942    0.0003030 
   0.011652901    -0.2429700    0.0590689     0.0000219    0.0005208     0.0000730    0.0002346     0.0000763    0.0000800 
   0.011752926    -0.2451403    0.0599879    -0.0002232   -0.0009959     0.0001141    0.0000245     0.0002078    0.0002899 
   0.011852951    -0.2449620    0.0544189    -0.0004289    0.0000914    -0.0001563    0.0000687    -0.0002678    0.0000734 
   0.011952976    -0.2456995    0.0544189     0.0012393    0.0001615     0.0002422    0.0000165    -0.0004577    0.0003149 
   0.012053002    -0.2461579    0.0542813     0.0001273   -0.0004891     0.0000266   -0.0000625     0.0006252    0.0000322 
   0.012153027    -0.2445817    0.0539884     0.0007202   -0.0005312    -0.0000379    0.0002130    -0.0002825    0.0000300 
   0.012253052    -0.2500244    0.0515167     0.0004443    0.0004393     0.0001512   -0.0002258     0.0002431    0.0003967 
   0.012353077    -0.2480686    0.0509885     0.0002273   -0.0005496    -0.0000268    0.0002803     0.0000549    0.0005206 
   0.012453102    -0.2481023    0.0507228    -0.0002270   -0.0002125     0.0000173   -0.0000989     0.0000409    0.0004845 
   0.012553127    -0.2483318    0.0504721     0.0000513    0.0004514     0.0000739   -0.0001029    -0.0001521    0.0001297 
   0.012653152    -0.2498727    0.0510287     0.0001714    0.0002450    -0.0002711    0.0002025     0.0001678    0.0003093 
   0.012753177    -0.2502397    0.0480042    -0.0001971    0.0004674    -0.0001717    0.0002642     0.0001639    0.0002757 
   0.012853202    -0.2493555    0.0502238     0.0002505   -0.0002549     0.0001044    0.0002523     0.0005136   -0.0001344 
   0.012953227    -0.2497238    0.0478344     0.0000421    0.0002622     0.0000570   -0.0001282     0.0001959    0.0003737 
   0.013053252    -0.2499973    0.0508945    -0.0000246    0.0001309    -0.0001717    0.0003077     0.0006430    0.0000938 
   0.013153277    -0.2513358    0.0488525    -0.0001419    0.0005302    -0.0001948   -0.0002858     0.0001736    0.0002331 
   0.013253302    -0.2520311    0.0487185    -0.0001547    0.0000938    -0.0000952    0.0000824    -0.0002561    0.0000606 
   0.013353327    -0.2519945    0.0517092    -0.0003260    0.0000559    -0.0000520   -0.0001248     0.0003530    0.0000023 
   0.013453352    -0.2520311    0.0514125    -0.0004541   -0.0008626     0.0000322    0.0000763     0.0001333   -0.0000799 
   0.013553377    -0.2503186    0.0521299     0.0008656    0.0003549    -0.0001032   -0.0000630     0.0002823    0.0004992 
   0.013653402    -0.2510106    0.0501481    -0.0003596   -0.0001317    -0.0003474    0.0001235    -0.0001976    0.0002693 
   0.013753427    -0.2480381    0.0505902     0.0005128   -0.0008623    -0.0000099   -0.0000515     0.0003663    0.0000176 
   0.013853452    -0.2476688    0.0514508     0.0000910    0.0002323     0.0000840   -0.0000704    -0.0000687   -0.0001180 
   0.013953477    -0.2500809    0.0530850     0.0002563   -0.0004952     0.0001152   -0.0001005     0.0001014   -0.0002472 
   0.014053502    -0.2467016    0.0506620    -0.0001818    0.0005767    -0.0000788    0.0000889     0.0002193    0.0002162 
   0.014153527    -0.2506620    0.0512380     0.0004086   -0.0001662     0.0000077   -0.0001244    -0.0001356    0.0002971 
   0.014253552    -0.2463733    0.0510338    -0.0006950    0.0000994    -0.0000277   -0.0000404     0.0007755    0.0003878 
   0.014353577    -0.2502380    0.0510720     0.0001330   -0.0001575     0.0001121   -0.0001623    -0.0000625   -0.0001640 
   0.014453602    -0.2442957    0.0494360     0.0000219    0.0002363     0.0000603   -0.0001651    -0.0001065    0.0003148 
   0.014553627    -0.2458517    0.0520284    -0.0001211   -0.0006940     0.0000611    0.0001833    -0.0002768   -0.0003383 
   0.014653652    -0.2439275    0.0560642     0.0000631    0.0000966     0.0000764    0.0002961     0.0000008    0.0004001 
   0.014753677    -0.2424277    0.0542847    -0.0003991   -0.0000861     0.0001818   -0.0000947     0.0000982    0.0001561 
   0.014853702    -0.2425487    0.0521801     0.0003872   -0.0004112     0.0001060    0.0001129     0.0000817    0.0001490 
   0.014953727    -0.2412469    0.0513207    -0.0003904    0.0001831    -0.0000941   -0.0000324     0.0001349    0.0005470 
   0.015053752    -0.2395754    0.0535520     0.0005161    0.0001078     0.0000253   -0.0000261    -0.0000733    0.0006618 
   0.015153777    -0.2379681    0.0494862     0.0001817    0.0003657     0.0000566   -0.0000902    -0.0000720   -0.0000931 
   0.015253802    -0.2372336    0.0544029     0.0000222    0.0000303    -0.0000268   -0.0000950     0.0000201    0.0001675 
   0.015353827    -0.2389850    0.0499868    -0.0001862    0.0002610     0.0000527   -0.0000177    -0.0003245   -0.0003426 
   0.015453852    -0.2349891    0.0497860     0.0005005   -0.0000600    -0.0001981   -0.0001221    -0.0003125    0.0001304 
   0.015553877    -0.2350819    0.0500161     0.0008349   -0.0000707     0.0001846   -0.0001601    -0.0000948    0.0005197 
   0.015653902    -0.2324782    0.0510190     0.0001174   -0.0003426    -0.0001362   -0.0001759    -0.0002586    0.0002255 
