! 19-Feb-26 3:06:44 PM
! E:\VNA_MEASUREMENTS\RECBLOCK\RSPDX1.S2P
! CHANNEL.1
! TR.MEASUREMENT
! CORRECTED.DATA
# GHZ S RI R 50.0
! FREQ.GHZ         S11RE         S11IM         S21RE         S21IM         S12RE         S12IM         S22RE         S22IM         
!; PortSelection: Port_12
   0.000050000     0.8124794    0.6535537     1.2591120   -0.4551586    -0.0069321    0.0007716     0.0359700    0.0074909 
   0.000150025    -0.9910676   -1.0408020     6.7369660   -7.9303920    -0.0001857    0.0004355    -0.0029997   -0.0002339 
   0.000250050     0.9570906   -0.0253078    -0.2739469   -0.3559650    -0.0011787    0.0000581    -0.0019112   -0.0007273 
   0.000350075    -0.6178715   -0.2567623    -0.0002862   -0.0009659    -0.0002948   -0.0000413    -0.0005459    0.0014978 
   0.000450100    -0.6636730   -0.1386549    -0.0021090   -0.0013700    -0.0000662    0.0003103     0.0005504    0.0008500 
   0.000550125    -0.6773453   -0.1056650    -0.0022404   -0.0020791     0.0001653    0.0001982     0.0001614    0.0009779 
   0.000650150    -0.7045100   -0.0379597    -0.0013045   -0.0028709     0.0001568    0.0000717     0.0005338    0.0001632 
   0.000750175    -0.6914610    0.0331276    -0.0007869   -0.0037602     0.0001358    0.0000054    -0.0007980    0.0006597 
   0.000850200    -0.6582250    0.1011692    -0.0020700   -0.0028698    -0.0001377    0.0002665    -0.0006831    0.0008455 
   0.000950225    -0.6102716    0.1345116    -0.0019523   -0.0035767     0.0000343   -0.0001469    -0.0001960    0.0014248 
   0.001050250    -0.5467089    0.1319523    -0.0028483   -0.0023456    -0.0004558   -0.0002169     0.0003504    0.0003552 
   0.001150275    -0.5348361    0.1201773    -0.0028063   -0.0019402    -0.0002681   -0.0002773    -0.0000702   -0.0005377 
   0.001250300    -0.5602224    0.1358860    -0.0046209   -0.0016875     0.0001046    0.0001311     0.0005163   -0.0017666 
   0.001350325    -0.5224558    0.1874537    -0.0042664   -0.0030087     0.0000622    0.0001035     0.0011513   -0.0006733 
   0.001450350    -0.4489584    0.1920586    -0.0047868   -0.0035129     0.0001242   -0.0007211     0.0001709    0.0008698 
   0.001550375    -0.3761899    0.1621399    -0.0033976   -0.0019824     0.0000711    0.0002406     0.0006776    0.0010787 
   0.001650400    -0.3265523    0.0847497    -0.0035848    0.0000174    -0.0001185    0.0007057     0.0009263    0.0007747 
   0.001750425    -0.3302671   -0.0405890    -0.0033112    0.0002976    -0.0001949    0.0001539     0.0006918    0.0002524 
   0.001850450    -0.4589523   -0.1464061    -0.0045328   -0.0000021     0.0001612    0.0002130    -0.0007722    0.0015742 
   0.001950475    -0.6156333   -0.1052909    -0.0022787    0.0002739     0.0000584   -0.0000579     0.0003737    0.0005390 
   0.002050500    -0.6759097    0.0165363    -0.0020003    0.0002381    -0.0000728    0.0000713     0.0004606    0.0002703 
   0.002150525    -0.6545137    0.1018938    -0.0008895   -0.0003142     0.0000710   -0.0003452     0.0014390    0.0006717 
   0.002250550    -0.6202700    0.1563026    -0.0038838    0.0000075     0.0002268    0.0002785    -0.0006333   -0.0002166 
   0.002350575    -0.5851027    0.1858665    -0.0024638   -0.0008923     0.0001103    0.0002010     0.0001500    0.0003634 
   0.002450600    -0.5565900    0.2064224    -0.0021036    0.0004578     0.0000181    0.0001836    -0.0001258   -0.0002125 
   0.002550625    -0.5169747    0.2105882    -0.0017255   -0.0009009     0.0001484   -0.0001966     0.0000102    0.0010438 
   0.002650650    -0.5004575    0.2128283    -0.0022110    0.0004181     0.0000487    0.0003040     0.0010363   -0.0000695 
   0.002750675    -0.4802584    0.2087441    -0.0021293    0.0002404    -0.0000856    0.0001205     0.0005026   -0.0000416 
   0.002850700    -0.4563229    0.2217893    -0.0024960    0.0011462    -0.0001164    0.0004288    -0.0001928    0.0001635 
   0.002950725    -0.4368986    0.2161014    -0.0015600   -0.0000774    -0.0002609    0.0000063     0.0007696    0.0006340 
   0.003050750    -0.4304518    0.2138649    -0.0011218    0.0006914     0.0000351   -0.0001166    -0.0000630    0.0007851 
   0.003150775    -0.4212463    0.2065793    -0.0013683    0.0017448    -0.0002455    0.0003689    -0.0010348    0.0003308 
   0.003250800    -0.4193200    0.1997549    -0.0009206    0.0001580     0.0004023    0.0000820     0.0003923    0.0001588 
   0.003350825    -0.4052939    0.2022767    -0.0025053   -0.0007067    -0.0005323    0.0001883    -0.0001342   -0.0003113 
   0.003450850    -0.3942744    0.2041666    -0.0011234    0.0010158    -0.0000573   -0.0000964     0.0013778    0.0004337 
   0.003550875    -0.3943920    0.1958517    -0.0015649    0.0007384    -0.0000209    0.0003185     0.0000687    0.0005399 
   0.003650900    -0.3813034    0.1916509    -0.0007568    0.0003556     0.0001212   -0.0000029    -0.0002575    0.0006147 
   0.003750925    -0.3782588    0.1965320    -0.0015324    0.0013717     0.0000317    0.0000779     0.0000538    0.0002068 
   0.003850950    -0.3788810    0.1919161     0.0003894    0.0005347    -0.0002891    0.0000473     0.0002433   -0.0001788 
   0.003950975    -0.3737744    0.1864853    -0.0000704    0.0013437    -0.0001252   -0.0001013     0.0005199    0.0003194 
   0.004051001    -0.3632369    0.1803053    -0.0010894    0.0008291    -0.0003131   -0.0000973     0.0007727    0.0008034 
   0.004151026    -0.3602048    0.1794574    -0.0000096    0.0006522    -0.0001396    0.0000019    -0.0001107    0.0007331 
   0.004251051    -0.3571529    0.1850481    -0.0006006   -0.0002698    -0.0002037   -0.0001975     0.0004820    0.0008220 
   0.004351076    -0.3551804    0.1802681    -0.0001903    0.0005744    -0.0000781   -0.0002820    -0.0004534    0.0005975 
   0.004451101    -0.3480856    0.1714541    -0.0001153    0.0007881     0.0004595    0.0001532     0.0010322    0.0001560 
   0.004551126    -0.3461423    0.1698541    -0.0000078    0.0012672     0.0003217    0.0000955     0.0007999    0.0011950 
   0.004651151    -0.3336039    0.1752960    -0.0002479   -0.0000784    -0.0000236    0.0000735     0.0003033    0.0000754 
   0.004751176    -0.3381828    0.1754242     0.0000697    0.0001370    -0.0003121   -0.0000726     0.0000881    0.0001869 
   0.004851201    -0.3332404    0.1692270    -0.0004317    0.0004837     0.0000485    0.0000105     0.0000200    0.0008919 
   0.004951226    -0.3357220    0.1613128    -0.0005975    0.0009278    -0.0001802   -0.0001677    -0.0002678   -0.0003885 
   0.005051251    -0.3304635    0.1623494    -0.0013296    0.0011052     0.0003205   -0.0001058     0.0008229    0.0010525 
   0.005151276    -0.3237384    0.1612191    -0.0004126    0.0007778     0.0001827    0.0000292    -0.0002820    0.0007524 
   0.005251301    -0.3219217    0.1611898     0.0002885   -0.0003387     0.0000208   -0.0001224     0.0002292    0.0003348 
   0.005351326    -0.3215972    0.1608668    -0.0008293    0.0003736     0.0002007   -0.0000785     0.0005828    0.0011867 
   0.005451351    -0.3121909    0.1589907    -0.0013875    0.0005980     0.0001159   -0.0000374    -0.0000933    0.0005094 
   0.005551376    -0.3132116    0.1528703    -0.0000813    0.0006423    -0.0000457    0.0000801     0.0007409    0.0000103 
   0.005651401    -0.3047260    0.1571046    -0.0015485   -0.0000723    -0.0001224   -0.0000270     0.0000386    0.0000282 
   0.005751426    -0.3110836    0.1545912     0.0002340   -0.0012226     0.0000252    0.0001330     0.0002997    0.0004288 
   0.005851451    -0.3040456    0.1432989     0.0000303   -0.0000124     0.0000989   -0.0001127    -0.0005934    0.0002173 
   0.005951476    -0.3034863    0.1472883    -0.0011784    0.0011492     0.0000990    0.0001866    -0.0000054    0.0004127 
   0.006051501    -0.3035252    0.1471044     0.0005894    0.0007218    -0.0000616   -0.0000673     0.0001630    0.0010769 
   0.006151526    -0.3027453    0.1419517     0.0016682    0.0004935     0.0000696   -0.0001469     0.0001134    0.0005968 
   0.006251551    -0.2976797    0.1437092     0.0000421   -0.0001925     0.0000478    0.0000188    -0.0000319   -0.0002669 
   0.006351576    -0.2921592    0.1415290    -0.0001175    0.0004423     0.0003005   -0.0000957     0.0001484    0.0000699 
   0.006451601    -0.2922745    0.1454031     0.0000662    0.0007652     0.0001106    0.0001498    -0.0000137    0.0001482 
   0.006551626    -0.2888029    0.1384900    -0.0003154   -0.0003587    -0.0000416    0.0001208     0.0010086    0.0004734 
   0.006651651    -0.2846963    0.1327550    -0.0001386   -0.0000458    -0.0000297    0.0000981     0.0002681    0.0005675 
   0.006751676    -0.2865566    0.1387397    -0.0006915    0.0003226     0.0000386    0.0000865     0.0003222    0.0001164 
   0.006851701    -0.2823734    0.1332321    -0.0001806    0.0000161     0.0000981    0.0001482     0.0003105   -0.0002480 
   0.006951726    -0.2816271    0.1340970    -0.0003686   -0.0001966    -0.0000948    0.0001779     0.0003516    0.0000387 
   0.007051751    -0.2784746    0.1316369     0.0003807   -0.0004845     0.0000319   -0.0000142    -0.0002350    0.0007256 
   0.007151776    -0.2814550    0.1337440     0.0000433   -0.0005739    -0.0000581   -0.0001132     0.0000738    0.0009687 
   0.007251801    -0.2736249    0.1245643     0.0003133   -0.0002469     0.0002007    0.0000819    -0.0001301   -0.0001852 
   0.007351826    -0.2763318    0.1267575    -0.0005322    0.0005858    -0.0000711    0.0002621     0.0006855    0.0004366 
   0.007451851    -0.2743010    0.1252282     0.0005282    0.0004676     0.0001552   -0.0001091     0.0008145    0.0000624 
   0.007551876    -0.2747975    0.1235476    -0.0008384    0.0003461    -0.0000756   -0.0000236    -0.0000223    0.0005964 
   0.007651901    -0.2676693    0.1275614     0.0004787   -0.0008127    -0.0000616    0.0000112     0.0005815    0.0003952 
   0.007751926    -0.2700050    0.1189404     0.0011420   -0.0005695    -0.0000045   -0.0001757     0.0003168    0.0001297 
   0.007851951    -0.2700261    0.1200121    -0.0005856    0.0005525    -0.0000067   -0.0000207     0.0007606    0.0001265 
   0.007951976    -0.2686265    0.1137294     0.0001747   -0.0001574    -0.0000049   -0.0001256     0.0004918    0.0004089 
   0.008052001    -0.2650175    0.1150449     0.0000576   -0.0007065    -0.0000012    0.0000607     0.0002852    0.0007086 
   0.008152026    -0.2629006    0.1148490     0.0002357   -0.0005034    -0.0000913    0.0001941     0.0002922   -0.0000119 
   0.008252051    -0.2618232    0.1127142     0.0002036   -0.0005176    -0.0001054    0.0001322     0.0005396    0.0001284 
   0.008352076    -0.2622447    0.1089435     0.0000671    0.0002200     0.0002285   -0.0001664     0.0003036    0.0007790 
   0.008452101    -0.2605964    0.1081424    -0.0002635   -0.0007766     0.0000583    0.0000459     0.0007048    0.0000705 
   0.008552126    -0.2605779    0.1085629    -0.0005902   -0.0000826    -0.0000116    0.0003138     0.0001471    0.0004544 
   0.008652151    -0.2578180    0.1056903     0.0015701    0.0003929     0.0000402    0.0000643     0.0002769    0.0001208 
   0.008752176    -0.2562215    0.1064308     0.0007142   -0.0005329    -0.0000541    0.0000307     0.0001347    0.0003861 
   0.008852201    -0.2534996    0.1051919     0.0003595    0.0004111     0.0003048   -0.0000484     0.0000533    0.0002649 
   0.008952226    -0.2540412    0.1020414     0.0004958    0.0005701    -0.0000832   -0.0000929     0.0004991    0.0005539 
   0.009052251    -0.2523619    0.0992291     0.0001032   -0.0001105     0.0000962   -0.0000702     0.0005123    0.0004632 
   0.009152276    -0.2502275    0.0983841    -0.0002214   -0.0002736     0.0001266    0.0002237     0.0001460    0.0001357 
   0.009252301    -0.2516441    0.0959549     0.0000691   -0.0003268    -0.0000272   -0.0002366     0.0002992    0.0000344 
   0.009352326    -0.2474705    0.0962679    -0.0001204   -0.0001035     0.0002593    0.0000869     0.0004031    0.0007719 
   0.009452351    -0.2477956    0.0927393     0.0009021   -0.0001063    -0.0000628   -0.0000081     0.0003325    0.0006190 
   0.009552376    -0.2477302    0.0929362    -0.0000448    0.0000127     0.0001045   -0.0001183     0.0004762    0.0004205 
   0.009652401    -0.2484921    0.0912623    -0.0008992   -0.0002922     0.0002341    0.0000725     0.0006336    0.0009864 
   0.009752426    -0.2449204    0.0890629     0.0003254   -0.0001299    -0.0002215    0.0001144     0.0000540    0.0003557 
   0.009852451    -0.2447151    0.0900074    -0.0002562   -0.0002966    -0.0000909    0.0002199     0.0004225    0.0007793 
   0.009952476    -0.2426093    0.0860997     0.0000457   -0.0008727     0.0001503    0.0000913     0.0004668    0.0007048 
   0.010052501    -0.2440663    0.0793381    -0.0010511    0.0006532     0.0000181   -0.0001077     0.0005954    0.0004433 
   0.010152526    -0.2430502    0.0801984     0.0003924   -0.0000595     0.0000587   -0.0000334     0.0004649    0.0001230 
   0.010252551    -0.2466849    0.0810540     0.0000377   -0.0001989     0.0000588   -0.0001354     0.0000742    0.0003651 
   0.010352576    -0.2406628    0.0790714    -0.0005954   -0.0001305    -0.0002047   -0.0000135     0.0003327    0.0001203 
   0.010452601    -0.2413577    0.0778037    -0.0000077   -0.0004093    -0.0004209   -0.0000135     0.0002227    0.0004994 
   0.010552626    -0.2427172    0.0744406    -0.0002174    0.0000338     0.0000509   -0.0002092     0.0001912    0.0001543 
   0.010652651    -0.2420594    0.0733458    -0.0002199   -0.0002473     0.0001966   -0.0000403     0.0002366    0.0001527 
   0.010752676    -0.2462523    0.0729671    -0.0000488    0.0003090     0.0000598    0.0000897     0.0003881    0.0002548 
   0.010852701    -0.2425705    0.0667928     0.0000557   -0.0007231     0.0001665    0.0000479     0.0005939    0.0002119 
   0.010952726    -0.2442738    0.0661025    -0.0007260    0.0005870    -0.0001187   -0.0001294     0.0003455    0.0005428 
   0.011052751    -0.2413508    0.0638074     0.0005708    0.0003426    -0.0000791   -0.0000585     0.0000642    0.0010108 
   0.011152776    -0.2413344    0.0656385    -0.0001362   -0.0000145    -0.0000172   -0.0001179     0.0004436    0.0007805 
   0.011252801    -0.2414282    0.0638323     0.0001107    0.0003266    -0.0000441   -0.0000271     0.0007189    0.0004836 
   0.011352826    -0.2416835    0.0639615    -0.0002584   -0.0001044    -0.0000152   -0.0000385     0.0001831    0.0002207 
   0.011452851    -0.2454468    0.0608980     0.0000165   -0.0014138    -0.0001016   -0.0000131     0.0003481    0.0003446 
   0.011552876    -0.2433859    0.0589740     0.0006067   -0.0001789     0.0000932   -0.0000770     0.0003839    0.0007134 
   0.011652901    -0.2461755    0.0589111     0.0007600   -0.0004577     0.0000111   -0.0000464     0.0002805    0.0002159 
   0.011752926    -0.2467450    0.0574559    -0.0000147    0.0005079    -0.0000178   -0.0000481     0.0004980    0.0005371 
   0.011852951    -0.2467615    0.0548687    -0.0002745   -0.0002776     0.0002119    0.0000707     0.0001782    0.0003378 
   0.011952976    -0.2469647    0.0525007    -0.0009506    0.0004887     0.0000411    0.0001182     0.0000328    0.0004015 
   0.012053002    -0.2466429    0.0525467    -0.0006296   -0.0006378    -0.0000124    0.0000260     0.0007253    0.0004635 
   0.012153027    -0.2456903    0.0512001    -0.0006702    0.0002770     0.0000575    0.0001682     0.0000899    0.0005581 
   0.012253052    -0.2466377    0.0529626     0.0010829    0.0002196     0.0001371    0.0001607     0.0005962    0.0006771 
   0.012353077    -0.2483851    0.0491167     0.0003779   -0.0004326     0.0001072    0.0000674     0.0000443    0.0003737 
   0.012453102    -0.2469838    0.0523992    -0.0004233   -0.0005248    -0.0000774    0.0000516     0.0003054    0.0000581 
   0.012553127    -0.2472550    0.0500774    -0.0000516   -0.0009140    -0.0000080    0.0002412     0.0002950    0.0000726 
   0.012653152    -0.2499749    0.0497933     0.0002847    0.0004562    -0.0000170   -0.0001019     0.0005044    0.0005127 
   0.012753177    -0.2480568    0.0500879     0.0004422    0.0015750     0.0000539    0.0001564     0.0002154    0.0007512 
   0.012853202    -0.2501646    0.0481256    -0.0002597    0.0003679    -0.0000583    0.0000205     0.0006338    0.0002594 
   0.012953227    -0.2470525    0.0485483    -0.0009635   -0.0000612     0.0002290   -0.0001603     0.0004249    0.0005817 
   0.013053252    -0.2507798    0.0500765     0.0002030    0.0000383    -0.0001887    0.0000184     0.0005452    0.0003039 
   0.013153277    -0.2495315    0.0487411    -0.0003387    0.0000822    -0.0000243   -0.0001625     0.0004774    0.0002617 
   0.013253302    -0.2508472    0.0512692    -0.0003945    0.0003409     0.0000619    0.0000379     0.0004454    0.0005148 
   0.013353327    -0.2517129    0.0521030    -0.0003522   -0.0006980    -0.0000130    0.0000487     0.0004047    0.0006699 
   0.013453352    -0.2528326    0.0514931    -0.0006937    0.0004206    -0.0001079   -0.0000574     0.0004088    0.0004480 
   0.013553377    -0.2520648    0.0511052    -0.0003852    0.0004140    -0.0003349    0.0002106     0.0006209    0.0007211 
   0.013653402    -0.2497530    0.0496519    -0.0000231    0.0001555     0.0001033    0.0000830    -0.0000966    0.0004943 
   0.013753427    -0.2494331    0.0535360     0.0001171    0.0003835     0.0005330   -0.0000097    -0.0000982    0.0004517 
   0.013853452    -0.2493315    0.0523631    -0.0004401   -0.0000526    -0.0000065    0.0000042    -0.0001257    0.0009021 
   0.013953477    -0.2501207    0.0534396     0.0005569   -0.0002473     0.0002981   -0.0001715     0.0002153    0.0002861 
   0.014053502    -0.2456931    0.0502757     0.0000470   -0.0000981    -0.0002480    0.0001258     0.0002764    0.0004821 
   0.014153527    -0.2512241    0.0522474     0.0002660   -0.0002578     0.0002652    0.0001307     0.0006160    0.0006825 
   0.014253552    -0.2446625    0.0492991     0.0002052    0.0007261    -0.0000720    0.0001035     0.0005818    0.0005009 
   0.014353577    -0.2485676    0.0526061    -0.0002556    0.0001851    -0.0003220   -0.0000184     0.0000310    0.0004727 
   0.014453602    -0.2452014    0.0505826    -0.0007048    0.0000707     0.0001344   -0.0000398     0.0002018    0.0003257 
   0.014553627    -0.2468348    0.0499325     0.0012293    0.0001089    -0.0002032    0.0000220    -0.0002517    0.0002259 
   0.014653652    -0.2447524    0.0545200     0.0002165   -0.0001195    -0.0000778    0.0001749     0.0004402    0.0004173 
   0.014753677    -0.2433595    0.0524240     0.0003908   -0.0003864     0.0000343    0.0002731     0.0005034    0.0009144 
   0.014853702    -0.2447662    0.0525803     0.0004379    0.0003700     0.0000347    0.0001990     0.0001025    0.0007716 
   0.014953727    -0.2396066    0.0513609    -0.0002238   -0.0001308    -0.0001595    0.0000414    -0.0000296    0.0003860 
   0.015053752    -0.2401347    0.0533022     0.0001386    0.0010248     0.0001018    0.0001951     0.0005150    0.0010495 
   0.015153777    -0.2366958    0.0503340     0.0003060   -0.0007163     0.0000102   -0.0000029     0.0005111    0.0000536 
   0.015253802    -0.2377057    0.0536794     0.0010243   -0.0002088    -0.0000471    0.0001152     0.0001048    0.0003472 
   0.015353827    -0.2377075    0.0495435     0.0001001   -0.0002754     0.0000369    0.0001166     0.0001753    0.0001401 
   0.015453852    -0.2366074    0.0498163     0.0009301    0.0006457    -0.0001066    0.0000373     0.0000772    0.0004985 
   0.015553877    -0.2370871    0.0499227     0.0000347    0.0004096     0.0000638    0.0000484     0.0003810    0.0002102 
   0.015653902    -0.2331379    0.0504864     0.0000558   -0.0000492     0.0002478    0.0001488     0.0003343    0.0004469 
