! 19-Feb-26 3:03:49 PM
! E:\VNA_MEASUREMENTS\RECBLOCK\SEMIRIGIDREV1.S2P
! CHANNEL.1
! TR.MEASUREMENT
! CORRECTED.DATA
# GHZ S RI R 50.0
! FREQ.GHZ         S11RE         S11IM         S21RE         S21IM         S12RE         S12IM         S22RE         S22IM         
!; PortSelection: Port_12
   0.000050000    -1.5105490    1.9122020    -2.2357540    0.2340858    -0.5849460   -0.9040480    -0.4421532   -2.4101960 
   0.000150025    -0.1517462    0.0307885    -2.2106380    0.1235174     0.8895867   -0.0267299    -2.2248150   -0.9120461 
   0.000250050    -0.3294510   -0.0448393     1.3550160    0.2527508     0.7792890   -0.0843853     0.2065349    0.2349274 
   0.000350075     0.0059835   -0.0038685     1.0275650    0.0138943     1.0142800    0.0026815     0.0203145    0.0118661 
   0.000450100     0.0050828    0.0021396     1.0151460    0.0207404     0.9941847    0.0032831     0.0089929    0.0186894 
   0.000550125     0.0022235    0.0010258     1.0267100   -0.0035422     0.9918791    0.0015499     0.0165897    0.0009426 
   0.000650150    -0.0023162   -0.0067632     1.0151420   -0.0179112     0.9917473   -0.0075769     0.0100011   -0.0084676 
   0.000750175    -0.0014318    0.0028327     0.9825496    0.0316258     0.9998789   -0.0115424    -0.0130118    0.0223320 
   0.000850200     0.0071656   -0.0011843     1.0420680    0.0124433     1.0105160   -0.0091314     0.0300007    0.0090195 
   0.000950225     0.0019742    0.0027079     1.0196680    0.0325900     1.0004790   -0.0060159     0.0137015    0.0249306 
   0.001050250    -0.0071812   -0.0033010     0.9667823   -0.0348202     0.9931581   -0.0064175    -0.0241922   -0.0184689 
   0.001150275     0.0028109    0.0019374     1.0015470    0.0272648     1.0049570   -0.0012651     0.0026791    0.0229288 
   0.001250300     0.0002461    0.0017147     0.9918727    0.0280676     0.9931683   -0.0094611    -0.0062733    0.0238650 
   0.001350325    -0.0001706   -0.0007833     1.0202090    0.0238636     0.9955224   -0.0077839     0.0151137    0.0193809 
   0.001450350     0.0004070    0.0011304     1.0173900   -0.0004346     0.9995078   -0.0043610     0.0124129    0.0038848 
   0.001550375     0.0023568   -0.0005803     1.0006610   -0.0090027     1.0009210    0.0012497     0.0006752   -0.0004241 
   0.001650400    -0.0006280   -0.0021808     0.9959092    0.0054146     0.9997179   -0.0087301    -0.0014747    0.0085160 
   0.001750425    -0.0005989   -0.0000898     0.9985860   -0.0150175     1.0089360   -0.0057309     0.0000299   -0.0045466 
   0.001850450     0.0014096   -0.0024177     1.0058490   -0.0218773     1.0078590   -0.0140847     0.0038493   -0.0105389 
   0.001950475     0.0009341   -0.0041954     1.0151720   -0.0284990     1.0018610   -0.0146617     0.0091957   -0.0153051 
   0.002050500     0.0001555   -0.0009816     1.0043050   -0.0196489     0.9999255   -0.0123615     0.0023287   -0.0074511 
   0.002150525     0.0006128   -0.0003460     0.9954486   -0.0076189     1.0043500   -0.0079020    -0.0016878    0.0015902 
   0.002250550    -0.0001737    0.0030175     1.0017020    0.0223920     1.0025160    0.0013741     0.0060608    0.0226055 
   0.002350575     0.0004329   -0.0019618     1.0040210   -0.0277814     0.9954262   -0.0034311     0.0009376   -0.0110896 
   0.002450600    -0.0042891   -0.0010575     0.9791499   -0.0289821     0.9991573   -0.0174648    -0.0155273   -0.0101893 
   0.002550625     0.0011725    0.0015097     1.0049320    0.0160878     1.0041270   -0.0141050     0.0080561    0.0166116 
   0.002650650     0.0006574    0.0002306     1.0038110   -0.0189339     0.9983651   -0.0142849     0.0017641   -0.0057594 
   0.002750675     0.0000689    0.0002478     1.0071870   -0.0335873     1.0014970   -0.0117681     0.0024003   -0.0146688 
   0.002850700    -0.0017822    0.0003492     0.9794440   -0.0099277     0.9938611   -0.0123249    -0.0135539    0.0062255 
   0.002950725    -0.0003811    0.0011188     1.0015740   -0.0108289     1.0029390   -0.0068035     0.0026013    0.0021544 
   0.003050750     0.0016551    0.0007537     1.0007690   -0.0202172     1.0025040   -0.0090319     0.0004243   -0.0039596 
   0.003150775    -0.0005957   -0.0006392     1.0017580   -0.0343177     0.9959139   -0.0179856    -0.0017795   -0.0136657 
   0.003250800     0.0002910    0.0019730     1.0017540   -0.0198367     1.0038770   -0.0104182     0.0011358   -0.0032716 
   0.003350825    -0.0010929   -0.0005061     0.9933183   -0.0125109     0.9957357   -0.0177981    -0.0032818    0.0026220 
   0.003450850    -0.0013338   -0.0015503     0.9912753   -0.0208710     0.9928145   -0.0197295    -0.0067453   -0.0023513 
   0.003550875     0.0019025    0.0008201     1.0114280   -0.0018354     0.9957346   -0.0201072     0.0099574    0.0059069 
   0.003650900     0.0020797   -0.0000850     0.9988229   -0.0312696     0.9982056   -0.0081643    -0.0026968   -0.0090800 
   0.003750925    -0.0005650   -0.0006601     1.0019240   -0.0252456     0.9969336   -0.0168118    -0.0000101   -0.0061972 
   0.003850950    -0.0003022    0.0005215     0.9744977   -0.0248716     0.9929283   -0.0177134    -0.0189435    0.0003565 
   0.003950975    -0.0023943    0.0034080     0.9855064   -0.0035531     0.9943633   -0.0093110    -0.0060048    0.0126715 
   0.004051001     0.0015023    0.0006211     1.0117560   -0.0251472     1.0007030   -0.0147479     0.0068046   -0.0064310 
   0.004151026     0.0001910    0.0000253     0.9900248   -0.0318651     0.9990275   -0.0133730    -0.0085607   -0.0062652 
   0.004251051     0.0004765   -0.0020832     1.0054930   -0.0207014     1.0010900   -0.0217530     0.0040363   -0.0025108 
   0.004351076     0.0000434   -0.0000975     1.0035500   -0.0153263     0.9975575   -0.0160765     0.0030450    0.0018640 
   0.004451101    -0.0005612   -0.0007499     1.0104890   -0.0125623     1.0016350   -0.0212379     0.0090684    0.0013447 
   0.004551126    -0.0008355   -0.0008832     0.9829780   -0.0340738     1.0038620   -0.0177426    -0.0128563   -0.0053865 
   0.004651151     0.0030729   -0.0016149     1.0059010   -0.0356059     1.0002200   -0.0185476     0.0002988   -0.0105484 
   0.004751176     0.0017784    0.0008111     1.0073230   -0.0207366     0.9948817   -0.0170855     0.0049096   -0.0019030 
   0.004851201     0.0018098    0.0047845     1.0142960    0.0063230     0.9966120   -0.0201385     0.0164708    0.0132647 
   0.004951226    -0.0003661   -0.0003788     0.9897529   -0.0233315     0.9967839   -0.0172431    -0.0063243    0.0021401 
   0.005051251     0.0024480    0.0009270     1.0165110   -0.0190272     1.0040560   -0.0204313     0.0123717   -0.0020627 
   0.005151276     0.0010866   -0.0009853     1.0045430   -0.0227525     0.9952074   -0.0236938     0.0035457   -0.0013367 
   0.005251301    -0.0015707    0.0010880     0.9882804   -0.0144144     0.9946713   -0.0235195    -0.0044080    0.0080319 
   0.005351326    -0.0017133    0.0004443     0.9811442   -0.0218113     0.9984691   -0.0160664    -0.0100749    0.0062390 
   0.005451351     0.0007511   -0.0015902     0.9807579   -0.0359721     1.0031140   -0.0222016    -0.0139186   -0.0014596 
   0.005551376     0.0004783    0.0018140     0.9880808   -0.0260992     1.0001080   -0.0234690    -0.0074937    0.0022136 
   0.005651401    -0.0020845    0.0038564     0.9900952   -0.0152233     0.9949490   -0.0180284    -0.0031083    0.0090830 
   0.005751426     0.0020484    0.0004896     0.9981161   -0.0397864     1.0044830   -0.0248467    -0.0041170   -0.0084317 
   0.005851451     0.0014426    0.0002081     0.9930897   -0.0251923     0.9996402   -0.0271609    -0.0035240    0.0021360 
   0.005951476    -0.0013694    0.0026293     0.9886980   -0.0155517     0.9977265   -0.0197568    -0.0033985    0.0095319 
   0.006051501    -0.0023521    0.0002550     0.9703255   -0.0217273     0.9957625   -0.0243988    -0.0163980    0.0121713 
   0.006151526     0.0017745    0.0008275     1.0029500   -0.0236559     1.0057450   -0.0247466     0.0046816    0.0011950 
   0.006251551     0.0009074    0.0020942     1.0000750   -0.0152835     0.9988723   -0.0225080     0.0045987    0.0073539 
   0.006351576     0.0027287    0.0015920     1.0059490   -0.0340306     0.9982828   -0.0257280     0.0024152   -0.0055645 
   0.006451601     0.0004655    0.0000776     1.0036570   -0.0303013     0.9972597   -0.0260932     0.0023182   -0.0026950 
   0.006551626     0.0002099    0.0011784     1.0007550   -0.0148298     0.9997651   -0.0270361     0.0061780    0.0071595 
   0.006651651     0.0019735    0.0015690     0.9947408   -0.0244860     1.0038090   -0.0272766    -0.0003529    0.0039896 
   0.006751676     0.0031181   -0.0000964     1.0099810   -0.0323636     1.0049210   -0.0276311     0.0061739   -0.0051895 
   0.006851701    -0.0009721    0.0011083     0.9918536   -0.0210797     1.0011880   -0.0225392    -0.0005643    0.0073550 
   0.006951726     0.0024684   -0.0002994     1.0071280   -0.0397188     0.9992012   -0.0301243     0.0013344   -0.0080879 
   0.007051751     0.0006855    0.0038041     1.0116970   -0.0159536     1.0003630   -0.0248644     0.0118244    0.0038783 
   0.007151776     0.0001938    0.0014005     0.9991882   -0.0221819     1.0034840   -0.0325323     0.0039906    0.0042874 
   0.007251801    -0.0006529    0.0034079     1.0060490   -0.0140063     0.9974408   -0.0261815     0.0102178    0.0072913 
   0.007351826    -0.0014075    0.0003885     0.9816357   -0.0184412     0.9941624   -0.0283070    -0.0048900    0.0137154 
   0.007451851     0.0025447   -0.0007210     1.0087010   -0.0399353     0.9992818   -0.0347037     0.0025937   -0.0079445 
   0.007551876    -0.0018402    0.0009386     0.9912835   -0.0281141     0.9960335   -0.0310071    -0.0027327    0.0051954 
   0.007651901     0.0015759    0.0032756     1.0113730   -0.0233349     0.9967756   -0.0282509     0.0098393    0.0006867 
   0.007751926    -0.0004292    0.0022057     1.0025050   -0.0247059     0.9955848   -0.0306916     0.0051808    0.0034623 
   0.007851951     0.0017411    0.0012073     1.0067410   -0.0357012     1.0022490   -0.0341301     0.0040618   -0.0038633 
   0.007951976     0.0012714    0.0036546     1.0013730   -0.0092957     1.0003600   -0.0299936     0.0112121    0.0126432 
   0.008052001    -0.0001157   -0.0003228     0.9881175   -0.0347223     0.9997755   -0.0330757    -0.0049451    0.0045799 
   0.008152026     0.0004384   -0.0001680     0.9967216   -0.0421944     1.0011520   -0.0322008    -0.0035572   -0.0025171 
   0.008252051    -0.0004936    0.0025092     0.9945880   -0.0112246     1.0034160   -0.0355665     0.0082025    0.0145187 
   0.008352076    -0.0009305    0.0005848     0.9947131   -0.0271013     0.9984140   -0.0325305     0.0012412    0.0067830 
   0.008452101    -0.0000956    0.0009897     1.0032970   -0.0319559     0.9990928   -0.0376980     0.0046417   -0.0003480 
   0.008552126     0.0003142   -0.0000262     1.0053520   -0.0307061     0.9988251   -0.0345393     0.0056273    0.0005790 
   0.008652151     0.0007564    0.0024867     1.0013510   -0.0251807     0.9970902   -0.0326392     0.0057722    0.0055605 
   0.008752176     0.0002567    0.0008144     0.9906868   -0.0312624     0.9996099   -0.0386536    -0.0006292    0.0064230 
   0.008852201     0.0013658    0.0002154     0.9880576   -0.0414006     1.0007910   -0.0378312    -0.0066312    0.0026056 
   0.008952226     0.0002070    0.0008058     0.9970394   -0.0294474     0.9952304   -0.0380059     0.0024856    0.0055605 
   0.009052251    -0.0002275    0.0009590     0.9978898   -0.0290667     1.0012010   -0.0367901     0.0042961    0.0058246 
   0.009152276     0.0001386   -0.0000159     0.9987513   -0.0432599     0.9953198   -0.0395917    -0.0016782   -0.0022840 
   0.009252301     0.0023004    0.0024940     1.0057550   -0.0306985     0.9992714   -0.0399432     0.0074234    0.0010802 
   0.009352326     0.0004766    0.0017472     0.9919833   -0.0393849     0.9985079   -0.0378650    -0.0030122    0.0036396 
   0.009452351     0.0017978    0.0028478     1.0117540   -0.0421770     1.0007720   -0.0401726     0.0060716   -0.0069260 
   0.009552376     0.0008439    0.0004589     1.0012360   -0.0463167     0.9985858   -0.0374394    -0.0013080   -0.0032791 
   0.009652401     0.0009358    0.0012156     0.9984074   -0.0404047     0.9959124   -0.0391970     0.0007364    0.0003400 
   0.009752426     0.0005142    0.0020277     1.0061840   -0.0410096     0.9946212   -0.0394279     0.0039699   -0.0033644 
   0.009852451     0.0029834    0.0023206     1.0037740   -0.0407727     1.0005290   -0.0407343     0.0034023   -0.0011598 
   0.009952476     0.0002839    0.0012862     0.9969395   -0.0343290     0.9984387   -0.0408011     0.0030376    0.0048388 
   0.010052501     0.0008231    0.0017524     1.0078650   -0.0381199     0.9960606   -0.0411392     0.0057713   -0.0020190 
   0.010152526     0.0001525    0.0017402     1.0052340   -0.0267484     0.9967148   -0.0366656     0.0105138    0.0047149 
   0.010252551    -0.0005650    0.0013841     0.9926117   -0.0331826     0.9962954   -0.0388424     0.0020436    0.0075865 
   0.010352576     0.0012483    0.0040841     1.0198100   -0.0342541     1.0016540   -0.0419469     0.0146463   -0.0054532 
   0.010452601     0.0011471   -0.0006044     0.9923518   -0.0452654     1.0001740   -0.0436131    -0.0028516    0.0029744 
   0.010552626     0.0013341    0.0015266     1.0025870   -0.0393444     0.9967400   -0.0455820     0.0043625    0.0002028 
   0.010652651     0.0020232    0.0006871     1.0072230   -0.0490505     0.9990635   -0.0444231     0.0018420   -0.0054837 
   0.010752676     0.0014814    0.0031752     1.0101880   -0.0366730     0.9992952   -0.0425015     0.0095063   -0.0014742 
   0.010852701     0.0022571    0.0023754     0.9992613   -0.0456595     0.9977263   -0.0426982    -0.0001778    0.0001566 
   0.010952726    -0.0005211    0.0001639     0.9917178   -0.0438324     0.9919015   -0.0429963    -0.0016485    0.0053949 
   0.011052751     0.0002331    0.0024781     0.9901694   -0.0393463     0.9996423   -0.0427353     0.0003025    0.0079682 
   0.011152776     0.0026335    0.0008727     0.9954031   -0.0478247     0.9978756   -0.0462811    -0.0017779    0.0014289 
   0.011252801     0.0006587    0.0028170     0.9949862   -0.0375642     0.9965615   -0.0428571     0.0034462    0.0062530 
   0.011352826     0.0009072    0.0012688     0.9952223   -0.0434517     0.9972372   -0.0456473     0.0011498    0.0040560 
   0.011452851     0.0017240   -0.0010298     0.9953508   -0.0536338     0.9938126   -0.0476996    -0.0040922   -0.0002271 
   0.011552876     0.0023107    0.0016076     1.0057620   -0.0481492     0.9981987   -0.0498338     0.0032745   -0.0032417 
   0.011652901     0.0003159    0.0022490     1.0050520   -0.0394174     0.9992545   -0.0458654     0.0076410    0.0009446 
   0.011752926     0.0004940    0.0019400     1.0011070   -0.0400511     0.9983215   -0.0492432     0.0063639    0.0024446 
   0.011852951    -0.0001115   -0.0001241     0.9901831   -0.0483636     0.9960332   -0.0481794    -0.0029548    0.0052250 
   0.011952976     0.0012825   -0.0003308     0.9949896   -0.0485137     0.9995002   -0.0467412    -0.0004276    0.0029458 
   0.012053002     0.0022844    0.0009295     1.0050810   -0.0520910     1.0013500   -0.0480763     0.0023674   -0.0032493 
   0.012153027     0.0003984    0.0001656     0.9911332   -0.0489978     0.9991058   -0.0507515    -0.0007284    0.0050698 
   0.012253052    -0.0004027    0.0017466     1.0001130   -0.0531928     0.9964774   -0.0468267    -0.0004176   -0.0009598 
   0.012353077     0.0020955    0.0009044     0.9950822   -0.0534830     0.9984395   -0.0491129    -0.0022879    0.0019542 
   0.012453102     0.0016205    0.0027929     0.9982377   -0.0580747     0.9993291   -0.0479700    -0.0029372   -0.0015779 
   0.012553127     0.0018212    0.0026079     1.0094620   -0.0483865     0.9946072   -0.0512019     0.0065058   -0.0044773 
   0.012653152     0.0009609    0.0015799     1.0021610   -0.0455373     0.9919923   -0.0538693     0.0058139    0.0007459 
   0.012753177     0.0019216    0.0014333     1.0008510   -0.0523650     0.9970004   -0.0525761     0.0012015   -0.0003890 
   0.012853202     0.0007737    0.0014332     0.9983158   -0.0561564     0.9952474   -0.0489112    -0.0012440   -0.0003297 
   0.012953227     0.0006935    0.0002750     0.9995906   -0.0523729     0.9973033   -0.0559377     0.0016031    0.0003446 
   0.013053252     0.0017632    0.0018322     1.0171350   -0.0450039     0.9974958   -0.0534603     0.0118943   -0.0068826 
   0.013153277     0.0005285    0.0007889     0.9933276   -0.0467827     0.9951936   -0.0534585     0.0026810    0.0062154 
   0.013253302     0.0004754    0.0008384     0.9964654   -0.0566845     0.9997589   -0.0530402    -0.0013150    0.0010558 
   0.013353327     0.0007568    0.0010931     0.9911953   -0.0635893     0.9969350   -0.0560256    -0.0062439    0.0022197 
   0.013453352     0.0018558   -0.0001484     0.9976445   -0.0652444     0.9989582   -0.0551795    -0.0053465   -0.0017136 
   0.013553377     0.0012699    0.0013062     1.0024270   -0.0692744     0.9988646   -0.0510339    -0.0059731   -0.0055560 
   0.013653402     0.0006339    0.0028894     0.9972368   -0.0576645     0.9955759   -0.0547147    -0.0005165    0.0006449 
   0.013753427     0.0003105    0.0010795     0.9850248   -0.0556413     0.9980866   -0.0549384    -0.0028699    0.0089882 
   0.013853452     0.0009324    0.0018090     1.0014570   -0.0449933     1.0008710   -0.0561052     0.0088447    0.0029236 
   0.013953477     0.0014361    0.0004383     0.9948192   -0.0694947     0.9952825   -0.0537124    -0.0078696   -0.0003139 
   0.014053502     0.0010548    0.0029675     1.0007020   -0.0504421     1.0004860   -0.0532396     0.0059344    0.0015098 
   0.014153527     0.0020811    0.0023657     0.9987831   -0.0524658     0.9977427   -0.0582141     0.0045737    0.0024506 
   0.014253552     0.0010668    0.0011637     1.0068790   -0.0550771     0.9966257   -0.0591504     0.0051642   -0.0031944 
   0.014353577    -0.0008364    0.0009415     0.9894526   -0.0527512     0.9943815   -0.0581994     0.0020598    0.0078622 
   0.014453602     0.0013261    0.0025144     1.0014920   -0.0479368     0.9954488   -0.0590616     0.0079995    0.0019174 
   0.014553627     0.0016766    0.0036600     1.0060050   -0.0564019     0.9966708   -0.0574635     0.0047629   -0.0035270 
   0.014653652     0.0020807    0.0011023     1.0049060   -0.0528074     1.0022330   -0.0590345     0.0070688   -0.0009300 
   0.014753677    -0.0001890   -0.0000762     0.9839551   -0.0669760     1.0002080   -0.0593965    -0.0065865    0.0082279 
   0.014853702     0.0025995    0.0000107     0.9937334   -0.0617708     0.9950021   -0.0597180    -0.0012404    0.0036073 
   0.014953727     0.0012811    0.0016806     0.9952106   -0.0681333     1.0002080   -0.0642259    -0.0041851    0.0007392 
   0.015053752     0.0018355    0.0025167     1.0027940   -0.0609846     0.9954029   -0.0599518     0.0022344   -0.0019893 
   0.015153777     0.0000356    0.0008845     0.9930123   -0.0570848     0.9973540   -0.0592482     0.0026134    0.0046452 
   0.015253802     0.0032119    0.0024564     1.0088780   -0.0693834     0.9971310   -0.0590870    -0.0013853   -0.0074597 
   0.015353827     0.0019409    0.0015979     1.0034300   -0.0724153     0.9968272   -0.0631613    -0.0040647   -0.0050942 
   0.015453852     0.0014677    0.0032165     1.0078610   -0.0559818     1.0017660   -0.0637184     0.0078945   -0.0034554 
   0.015553877     0.0026060   -0.0008350     0.9960330   -0.0742164     0.9949672   -0.0642810    -0.0065379   -0.0001697 
   0.015653902     0.0007972    0.0006255     0.9947169   -0.0592249     0.9949798   -0.0625974     0.0033111    0.0041440 
