! 19-Feb-26 3:02:28 PM
! E:\VNA_MEASUREMENTS\RECBLOCK\SEMIRIGID1.S2P
! CHANNEL.1
! TR.MEASUREMENT
! CORRECTED.DATA
# GHZ S RI R 50.0
! FREQ.GHZ         S11RE         S11IM         S21RE         S21IM         S12RE         S12IM         S22RE         S22IM         
!; PortSelection: Port_12
   0.000050000     0.0331480    0.0393106    -0.6703081    0.0023409     0.9645172    0.0253273    -0.2361435   -1.2132470 
   0.000150025    -0.1372452   -0.0912391     0.1889931    1.7053080     0.9368290   -0.1126189    -1.0764410    0.9152675 
   0.000250050    -1.9347570   -0.1220634     3.1166050    0.3918168    -0.3332125   -0.3972582     1.4160380    0.6100379 
   0.000350075    -0.0047539   -0.0096724     0.9976410   -0.0213074     1.0006060   -0.0069174     0.0018166   -0.0155046 
   0.000450100    -0.0031015    0.0015638     0.9844604    0.0133170     0.9925147    0.0052476    -0.0109911    0.0112342 
   0.000550125     0.0049806    0.0021223     1.0134070    0.0144802     0.9949688   -0.0074855     0.0062271    0.0113138 
   0.000650150    -0.0006428    0.0009428     1.0036500    0.0036705     0.9996706    0.0016583     0.0021184    0.0054406 
   0.000750175    -0.0015385    0.0013633     0.9710104    0.0098031     1.0064380   -0.0085455    -0.0195535    0.0077125 
   0.000850200     0.0038866   -0.0058427     1.0447420   -0.0140955     1.0119470   -0.0073995     0.0322769   -0.0081795 
   0.000950225     0.0019657   -0.0002687     1.0103120    0.0003274     0.9933797   -0.0109554     0.0051016    0.0025411 
   0.001050250    -0.0068445   -0.0034354     0.9598927   -0.0263722     0.9975416   -0.0069245    -0.0270399   -0.0134516 
   0.001150275    -0.0006764    0.0008561     1.0008020    0.0072499     0.9978743   -0.0067524     0.0006597    0.0086495 
   0.001250300     0.0003957   -0.0008369     0.9786641   -0.0006605     0.9937942   -0.0189199    -0.0165824    0.0031946 
   0.001350325    -0.0033451   -0.0014246     1.0021380   -0.0060489     0.9899344   -0.0111611     0.0005170    0.0007652 
   0.001450350     0.0026997   -0.0020897     1.0297810   -0.0135015     0.9955248   -0.0057842     0.0183917   -0.0053841 
   0.001550375     0.0023314    0.0001737     0.9803634   -0.0129767     1.0051190   -0.0037147    -0.0123313   -0.0022006 
   0.001650400     0.0016037    0.0001361     0.9884457    0.0018528     1.0074830   -0.0031370    -0.0060580    0.0074690 
   0.001750425     0.0028858    0.0004733     1.0282900   -0.0240611     1.0042220   -0.0021761     0.0186226   -0.0125887 
   0.001850450     0.0032520   -0.0007900     1.0194150   -0.0154814     1.0009360   -0.0118948     0.0125433   -0.0065722 
   0.001950475     0.0039946   -0.0008240     1.0196050   -0.0170649     1.0028210   -0.0126947     0.0131314   -0.0076104 
   0.002050500     0.0040045   -0.0029641     1.0051800   -0.0193779     0.9988633   -0.0098610     0.0022701   -0.0065466 
   0.002150525     0.0030394   -0.0002775     1.0191080   -0.0141065     1.0055970   -0.0134507     0.0128547   -0.0055261 
   0.002250550    -0.0000435    0.0040440     0.9857410    0.0160601     1.0066240   -0.0090272    -0.0053200    0.0188903 
   0.002350575     0.0012997   -0.0008187     1.0234570   -0.0289648     0.9959432   -0.0141161     0.0141486   -0.0160318 
   0.002450600    -0.0018327   -0.0036229     0.9920498   -0.0179407     1.0018060   -0.0189288    -0.0053088   -0.0042793 
   0.002550625     0.0025757   -0.0005854     1.0123870    0.0019341     1.0071940   -0.0138326     0.0110384    0.0069031 
   0.002650650     0.0001117   -0.0006144     1.0056080   -0.0113977     1.0003140   -0.0061520     0.0045584    0.0007662 
   0.002750675     0.0007341   -0.0003063     1.0102930   -0.0301420     1.0017520   -0.0123179     0.0051885   -0.0130189 
   0.002850700    -0.0036773   -0.0002146     0.9768456   -0.0096081     1.0019810   -0.0130504    -0.0139820    0.0054607 
   0.002950725     0.0015138    0.0057557     1.0052060    0.0216494     1.0055220   -0.0055286     0.0104528    0.0229455 
   0.003050750     0.0004376   -0.0014201     0.9915594   -0.0314769     0.9964186   -0.0085643    -0.0080132   -0.0096850 
   0.003150775    -0.0004984    0.0022399     0.9952916   -0.0223289     1.0008670   -0.0157129    -0.0039233   -0.0046893 
   0.003250800     0.0029615    0.0023384     1.0170860   -0.0040535     1.0059310   -0.0124870     0.0140226    0.0037173 
   0.003350825    -0.0006632   -0.0002546     0.9835473   -0.0220148     0.9960717   -0.0189773    -0.0113265   -0.0016086 
   0.003450850    -0.0017149   -0.0034796     0.9835353   -0.0480158     0.9893941   -0.0213880    -0.0170768   -0.0187127 
   0.003550875     0.0040852    0.0003271     1.0360030   -0.0031760     1.0011290   -0.0235119     0.0263703    0.0000401 
   0.003650900     0.0013033   -0.0012285     1.0013580   -0.0323983     0.9925764   -0.0158970    -0.0022424   -0.0112198 
   0.003750925    -0.0011934   -0.0017014     0.9895477   -0.0347568     0.9948565   -0.0129627    -0.0095318   -0.0093142 
   0.003850950     0.0041533   -0.0013945     1.0101170   -0.0433460     0.9986412   -0.0218819     0.0007722   -0.0194604 
   0.003950975    -0.0005715    0.0034108     0.9958260    0.0070600     0.9976122   -0.0132230     0.0033764    0.0166591 
   0.004051001     0.0021626    0.0015631     1.0067400   -0.0136483     0.9999678   -0.0181985     0.0060077    0.0013741 
   0.004151026    -0.0023620   -0.0008180     0.9844463   -0.0338940     0.9940406   -0.0171318    -0.0132950   -0.0065723 
   0.004251051     0.0011919   -0.0006232     1.0099120   -0.0270866     1.0024680   -0.0123677     0.0060494   -0.0062355 
   0.004351076     0.0026056   -0.0009244     1.0055320   -0.0194185     1.0005980   -0.0148412     0.0041511   -0.0009851 
   0.004451101    -0.0023876   -0.0013560     0.9963311   -0.0201382     1.0007950   -0.0198402    -0.0013419    0.0009038 
   0.004551126     0.0007231   -0.0005778     0.9947835   -0.0219083     1.0048500   -0.0191731    -0.0027565   -0.0004418 
   0.004651151    -0.0013836   -0.0007850     0.9869384   -0.0194771     0.9976666   -0.0197972    -0.0070784    0.0033345 
   0.004751176    -0.0002158    0.0016345     0.9926153   -0.0219000     0.9969836   -0.0169518    -0.0039981    0.0009604 
   0.004851201     0.0016407    0.0027190     1.0063310    0.0027101     0.9969267   -0.0193292     0.0111084    0.0132790 
   0.004951226     0.0003632    0.0001084     0.9990686   -0.0159288     1.0020050   -0.0202786     0.0017474    0.0041670 
   0.005051251     0.0005681   -0.0005662     1.0096500   -0.0259763     1.0002720   -0.0222534     0.0060819   -0.0049402 
   0.005151276     0.0031184    0.0010298     1.0132310   -0.0185930     0.9993137   -0.0216508     0.0097619   -0.0013903 
   0.005251301    -0.0009114    0.0022889     1.0007170   -0.0109607     0.9972962   -0.0255945     0.0046832    0.0066307 
   0.005351326     0.0005108    0.0003215     0.9987934   -0.0125306     0.9983481   -0.0209950     0.0032701    0.0065855 
   0.005451351     0.0005898    0.0001247     0.9795583   -0.0232840     1.0010900   -0.0222775    -0.0113223    0.0064544 
   0.005551376     0.0008650   -0.0015820     0.9849761   -0.0298725     0.9997090   -0.0238947    -0.0103798    0.0011680 
   0.005651401    -0.0010594    0.0022570     0.9985527   -0.0162165     0.9921194   -0.0202820     0.0017044    0.0055546 
   0.005751426     0.0011817   -0.0009402     0.9956214   -0.0389781     1.0047740   -0.0238434    -0.0051258   -0.0063810 
   0.005851451     0.0003024    0.0004537     0.9842967   -0.0209617     0.9997919   -0.0229591    -0.0075951    0.0071167 
   0.005951476     0.0000417    0.0023783     0.9975367   -0.0164483     0.9988495   -0.0210582     0.0021526    0.0074061 
   0.006051501    -0.0018501    0.0003156     0.9859278   -0.0214615     0.9962000   -0.0245656    -0.0062879    0.0079370 
   0.006151526     0.0011493    0.0024777     0.9995804   -0.0176837     1.0005450   -0.0193213     0.0042436    0.0060355 
   0.006251551    -0.0011719   -0.0005781     0.9976283   -0.0307016     0.9983583   -0.0283928    -0.0013892   -0.0016833 
   0.006351576     0.0030239    0.0019060     1.0104230   -0.0226181     0.9993722   -0.0260140     0.0086734   -0.0001905 
   0.006451601     0.0017236    0.0002864     1.0026610   -0.0308057     0.9972268   -0.0231706     0.0013725   -0.0020088 
   0.006551626    -0.0001743   -0.0001839     1.0027250   -0.0241128     0.9959978   -0.0293800     0.0043146    0.0009090 
   0.006651651     0.0001552    0.0007432     0.9904606   -0.0348794     0.9972188   -0.0290228    -0.0064174   -0.0002959 
   0.006751676     0.0023682    0.0004558     0.9999180   -0.0285858     1.0008580   -0.0273586     0.0013443    0.0006541 
   0.006851701    -0.0005602    0.0023432     1.0032730   -0.0113221     1.0020710   -0.0226925     0.0092046    0.0094141 
   0.006951726     0.0031311    0.0006068     1.0100170   -0.0401816     0.9970512   -0.0309755     0.0031074   -0.0093593 
   0.007051751     0.0016787    0.0018637     1.0152820   -0.0302442     0.9990298   -0.0237034     0.0091107   -0.0046403 
   0.007151776    -0.0020957    0.0001961     0.9902020   -0.0266236     1.0017890   -0.0344561    -0.0028090    0.0048726 
   0.007251801    -0.0001123    0.0004264     0.9996510   -0.0320503     0.9980909   -0.0283654     0.0009314   -0.0000293 
   0.007351826    -0.0015039    0.0003206     0.9784462   -0.0141010     0.9934202   -0.0276623    -0.0046852    0.0174840 
   0.007451851     0.0010968    0.0014415     0.9992682   -0.0251440     0.9997050   -0.0287913     0.0030956    0.0047240 
   0.007551876    -0.0014048    0.0027084     0.9917985   -0.0239506     0.9993161   -0.0273362    -0.0004797    0.0080953 
   0.007651901     0.0018010    0.0010405     1.0006660   -0.0350227     0.9979354   -0.0306566     0.0001982   -0.0018196 
   0.007751926    -0.0011037    0.0030576     1.0015600   -0.0153551     0.9989318   -0.0274018     0.0085492    0.0091467 
   0.007851951    -0.0001690    0.0007358     0.9958886   -0.0355127     1.0029860   -0.0303382    -0.0021362    0.0008787 
   0.007951976     0.0005854    0.0018725     0.9964606   -0.0191185     0.9987517   -0.0307186     0.0046658    0.0097628 
   0.008052001     0.0008511    0.0013464     0.9910122   -0.0253318     0.9977087   -0.0314375    -0.0000612    0.0083390 
   0.008152026     0.0003407    0.0014002     0.9937066   -0.0298778     1.0003200   -0.0308307    -0.0003584    0.0054593 
   0.008252051     0.0004026    0.0026195     1.0000780   -0.0190143     1.0050110   -0.0391012     0.0085198    0.0081121 
   0.008352076     0.0005567   -0.0006415     0.9935462   -0.0330344     0.9969726   -0.0355673    -0.0019850    0.0036717 
   0.008452101     0.0014638    0.0020924     1.0131730   -0.0336286     0.9989815   -0.0325735     0.0091959   -0.0045071 
   0.008552126    -0.0000774   -0.0006967     0.9945480   -0.0419479     0.9976496   -0.0367912    -0.0042454   -0.0006082 
   0.008652151     0.0009625    0.0013626     1.0015850   -0.0337700     0.9946808   -0.0358504     0.0028218    0.0005812 
   0.008752176     0.0010436    0.0007484     0.9914675   -0.0351258     0.9957280   -0.0402552    -0.0022590    0.0040150 
   0.008852201     0.0018888    0.0012015     0.9900593   -0.0363986     0.9974422   -0.0367936    -0.0035515    0.0048786 
   0.008952226    -0.0007757    0.0019518     1.0021810   -0.0139892     0.9936065   -0.0361309     0.0123535    0.0108375 
   0.009052251     0.0003137   -0.0000934     0.9897006   -0.0368456     1.0021980   -0.0411492    -0.0030542    0.0054790 
   0.009152276     0.0016508    0.0018374     1.0076790   -0.0311033     0.9976471   -0.0363629     0.0080892    0.0004518 
   0.009252301     0.0014599    0.0012636     0.9958842   -0.0315738     1.0020210   -0.0387131     0.0026554    0.0053697 
   0.009352326     0.0003094   -0.0004628     0.9860678   -0.0437847     1.0015160   -0.0380674    -0.0076384    0.0048046 
   0.009452351     0.0015231    0.0017065     1.0069490   -0.0454655     0.9984723   -0.0385783     0.0022957   -0.0058247 
   0.009552376     0.0013296   -0.0000923     0.9981642   -0.0496022     1.0010620   -0.0385901    -0.0038376   -0.0034885 
   0.009652401     0.0007201    0.0015910     0.9955605   -0.0422555     0.9959640   -0.0412261    -0.0015847    0.0006939 
   0.009752426    -0.0001349    0.0012973     0.9998441   -0.0444658     0.9940334   -0.0383551    -0.0002304   -0.0017388 
   0.009852451     0.0026015    0.0023013     1.0000540   -0.0373366     1.0034160   -0.0439094     0.0039308    0.0017456 
   0.009952476     0.0004217    0.0025375     1.0000690   -0.0335099     0.9970266   -0.0374818     0.0050150    0.0041359 
   0.010052501     0.0015855    0.0013605     1.0078640   -0.0477488     0.9959849   -0.0409280     0.0018541   -0.0065238 
   0.010152526     0.0002978    0.0007918     0.9973796   -0.0352777     0.9950287   -0.0408496     0.0031043    0.0043291 
   0.010252551    -0.0009817    0.0018887     0.9973255   -0.0260437     0.9975436   -0.0421679     0.0079327    0.0085146 
   0.010352576     0.0001064    0.0021088     1.0032630   -0.0338646     0.9959412   -0.0413209     0.0072212    0.0026504 
   0.010452601    -0.0002168    0.0009677     0.9928985   -0.0390788     1.0016180   -0.0407450     0.0005639    0.0058356 
   0.010552626     0.0014664    0.0010294     1.0045480   -0.0379027     0.9970377   -0.0438870     0.0059282    0.0000933 
   0.010652651     0.0013062    0.0018211     0.9995114   -0.0332478     0.9953327   -0.0440849     0.0061196    0.0049263 
   0.010752676     0.0013347    0.0014656     0.9987769   -0.0409611     0.9999347   -0.0408831     0.0024125    0.0029889 
   0.010852701     0.0006297    0.0006406     0.9965932   -0.0443826     0.9980409   -0.0443278     0.0000774    0.0022695 
   0.010952726    -0.0008709    0.0023123     0.9921762   -0.0395032     0.9916134   -0.0429755     0.0006389    0.0064229 
   0.011052751     0.0009417    0.0040730     0.9910892   -0.0352416     1.0008150   -0.0438718     0.0024893    0.0091951 
   0.011152776     0.0009195   -0.0003863     0.9881479   -0.0509554     0.9990826   -0.0461738    -0.0062672    0.0039125 
   0.011252801     0.0006038    0.0032889     1.0028010   -0.0481741     0.9931106   -0.0456938     0.0015099   -0.0022372 
   0.011352826     0.0003128    0.0004926     0.9852075   -0.0404014     0.9926515   -0.0467619    -0.0016657    0.0099661 
   0.011452851     0.0022868    0.0013021     1.0081630   -0.0493255     0.9980800   -0.0474600     0.0037344   -0.0054259 
   0.011552876     0.0020446    0.0006314     0.9990804   -0.0464377     0.9977637   -0.0489884     0.0015970    0.0008916 
   0.011652901     0.0019502    0.0019983     1.0076820   -0.0490859     0.9965027   -0.0484969     0.0034373   -0.0046550 
   0.011752926     0.0011508    0.0022897     1.0020530   -0.0493563     0.9964125   -0.0489212     0.0014969   -0.0017303 
   0.011852951     0.0021722    0.0010294     1.0011270   -0.0593853     0.9986805   -0.0500425    -0.0037980   -0.0051668 
   0.011952976     0.0017612    0.0010387     1.0047880   -0.0516457     0.9984580   -0.0493589     0.0018703   -0.0036165 
   0.012053002     0.0014168    0.0001681     1.0003640   -0.0523924     1.0015780   -0.0492023     0.0004528   -0.0009106 
   0.012153027     0.0015373    0.0018976     0.9981088   -0.0512863     0.9972599   -0.0497590     0.0001521    0.0005138 
   0.012253052    -0.0018955    0.0012127     0.9928018   -0.0542853     0.9954430   -0.0503504    -0.0036019    0.0023264 
   0.012353077     0.0017450    0.0010364     0.9909673   -0.0543992     0.9995419   -0.0532303    -0.0038721    0.0037566 
   0.012453102     0.0006378    0.0029765     0.9913461   -0.0468197     1.0007200   -0.0463716     0.0006520    0.0073129 
   0.012553127     0.0021845    0.0012465     0.9985540   -0.0580272     0.9963185   -0.0516483    -0.0025526   -0.0019148 
   0.012653152     0.0010868    0.0023277     1.0085310   -0.0439912     0.9951596   -0.0521703     0.0088507   -0.0020449 
   0.012753177     0.0007683    0.0013322     0.9948114   -0.0465111     0.9992291   -0.0501981     0.0029772    0.0054111 
   0.012853202     0.0003866    0.0008870     0.9921614   -0.0538207     0.9936047   -0.0508137    -0.0017720    0.0040711 
   0.012953227     0.0012254    0.0014384     0.9934199   -0.0459480     0.9989927   -0.0502230     0.0029347    0.0064764 
   0.013053252     0.0024525    0.0012178     1.0031460   -0.0501912     0.9977426   -0.0518369     0.0045441   -0.0003701 
   0.013153277     0.0013613    0.0003140     0.9975078   -0.0518147     0.9952264   -0.0543192     0.0017482    0.0023757 
   0.013253302     0.0001799    0.0013342     0.9928848   -0.0492333     0.9991097   -0.0523356     0.0020768    0.0057128 
   0.013353327     0.0003292    0.0013802     0.9934836   -0.0595269     0.9973119   -0.0553920    -0.0030916    0.0022333 
   0.013453352    -0.0000086    0.0006952     1.0005770   -0.0599854     0.9965565   -0.0568503    -0.0005303   -0.0024941 
   0.013553377     0.0013823   -0.0002267     0.9938264   -0.0721791     0.9984823   -0.0537865    -0.0101704   -0.0014372 
   0.013653402     0.0015392    0.0029621     1.0052140   -0.0552772     0.9966512   -0.0561900     0.0033097   -0.0028779 
   0.013753427     0.0010266    0.0026644     0.9958043   -0.0546777     0.9953805   -0.0561875     0.0008684    0.0024752 
   0.013853452     0.0011637    0.0008292     0.9965145   -0.0520612     0.9972487   -0.0569384     0.0031317    0.0034033 
   0.013953477     0.0019233    0.0006328     0.9961684   -0.0629448     0.9960421   -0.0569227    -0.0030961    0.0004653 
   0.014053502     0.0010336    0.0016726     0.9981524   -0.0570119     0.9972453   -0.0565556     0.0012260    0.0011659 
   0.014153527     0.0024046    0.0025633     1.0001930   -0.0549499     0.9964821   -0.0555891     0.0032927    0.0003936 
   0.014253552     0.0015106    0.0005864     1.0043860   -0.0628804     0.9971123   -0.0621637     0.0000433   -0.0038865 
   0.014353577     0.0016861    0.0008090     0.9939446   -0.0565501     0.9975218   -0.0563644     0.0010675    0.0045694 
   0.014453602     0.0015093    0.0023761     0.9999229   -0.0490875     0.9950616   -0.0596475     0.0074978    0.0024217 
   0.014553627     0.0025952    0.0024364     0.9972939   -0.0656028     0.9986748   -0.0563311    -0.0030720    0.0000829 
   0.014653652     0.0020090    0.0014830     0.9961702   -0.0479884     1.0021430   -0.0595118     0.0081630    0.0055148 
   0.014753677     0.0001125    0.0000188     0.9901277   -0.0543883     0.9973119   -0.0577582     0.0027977    0.0078144 
   0.014853702     0.0015784    0.0008264     0.9942421   -0.0573013     0.9957812   -0.0582851     0.0016492    0.0048779 
   0.014953727     0.0011314    0.0012712     0.9964532   -0.0644458     0.9967856   -0.0626317    -0.0013506    0.0008718 
   0.015053752     0.0016901    0.0013501     0.9960460   -0.0645344     0.9965954   -0.0605076    -0.0012263    0.0013835 
   0.015153777     0.0006632    0.0001439     0.9939988   -0.0584988     0.9953366   -0.0603835     0.0020002    0.0041248 
   0.015253802     0.0018799    0.0033079     1.0085570   -0.0667140     0.9954990   -0.0599052     0.0004852   -0.0069867 
   0.015353827     0.0027358    0.0032110     1.0174860   -0.0674681     0.9990179   -0.0617867     0.0026409   -0.0116839 
   0.015453852     0.0017892    0.0020003     1.0053950   -0.0688539     0.9969150   -0.0634392    -0.0006906   -0.0051355 
   0.015553877     0.0019931    0.0006742     0.9912823   -0.0621542     0.9955063   -0.0643414     0.0004162    0.0053888 
   0.015653902     0.0010932    0.0010025     0.9951391   -0.0568183     0.9935092   -0.0638971     0.0051195    0.0040285 
