! 19-Feb-26 1:39:51 PM
! E:\VNA_MEASUREMENTS\RECBLOCK\SEMIRIGIDREV0.S2P
! CHANNEL.1
! TR.MEASUREMENT
! CORRECTED.DATA
# GHZ S RI R 50.0
! FREQ.GHZ         S11RE         S11IM         S21RE         S21IM         S12RE         S12IM         S22RE         S22IM         
!; PortSelection: Port_12
   0.000050000    -3.2508430    3.5813680    -2.9925890    2.4240720    -2.1108390   -1.9199000    -2.3354270   -2.6470850 
   0.000150025     0.3419217    0.9207603     5.1809210   -1.8384640     0.9542795    0.7226615     3.4079590    0.0112316 
   0.000250050    -0.1071351   -0.6539181     1.0823340    1.1817700     1.0275530   -0.4791099    -0.1323025    0.8376788 
   0.000350075     0.0071416   -0.0010564     1.0309530    0.0292145     1.0122760   -0.0028414     0.0193797    0.0220529 
   0.000450100    -0.0035165   -0.0014529     1.0042850   -0.0108175     0.9935657    0.0040678     0.0044888   -0.0040876 
   0.000550125     0.0029445   -0.0011615     1.0067420   -0.0137258     1.0045240   -0.0011944     0.0051082   -0.0075692 
   0.000650150    -0.0014831    0.0017683     0.9858754    0.0105937     1.0009870    0.0061142    -0.0103319    0.0091116 
   0.000750175    -0.0054709    0.0074236     0.9562221    0.0204577     1.0059770    0.0112925    -0.0276961    0.0162438 
   0.000850200     0.0023732    0.0019543     1.0056300    0.0113942     1.0076150   -0.0035233     0.0052622    0.0091415 
   0.000950225    -0.0003387    0.0006142     0.9989425    0.0052208     0.9959479   -0.0061777    -0.0014171    0.0063826 
   0.001050250    -0.0061591   -0.0006270     0.9522429   -0.0326023     0.9915856   -0.0066268    -0.0336702   -0.0178614 
   0.001150275     0.0023369   -0.0019313     1.0093450    0.0001226     0.9984151   -0.0088531     0.0062659    0.0029702 
   0.001250300    -0.0047284   -0.0011832     0.9666780   -0.0059671     0.9931481   -0.0124447    -0.0233325    0.0013876 
   0.001350325    -0.0004634    0.0001252     1.0098240    0.0140591     0.9916108   -0.0085941     0.0069023    0.0136637 
   0.001450350     0.0009046   -0.0030184     1.0093580   -0.0029489     1.0108350   -0.0088564     0.0080939    0.0016092 
   0.001550375     0.0006876   -0.0022801     0.9723851   -0.0174456     1.0026810   -0.0018271    -0.0186751   -0.0045860 
   0.001650400    -0.0019271    0.0001756     0.9869581   -0.0024299     0.9981726   -0.0054127    -0.0081890    0.0040116 
   0.001750425     0.0025884   -0.0014176     1.0127500   -0.0285433     1.0007060   -0.0057537     0.0071497   -0.0142563 
   0.001850450     0.0020939   -0.0015476     1.0041570   -0.0380546     1.0050180   -0.0125034     0.0012758   -0.0211249 
   0.001950475     0.0048839    0.0008890     1.0238480   -0.0010738     1.0044480   -0.0085015     0.0173784    0.0027098 
   0.002050500     0.0013688   -0.0011535     1.0018570   -0.0166634     1.0031950   -0.0074401     0.0013754   -0.0044795 
   0.002150525     0.0031310   -0.0032821     1.0067410   -0.0268088     1.0100720   -0.0119363     0.0046005   -0.0124197 
   0.002250550     0.0011434    0.0008044     1.0067610   -0.0061214     1.0038410   -0.0069217     0.0060361    0.0018229 
   0.002350575     0.0014666   -0.0004056     1.0158130   -0.0126754     0.9943907   -0.0065386     0.0103406   -0.0029000 
   0.002450600    -0.0026189   -0.0019874     0.9873423   -0.0063358     1.0002120   -0.0133007    -0.0073325    0.0041780 
   0.002550625     0.0041268   -0.0001417     1.0096240    0.0088016     1.0071460   -0.0111012     0.0108589    0.0124279 
   0.002650650     0.0010063   -0.0004768     1.0069820   -0.0207904     0.9995269   -0.0167775     0.0038787   -0.0080686 
   0.002750675    -0.0031637    0.0020465     0.9859114   -0.0169585     1.0015350   -0.0047590    -0.0087930   -0.0000748 
   0.002850700    -0.0007693   -0.0010391     1.0029000    0.0048524     1.0005200   -0.0113662     0.0047866    0.0111620 
   0.002950725     0.0005954    0.0016133     1.0153500   -0.0000900     0.9995992   -0.0088134     0.0128653    0.0062670 
   0.003050750    -0.0001280    0.0030928     0.9914995   -0.0147846     0.9995937   -0.0090263    -0.0051383    0.0005537 
   0.003150775    -0.0014061    0.0032315     0.9958166   -0.0026518     0.9970453   -0.0139738    -0.0000855    0.0083210 
   0.003250800     0.0008380    0.0045837     0.9931367   -0.0025243     1.0052380   -0.0117390    -0.0015237    0.0085357 
   0.003350825    -0.0027632   -0.0023879     0.9811677   -0.0318567     0.9963676   -0.0189729    -0.0147625   -0.0074531 
   0.003450850    -0.0003891   -0.0022355     0.9871292   -0.0169107     0.9939243   -0.0188510    -0.0081488    0.0007041 
   0.003550875     0.0016129   -0.0001936     1.0162960   -0.0086070     0.9929193   -0.0203756     0.0116582    0.0003515 
   0.003650900     0.0022900    0.0004932     1.0049300   -0.0243061     0.9979169   -0.0123457     0.0017787   -0.0064278 
   0.003750925    -0.0005605    0.0020034     1.0052930    0.0016162     0.9964512   -0.0105022     0.0073898    0.0107320 
   0.003850950     0.0029158   -0.0017334     1.0038820   -0.0397017     0.9986466   -0.0164363    -0.0023076   -0.0149807 
   0.003950975    -0.0024466    0.0035926     0.9835573    0.0007822     0.9962270   -0.0129704    -0.0062835    0.0151586 
   0.004051001     0.0003496    0.0008559     0.9900942   -0.0143641     1.0009980   -0.0132138    -0.0049018    0.0045509 
   0.004151026     0.0000099    0.0023434     0.9954680   -0.0189970     0.9953204   -0.0103308    -0.0027784    0.0007679 
   0.004251051     0.0031726    0.0002564     1.0249820   -0.0214828     1.0035700   -0.0127284     0.0165962   -0.0067779 
   0.004351076    -0.0016284   -0.0017417     0.9741157   -0.0208772     0.9952231   -0.0186247    -0.0164076    0.0038771 
   0.004451101    -0.0016582   -0.0011657     1.0056450   -0.0259882     0.9991549   -0.0170207     0.0032452   -0.0056361 
   0.004551126     0.0016091    0.0010505     1.0025540   -0.0115842     1.0024710   -0.0158257     0.0043787    0.0042942 
   0.004651151     0.0027180   -0.0020095     1.0136350   -0.0147405     0.9985819   -0.0219449     0.0106061   -0.0002089 
   0.004751176    -0.0000396    0.0012744     1.0029210   -0.0266799     0.9946739   -0.0166262     0.0008528   -0.0046863 
   0.004851201     0.0005449    0.0017264     0.9932933   -0.0047343     0.9933776   -0.0177278     0.0001038    0.0120406 
   0.004951226     0.0004220    0.0001109     0.9989073   -0.0237668     1.0009410   -0.0229286    -0.0003798   -0.0014393 
   0.005051251     0.0012865    0.0018144     1.0196340   -0.0156587     1.0037280   -0.0178295     0.0151667   -0.0009379 
   0.005151276     0.0018942   -0.0005303     1.0133840   -0.0247274     0.9973221   -0.0196479     0.0090760   -0.0048832 
   0.005251301    -0.0024043    0.0011218     0.9742182   -0.0181545     0.9944628   -0.0240651    -0.0141015    0.0088728 
   0.005351326     0.0001654    0.0005804     1.0035020   -0.0166950     0.9999031   -0.0168416     0.0050512    0.0035985 
   0.005451351     0.0019268   -0.0002516     0.9902144   -0.0278763     1.0020070   -0.0203761    -0.0065108    0.0005322 
   0.005551376     0.0009872   -0.0006954     0.9937240   -0.0219307     0.9996104   -0.0278816    -0.0026998    0.0027434 
   0.005651401    -0.0030806    0.0027439     0.9855075   -0.0081677     0.9943575   -0.0214263    -0.0037266    0.0137306 
   0.005751426     0.0008021   -0.0005303     0.9929311   -0.0367695     1.0030070   -0.0281813    -0.0063409   -0.0049768 
   0.005851451     0.0006988    0.0023334     0.9977763   -0.0064268     0.9991429   -0.0262038     0.0046008    0.0114458 
   0.005951476    -0.0019523    0.0012316     1.0027810   -0.0141677     0.9968681   -0.0279156     0.0059602    0.0050248 
   0.006051501    -0.0018510   -0.0006610     0.9788742   -0.0281700     0.9969177   -0.0266666    -0.0131608    0.0052120 
   0.006151526     0.0016245    0.0019771     1.0036460   -0.0326709     1.0006860   -0.0227771     0.0014634   -0.0047710 
   0.006251551     0.0002812   -0.0013602     1.0009820   -0.0413983     0.9979454   -0.0281668    -0.0033433   -0.0085063 
   0.006351576     0.0009295    0.0021769     1.0028890   -0.0264275     0.9977973   -0.0206602     0.0026561    0.0002917 
   0.006451601     0.0012770    0.0000039     0.9981877   -0.0321798     0.9963790   -0.0238281    -0.0023498   -0.0019399 
   0.006551626    -0.0000934   -0.0005673     0.9992625   -0.0325603     0.9991256   -0.0293077    -0.0007444   -0.0029222 
   0.006651651     0.0008381   -0.0015958     0.9878103   -0.0425528     1.0028200   -0.0331336    -0.0107837   -0.0044251 
   0.006751676     0.0012253    0.0003876     1.0041620   -0.0208455     1.0019570   -0.0270541     0.0064327    0.0032666 
   0.006851701    -0.0005856    0.0011997     0.9922320   -0.0191552     0.9990646   -0.0281476    -0.0000123    0.0078803 
   0.006951726     0.0034349   -0.0006697     1.0082750   -0.0502192     1.0031150   -0.0293227    -0.0013886   -0.0144523 
   0.007051751     0.0024138    0.0020973     1.0208110   -0.0280972     1.0000890   -0.0265355     0.0130142   -0.0062088 
   0.007151776    -0.0006137    0.0011847     1.0032370   -0.0251238     1.0004160   -0.0327735     0.0049099    0.0010251 
   0.007251801    -0.0016085    0.0011833     1.0028990   -0.0196314     0.9968814   -0.0256116     0.0065936    0.0052193 
   0.007351826     0.0001238    0.0014407     0.9922634   -0.0137548     0.9979529   -0.0277484     0.0034768    0.0123663 
   0.007451851     0.0017272    0.0003303     1.0096940   -0.0287637     0.9998670   -0.0282042     0.0070161   -0.0018607 
   0.007551876    -0.0000308    0.0011706     0.9873430   -0.0315287     0.9992628   -0.0282093    -0.0061951    0.0050514 
   0.007651901    -0.0006677    0.0022710     1.0015490   -0.0250099     0.9923692   -0.0271633     0.0033626    0.0037254 
   0.007751926    -0.0000175    0.0012197     0.9976342   -0.0231171     0.9967185   -0.0310096     0.0031987    0.0059645 
   0.007851951    -0.0010051   -0.0003249     1.0034210   -0.0352575     0.9992408   -0.0331729     0.0020491   -0.0024474 
   0.007951976     0.0005581    0.0035047     1.0043590   -0.0126031     0.9974424   -0.0292060     0.0107481    0.0091888 
   0.008052001    -0.0006940    0.0003700     0.9831139   -0.0200893     0.9989130   -0.0327420    -0.0024233    0.0137213 
   0.008152026     0.0001866   -0.0013586     0.9976357   -0.0519821     0.9978086   -0.0376053    -0.0074336   -0.0089598 
   0.008252051    -0.0005459    0.0024166     0.9993684   -0.0122719     0.9957829   -0.0361693     0.0096042    0.0115216 
   0.008352076     0.0020752   -0.0003521     1.0016940   -0.0420742     0.9986913   -0.0330706    -0.0010739   -0.0042829 
   0.008452101     0.0000943    0.0006905     1.0040200   -0.0311074     0.9956321   -0.0355801     0.0050503   -0.0002707 
   0.008552126     0.0014400   -0.0020602     1.0109230   -0.0448776     0.9990012   -0.0367822     0.0028157   -0.0094395 
   0.008652151    -0.0008097    0.0007714     0.9925300   -0.0279653     0.9990409   -0.0313351     0.0004403    0.0076525 
   0.008752176     0.0011342   -0.0016145     0.9879692   -0.0425909     0.9975529   -0.0371944    -0.0075032    0.0019669 
   0.008852201     0.0006952    0.0004749     0.9866498   -0.0346348     1.0005920   -0.0324988    -0.0047677    0.0079301 
   0.008952226     0.0018488   -0.0004304     0.9942073   -0.0350221     0.9982533   -0.0361587    -0.0010659    0.0039458 
   0.009052251     0.0013626    0.0017873     1.0045520   -0.0388371     0.9998757   -0.0390035     0.0027908   -0.0025609 
   0.009152276     0.0018381    0.0011165     1.0071500   -0.0366050     0.9955039   -0.0405365     0.0050429   -0.0023541 
   0.009252301    -0.0000032    0.0022813     0.9929728   -0.0335993     1.0028670   -0.0364845     0.0000701    0.0055928 
   0.009352326     0.0013794   -0.0000037     0.9895127   -0.0469008     1.0015380   -0.0406017    -0.0077659    0.0010186 
   0.009452351     0.0015162    0.0014329     1.0092770   -0.0453878     0.9986633   -0.0378332     0.0027303   -0.0073944 
   0.009552376     0.0007093   -0.0007182     0.9960682   -0.0503561     0.9990070   -0.0406853    -0.0053161   -0.0034664 
   0.009652401     0.0007377    0.0005950     0.9949968   -0.0418499     0.9977058   -0.0421251    -0.0016975    0.0008513 
   0.009752426     0.0012228    0.0019960     0.9993899   -0.0378942     0.9963496   -0.0361596     0.0020124    0.0018044 
   0.009852451     0.0024330    0.0010147     1.0036990   -0.0424360     1.0008810   -0.0424637     0.0024401   -0.0023287 
   0.009952476     0.0005220    0.0014228     0.9970551   -0.0354177     0.9973322   -0.0391567     0.0023445    0.0044523 
   0.010052501     0.0013788    0.0032114     1.0041970   -0.0385258     0.9962160   -0.0394942     0.0039251   -0.0004181 
   0.010152526     0.0020448    0.0027491     1.0130540   -0.0442326     0.9974391   -0.0372314     0.0053206   -0.0072568 
   0.010252551    -0.0005877    0.0019837     0.9906983   -0.0266223     0.9938030   -0.0392315     0.0037085    0.0109866 
   0.010352576     0.0019729    0.0027535     1.0177530   -0.0369127     0.9978126   -0.0403033     0.0122302   -0.0058073 
   0.010452601     0.0006272    0.0011182     0.9965407   -0.0338819     1.0005730   -0.0389586     0.0041102    0.0063649 
   0.010552626     0.0015756    0.0011345     0.9988999   -0.0452126     0.9974461   -0.0434304    -0.0004697   -0.0004684 
   0.010652651     0.0015951    0.0002467     0.9987113   -0.0385903     0.9988271   -0.0439935     0.0034644    0.0026159 
   0.010752676     0.0018206    0.0025927     0.9979799   -0.0355502     1.0004260   -0.0423993     0.0045973    0.0049967 
   0.010852701     0.0017828    0.0021229     0.9962473   -0.0459484     0.9984499   -0.0424462    -0.0012238    0.0015616 
   0.010952726    -0.0000148    0.0014155     0.9978853   -0.0449762     0.9948756   -0.0430628     0.0003716    0.0011547 
   0.011052751     0.0017228    0.0021838     1.0003530   -0.0368470     1.0013760   -0.0463564     0.0059490    0.0032925 
   0.011152776     0.0012330    0.0019822     1.0029560   -0.0366791     0.9982839   -0.0425802     0.0068906    0.0022204 
   0.011252801     0.0005674    0.0020490     0.9974381   -0.0412571     0.9968222   -0.0420087     0.0023065    0.0036177 
   0.011352826     0.0014826    0.0003317     0.9925054   -0.0443684     0.9970944   -0.0461246    -0.0010829    0.0049343 
   0.011452851     0.0009191    0.0013212     1.0063450   -0.0461934     0.9966891   -0.0466825     0.0038131   -0.0031989 
   0.011552876     0.0000956    0.0027080     0.9969953   -0.0349051     0.9969092   -0.0465640     0.0064068    0.0061518 
   0.011652901     0.0004413    0.0025899     1.0109130   -0.0379362     0.9979298   -0.0467074     0.0104134   -0.0019061 
   0.011752926    -0.0013431    0.0028044     0.9972098   -0.0371671     0.9969617   -0.0449687     0.0057625    0.0054794 
   0.011852951    -0.0000869    0.0006888     0.9881099   -0.0515609     0.9971514   -0.0505024    -0.0048694    0.0047997 
   0.011952976     0.0019379   -0.0005859     0.9922779   -0.0570666     0.9993795   -0.0471289    -0.0066572    0.0012380 
   0.012053002     0.0014237    0.0015582     0.9996673   -0.0434396     0.9992238   -0.0472469     0.0045605    0.0023560 
   0.012153027     0.0014875    0.0005454     1.0015620   -0.0595744     0.9974929   -0.0529495    -0.0031264   -0.0048026 
   0.012253052    -0.0001633    0.0015763     1.0021170   -0.0479281     0.9979993   -0.0474863     0.0029126   -0.0004673 
   0.012353077     0.0013384    0.0011636     0.9956943   -0.0492720     0.9998440   -0.0532579     0.0008704    0.0028639 
   0.012453102     0.0007201    0.0014278     0.9852124   -0.0604874     1.0013280   -0.0492797    -0.0089440    0.0051016 
   0.012553127     0.0013388    0.0019161     1.0027140   -0.0480818     0.9953570   -0.0527925     0.0043505   -0.0008443 
   0.012653152     0.0013957    0.0017286     1.0076240   -0.0489312     0.9968100   -0.0534498     0.0059350   -0.0036966 
   0.012753177     0.0020540    0.0013151     1.0046350   -0.0493067     0.9990676   -0.0513357     0.0044002   -0.0018433 
   0.012853202     0.0013387    0.0011067     1.0008410   -0.0498712     0.9959719   -0.0512475     0.0031014    0.0003386 
   0.012953227     0.0007290    0.0014062     0.9961163   -0.0379802     0.9995039   -0.0505493     0.0081802    0.0078989 
   0.013053252     0.0017330    0.0017607     1.0063870   -0.0460427     1.0008570   -0.0522464     0.0077654   -0.0007522 
   0.013153277     0.0011261    0.0008519     1.0006420   -0.0545660     0.9955605   -0.0545383     0.0003958   -0.0009820 
   0.013253302     0.0004760    0.0009237     0.9961867   -0.0618748     0.9953562   -0.0499754    -0.0049806   -0.0005272 
   0.013353327     0.0002754    0.0021191     0.9895281   -0.0490361     0.9972440   -0.0508283     0.0010225    0.0079698 
   0.013453352     0.0011957    0.0005364     0.9963741   -0.0604123     0.9968883   -0.0545891    -0.0029734    0.0001403 
   0.013553377     0.0003940    0.0010583     0.9903418   -0.0637081     0.9992107   -0.0527289    -0.0066491    0.0030193 
   0.013653402     0.0024481    0.0028991     1.0035900   -0.0579365     0.9995188   -0.0538147     0.0012203   -0.0025196 
   0.013753427     0.0003433    0.0020852     0.9932927   -0.0526212     0.9988952   -0.0566112     0.0015939    0.0050523 
   0.013853452     0.0016214    0.0010177     1.0009110   -0.0550515     1.0003100   -0.0562397     0.0025667   -0.0005876 
   0.013953477     0.0017767   -0.0010523     0.9913716   -0.0705676     0.9965693   -0.0565081    -0.0093631    0.0012649 
   0.014053502     0.0014033    0.0017257     1.0058280   -0.0565397     1.0010730   -0.0559140     0.0036518   -0.0033351 
   0.014153527     0.0010858    0.0030642     1.0028250   -0.0467610     0.9972700   -0.0570290     0.0088536    0.0016009 
   0.014253552     0.0018511    0.0001430     1.0080140   -0.0578131     0.9983308   -0.0610036     0.0036406   -0.0051853 
   0.014353577     0.0010588    0.0008306     0.9921958   -0.0540308     0.9987434   -0.0563190     0.0015205    0.0060872 
   0.014453602     0.0004803    0.0011434     0.9938369   -0.0485959     0.9958422   -0.0593818     0.0054272    0.0061164 
   0.014553627     0.0015465    0.0021758     0.9961520   -0.0589949     0.9979218   -0.0559097     0.0002142    0.0020080 
   0.014653652    -0.0001272    0.0016139     0.9964437   -0.0429404     0.9980400   -0.0587225     0.0105351    0.0060680 
   0.014753677    -0.0008744   -0.0001748     0.9844249   -0.0578552     0.9966067   -0.0575751    -0.0011776    0.0099375 
   0.014853702     0.0027924    0.0013224     1.0001520   -0.0595329     0.9991118   -0.0611314     0.0018240    0.0002405 
   0.014953727     0.0020381    0.0007618     0.9928738   -0.0725939     0.9976761   -0.0604211    -0.0077591    0.0009225 
   0.015053752     0.0022006    0.0026108     1.0001060   -0.0619445     0.9959495   -0.0603448     0.0009020   -0.0006928 
   0.015153777     0.0007102    0.0011970     0.9973709   -0.0548243     0.9976072   -0.0595418     0.0048090    0.0029897 
   0.015253802     0.0016777    0.0016670     1.0086350   -0.0726528     0.9957870   -0.0620233    -0.0035419   -0.0085557 
   0.015353827     0.0021892    0.0020405     1.0060600   -0.0669909     1.0003020   -0.0617881    -0.0002400   -0.0053659 
   0.015453852     0.0010968    0.0027493     1.0052300   -0.0595052     0.9961671   -0.0649955     0.0046620   -0.0034816 
   0.015553877     0.0011839    0.0013499     1.0014710   -0.0575231     0.9950401   -0.0659450     0.0053990   -0.0004528 
   0.015653902     0.0020859    0.0010067     0.9944449   -0.0665719     0.9939835   -0.0643826    -0.0014545    0.0021132 
