! 19-Feb-26 1:38:01 PM
! E:\VNA_MEASUREMENTS\RECBLOCK\SEMIRIGID0.S2P
! CHANNEL.1
! TR.MEASUREMENT
! CORRECTED.DATA
# GHZ S RI R 50.0
! FREQ.GHZ         S11RE         S11IM         S21RE         S21IM         S12RE         S12IM         S22RE         S22IM         
!; PortSelection: Port_12
   0.000050000    -0.9371561    1.0190100    -0.7347115   -0.0459699     0.0916273   -0.5590653    -0.2835352   -1.3299440 
   0.000150025    -0.9212093    1.0554160     3.6334990    4.9876400     0.0488504    0.4349899     0.2588772    4.2368920 
   0.000250050    -1.1053430    0.9056341     2.6483780   -0.9690112     0.0796473    0.4504965     1.3004970   -0.3983337 
   0.000350075    -0.0027476   -0.0118776     1.0408750   -0.0394265     1.0085770   -0.0079529     0.0346515   -0.0245958 
   0.000450100     0.0013187    0.0030618     0.9967798    0.0223430     0.9980432    0.0123679    -0.0030881    0.0190201 
   0.000550125     0.0045591    0.0014011     1.0157680    0.0229988     0.9963831   -0.0004049     0.0082034    0.0190296 
   0.000650150    -0.0023735   -0.0032123     0.9861217   -0.0128223     0.9989773   -0.0052880    -0.0095098   -0.0063711 
   0.000750175    -0.0009772    0.0039141     0.9678640    0.0028701     1.0039680   -0.0112426    -0.0220435    0.0027021 
   0.000850200     0.0025993    0.0045167     1.0111080    0.0180332     1.0053040    0.0002844     0.0090781    0.0140423 
   0.000950225    -0.0006411   -0.0035821     1.0061850   -0.0328644     0.9983711   -0.0064274     0.0037565   -0.0195458 
   0.001050250    -0.0069329   -0.0000369     0.9456635   -0.0385981     0.9926589   -0.0046678    -0.0381082   -0.0221315 
   0.001150275     0.0034376    0.0010241     1.0198220    0.0098815     0.9992757   -0.0026835     0.0129237    0.0103460 
   0.001250300     0.0000305   -0.0022384     1.0014510   -0.0063608     0.9994723   -0.0124893     0.0005399   -0.0005016 
   0.001350325    -0.0011892   -0.0031863     1.0174490   -0.0120718     0.9926356   -0.0082125     0.0118297   -0.0042917 
   0.001450350     0.0004530   -0.0025639     1.0013060   -0.0181209     0.9984365   -0.0107447     0.0001493   -0.0086013 
   0.001550375     0.0031476    0.0034012     0.9934452    0.0125923     1.0004740    0.0032104    -0.0020953    0.0154139 
   0.001650400     0.0010904   -0.0021415     0.9880493   -0.0091792     1.0045880   -0.0088714    -0.0067939   -0.0002395 
   0.001750425    -0.0016974   -0.0036986     1.0005820   -0.0380409     0.9979165   -0.0060683    -0.0011519   -0.0200820 
   0.001850450     0.0042409   -0.0029585     1.0319530   -0.0294061     1.0062070   -0.0119705     0.0212654   -0.0164635 
   0.001950475     0.0031026   -0.0009881     1.0114000   -0.0220951     1.0055830   -0.0064366     0.0079784   -0.0102278 
   0.002050500     0.0014500   -0.0028483     0.9995051   -0.0287228     0.9965010   -0.0127269    -0.0032447   -0.0131181 
   0.002150525     0.0040067   -0.0045168     1.0092030   -0.0233046     1.0080780   -0.0132574     0.0065520   -0.0097473 
   0.002250550    -0.0000229    0.0024342     0.9904991    0.0148158     0.9996907   -0.0059050    -0.0034373    0.0177658 
   0.002350575    -0.0049945   -0.0007035     0.9737852   -0.0254730     0.9938279   -0.0100093    -0.0187413   -0.0070939 
   0.002450600    -0.0007250    0.0009584     0.9839843    0.0011724     1.0047010   -0.0153058    -0.0081708    0.0094010 
   0.002550625     0.0018271    0.0013249     0.9941587    0.0093077     1.0023180   -0.0103642    -0.0000475    0.0145218 
   0.002650650     0.0015613   -0.0002299     1.0002950   -0.0174815     1.0047660   -0.0143412     0.0007771   -0.0044711 
   0.002750675    -0.0019214   -0.0032213     0.9934556   -0.0436412     1.0031900   -0.0111642    -0.0073098   -0.0196983 
   0.002850700    -0.0026567   -0.0024598     0.9753493   -0.0291082     1.0000280   -0.0119189    -0.0182737   -0.0065519 
   0.002950725     0.0020271    0.0007546     1.0169340   -0.0203378     1.0003750   -0.0129123     0.0112065   -0.0071012 
   0.003050750     0.0021009   -0.0005681     0.9933891   -0.0369430     1.0066210   -0.0133445    -0.0063249   -0.0146923 
   0.003150775     0.0005297    0.0028302     0.9976681   -0.0236493     0.9927847   -0.0133218    -0.0030993   -0.0056453 
   0.003250800    -0.0009714    0.0009059     0.9769675   -0.0166062     0.9989406   -0.0133920    -0.0145781    0.0022615 
   0.003350825    -0.0026082    0.0021107     0.9787630   -0.0113739     0.9948205   -0.0153815    -0.0131470    0.0057612 
   0.003450850    -0.0013855   -0.0023228     0.9867767   -0.0185537     0.9959164   -0.0164660    -0.0087431    0.0000146 
   0.003550875    -0.0001343    0.0042544     1.0078920    0.0273154     0.9946371   -0.0176462     0.0130528    0.0250198 
   0.003650900     0.0039558   -0.0012344     1.0112550   -0.0313549     1.0007520   -0.0156112     0.0057293   -0.0125713 
   0.003750925    -0.0018805   -0.0018392     0.9930594   -0.0291215     0.9935641   -0.0198791    -0.0062017   -0.0078298 
   0.003850950     0.0025175    0.0010513     0.9949681   -0.0273619     0.9968989   -0.0163959    -0.0055684   -0.0056478 
   0.003950975    -0.0021112    0.0045178     0.9748144    0.0037585     0.9998921   -0.0066506    -0.0101729    0.0194871 
   0.004051001     0.0002307    0.0011906     0.9921933   -0.0200857     1.0001740   -0.0150664    -0.0046833    0.0002218 
   0.004151026    -0.0017201   -0.0004595     0.9831237   -0.0296009     0.9989764   -0.0123025    -0.0123175   -0.0033870 
   0.004251051     0.0030708   -0.0014947     1.0140900   -0.0245773     1.0033610   -0.0158400     0.0087315   -0.0064697 
   0.004351076     0.0003349   -0.0036510     0.9952369   -0.0328537     1.0017100   -0.0187442    -0.0047288   -0.0075640 
   0.004451101    -0.0020226   -0.0027071     0.9960170   -0.0344105     1.0014790   -0.0219441    -0.0046554   -0.0087591 
   0.004551126    -0.0009006    0.0000909     0.9798771   -0.0227406     0.9992087   -0.0162613    -0.0122506    0.0031220 
   0.004651151     0.0002808   -0.0008310     0.9882980   -0.0189535     1.0018030   -0.0195608    -0.0057856    0.0037751 
   0.004751176    -0.0006448    0.0035201     0.9956205   -0.0185077     0.9931161   -0.0120557    -0.0014191    0.0031596 
   0.004851201     0.0013940    0.0021071     0.9954427   -0.0010392     0.9973773   -0.0228252     0.0035395    0.0132908 
   0.004951226    -0.0005774   -0.0001687     0.9956326   -0.0304924     0.9963292   -0.0173519    -0.0038849   -0.0040004 
   0.005051251    -0.0003609    0.0000470     1.0008230   -0.0138492     1.0016250   -0.0153929     0.0040983    0.0058367 
   0.005151276     0.0007445    0.0005512     1.0102790   -0.0232289     0.9968985   -0.0220758     0.0072403   -0.0032626 
   0.005251301    -0.0003320    0.0001637     0.9806746   -0.0209563     0.9944580   -0.0215719    -0.0108021    0.0057871 
   0.005351326     0.0000303    0.0013380     0.9933598   -0.0112821     0.9987693   -0.0199454     0.0004371    0.0087526 
   0.005451351     0.0000263    0.0002021     0.9816687   -0.0220795     0.9985195   -0.0210494    -0.0094362    0.0061084 
   0.005551376     0.0009231   -0.0007785     0.9921618   -0.0278850     0.9953886   -0.0267209    -0.0053749   -0.0003140 
   0.005651401     0.0000034    0.0030272     0.9956221   -0.0057065     0.9991959   -0.0202815     0.0035182    0.0121267 
   0.005751426     0.0020059    0.0024787     1.0044880   -0.0206191     1.0005610   -0.0222280     0.0047385    0.0020655 
   0.005851451     0.0016335    0.0019724     0.9981360   -0.0307190     0.9976484   -0.0254406    -0.0022282   -0.0026546 
   0.005951476    -0.0003133    0.0016515     0.9970953   -0.0144786     0.9977202   -0.0213809     0.0026170    0.0075443 
   0.006051501    -0.0009261    0.0014487     0.9877852   -0.0178602     0.9968295   -0.0201725    -0.0039744    0.0093690 
   0.006151526     0.0018592    0.0009676     1.0044470   -0.0257645     1.0033810   -0.0229540     0.0046138   -0.0009284 
   0.006251551    -0.0014857   -0.0007049     0.9957117   -0.0323718     0.9947655   -0.0230019    -0.0032586   -0.0011091 
   0.006351576     0.0009794    0.0011790     0.9950523   -0.0276657     0.9985445   -0.0246415    -0.0016219    0.0016965 
   0.006451601     0.0027208    0.0015800     1.0075760   -0.0333441     1.0007200   -0.0237010     0.0037989   -0.0050207 
   0.006551626    -0.0002055    0.0013014     1.0004200   -0.0311948     0.9983964   -0.0248451     0.0005710   -0.0017974 
   0.006651651     0.0006413    0.0012671     0.9932160   -0.0373365     0.9998717   -0.0283259    -0.0056104   -0.0033881 
   0.006751676     0.0000837   -0.0009065     0.9944893   -0.0289301     1.0032070   -0.0277930    -0.0012238    0.0018061 
   0.006851701     0.0000439    0.0021949     1.0040150   -0.0148315     0.9972229   -0.0252105     0.0083971    0.0064215 
   0.006951726     0.0022566    0.0005114     1.0036970   -0.0423158     0.9990945   -0.0261453    -0.0009501   -0.0080352 
   0.007051751     0.0018974    0.0039036     1.0201630   -0.0204049     1.0006930   -0.0280375     0.0160536   -0.0022661 
   0.007151776    -0.0020925   -0.0001247     0.9843018   -0.0257642     0.9977924   -0.0336401    -0.0059547    0.0077768 
   0.007251801    -0.0009053    0.0022713     1.0021450   -0.0216428     0.9975743   -0.0247803     0.0053850    0.0044800 
   0.007351826    -0.0012619    0.0013567     0.9859681   -0.0212103     0.9946888   -0.0269672    -0.0034556    0.0109960 
   0.007451851     0.0033617    0.0027216     1.0212630   -0.0214268     0.9983831   -0.0301200     0.0162227   -0.0023869 
   0.007551876    -0.0009070    0.0010942     0.9957559   -0.0340279     0.9982231   -0.0298563    -0.0019904    0.0006861 
   0.007651901     0.0003692    0.0024604     1.0049640   -0.0294671     0.9937643   -0.0293381     0.0040049   -0.0003408 
   0.007751926     0.0003250    0.0019852     0.9975202   -0.0331633     0.9962388   -0.0304002    -0.0003713    0.0004138 
   0.007851951     0.0017102   -0.0005959     1.0080760   -0.0436538     1.0016530   -0.0340117     0.0018225   -0.0085018 
   0.007951976     0.0008291    0.0026661     0.9980900   -0.0236995     0.9998416   -0.0288060     0.0037624    0.0064479 
   0.008052001     0.0002468    0.0012888     0.9925262   -0.0302837     0.9960867   -0.0326609    -0.0012410    0.0047767 
   0.008152026     0.0009119    0.0018055     0.9979672   -0.0331419     0.9969820   -0.0319802     0.0004573    0.0012452 
   0.008252051    -0.0003058    0.0015312     1.0033460   -0.0137734     1.0004830   -0.0354996     0.0122270    0.0095193 
   0.008352076    -0.0000200   -0.0000572     0.9916421   -0.0294101     0.9960607   -0.0360135    -0.0010599    0.0064699 
   0.008452101     0.0007258    0.0013727     1.0055150   -0.0355175     0.9963492   -0.0372033     0.0039485   -0.0030426 
   0.008552126    -0.0000730   -0.0016231     0.9974000   -0.0436777     0.9954866   -0.0374014    -0.0034300   -0.0030295 
   0.008652151     0.0017193    0.0007332     0.9984589   -0.0347280     0.9967656   -0.0361906     0.0004511    0.0010400 
   0.008752176     0.0017959   -0.0003561     0.9887096   -0.0473209     0.9937322   -0.0386706    -0.0090827   -0.0011149 
   0.008852201     0.0013368    0.0023748     0.9966364   -0.0350706     1.0015130   -0.0358079     0.0006222    0.0029490 
   0.008952226     0.0010100    0.0013650     0.9971371   -0.0263945     0.9965088   -0.0361443     0.0049031    0.0068065 
   0.009052251     0.0013883    0.0026372     1.0017880   -0.0312382     1.0004530   -0.0370796     0.0050353    0.0029951 
   0.009152276     0.0014660    0.0013257     1.0125840   -0.0373652     0.9947153   -0.0415023     0.0079591   -0.0055353 
   0.009252301     0.0000062    0.0018250     0.9900345   -0.0381453     1.0009970   -0.0405247    -0.0033746    0.0045323 
   0.009352326    -0.0002025    0.0009012     0.9832106   -0.0341347     0.9973820   -0.0430358    -0.0045019    0.0101924 
   0.009452351     0.0017898    0.0003024     1.0018170   -0.0563314     0.9999452   -0.0395263    -0.0049539   -0.0091411 
   0.009552376     0.0012914   -0.0001772     0.9956027   -0.0413761     0.9982731   -0.0381175    -0.0012142    0.0014102 
   0.009652401     0.0020000    0.0021491     1.0008280   -0.0456127     0.9976732   -0.0391482    -0.0006363   -0.0035974 
   0.009752426     0.0012937    0.0029454     1.0096290   -0.0330092     0.9965436   -0.0391904     0.0096233   -0.0010946 
   0.009852451     0.0029420    0.0012303     1.0034150   -0.0443461     1.0036430   -0.0418944     0.0018031   -0.0027902 
   0.009952476     0.0008910    0.0021332     1.0008280   -0.0391911     0.9984412   -0.0374502     0.0031883    0.0011674 
   0.010052501     0.0015182    0.0029951     1.0056610   -0.0407914     0.9971903   -0.0375534     0.0041269   -0.0019548 
   0.010152526     0.0009108    0.0016075     0.9994792   -0.0404408     0.9948303   -0.0392755     0.0013518    0.0011823 
   0.010252551     0.0001029    0.0040493     1.0044190   -0.0346054     0.9968342   -0.0366100     0.0066446    0.0010999 
   0.010352576     0.0005246    0.0028925     1.0165910   -0.0446388     1.0005020   -0.0415144     0.0088191   -0.0086633 
   0.010452601     0.0005907    0.0025524     0.9966581   -0.0336222     0.9994308   -0.0392561     0.0048316    0.0063538 
   0.010552626     0.0005619    0.0005589     0.9939002   -0.0337855     0.9982569   -0.0459425     0.0039220    0.0073440 
   0.010652651     0.0011159    0.0013315     1.0049090   -0.0416867     0.9999668   -0.0462873     0.0048557   -0.0014426 
   0.010752676     0.0013331    0.0023811     1.0031300   -0.0333684     1.0014610   -0.0419086     0.0085095    0.0039948 
   0.010852701     0.0019458    0.0016885     1.0006720   -0.0420634     0.9978718   -0.0401133     0.0027668    0.0012670 
   0.010952726     0.0005395    0.0016656     0.9953157   -0.0385962     0.9915767   -0.0473707     0.0032256    0.0049614 
   0.011052751     0.0015832    0.0032247     0.9988207   -0.0395605     1.0029010   -0.0399675     0.0040380    0.0037431 
   0.011152776     0.0008957    0.0006556     0.9978207   -0.0411613     0.9969029   -0.0455697     0.0031442    0.0030910 
   0.011252801     0.0005481    0.0042859     0.9973027   -0.0385540     0.9969941   -0.0423497     0.0041937    0.0049057 
   0.011352826     0.0001275    0.0023727     1.0001220   -0.0362802     0.9937925   -0.0434610     0.0068111    0.0039426 
   0.011452851     0.0028180    0.0015896     1.0044330   -0.0602903     0.9982775   -0.0486653    -0.0033163   -0.0077195 
   0.011552876     0.0026204    0.0004238     1.0040770   -0.0539968     0.9998814   -0.0477000     0.0001032   -0.0047073 
   0.011652901     0.0012756    0.0016962     1.0044860   -0.0426492     0.9978634   -0.0418486     0.0056369    0.0003662 
   0.011752926     0.0002184    0.0032383     1.0002260   -0.0368276     0.9964433   -0.0460859     0.0075748    0.0040564 
   0.011852951     0.0015212    0.0019001     1.0014830   -0.0567230     0.9986427   -0.0520312    -0.0022692   -0.0042340 
   0.011952976     0.0001507    0.0006253     0.9981776   -0.0447487     0.9962215   -0.0485437     0.0028939    0.0024905 
   0.012053002     0.0020837    0.0006634     0.9925048   -0.0478759     0.9989088   -0.0484095    -0.0000524    0.0046380 
   0.012153027     0.0011450    0.0009215     0.9934559   -0.0504631     0.9976318   -0.0518806    -0.0006563    0.0033086 
   0.012253052    -0.0014404    0.0001927     0.9991438   -0.0484609     0.9959726   -0.0496194     0.0017715    0.0011734 
   0.012353077     0.0016968    0.0008428     0.9983482   -0.0485518     0.9991246   -0.0470897     0.0015093    0.0020507 
   0.012453102     0.0014384    0.0021577     0.9921951   -0.0530601     1.0016130   -0.0486892    -0.0021005    0.0042471 
   0.012553127     0.0015288    0.0016691     1.0021470   -0.0565429     0.9946247   -0.0526560    -0.0001145   -0.0035164 
   0.012653152     0.0015026    0.0033701     1.0115130   -0.0536285     0.9949617   -0.0527944     0.0045118   -0.0072665 
   0.012753177     0.0018495    0.0016785     0.9988210   -0.0532134     1.0006400   -0.0516230     0.0009509    0.0008901 
   0.012853202     0.0016611    0.0011868     0.9960679   -0.0566986     0.9976344   -0.0516382    -0.0018308    0.0009904 
   0.012953227     0.0017372    0.0015093     1.0004450   -0.0499634     0.9975587   -0.0539229     0.0033460    0.0007249 
   0.013053252     0.0038040    0.0016559     1.0162070   -0.0630909     1.0000640   -0.0542174     0.0016400   -0.0125235 
   0.013153277     0.0024790    0.0008482     0.9933106   -0.0535608     0.9961736   -0.0541205    -0.0009658    0.0042847 
   0.013253302     0.0004650    0.0017799     0.9972632   -0.0489752     1.0008440   -0.0508643     0.0036207    0.0035928 
   0.013353327     0.0012975    0.0016100     0.9870982   -0.0526456     0.9985638   -0.0535470    -0.0010142    0.0083419 
   0.013453352     0.0009592    0.0001019     0.9928832   -0.0577699     0.9956901   -0.0548803    -0.0018768    0.0030819 
   0.013553377     0.0005469    0.0008532     0.9918010   -0.0611047     0.9974731   -0.0527994    -0.0040729    0.0026024 
   0.013653402     0.0012994    0.0013465     0.9891894   -0.0536183     0.9948628   -0.0546547    -0.0006323    0.0070578 
   0.013753427     0.0005949    0.0023671     0.9901105   -0.0639995     0.9973463   -0.0563048    -0.0059183    0.0032787 
   0.013853452     0.0007619    0.0003797     0.9962745   -0.0577110     0.9976439   -0.0578317     0.0000538    0.0016645 
   0.013953477     0.0021236    0.0008620     0.9978468   -0.0715094     0.9953064   -0.0565649    -0.0078068   -0.0029600 
   0.014053502     0.0020699    0.0027352     1.0073200   -0.0545990     0.9984323   -0.0531957     0.0053534   -0.0036685 
   0.014153527     0.0010324    0.0019979     1.0021820   -0.0632913     0.9961659   -0.0560327    -0.0004267   -0.0031545 
   0.014253552     0.0007267    0.0023392     1.0086250   -0.0505440     0.9960296   -0.0608498     0.0087446   -0.0035332 
   0.014353577     0.0008761    0.0008070     0.9920289   -0.0692470     0.9969188   -0.0549397    -0.0072928    0.0023185 
   0.014453602     0.0001864    0.0029273     1.0007650   -0.0449212     0.9975699   -0.0614042     0.0104694    0.0030362 
   0.014553627     0.0003159    0.0010418     0.9931239   -0.0599986     0.9934858   -0.0599480    -0.0005534    0.0034783 
   0.014653652     0.0028295    0.0031205     1.0075690   -0.0534733     0.9985886   -0.0568689     0.0073242   -0.0026591 
   0.014753677    -0.0003228    0.0005401     0.9828587   -0.0665150     0.9942907   -0.0623429    -0.0066103    0.0084111 
   0.014853702     0.0013713    0.0018816     1.0055990   -0.0495314     0.9950402   -0.0581913     0.0093065   -0.0006923 
   0.014953727     0.0017775    0.0024077     1.0003940   -0.0631704     0.9967207   -0.0624007     0.0002584   -0.0013501 
   0.015053752     0.0030421    0.0014823     0.9944627   -0.0673500     0.9950004   -0.0612272    -0.0034572    0.0018871 
   0.015153777     0.0010772    0.0011698     0.9983510   -0.0558921     0.9981526   -0.0596083     0.0048478    0.0017406 
   0.015253802     0.0015589    0.0011471     0.9962646   -0.0751657     0.9943124   -0.0650142    -0.0070579   -0.0013847 
   0.015353827     0.0002171    0.0019728     0.9991242   -0.0599608     0.9983730   -0.0636588     0.0033335    0.0007946 
   0.015453852     0.0012043    0.0025860     1.0022620   -0.0621118     0.9952133   -0.0629228     0.0028947   -0.0018908 
   0.015553877     0.0011729    0.0002718     0.9882906   -0.0627851     0.9939703   -0.0658493    -0.0005575    0.0064398 
   0.015653902     0.0012580    0.0016356     0.9977737   -0.0560042     0.9955807   -0.0616360     0.0062878    0.0028613 
