! 26-Feb-26 10:55:12 AM
! E:\VNA_MEASUREMENTS\SPDT1_OPENSHORT\SPDTOPENRF1_1.S2P
! CHANNEL.1
! TR.MEASUREMENT
! CORRECTED.DATA
# GHZ S RI R 50.0
! FREQ.GHZ         S11RE         S11IM         S21RE         S21IM         S12RE         S12IM         S22RE         S22IM         
!; PortSelection: Port_12
   0.000050000    -0.0619864    0.0882684     0.1413925   -0.0122970    -0.0068480   -0.0044969    -0.0074150   -0.0027261 
   0.000150025    -0.0979273    0.0394880    -0.1136738   -0.0379543    -0.0007509    0.0004790     0.0012541   -0.0034062 
   0.000250050    -0.6640382   -1.1355570    -0.1194652   -0.0871797    -0.0008073    0.0004411     0.0025625   -0.0015496 
   0.000350075     0.9840098   -0.0377282    -0.0062878   -0.0091886     0.0001622   -0.0013271    -0.0010555   -0.0010857 
   0.000450100     1.0133410    0.0105248     0.0007414   -0.0096207    -0.0005461   -0.0005282    -0.0007846   -0.0010290 
   0.000550125     0.9885868   -0.0304443    -0.0071361   -0.0122726     0.0005290   -0.0010051    -0.0001020    0.0002080 
   0.000650150     0.9680883    0.0102870    -0.0050292   -0.0120369    -0.0004795   -0.0001636    -0.0000647   -0.0009671 
   0.000750175     0.9650304   -0.1037553    -0.0089697   -0.0092924    -0.0001048   -0.0001134     0.0006085   -0.0004169 
   0.000850200     0.9764820   -0.0729307    -0.0063850   -0.0081892    -0.0008252   -0.0003578     0.0005859   -0.0007770 
   0.000950225     1.0327840   -0.0159470    -0.0088680   -0.0067511    -0.0002631   -0.0004817     0.0007288    0.0008994 
   0.001050250     0.9907191   -0.0586284    -0.0077065   -0.0059899     0.0002377    0.0004185    -0.0005076   -0.0001038 
   0.001150275     1.0040220   -0.0293302    -0.0116206   -0.0005463    -0.0001966   -0.0007751     0.0000981    0.0006799 
   0.001250300     1.0110190   -0.0045928    -0.0067408   -0.0023750    -0.0010507    0.0001666     0.0012843    0.0008167 
   0.001350325     1.0118650   -0.0342077    -0.0087608   -0.0046722     0.0004807    0.0002233    -0.0002496   -0.0007104 
   0.001450350     0.9509298   -0.0223127    -0.0098097   -0.0015772     0.0006547   -0.0003839    -0.0002517    0.0009217 
   0.001550375     0.9781563   -0.0217696    -0.0066282   -0.0033238    -0.0003188   -0.0005841     0.0012697    0.0009071 
   0.001650400     1.0135890    0.0042235    -0.0057993    0.0011279     0.0014810   -0.0001257     0.0001115   -0.0000243 
   0.001750425     0.9705060   -0.0088567    -0.0080608    0.0017357     0.0006462    0.0006601    -0.0002202    0.0005014 
   0.001850450     0.9749880   -0.0241917    -0.0093949    0.0005320     0.0000133    0.0002702    -0.0006943    0.0008068 
   0.001950475     1.0170640    0.0258800    -0.0049843    0.0028557    -0.0000804    0.0003324     0.0004728    0.0000843 
   0.002050500     0.9628682   -0.0007912    -0.0046037    0.0024765    -0.0003431   -0.0009001     0.0009745    0.0005913 
   0.002150525     1.0335440   -0.0048925    -0.0069024    0.0032162     0.0005981   -0.0002208     0.0009635    0.0009415 
   0.002250550     0.9842589   -0.0139104    -0.0040253    0.0006506    -0.0002032   -0.0005863     0.0002012   -0.0008322 
   0.002350575     0.9835553   -0.0609055    -0.0064398    0.0039337     0.0008397    0.0002950     0.0015497    0.0001411 
   0.002450600     0.9917740   -0.0611172    -0.0045872    0.0022014    -0.0001112    0.0000090     0.0001131   -0.0001131 
   0.002550625     0.9680343   -0.0179444    -0.0013452    0.0040478    -0.0002723    0.0001079     0.0003477    0.0008048 
   0.002650650     0.9899261   -0.0105048    -0.0039680    0.0015303    -0.0000370   -0.0002168    -0.0005085   -0.0003889 
   0.002750675     0.9826410    0.0175042    -0.0028317    0.0027530    -0.0001223    0.0000700    -0.0002697    0.0010865 
   0.002850700     0.9855462   -0.0067481    -0.0041816    0.0032417     0.0001565    0.0008341    -0.0005587    0.0003449 
   0.002950725     0.9345968   -0.0270714    -0.0072136    0.0014760     0.0000145    0.0009963     0.0000611    0.0010964 
   0.003050750     0.9664949    0.0198952    -0.0028253    0.0034425     0.0001828   -0.0003612    -0.0004371   -0.0003723 
   0.003150775     0.9565578   -0.0175499    -0.0029427   -0.0007500     0.0010665    0.0001632    -0.0000792    0.0000069 
   0.003250800     0.9726911    0.0082290    -0.0034679    0.0033421     0.0000130   -0.0006608     0.0007629    0.0004955 
   0.003350825     0.9679415    0.0054538    -0.0018231    0.0030800     0.0000538   -0.0004339    -0.0005196    0.0002531 
   0.003450850     0.9818643   -0.0490294    -0.0001892    0.0029315     0.0006193   -0.0005683     0.0000901   -0.0005032 
   0.003550875     0.9773650   -0.0270492    -0.0022790    0.0024443     0.0005117   -0.0004572     0.0001054   -0.0004014 
   0.003650900     1.0086720    0.0072693     0.0008282    0.0026189     0.0003795    0.0002352     0.0007608   -0.0004639 
   0.003750925     0.9953968   -0.0414498    -0.0023930    0.0031600    -0.0002988    0.0002591     0.0003716   -0.0004578 
   0.003850950     0.9799896   -0.0527797    -0.0015045    0.0020377     0.0004754   -0.0002921     0.0000165   -0.0001320 
   0.003950975     0.9787508   -0.0151401    -0.0007915    0.0025159    -0.0007121    0.0003473     0.0001717   -0.0004785 
   0.004051001     0.9793367   -0.0774194    -0.0018414    0.0027626    -0.0003405   -0.0000816     0.0000482   -0.0003914 
   0.004151026     0.9867494   -0.0487868    -0.0009995    0.0003692     0.0000167   -0.0000710    -0.0001888    0.0001940 
   0.004251051     0.9772756   -0.0096152     0.0005048    0.0037219    -0.0004077    0.0003382     0.0000089    0.0002297 
   0.004351076     0.9957242    0.0104007     0.0032668    0.0013225    -0.0001344   -0.0002038     0.0004306    0.0009172 
   0.004451101     0.9935416   -0.0510848    -0.0001144    0.0011558     0.0006695    0.0000126     0.0006848   -0.0000817 
   0.004551126     0.9960560   -0.0425938     0.0000591    0.0007106     0.0000898    0.0002362    -0.0005174    0.0004358 
   0.004651151     0.9464995   -0.0258801    -0.0002317    0.0013868    -0.0003952    0.0001126     0.0005075    0.0001136 
   0.004751176     0.9782971   -0.0457874    -0.0022769   -0.0006429     0.0003076   -0.0005940     0.0001910    0.0003623 
   0.004851201     0.9507005   -0.0347469     0.0004417    0.0029981     0.0000640    0.0005717     0.0006240    0.0008978 
   0.004951226     0.9645111   -0.0084609    -0.0011006    0.0014883     0.0003496    0.0003162     0.0004616   -0.0006297 
   0.005051251     1.0113340   -0.0333969     0.0006092    0.0011056     0.0004475   -0.0002336     0.0001822   -0.0001352 
   0.005151276     0.9696927   -0.0228104    -0.0006092    0.0006966     0.0001228    0.0001073     0.0000540    0.0000563 
   0.005251301     0.9884558   -0.0349895    -0.0022253   -0.0003597     0.0000197    0.0002145     0.0008517    0.0009282 
   0.005351326     0.9506553   -0.0054020    -0.0014486    0.0003203     0.0002722   -0.0001913     0.0009778    0.0007071 
   0.005451351     0.9994359   -0.0238115     0.0015183    0.0001435    -0.0005453    0.0005528     0.0009033    0.0002212 
   0.005551376     1.0051530   -0.0162130    -0.0015253   -0.0001650     0.0000340   -0.0002948     0.0003138   -0.0003995 
   0.005651401     0.9628127   -0.0087139    -0.0009376    0.0011728    -0.0000283    0.0004308     0.0003426   -0.0001508 
   0.005751426     0.9534671   -0.0184325     0.0003790    0.0018374     0.0003237    0.0000853     0.0007811    0.0003794 
   0.005851451     0.9641137   -0.0527691     0.0005394    0.0002300     0.0003200   -0.0000891    -0.0000450   -0.0003087 
   0.005951476     0.9949224   -0.0226642    -0.0015492    0.0001026    -0.0002050   -0.0003238     0.0002512    0.0003393 
   0.006051501     0.9724767   -0.0247156    -0.0012010    0.0014326    -0.0001380   -0.0000342     0.0000418   -0.0000963 
   0.006151526     0.9782462   -0.0319773    -0.0009903   -0.0012935     0.0000694   -0.0000533     0.0006502   -0.0000494 
   0.006251551     0.9766999   -0.0162704    -0.0010735    0.0008638     0.0000433   -0.0001344    -0.0000411    0.0006752 
   0.006351576     0.9656022   -0.0595081     0.0010199    0.0006237    -0.0001595    0.0003162    -0.0000948    0.0004654 
   0.006451601     0.9811551   -0.0361544    -0.0010402    0.0011160    -0.0000095    0.0004470     0.0000498    0.0004154 
   0.006551626     0.9616341   -0.0529665    -0.0008121    0.0008604    -0.0004802   -0.0001792    -0.0004496   -0.0001088 
   0.006651651     0.9581212   -0.0429507    -0.0003816    0.0013478     0.0001731   -0.0003814     0.0002003    0.0002636 
   0.006751676     0.9752306   -0.0445382    -0.0002863    0.0005376     0.0000556    0.0003491     0.0010797    0.0006657 
   0.006851701     0.9763235   -0.0334285    -0.0003831   -0.0013051     0.0000851   -0.0005727     0.0003519   -0.0001089 
   0.006951726     0.9452513   -0.0316040     0.0005288    0.0016056     0.0003745    0.0002535     0.0010264    0.0011000 
   0.007051751     0.9715059   -0.0245967    -0.0009384   -0.0015769     0.0002214    0.0000127     0.0007584    0.0000976 
   0.007151776     0.9706487   -0.0351891    -0.0007359   -0.0020159    -0.0002093   -0.0003922     0.0006813    0.0010077 
   0.007251801     0.9963203   -0.0339269    -0.0004313    0.0008179     0.0001137    0.0004164     0.0001019    0.0005173 
   0.007351826     0.9859472   -0.0579652    -0.0035948   -0.0007809     0.0002232    0.0002985     0.0010383    0.0001131 
   0.007451851     0.9727765   -0.0286505    -0.0007516    0.0016050     0.0003005    0.0004490     0.0002382    0.0000073 
   0.007551876     0.9854679   -0.0446057    -0.0004067    0.0014638     0.0001238    0.0002641     0.0004256   -0.0003249 
   0.007651901     0.9837586   -0.0526689    -0.0016345    0.0010145     0.0003076    0.0001847     0.0001343    0.0001206 
   0.007751926     0.9669136   -0.0303892    -0.0000254   -0.0006052     0.0000845   -0.0000705     0.0000523   -0.0004695 
   0.007851951     0.9825680   -0.0431167    -0.0001007    0.0001930    -0.0001085   -0.0003554     0.0005992   -0.0000003 
   0.007951976     0.9777692   -0.0373805     0.0006517    0.0013427    -0.0000672    0.0001165     0.0002213    0.0000477 
   0.008052001     0.9959450   -0.0372112     0.0012898   -0.0015585     0.0001084    0.0000529     0.0004223    0.0002000 
   0.008152026     0.9763799   -0.0406466     0.0002855   -0.0004657    -0.0001045    0.0003825     0.0005169    0.0002620 
   0.008252051     0.9521308   -0.0269586     0.0004834   -0.0016707     0.0001977    0.0005566     0.0007462    0.0002242 
   0.008352076     0.9865271   -0.0530386    -0.0009112   -0.0006987     0.0002692    0.0002423     0.0008680   -0.0002832 
   0.008452101     0.9981236   -0.0290154    -0.0000302    0.0002896    -0.0000295    0.0002639     0.0002897   -0.0003446 
   0.008552126     0.9835914   -0.0375607     0.0005345    0.0002094     0.0003362    0.0008186     0.0004669    0.0006441 
   0.008652151     0.9680074   -0.0554537     0.0010456    0.0002560    -0.0004615   -0.0000915     0.0006407   -0.0001816 
   0.008752176     1.0014190   -0.0312908    -0.0011223   -0.0012788     0.0000335   -0.0001831    -0.0002899   -0.0005432 
   0.008852201     0.9583086   -0.0346891    -0.0010797   -0.0008153    -0.0000284    0.0002788     0.0003698    0.0004570 
   0.008952226     0.9990996   -0.0189637     0.0022014    0.0002999     0.0002276    0.0001020     0.0004634   -0.0003406 
   0.009052251     1.0011060   -0.0453555     0.0011258    0.0012644    -0.0002679    0.0000346     0.0006792   -0.0002726 
   0.009152276     0.9956002   -0.0344851    -0.0003162    0.0001209    -0.0003467    0.0000216     0.0011234    0.0001192 
   0.009252301     0.9725844   -0.0504528     0.0013002   -0.0001095     0.0002667   -0.0001251     0.0001808   -0.0002389 
   0.009352326     0.9973493   -0.0362253    -0.0000409   -0.0000980    -0.0002823    0.0000986    -0.0002342   -0.0001944 
   0.009452351     0.9861209   -0.0417738    -0.0001244    0.0007986     0.0001229   -0.0000383     0.0005561    0.0000478 
   0.009552376     0.9893423   -0.0521404    -0.0002344    0.0016822    -0.0000331   -0.0000576     0.0007018    0.0000827 
   0.009652401     0.9723083   -0.0350301    -0.0001811   -0.0017221    -0.0002721    0.0000342     0.0001937   -0.0000774 
   0.009752426     0.9661232   -0.0551240     0.0004845   -0.0006979    -0.0003325   -0.0000638     0.0000846    0.0003935 
   0.009852451     0.9738230   -0.0498180    -0.0003711    0.0006087    -0.0004318   -0.0006383    -0.0000358    0.0002382 
   0.009952476     0.9705561   -0.0480340    -0.0001364    0.0003922     0.0004854   -0.0002325     0.0007297    0.0000466 
   0.010052501     0.9704353   -0.0362633    -0.0000649   -0.0016672    -0.0001494   -0.0001908     0.0000543    0.0002709 
   0.010152526     0.9768912   -0.0258850    -0.0002746   -0.0009504    -0.0002068    0.0005970     0.0000743   -0.0000797 
   0.010252551     0.9549118   -0.0421243    -0.0000086   -0.0004940     0.0002107    0.0001999     0.0004407    0.0001415 
   0.010352576     0.9745387   -0.0533034    -0.0021628    0.0000522    -0.0002171    0.0001415     0.0001016    0.0003692 
   0.010452601     0.9708715   -0.0377901     0.0002015    0.0008922    -0.0002296   -0.0001462     0.0006261   -0.0000389 
   0.010552626     0.9478694   -0.0528283    -0.0009318    0.0002354    -0.0000359   -0.0001801     0.0005442    0.0001244 
   0.010652651     0.9727970   -0.0421833     0.0001050   -0.0012216     0.0001281    0.0000596     0.0000469   -0.0000756 
   0.010752676     0.9840394   -0.0535973     0.0007117    0.0003751    -0.0001000   -0.0004225     0.0005129    0.0001342 
   0.010852701     0.9549472   -0.0503872     0.0000578   -0.0001964     0.0004385   -0.0002696     0.0001998    0.0000767 
   0.010952726     0.9720860   -0.0397153     0.0000339   -0.0006601     0.0000197   -0.0000586    -0.0000388    0.0000351 
   0.011052751     0.9782619   -0.0482247    -0.0004789    0.0022181     0.0000550    0.0002867     0.0006382   -0.0000020 
   0.011152776     0.9752192   -0.0445041    -0.0006278   -0.0004894    -0.0000157    0.0000856     0.0003005    0.0003050 
   0.011252801     0.9835730   -0.0714452     0.0002631    0.0001591     0.0000465   -0.0000942    -0.0000958    0.0005051 
   0.011352826     0.9951389   -0.0729723    -0.0009308    0.0015575    -0.0002108    0.0000975     0.0002997   -0.0001545 
   0.011452851     0.9586705   -0.0494393    -0.0005733    0.0002169    -0.0002165   -0.0004079     0.0003676    0.0003519 
   0.011552876     0.9786033   -0.0624353     0.0005852    0.0003577     0.0000517   -0.0000415     0.0005634    0.0001598 
   0.011652901     0.9938954   -0.0565041    -0.0003541    0.0000083     0.0004807    0.0005435     0.0000081    0.0005798 
   0.011752926     0.9694484   -0.0525191    -0.0006975   -0.0008249    -0.0005613    0.0000190     0.0001864   -0.0001401 
   0.011852951     0.9875580   -0.0530298     0.0002361   -0.0009152    -0.0000463   -0.0001764     0.0001935   -0.0000554 
   0.011952976     0.9772770   -0.0492236    -0.0000545    0.0001423    -0.0001731   -0.0000358     0.0003894    0.0006461 
   0.012053002     0.9646031   -0.0542543    -0.0007799   -0.0001344    -0.0005810   -0.0000927     0.0003257    0.0002231 
   0.012153027     0.9844035   -0.0576901     0.0011810   -0.0003509    -0.0004390   -0.0000380     0.0003051   -0.0003237 
   0.012253052     0.9684194   -0.0690439    -0.0005075   -0.0006403    -0.0000215    0.0002737     0.0006134    0.0001328 
   0.012353077     0.9767221   -0.0470729     0.0006335   -0.0002619     0.0000463   -0.0001271     0.0000534    0.0003870 
   0.012453102     0.9819680   -0.0572791     0.0004415    0.0009649     0.0001859    0.0001482     0.0004943   -0.0000675 
   0.012553127     0.9748288   -0.0617466     0.0007945   -0.0005148     0.0004339   -0.0001249     0.0004151   -0.0001096 
   0.012653152     0.9778737   -0.0334762     0.0009822   -0.0007377    -0.0000166    0.0000260     0.0002918    0.0005541 
   0.012753177     0.9625997   -0.0555518     0.0001030    0.0003551    -0.0000474    0.0000960     0.0002418    0.0001439 
   0.012853202     0.9740940   -0.0408402     0.0000453    0.0008678     0.0003022   -0.0003072     0.0001585    0.0006286 
   0.012953227     0.9772395   -0.0528083     0.0004573   -0.0000368     0.0000826   -0.0001363     0.0006008    0.0003157 
   0.013053252     0.9910311   -0.0652470     0.0007030    0.0012887    -0.0001201    0.0001323     0.0004514    0.0003980 
   0.013153277     0.9862552   -0.0456690    -0.0002234    0.0014608     0.0001985    0.0002527     0.0004004    0.0002192 
   0.013253302     0.9781206   -0.0585283     0.0005393    0.0001565    -0.0001615    0.0003930     0.0003950   -0.0000788 
   0.013353327     0.9628397   -0.0568922     0.0004962   -0.0005439     0.0001499    0.0001237    -0.0001032    0.0002171 
   0.013453352     0.9768029   -0.0547452     0.0013797   -0.0002286     0.0004407   -0.0000957     0.0004311    0.0001910 
   0.013553377     0.9588114   -0.0567481     0.0003197    0.0002202    -0.0001355   -0.0003759    -0.0000712   -0.0000640 
   0.013653402     0.9702248   -0.0661321    -0.0000639    0.0003354    -0.0002045    0.0001128     0.0003935    0.0001899 
   0.013753427     0.9696185   -0.0556481    -0.0004068    0.0004494    -0.0001263    0.0003667     0.0000599    0.0005174 
   0.013853452     0.9923957   -0.0695310    -0.0007663   -0.0001569    -0.0002110    0.0003191     0.0002716    0.0003082 
   0.013953477     0.9655805   -0.0604854     0.0002570   -0.0004364    -0.0001199   -0.0001452     0.0001469    0.0005362 
   0.014053502     0.9925560   -0.0751785    -0.0009454    0.0009969    -0.0001819   -0.0000056    -0.0001267   -0.0001248 
   0.014153527     0.9793295   -0.0534362     0.0006803    0.0006095     0.0001898   -0.0000998     0.0003068   -0.0002047 
   0.014253552     0.9769367   -0.0552899     0.0000593   -0.0009299    -0.0003028    0.0004542     0.0005903   -0.0001964 
   0.014353577     0.9722471   -0.0652226    -0.0009822    0.0005653     0.0000713    0.0000454     0.0006515    0.0001995 
   0.014453602     0.9702571   -0.0666270     0.0002962    0.0001876     0.0000309   -0.0001341     0.0004267    0.0000999 
   0.014553627     0.9789189   -0.0699177     0.0002981    0.0001231    -0.0000445   -0.0003909     0.0005264    0.0001708 
   0.014653652     0.9701720   -0.0725143     0.0004295   -0.0001125    -0.0001729    0.0001323     0.0005087   -0.0002514 
   0.014753677     0.9550842   -0.0734747    -0.0001953    0.0002586     0.0001384   -0.0000541     0.0003740    0.0002811 
   0.014853702     0.9780486   -0.0498223    -0.0003572    0.0000820     0.0000540   -0.0002608     0.0002980    0.0005845 
   0.014953727     0.9733039   -0.0754591    -0.0002581    0.0000207    -0.0000270    0.0001888     0.0006169   -0.0000127 
   0.015053752     0.9718673   -0.0713930    -0.0007132   -0.0000133     0.0000611    0.0000949     0.0004351    0.0001313 
   0.015153777     0.9833859   -0.0642359    -0.0000527   -0.0005985     0.0003685    0.0002858     0.0004792   -0.0002035 
   0.015253802     0.9680553   -0.0696295     0.0002323   -0.0004784     0.0000419    0.0003479    -0.0002561    0.0003557 
   0.015353827     0.9711382   -0.0715550    -0.0006995   -0.0005222     0.0001551    0.0003107     0.0008823   -0.0000739 
   0.015453852     0.9848035   -0.0570530     0.0011023   -0.0008074    -0.0001545    0.0001046     0.0007702    0.0004768 
   0.015553877     0.9833755   -0.0701323    -0.0001755   -0.0007688    -0.0002449   -0.0001077     0.0004182    0.0002567 
   0.015653902     0.9797066   -0.0710984     0.0005215    0.0003276     0.0002656    0.0002487    -0.0001656    0.0002960 
