! 26-Feb-26 10:52:54 AM
! E:\VNA_MEASUREMENTS\SPDT1_OPENSHORT\SPDTOPENRF1_0.S2P
! CHANNEL.1
! TR.MEASUREMENT
! CORRECTED.DATA
# GHZ S RI R 50.0
! FREQ.GHZ         S11RE         S11IM         S21RE         S21IM         S12RE         S12IM         S22RE         S22IM         
!; PortSelection: Port_12
   0.000050000     0.3819211    0.6748935     0.0682287    0.8487267     0.0020668   -0.0027000    -0.0130995    0.0007246 
   0.000150025    -0.7035491    0.3164244    -0.5903234   -0.9165711    -0.0004203   -0.0003893    -0.0010497   -0.0005690 
   0.000250050    -0.0102467   -0.4208625    -0.3090658   -0.3557968     0.0004491    0.0008105     0.0035253   -0.0040930 
   0.000350075     1.0066170    0.0176528     0.0068574   -0.0098181     0.0009175    0.0007316    -0.0013243   -0.0008126 
   0.000450100     0.9874656   -0.0309229     0.0020219   -0.0088008    -0.0018339    0.0001800    -0.0007233   -0.0005475 
   0.000550125     0.9987547    0.0100971    -0.0060717   -0.0075965     0.0005329    0.0011905    -0.0001289   -0.0000376 
   0.000650150     1.0085480    0.0232780    -0.0040626   -0.0110716     0.0010185    0.0005309     0.0002379   -0.0015490 
   0.000750175     0.9884858   -0.0210882    -0.0065322   -0.0068486     0.0006118   -0.0011170    -0.0009868    0.0003185 
   0.000850200     0.9722279   -0.1130388    -0.0083850   -0.0094842    -0.0008957    0.0001575    -0.0002011   -0.0004052 
   0.000950225     0.9929333   -0.0210824    -0.0066522   -0.0105434     0.0000231    0.0006645     0.0001806    0.0009998 
   0.001050250     0.9668858    0.0049211    -0.0104465   -0.0048003     0.0003372   -0.0001882    -0.0004741   -0.0006221 
   0.001150275     1.0054430   -0.0991034    -0.0111293   -0.0041406    -0.0003371   -0.0006818     0.0004241    0.0006839 
   0.001250300     0.9595925   -0.0382507    -0.0094280   -0.0037310    -0.0002255    0.0003032     0.0003553    0.0008739 
   0.001350325     1.0107550   -0.0187429    -0.0105612   -0.0041166    -0.0001724    0.0003474     0.0000102   -0.0000707 
   0.001450350     0.9886907    0.0320232    -0.0110558    0.0009273     0.0002213   -0.0003237    -0.0001254    0.0004183 
   0.001550375     0.9805082   -0.0039803    -0.0068107   -0.0007603    -0.0000062    0.0013136     0.0003540    0.0008661 
   0.001650400     0.9852775   -0.0121841    -0.0066873    0.0036629    -0.0010517    0.0005624    -0.0003230   -0.0002369 
   0.001750425     1.0026530   -0.0478266    -0.0101449    0.0016122     0.0017022   -0.0001030    -0.0003066    0.0003402 
   0.001850450     0.9650698   -0.0464275    -0.0061566   -0.0000042    -0.0000012   -0.0001997    -0.0003145    0.0008715 
   0.001950475     1.0039950    0.0282503    -0.0068676    0.0010199     0.0005144   -0.0003349     0.0007849   -0.0001896 
   0.002050500     0.9488322    0.0140919    -0.0117446    0.0013694     0.0004175    0.0003069     0.0011072   -0.0006769 
   0.002150525     0.9887956   -0.0478528    -0.0083648    0.0025866     0.0001128    0.0002785     0.0001729   -0.0003220 
   0.002250550     0.9590869    0.0219381    -0.0081032    0.0024576    -0.0000642    0.0003631     0.0001427   -0.0001431 
   0.002350575     0.9526614   -0.0444317    -0.0046924   -0.0006541    -0.0000702    0.0016056     0.0000683   -0.0004099 
   0.002450600     1.0053490   -0.0273797    -0.0035328    0.0006631     0.0003142   -0.0001273     0.0008383    0.0001332 
   0.002550625     0.9792186   -0.0395613    -0.0052591    0.0020345    -0.0000056   -0.0005380    -0.0000657    0.0006540 
   0.002650650     1.0067100    0.0021288    -0.0007496    0.0000964    -0.0002865    0.0007402     0.0000618    0.0001936 
   0.002750675     0.9785063    0.0289066    -0.0030874    0.0053366     0.0000025   -0.0001358    -0.0004093    0.0004961 
   0.002850700     0.9825550   -0.0119174    -0.0044829    0.0033927    -0.0003425   -0.0002140    -0.0001597    0.0001435 
   0.002950725     0.9533482   -0.0306963    -0.0026851    0.0008643    -0.0002705   -0.0000278     0.0012567    0.0002381 
   0.003050750     0.9772307    0.0008178    -0.0041563    0.0042429     0.0003622   -0.0004323     0.0002533   -0.0004880 
   0.003150775     0.9730770   -0.0413106    -0.0041812    0.0025881     0.0003500   -0.0002111    -0.0004464   -0.0001736 
   0.003250800     0.9733031   -0.0044203     0.0003729    0.0020777    -0.0003590   -0.0008004     0.0001361    0.0004620 
   0.003350825     0.9930735    0.0037044    -0.0012197    0.0032160     0.0004350   -0.0001252    -0.0010844    0.0001840 
   0.003450850     0.9714283   -0.0313226    -0.0032990    0.0024707    -0.0003681    0.0000960     0.0003080   -0.0006727 
   0.003550875     0.9388536   -0.0197349    -0.0006191   -0.0022023    -0.0005635    0.0001521     0.0006211   -0.0001035 
   0.003650900     0.9754153    0.0021782    -0.0035348    0.0006533    -0.0001742    0.0000265     0.0001716   -0.0002868 
   0.003750925     0.9804491   -0.0217990    -0.0007680    0.0000954    -0.0001337   -0.0004752     0.0003157    0.0001913 
   0.003850950     0.9846842   -0.0332089    -0.0008886    0.0020903     0.0000718   -0.0004626    -0.0001525    0.0009669 
   0.003950975     1.0001490   -0.0106838     0.0001145    0.0005569     0.0001203    0.0005590     0.0003182   -0.0004648 
   0.004051001     0.9773780   -0.0528563    -0.0002883    0.0021410    -0.0003775    0.0005165    -0.0001537    0.0003476 
   0.004151026     0.9868977   -0.0263514    -0.0017707    0.0012366     0.0004008   -0.0006912    -0.0003227   -0.0003614 
   0.004251051     1.0162360   -0.0285109    -0.0006193   -0.0001506    -0.0002875    0.0003203     0.0000108    0.0000260 
   0.004351076     0.9661462   -0.0056599    -0.0013990    0.0008553    -0.0002910    0.0007700     0.0003334    0.0004788 
   0.004451101     1.0056810   -0.0329968     0.0017025    0.0011812     0.0002307   -0.0000617     0.0007739   -0.0003837 
   0.004551126     0.9957084   -0.0191525     0.0003639   -0.0017885     0.0004395   -0.0001131     0.0000508   -0.0001628 
   0.004651151     0.9987639   -0.0400956    -0.0016053   -0.0005816     0.0002778   -0.0001028     0.0006378    0.0003287 
   0.004751176     0.9658475   -0.0514693     0.0008714    0.0012488     0.0000572   -0.0002297     0.0002962    0.0001661 
   0.004851201     0.9488240   -0.0049739    -0.0008287    0.0009464    -0.0000728    0.0005653     0.0010893    0.0010624 
   0.004951226     0.9535763   -0.0304132     0.0014262    0.0010999    -0.0000850    0.0002622     0.0002374   -0.0007169 
   0.005051251     1.0060870   -0.0269098    -0.0002310    0.0000986     0.0002235   -0.0002399    -0.0000542   -0.0006858 
   0.005151276     0.9560358   -0.0161835    -0.0008946   -0.0008543    -0.0002547    0.0001312     0.0001470    0.0000004 
   0.005251301     0.9683192   -0.0244842    -0.0002100   -0.0007461     0.0000724   -0.0002290     0.0010103    0.0011136 
   0.005351326     0.9686398    0.0052867    -0.0001660    0.0011521    -0.0000846    0.0004199     0.0011817    0.0004190 
   0.005451351     0.9756576   -0.0138890    -0.0001161   -0.0019629     0.0003713    0.0001912     0.0005564    0.0002234 
   0.005551376     1.0040610   -0.0331420    -0.0012358    0.0023945     0.0000749    0.0003198     0.0004131   -0.0002066 
   0.005651401     0.9688106   -0.0218229     0.0005575   -0.0001712     0.0002349   -0.0000987     0.0001270   -0.0005220 
   0.005751426     0.9711172   -0.0319092     0.0000038   -0.0013359     0.0003082   -0.0001517     0.0004908    0.0002036 
   0.005851451     0.9582366   -0.0471808    -0.0000284    0.0002765    -0.0002815    0.0000637    -0.0001882   -0.0001514 
   0.005951476     0.9765364   -0.0231487    -0.0009907    0.0005509     0.0007820    0.0002275     0.0006607    0.0007077 
   0.006051501     0.9720196   -0.0352467    -0.0010631   -0.0011136     0.0000670    0.0003433    -0.0004853    0.0003597 
   0.006151526     0.9531373   -0.0490406    -0.0000079    0.0015011    -0.0000883    0.0000017     0.0008004    0.0000709 
   0.006251551     0.9977944   -0.0225146    -0.0000717   -0.0000785     0.0002559    0.0000579     0.0003539    0.0003268 
   0.006351576     0.9736496   -0.0271367    -0.0016984    0.0006719     0.0002392   -0.0000379     0.0001973   -0.0001277 
   0.006451601     0.9603978   -0.0061234     0.0005568   -0.0003213    -0.0003580   -0.0000306     0.0000002    0.0009435 
   0.006551626     0.9539196   -0.0252177    -0.0009006    0.0001570    -0.0004264    0.0000800    -0.0004788    0.0000970 
   0.006651651     0.9683294   -0.0269003     0.0004030   -0.0001895    -0.0001172   -0.0000183     0.0004717    0.0001461 
   0.006751676     0.9650459   -0.0296242    -0.0006162   -0.0009797    -0.0000482   -0.0000923     0.0008480    0.0003926 
   0.006851701     0.9666811   -0.0424253     0.0016681   -0.0001406    -0.0000030    0.0005425    -0.0003337    0.0001953 
   0.006951726     0.9601940   -0.0500815    -0.0021855    0.0003709    -0.0001688    0.0002048     0.0009255    0.0013206 
   0.007051751     0.9766555   -0.0249773    -0.0008065    0.0014458    -0.0006409    0.0001632     0.0007354    0.0005047 
   0.007151776     0.9602224   -0.0315160     0.0018257    0.0009015    -0.0004467    0.0001385     0.0011972    0.0005354 
   0.007251801     0.9890631   -0.0211057    -0.0012014    0.0014362     0.0002155    0.0003571     0.0001502    0.0001605 
   0.007351826     0.9870274   -0.0448424     0.0010601    0.0001719     0.0003779    0.0003896     0.0008097    0.0003478 
   0.007451851     0.9703689   -0.0441389    -0.0014696    0.0001016    -0.0002198    0.0003006     0.0004044   -0.0001119 
   0.007551876     0.9634953   -0.0387546    -0.0013225    0.0000908     0.0001030   -0.0000905     0.0004057    0.0001536 
   0.007651901     1.0016200   -0.0610403    -0.0005862   -0.0005269    -0.0002823   -0.0001830     0.0002949    0.0002763 
   0.007751926     0.9598598   -0.0280022    -0.0008630    0.0012753    -0.0002157   -0.0000936     0.0002907   -0.0000433 
   0.007851951     0.9860846   -0.0422823     0.0008990    0.0023007    -0.0000323    0.0003821     0.0004810    0.0001225 
   0.007951976     0.9799991   -0.0380336     0.0008614   -0.0000337     0.0000356    0.0002221     0.0004842    0.0000439 
   0.008052001     0.9637673   -0.0358980    -0.0002590   -0.0008168     0.0002580    0.0001702     0.0005294    0.0001309 
   0.008152026     0.9875913   -0.0612169     0.0001635   -0.0000898    -0.0000868    0.0000429     0.0006355    0.0000771 
   0.008252051     0.9474952   -0.0165176    -0.0010280    0.0005151     0.0002454   -0.0000564     0.0006949    0.0001340 
   0.008352076     0.9895000   -0.0537768    -0.0015207   -0.0010914    -0.0000144   -0.0002601     0.0010172    0.0001449 
   0.008452101     0.9651972   -0.0315137     0.0002082    0.0011917     0.0000676    0.0006428     0.0001905   -0.0004019 
   0.008552126     0.9874104   -0.0528069     0.0006202   -0.0001177     0.0000076   -0.0000149     0.0004902    0.0009362 
   0.008652151     0.9834861   -0.0150884     0.0004806    0.0003587    -0.0002044   -0.0006933     0.0007184    0.0000967 
   0.008752176     0.9809819   -0.0315150    -0.0008344    0.0003995     0.0000569   -0.0007576    -0.0001449   -0.0005141 
   0.008852201     0.9637883   -0.0257808    -0.0005651   -0.0009659    -0.0000496    0.0002024     0.0008534    0.0000364 
   0.008952226     0.9929686   -0.0282382     0.0006280   -0.0013736     0.0001312   -0.0006426     0.0006906    0.0001000 
   0.009052251     0.9896805   -0.0316189    -0.0006042    0.0003472     0.0003147   -0.0002130     0.0001999   -0.0001557 
   0.009152276     0.9856492   -0.0397894    -0.0003396    0.0014179    -0.0000988    0.0001763     0.0006458   -0.0002426 
   0.009252301     0.9852414   -0.0414726     0.0008382   -0.0003878     0.0000849   -0.0003424    -0.0000565    0.0001228 
   0.009352326     0.9823703   -0.0272859     0.0006546   -0.0006364    -0.0003829    0.0003251     0.0000692    0.0001507 
   0.009452351     0.9770906   -0.0364503     0.0003140    0.0002904    -0.0000424   -0.0003194     0.0005169   -0.0002273 
   0.009552376     0.9866414   -0.0551119    -0.0011100   -0.0005521     0.0002081   -0.0002984     0.0004572    0.0006062 
   0.009652401     0.9674414   -0.0353042    -0.0007926    0.0007061     0.0000524   -0.0000735     0.0004978    0.0000501 
   0.009752426     0.9689748   -0.0497706    -0.0013521   -0.0007376    -0.0000120   -0.0001100     0.0005424    0.0006469 
   0.009852451     0.9716567   -0.0412733     0.0007446    0.0012856     0.0000301    0.0000929     0.0001087    0.0001921 
   0.009952476     0.9698626   -0.0455394     0.0002998    0.0000386    -0.0000417    0.0001601     0.0002547    0.0006514 
   0.010052501     0.9797330   -0.0432872     0.0001595    0.0001852    -0.0002374    0.0000636    -0.0000854   -0.0001646 
   0.010152526     0.9622728   -0.0397606    -0.0003030    0.0005915    -0.0000334    0.0003402     0.0003700    0.0001922 
   0.010252551     0.9629201   -0.0545668     0.0000884   -0.0008730     0.0001062    0.0000232     0.0003085    0.0002080 
   0.010352576     0.9975587   -0.0467782     0.0016493    0.0002188     0.0001574    0.0001820     0.0001500   -0.0001166 
   0.010452601     0.9841452   -0.0382544     0.0002900   -0.0003102    -0.0002659   -0.0001884     0.0005444   -0.0002027 
   0.010552626     0.9737346   -0.0457461    -0.0008713   -0.0004991     0.0002983   -0.0000674     0.0006159    0.0001296 
   0.010652651     0.9828396   -0.0574205    -0.0000872   -0.0001161     0.0000412   -0.0000809     0.0005138   -0.0000535 
   0.010752676     0.9860578   -0.0639281     0.0002699   -0.0000058    -0.0001858   -0.0003534     0.0000309    0.0002977 
   0.010852701     0.9787039   -0.0336421     0.0019496   -0.0009700     0.0000582   -0.0001599     0.0002231    0.0005294 
   0.010952726     0.9778590   -0.0422063    -0.0004057   -0.0004366    -0.0005116    0.0001397     0.0000971   -0.0002416 
   0.011052751     0.9720518   -0.0537725    -0.0015232   -0.0003203     0.0000739   -0.0004655     0.0005768    0.0008456 
   0.011152776     0.9695603   -0.0609826    -0.0003609    0.0004483    -0.0002693    0.0000661     0.0003244   -0.0001257 
   0.011252801     0.9798468   -0.0467606     0.0001037   -0.0006180     0.0004415   -0.0005151     0.0001803    0.0005394 
   0.011352826     0.9846599   -0.0545252    -0.0006711   -0.0000627     0.0001072    0.0000785     0.0003274    0.0003829 
   0.011452851     0.9579293   -0.0413860     0.0001655   -0.0008842     0.0003078   -0.0001858     0.0005559    0.0000124 
   0.011552876     0.9624190   -0.0541670    -0.0010537    0.0004278    -0.0001748   -0.0000734     0.0002565    0.0000514 
   0.011652901     0.9757823   -0.0598503     0.0003023   -0.0004733     0.0002040    0.0001053     0.0003417    0.0006137 
   0.011752926     0.9465083   -0.0576746    -0.0008159    0.0001733     0.0000644    0.0001268    -0.0001547    0.0003050 
   0.011852951     0.9860889   -0.0589727     0.0006681    0.0009123    -0.0000376   -0.0002612     0.0001919    0.0000893 
   0.011952976     0.9773495   -0.0476916    -0.0007766    0.0001595     0.0000992    0.0004252     0.0000936    0.0007863 
   0.012053002     0.9707542   -0.0648635     0.0007548   -0.0016010     0.0000657    0.0001352     0.0002612    0.0005729 
   0.012153027     0.9838254   -0.0756905     0.0001957    0.0009203    -0.0002506   -0.0002039     0.0007790   -0.0001348 
   0.012253052     0.9696782   -0.0577014    -0.0008849   -0.0013619    -0.0002183    0.0000544     0.0008291    0.0005567 
   0.012353077     0.9812128   -0.0447025    -0.0005824    0.0003590     0.0002170   -0.0000400     0.0004592    0.0002565 
   0.012453102     0.9705617   -0.0445664     0.0003739    0.0008161     0.0000277   -0.0000642     0.0005797    0.0000887 
   0.012553127     0.9714444   -0.0731410     0.0004016   -0.0003598    -0.0000078    0.0000554     0.0006261   -0.0000194 
   0.012653152     0.9787086   -0.0310598    -0.0004629    0.0006215    -0.0000648   -0.0000295     0.0000143    0.0001984 
   0.012753177     0.9625929   -0.0590847     0.0005186   -0.0002709     0.0002237    0.0000246    -0.0000180    0.0000218 
   0.012853202     0.9722305   -0.0319661    -0.0005078    0.0001480     0.0001008    0.0000358     0.0005291    0.0003981 
   0.012953227     0.9626496   -0.0539490     0.0003643    0.0000701     0.0004217    0.0001086     0.0003880    0.0004745 
   0.013053252     0.9755067   -0.0850203    -0.0002591    0.0002173     0.0000333    0.0000862     0.0002782    0.0001326 
   0.013153277     0.9626330   -0.0435565     0.0000941    0.0005370     0.0002553    0.0001254     0.0002076    0.0001420 
   0.013253302     0.9698210   -0.0505847    -0.0006179   -0.0001964    -0.0002405   -0.0001534     0.0000750    0.0001401 
   0.013353327     0.9812200   -0.0595967    -0.0001444    0.0007415    -0.0000211   -0.0005309     0.0002934    0.0002196 
   0.013453352     0.9707063   -0.0542153     0.0002095   -0.0002100    -0.0001310   -0.0001192     0.0004934    0.0002675 
   0.013553377     0.9623241   -0.0600731     0.0014594    0.0000263     0.0001524   -0.0002017     0.0006689   -0.0000761 
   0.013653402     0.9720541   -0.0714788     0.0004871    0.0009512     0.0000414    0.0002161     0.0004365    0.0002855 
   0.013753427     0.9731188   -0.0437599     0.0000601    0.0004043     0.0000140   -0.0005299     0.0002447    0.0006575 
   0.013853452     0.9843777   -0.0682160     0.0007446   -0.0001909     0.0001170    0.0000292     0.0005653   -0.0000720 
   0.013953477     0.9700522   -0.0568129     0.0007028    0.0003366    -0.0000747   -0.0003505     0.0002870    0.0001308 
   0.014053502     0.9877433   -0.0640925    -0.0001257   -0.0005773    -0.0000420    0.0001696    -0.0000584    0.0000369 
   0.014153527     0.9750994   -0.0677103    -0.0001563    0.0006158     0.0003211   -0.0001554     0.0004991    0.0002507 
   0.014253552     0.9815516   -0.0492458     0.0012792   -0.0003435     0.0000628    0.0001489     0.0002638   -0.0005270 
   0.014353577     0.9657452   -0.0583110    -0.0002432    0.0002671     0.0000871   -0.0000951     0.0008764    0.0000245 
   0.014453602     0.9696435   -0.0697331    -0.0002780   -0.0002619    -0.0002389    0.0002507     0.0005663    0.0004107 
   0.014553627     0.9654899   -0.0606452     0.0008205    0.0000709    -0.0000081   -0.0001885     0.0003418    0.0000198 
   0.014653652     0.9772613   -0.0751880    -0.0015387   -0.0003976     0.0000884    0.0001950     0.0003857   -0.0002332 
   0.014753677     0.9668469   -0.0631701    -0.0000153    0.0001357    -0.0000483   -0.0004193     0.0007258   -0.0001966 
   0.014853702     0.9891651   -0.0483502     0.0003265    0.0002671    -0.0001628    0.0004056     0.0004438    0.0004499 
   0.014953727     0.9674672   -0.0802980     0.0006424   -0.0005140    -0.0002353   -0.0002212     0.0005336    0.0003255 
   0.015053752     0.9767510   -0.0620389    -0.0005731    0.0003702    -0.0001165    0.0000776     0.0006222    0.0005121 
   0.015153777     0.9785033   -0.0514812    -0.0002067   -0.0000761    -0.0001293   -0.0001683     0.0003294   -0.0000564 
   0.015253802     0.9726257   -0.0667092    -0.0005143    0.0009053    -0.0000965    0.0002454     0.0007534    0.0000181 
   0.015353827     0.9841525   -0.0751772    -0.0007648   -0.0005027    -0.0000699   -0.0000719     0.0009620    0.0001527 
   0.015453852     0.9905524   -0.0578058     0.0007305    0.0006652    -0.0000673   -0.0000047     0.0006421    0.0006093 
   0.015553877     0.9827208   -0.0732503    -0.0005832    0.0010767    -0.0001875   -0.0000751     0.0003552   -0.0001128 
   0.015653902     0.9832536   -0.0657662     0.0002416    0.0001774     0.0003494    0.0001351     0.0004231    0.0003653 
