! 26-Feb-26 10:57:21 AM
! E:\VNA_MEASUREMENTS\SPDT1_OPENSHORT\SPDTOPENRF1_2.S2P
! CHANNEL.1
! TR.MEASUREMENT
! CORRECTED.DATA
# GHZ S RI R 50.0
! FREQ.GHZ         S11RE         S11IM         S21RE         S21IM         S12RE         S12IM         S22RE         S22IM         
!; PortSelection: Port_12
   0.000050000     0.3139363    0.0384175     0.3736473    0.2259190     0.0075451   -0.0025573    -0.0094032    0.0335059 
   0.000150025    -0.0510449    0.1588631    -0.3024147    0.0784540     0.0000769    0.0001060     0.0031229   -0.0025770 
   0.000250050    -0.0626405   -0.2784244    -0.0790458    0.0857522    -0.0009400    0.0010776    -0.0011859   -0.0008946 
   0.000350075     1.0523040   -0.0337258     0.0024859   -0.0057108    -0.0011086   -0.0002019    -0.0012334   -0.0009692 
   0.000450100     1.0199830   -0.0168337    -0.0036617   -0.0077510     0.0025381   -0.0006919     0.0007126   -0.0003981 
   0.000550125     1.0586910   -0.0075642    -0.0072564   -0.0078838     0.0015666    0.0006626     0.0018771    0.0002214 
   0.000650150     1.0053650   -0.0124164    -0.0059090   -0.0091138    -0.0009080   -0.0008429     0.0002580   -0.0010213 
   0.000750175     0.9652107   -0.0372383    -0.0051651   -0.0081326    -0.0000924    0.0002250     0.0001657    0.0001257 
   0.000850200     0.9677821   -0.0638636    -0.0034859   -0.0106133    -0.0009308   -0.0009771    -0.0009233   -0.0016912 
   0.000950225     1.0315300   -0.0291165    -0.0090559   -0.0050651     0.0002674   -0.0008350    -0.0000288    0.0022440 
   0.001050250     0.9803753   -0.0269765    -0.0090025   -0.0057968    -0.0005505    0.0004486    -0.0006080    0.0000294 
   0.001150275     0.9712777    0.0050217    -0.0077084   -0.0034014    -0.0003041    0.0001992     0.0001691    0.0005266 
   0.001250300     0.9973456   -0.0312971    -0.0073117   -0.0067698     0.0006809   -0.0003022     0.0007546    0.0008286 
   0.001350325     0.9680882   -0.0249063    -0.0100727   -0.0031954    -0.0002096   -0.0011037    -0.0002302   -0.0007401 
   0.001450350     0.9882171   -0.0522821    -0.0134939   -0.0027968    -0.0006288    0.0009105    -0.0000317    0.0013423 
   0.001550375     0.9953052   -0.0432467    -0.0068461    0.0003332    -0.0002019    0.0003816     0.0002729    0.0005619 
   0.001650400     1.0105180    0.0318046    -0.0099527   -0.0011764    -0.0003979    0.0000349    -0.0003129   -0.0002837 
   0.001750425     0.9827353   -0.0637327    -0.0089107    0.0005877    -0.0001372    0.0007685    -0.0006102   -0.0002415 
   0.001850450     0.9969994   -0.0271317    -0.0106449    0.0005738    -0.0006291    0.0005861    -0.0003852    0.0019011 
   0.001950475     1.0352430    0.0294964    -0.0070900    0.0024909    -0.0006252   -0.0003559     0.0013665   -0.0010057 
   0.002050500     0.9770071   -0.0242486    -0.0083862    0.0004613     0.0000526    0.0001390     0.0002704    0.0001990 
   0.002150525     1.0042890   -0.0253153    -0.0105837    0.0001622    -0.0000134   -0.0000527     0.0010103    0.0004810 
   0.002250550     0.9788329   -0.0103508    -0.0057079    0.0019394    -0.0007607    0.0004416    -0.0002333   -0.0002352 
   0.002350575     0.9683451   -0.0074175    -0.0064153    0.0034505     0.0004144    0.0005519     0.0000185    0.0004441 
   0.002450600     0.9784029   -0.0266861    -0.0074621    0.0010350     0.0005260    0.0000011     0.0004035    0.0006545 
   0.002550625     1.0077960    0.0049444    -0.0073211    0.0021672     0.0002204   -0.0001033    -0.0006686    0.0002934 
   0.002650650     1.0231060   -0.0038571    -0.0054710    0.0007293    -0.0002679    0.0002915     0.0005887    0.0001006 
   0.002750675     0.9654813    0.0281304    -0.0040634    0.0025340    -0.0007870    0.0004563    -0.0010704    0.0003272 
   0.002850700     0.9914147   -0.0067256    -0.0012643    0.0038500     0.0002840   -0.0003425    -0.0000456   -0.0005909 
   0.002950725     0.9853265   -0.0075157    -0.0036803    0.0028206     0.0012050   -0.0000177     0.0002202   -0.0002721 
   0.003050750     0.9906818   -0.0406661    -0.0025471    0.0016029    -0.0002605   -0.0002354    -0.0002713   -0.0000387 
   0.003150775     0.9593113   -0.0362213    -0.0044396    0.0015520    -0.0000109    0.0003799    -0.0004079    0.0004003 
   0.003250800     0.9738740    0.0015744    -0.0024175    0.0037736     0.0004791   -0.0001290     0.0001435    0.0006355 
   0.003350825     0.9622632   -0.0484325    -0.0009533    0.0031792    -0.0000443    0.0004778     0.0000531    0.0007538 
   0.003450850     0.9564564   -0.0675475    -0.0000369    0.0020660    -0.0004184    0.0000152     0.0001518   -0.0011582 
   0.003550875     0.9571518   -0.0415250    -0.0012106    0.0020729     0.0004808    0.0000314     0.0006443    0.0002392 
   0.003650900     0.9897251    0.0032291    -0.0007495    0.0020116    -0.0007332    0.0007074     0.0008197    0.0005838 
   0.003750925     0.9791003   -0.0179642    -0.0029803    0.0023946    -0.0002069   -0.0000510    -0.0001280   -0.0000906 
   0.003850950     1.0009420   -0.0488385    -0.0012934    0.0018329    -0.0001083   -0.0003257    -0.0000336    0.0009405 
   0.003950975     1.0051340    0.0002982    -0.0024496    0.0031999    -0.0004967    0.0005207     0.0002226   -0.0005650 
   0.004051001     0.9649770   -0.0442580    -0.0019574    0.0020977     0.0005092    0.0004194     0.0003280    0.0002751 
   0.004151026     1.0115670   -0.0437996    -0.0004515    0.0000022     0.0001955    0.0001748     0.0000038   -0.0004836 
   0.004251051     0.9918505   -0.0228897     0.0002912    0.0010305     0.0004782   -0.0005381    -0.0004221   -0.0006194 
   0.004351076     0.9792688   -0.0094189     0.0002947    0.0014727     0.0000545   -0.0004949     0.0007304    0.0002839 
   0.004451101     1.0213070   -0.0289842     0.0004409    0.0029446    -0.0000720   -0.0000566     0.0008137    0.0000150 
   0.004551126     1.0106610    0.0050052    -0.0012523    0.0017953     0.0007481   -0.0003282    -0.0003026    0.0003372 
   0.004651151     0.9728125    0.0117001    -0.0005673    0.0021108    -0.0002493   -0.0000882     0.0008042    0.0003108 
   0.004751176     1.0037610   -0.0462638    -0.0004856    0.0016916     0.0002600    0.0001692     0.0003761   -0.0002305 
   0.004851201     0.9477624   -0.0334864    -0.0005865    0.0015031    -0.0000867    0.0000719     0.0010908    0.0008504 
   0.004951226     0.9611580   -0.0185143    -0.0003900    0.0013624     0.0000322    0.0002735     0.0004573   -0.0000635 
   0.005051251     1.0032220   -0.0349042     0.0007346   -0.0011727     0.0001019    0.0000886    -0.0000707   -0.0003239 
   0.005151276     0.9692055   -0.0177319    -0.0008774    0.0008135    -0.0000446    0.0001559     0.0004711   -0.0001030 
   0.005251301     0.9602830   -0.0209490    -0.0007235   -0.0000380     0.0000681   -0.0003566     0.0008576   -0.0000995 
   0.005351326     0.9726169   -0.0071793    -0.0019068    0.0014861     0.0001290    0.0000120     0.0005474    0.0005768 
   0.005451351     0.9990525   -0.0230673     0.0003694   -0.0015540    -0.0007195    0.0006943     0.0006821    0.0004699 
   0.005551376     1.0068240   -0.0443715    -0.0000312    0.0007706     0.0005226    0.0003783     0.0000836   -0.0000656 
   0.005651401     0.9606781   -0.0181034     0.0012026    0.0007856     0.0002369   -0.0002806    -0.0000599   -0.0006109 
   0.005751426     0.9755757   -0.0252691    -0.0011824   -0.0015852    -0.0005713    0.0000479     0.0010248   -0.0000930 
   0.005851451     0.9677020   -0.0399007    -0.0008324   -0.0011892     0.0008572   -0.0001831    -0.0002333   -0.0005831 
   0.005951476     0.9629653   -0.0292162    -0.0001887    0.0001162     0.0004798   -0.0000294     0.0000414    0.0003175 
   0.006051501     0.9918398   -0.0208060    -0.0008903    0.0010762    -0.0005556    0.0000593    -0.0000316    0.0001436 
   0.006151526     0.9603440   -0.0565898     0.0006731    0.0012239    -0.0001099   -0.0001459     0.0007077   -0.0001692 
   0.006251551     0.9714005   -0.0216331     0.0009254   -0.0001014     0.0004611    0.0000355     0.0004883    0.0000143 
   0.006351576     0.9829206   -0.0333774    -0.0000963    0.0013763    -0.0004713   -0.0004032    -0.0000618    0.0002190 
   0.006451601     0.9799754   -0.0438762     0.0020668    0.0016264    -0.0004362   -0.0003296    -0.0001786    0.0004941 
   0.006551626     0.9683068   -0.0466772     0.0005835    0.0006170     0.0000412   -0.0002886    -0.0005793   -0.0000925 
   0.006651651     0.9544652   -0.0252430    -0.0001162    0.0001756    -0.0001566    0.0002303     0.0004398    0.0000996 
   0.006751676     0.9539497   -0.0654632    -0.0005291   -0.0000404     0.0001931   -0.0002602     0.0010966    0.0007160 
   0.006851701     0.9866316   -0.0422995    -0.0012294    0.0001686     0.0000367    0.0002576    -0.0001478    0.0006655 
   0.006951726     0.9701765   -0.0484659     0.0009215   -0.0008266    -0.0000862   -0.0004327     0.0010832    0.0003520 
   0.007051751     0.9720129   -0.0382542    -0.0011504   -0.0002943     0.0003122   -0.0001143     0.0005290   -0.0002872 
   0.007151776     0.9393822   -0.0372144     0.0008392    0.0000357    -0.0001361   -0.0002609     0.0008580   -0.0000889 
   0.007251801     1.0056880   -0.0268327     0.0004414   -0.0002290    -0.0000347   -0.0000994     0.0000894   -0.0002920 
   0.007351826     0.9718479   -0.0516391     0.0005695    0.0020488    -0.0002876    0.0002193     0.0011711    0.0001988 
   0.007451851     0.9890765   -0.0255101     0.0016861    0.0009474    -0.0003325    0.0003279     0.0000925    0.0002862 
   0.007551876     0.9715054   -0.0413578     0.0004260   -0.0002208    -0.0002129   -0.0000448     0.0003453    0.0000473 
   0.007651901     0.9902930   -0.0506309    -0.0003548    0.0003862    -0.0003433   -0.0002050    -0.0001750    0.0002125 
   0.007751926     0.9659289   -0.0494494    -0.0019625    0.0002628     0.0003125   -0.0000642    -0.0002307   -0.0004979 
   0.007851951     0.9757646   -0.0304740    -0.0016310    0.0001447    -0.0001223   -0.0000890     0.0006062   -0.0003522 
   0.007951976     0.9772476   -0.0510487    -0.0000803   -0.0010434     0.0000732   -0.0002188     0.0001532    0.0005225 
   0.008052001     1.0006340   -0.0429964    -0.0001816   -0.0004689     0.0003618    0.0005337     0.0001808    0.0001382 
   0.008152026     0.9755732   -0.0541433    -0.0004390   -0.0006795     0.0004054    0.0002662     0.0004017    0.0003090 
   0.008252051     0.9514764   -0.0215052     0.0010245   -0.0003443     0.0003091    0.0000726     0.0006587    0.0003575 
   0.008352076     0.9695377   -0.0509098     0.0007685    0.0006773    -0.0000304   -0.0004692     0.0007598    0.0002932 
   0.008452101     0.9853758   -0.0297468    -0.0009234    0.0005509    -0.0001047   -0.0001621    -0.0002037   -0.0004744 
   0.008552126     0.9872876   -0.0299362     0.0010799   -0.0010377     0.0004010   -0.0002114     0.0005468    0.0005499 
   0.008652151     0.9911662   -0.0368269    -0.0004074   -0.0011217    -0.0000731    0.0000260     0.0008749    0.0004604 
   0.008752176     0.9683214   -0.0355765    -0.0014621    0.0002969     0.0000652   -0.0000535    -0.0000265   -0.0005761 
   0.008852201     0.9610770   -0.0374579    -0.0010569    0.0004522    -0.0001763    0.0000094     0.0004725    0.0004012 
   0.008952226     0.9938688   -0.0524948     0.0002231    0.0006815    -0.0003747    0.0000690     0.0006678   -0.0005549 
   0.009052251     0.9876778   -0.0098863    -0.0009114    0.0003614     0.0001306   -0.0001519     0.0001759    0.0000965 
   0.009152276     0.9832779   -0.0416166     0.0001288   -0.0000020     0.0002434   -0.0000541     0.0007116    0.0001643 
   0.009252301     0.9737935   -0.0373428    -0.0007851   -0.0000599     0.0001367    0.0000523     0.0004673   -0.0002161 
   0.009352326     0.9822168   -0.0389317    -0.0008239   -0.0009035    -0.0001053   -0.0001622     0.0001544    0.0001237 
   0.009452351     0.9814082   -0.0519721    -0.0016748   -0.0004701    -0.0000312   -0.0002258     0.0004016    0.0000086 
   0.009552376     0.9939606   -0.0529039    -0.0002167   -0.0018159     0.0000615   -0.0001987     0.0006321    0.0002102 
   0.009652401     0.9681652   -0.0579887    -0.0011896   -0.0006904    -0.0004039    0.0004442     0.0001408    0.0002162 
   0.009752426     0.9807783   -0.0471130    -0.0002343    0.0001685     0.0000381   -0.0000778     0.0002299    0.0004027 
   0.009852451     0.9847797   -0.0469646    -0.0011408    0.0003938    -0.0002200   -0.0002389     0.0004903   -0.0000291 
   0.009952476     0.9813128   -0.0582324    -0.0000618   -0.0007025    -0.0001626   -0.0001180     0.0002374    0.0002874 
   0.010052501     0.9643778   -0.0465017     0.0001843   -0.0006123     0.0001836   -0.0000878     0.0000651   -0.0002745 
   0.010152526     0.9681007   -0.0306123    -0.0022054   -0.0000278    -0.0003288    0.0003586     0.0001502    0.0001756 
   0.010252551     0.9754252   -0.0491519     0.0012273    0.0004642    -0.0001441   -0.0000712     0.0002595   -0.0000321 
   0.010352576     0.9911754   -0.0371027     0.0001631    0.0002244     0.0001375   -0.0000282     0.0003889    0.0002629 
   0.010452601     0.9729570   -0.0322947     0.0003628    0.0002190    -0.0004437    0.0000558     0.0001391    0.0000875 
   0.010552626     0.9624563   -0.0481827     0.0000029   -0.0003678    -0.0000141   -0.0004272     0.0003158    0.0002843 
   0.010652651     0.9750021   -0.0424470     0.0008452   -0.0005897     0.0002728    0.0000376     0.0003396   -0.0000683 
   0.010752676     0.9820281   -0.0754879     0.0011994    0.0001504    -0.0001577    0.0000347     0.0004737    0.0002285 
   0.010852701     0.9872842   -0.0397238    -0.0010032    0.0002864    -0.0006320   -0.0002745     0.0002262    0.0003882 
   0.010952726     0.9746446   -0.0524945     0.0013893    0.0003845     0.0000601   -0.0000024    -0.0001371    0.0000808 
   0.011052751     1.0014140   -0.0618147    -0.0003571    0.0006795    -0.0002087    0.0005180     0.0005826    0.0002737 
   0.011152776     0.9797283   -0.0605014     0.0008745    0.0001350    -0.0002385   -0.0000314     0.0002256    0.0003477 
   0.011252801     0.9689794   -0.0469091    -0.0008278   -0.0003782    -0.0000550    0.0003818     0.0001873    0.0005628 
   0.011352826     0.9830764   -0.0508589     0.0016428   -0.0001050    -0.0004190   -0.0001525     0.0003993    0.0001541 
   0.011452851     0.9797844   -0.0560297    -0.0025869   -0.0001242    -0.0001084   -0.0000384     0.0003743    0.0003916 
   0.011552876     0.9761770   -0.0561492    -0.0003576   -0.0000323     0.0001871    0.0000483     0.0004955   -0.0000406 
   0.011652901     0.9727407   -0.0738710    -0.0001782   -0.0002106     0.0001069    0.0000088     0.0002902    0.0005563 
   0.011752926     0.9610697   -0.0592103    -0.0001203   -0.0011426     0.0001732    0.0003905     0.0008387    0.0001520 
   0.011852951     0.9904731   -0.0636066     0.0002525    0.0006068     0.0000268    0.0001740     0.0001370   -0.0000664 
   0.011952976     0.9637335   -0.0525638     0.0004726   -0.0012378     0.0000712   -0.0001254     0.0002341    0.0002308 
   0.012053002     0.9846248   -0.0509148    -0.0010446    0.0001625     0.0000469    0.0002575     0.0005546    0.0001257 
   0.012153027     0.9799322   -0.0587478    -0.0005656   -0.0006550     0.0000370   -0.0000857     0.0007070    0.0000788 
   0.012253052     0.9576271   -0.0671737    -0.0007032    0.0005000     0.0000953   -0.0002496     0.0007127    0.0004277 
   0.012353077     0.9717961   -0.0489888    -0.0004638    0.0007290     0.0003116    0.0000104     0.0001968    0.0001888 
   0.012453102     0.9861943   -0.0651077    -0.0003296   -0.0011749    -0.0003064   -0.0000388     0.0002462    0.0002611 
   0.012553127     0.9862240   -0.0816920     0.0001155   -0.0020488     0.0000043   -0.0004181     0.0005867   -0.0002550 
   0.012653152     0.9808869   -0.0406538    -0.0000747   -0.0001060     0.0001784   -0.0001524     0.0001856   -0.0000040 
   0.012753177     0.9753335   -0.0601389     0.0017624   -0.0007363    -0.0004099    0.0001588    -0.0000048    0.0001745 
   0.012853202     0.9642859   -0.0495007    -0.0004536    0.0004859     0.0002407    0.0001887     0.0003660    0.0007905 
   0.012953227     0.9815323   -0.0568910     0.0013611    0.0008697     0.0000598   -0.0001790     0.0005047    0.0003045 
   0.013053252     0.9759803   -0.0722504    -0.0002471    0.0002085     0.0002572   -0.0000418     0.0007636    0.0001879 
   0.013153277     0.9661235   -0.0587163     0.0006344   -0.0008403    -0.0003716    0.0000998    -0.0001085    0.0001019 
   0.013253302     0.9736505   -0.0577025    -0.0003090    0.0011774    -0.0000699    0.0001061     0.0005375   -0.0001615 
   0.013353327     0.9748780   -0.0604935     0.0006125   -0.0003320    -0.0000195    0.0001000     0.0003040    0.0001917 
   0.013453352     0.9597570   -0.0556244    -0.0006399   -0.0011826    -0.0001264    0.0001834     0.0003701   -0.0003432 
   0.013553377     0.9561849   -0.0631569     0.0000172   -0.0008185     0.0000039   -0.0000291     0.0003053    0.0000429 
   0.013653402     0.9714663   -0.0632566     0.0008428   -0.0000600     0.0002880    0.0001626     0.0004382    0.0002251 
   0.013753427     0.9673707   -0.0607039    -0.0000704   -0.0006331     0.0001439    0.0000899    -0.0001193    0.0001434 
   0.013853452     0.9981236   -0.0654534     0.0015274    0.0006596    -0.0002560   -0.0001904     0.0001419    0.0000391 
   0.013953477     0.9687310   -0.0506720    -0.0006546    0.0005044    -0.0005709   -0.0002778     0.0002143    0.0005308 
   0.014053502     0.9872118   -0.0622169    -0.0003505   -0.0011384     0.0001567   -0.0000619    -0.0000127   -0.0000756 
   0.014153527     0.9715316   -0.0659843    -0.0006520   -0.0008028    -0.0000410    0.0001916     0.0006888    0.0001392 
   0.014253552     0.9789524   -0.0667166    -0.0001119    0.0001915     0.0001048    0.0003438     0.0008059   -0.0002893 
   0.014353577     0.9686828   -0.0656400    -0.0007280   -0.0010229     0.0002162   -0.0003168     0.0006568   -0.0001213 
   0.014453602     0.9695865   -0.0624097     0.0001077   -0.0017468     0.0000033    0.0001480    -0.0000242   -0.0000267 
   0.014553627     0.9681566   -0.0573377     0.0006437    0.0010910     0.0005447    0.0001980     0.0003548   -0.0000656 
   0.014653652     0.9677997   -0.0638582     0.0007502    0.0000824    -0.0002205    0.0001669     0.0004296   -0.0004358 
   0.014753677     0.9675356   -0.0655285     0.0017479   -0.0001829     0.0000439   -0.0003237     0.0004015   -0.0000969 
   0.014853702     0.9727264   -0.0613305    -0.0007747   -0.0003897    -0.0000151    0.0000216     0.0005376    0.0002248 
   0.014953727     0.9679300   -0.0957446     0.0000573    0.0000044     0.0000069    0.0001813     0.0006953    0.0002822 
   0.015053752     0.9738480   -0.0756557    -0.0008501    0.0001314     0.0000505    0.0002214     0.0005532    0.0000945 
   0.015153777     0.9911800   -0.0603916    -0.0000064    0.0003890     0.0001729    0.0002567     0.0003884    0.0001989 
   0.015253802     0.9764965   -0.0536717    -0.0001362    0.0010494     0.0000336   -0.0000148     0.0001612    0.0001534 
   0.015353827     0.9809911   -0.0767399     0.0009395    0.0010124    -0.0000365    0.0002265     0.0009044    0.0001904 
   0.015453852     0.9734183   -0.0628306    -0.0003001   -0.0011066     0.0004440   -0.0003189     0.0005004    0.0004508 
   0.015553877     0.9728929   -0.0745520     0.0003109    0.0003203    -0.0003067    0.0002760     0.0005663    0.0002398 
   0.015653902     0.9812534   -0.0683867     0.0008381    0.0010639    -0.0000189    0.0001835     0.0004666    0.0002546 
