! 26-Feb-26 10:54:07 AM
! E:\VNA_MEASUREMENTS\SPDT1_OPENSHORT\SPDTSHORTRF2_0.S2P
! CHANNEL.1
! TR.MEASUREMENT
! CORRECTED.DATA
# GHZ S RI R 50.0
! FREQ.GHZ         S11RE         S11IM         S21RE         S21IM         S12RE         S12IM         S22RE         S22IM         
!; PortSelection: Port_12
   0.000050000    -0.2659270   -1.1066600     0.1429274    0.5054357    -0.0023119    0.0071743    -0.0275106    0.0199849 
   0.000150025    -0.1507235    0.1184275     0.2528234    0.0580991     0.0004444    0.0008390     0.0000487   -0.0017742 
   0.000250050    -0.0887456   -0.0743913     0.0577299   -0.1544832    -0.0002427   -0.0002023     0.0005497   -0.0028690 
   0.000350075     0.9773818   -0.0450743    -0.0014528   -0.0093270    -0.0006888   -0.0000493    -0.0010676    0.0000264 
   0.000450100     1.0431210   -0.0044774    -0.0017542   -0.0104226     0.0008203    0.0004523     0.0001688   -0.0000013 
   0.000550125     1.0224520   -0.0331469    -0.0052641   -0.0099154     0.0002299    0.0001696     0.0007455   -0.0002162 
   0.000650150     0.9705818   -0.0510835    -0.0050820   -0.0081055    -0.0000118    0.0020285     0.0000898   -0.0012898 
   0.000750175     1.0104380   -0.0529472    -0.0076679   -0.0102899     0.0003195   -0.0001089    -0.0000174    0.0005852 
   0.000850200     1.0269150   -0.0681847    -0.0085248   -0.0055462     0.0000413    0.0009435    -0.0003242   -0.0000945 
   0.000950225     1.0576050   -0.0632904    -0.0080067   -0.0093335    -0.0000625    0.0002774     0.0009414    0.0015690 
   0.001050250     1.0157720   -0.0284277    -0.0097183   -0.0023865    -0.0004794   -0.0004538     0.0000957    0.0004430 
   0.001150275     1.0127350   -0.0700250    -0.0103668   -0.0009519     0.0004307   -0.0006240     0.0004626    0.0001164 
   0.001250300     1.0039950   -0.0581296    -0.0134208   -0.0012041    -0.0005993   -0.0001303    -0.0003745    0.0004423 
   0.001350325     1.0275380   -0.0912575    -0.0089542    0.0003145    -0.0011084   -0.0011927    -0.0009803    0.0004845 
   0.001450350     0.9772491   -0.0358277    -0.0095361    0.0009237    -0.0001821    0.0001770    -0.0001223    0.0000749 
   0.001550375     0.9719889   -0.0800269    -0.0120233   -0.0006110    -0.0010756   -0.0000433     0.0002432   -0.0009009 
   0.001650400     1.0089280   -0.0381889    -0.0086028   -0.0039199     0.0001733   -0.0010369    -0.0004931    0.0000504 
   0.001750425     0.9973773   -0.0774567    -0.0081899    0.0000685    -0.0003781    0.0000177     0.0003105    0.0001022 
   0.001850450     0.9667589   -0.0461872    -0.0088548   -0.0000574    -0.0003063    0.0000263     0.0001509   -0.0005167 
   0.001950475     1.0116180   -0.0116454    -0.0074459   -0.0020837     0.0001695   -0.0009796     0.0010128   -0.0007999 
   0.002050500     0.9776702   -0.0370628    -0.0069278    0.0021050    -0.0005179    0.0002247     0.0007163    0.0009351 
   0.002150525     1.0169980   -0.0607206    -0.0040006    0.0008360     0.0004751    0.0004176     0.0008676    0.0004249 
   0.002250550     0.9680278   -0.0379017    -0.0027704    0.0024165    -0.0006409    0.0001352    -0.0010072   -0.0005551 
   0.002350575     0.9772590   -0.1170206    -0.0030084   -0.0005562     0.0004233    0.0002856     0.0007221   -0.0005650 
   0.002450600     0.9910987   -0.1083020    -0.0041847    0.0001553     0.0003355    0.0010582     0.0003772   -0.0002180 
   0.002550625     1.0011240   -0.0582794    -0.0050824    0.0033651     0.0004351   -0.0015685    -0.0001400    0.0004686 
   0.002650650     1.0417030   -0.0498066    -0.0038095   -0.0004002    -0.0006009    0.0008756     0.0000549   -0.0001084 
   0.002750675     0.9919799   -0.0274164    -0.0027262    0.0036336    -0.0003041    0.0006781     0.0000188    0.0006011 
   0.002850700     1.0118230   -0.0707887    -0.0009035    0.0003204     0.0000442    0.0006388    -0.0001410    0.0001742 
   0.002950725     0.9585167   -0.1057019    -0.0036491    0.0007834     0.0007328   -0.0004686     0.0005776   -0.0001835 
   0.003050750     0.9961730   -0.0867726    -0.0006835    0.0023419    -0.0000332   -0.0003654    -0.0004158   -0.0003337 
   0.003150775     0.9833987   -0.1465496    -0.0018619    0.0049011     0.0001201    0.0003661     0.0003075    0.0002315 
   0.003250800     0.9714429   -0.0916944    -0.0009571    0.0017490     0.0001140   -0.0002566    -0.0002419    0.0003136 
   0.003350825     0.9647136   -0.0860314    -0.0009601    0.0012275     0.0005859    0.0007223     0.0002067    0.0008335 
   0.003450850     0.9618179   -0.1482475     0.0019201    0.0049850    -0.0002841   -0.0003997    -0.0000563   -0.0007810 
   0.003550875     0.9699180   -0.1147029     0.0006174    0.0019702    -0.0003723   -0.0008415     0.0001132    0.0003143 
   0.003650900     0.9754001   -0.1099685    -0.0029252    0.0031933     0.0000636   -0.0002271    -0.0000328    0.0000830 
   0.003750925     1.0009130   -0.1267226    -0.0010404    0.0015697     0.0001875   -0.0001233     0.0003541    0.0001186 
   0.003850950     0.9782981   -0.1308189    -0.0002161    0.0018076     0.0001996    0.0001451     0.0001153    0.0004897 
   0.003950975     0.9972817   -0.1204026    -0.0020464    0.0030195     0.0005489   -0.0002910     0.0000874   -0.0000515 
   0.004051001     0.9649329   -0.1828971    -0.0015918    0.0018376     0.0002566   -0.0002014     0.0005012    0.0002410 
   0.004151026     1.0178880   -0.1349497    -0.0021293    0.0023720    -0.0003674    0.0000909    -0.0001104   -0.0004981 
   0.004251051     0.9923170   -0.1478719    -0.0008866    0.0004046     0.0003563   -0.0000737    -0.0001320    0.0000746 
   0.004351076     0.9757424   -0.0930770    -0.0033139    0.0018670    -0.0001830   -0.0002465     0.0005458    0.0006340 
   0.004451101     1.0135760   -0.1667684     0.0005233    0.0031408    -0.0003702   -0.0001518     0.0005630   -0.0004295 
   0.004551126     0.9764442   -0.1450610     0.0002687    0.0002293     0.0000543    0.0001519     0.0001254    0.0004452 
   0.004651151     0.9844850   -0.1599606    -0.0007710   -0.0001666     0.0001277    0.0004341     0.0009608    0.0005896 
   0.004751176     0.9680680   -0.1503879    -0.0004933    0.0022511    -0.0003877   -0.0007271     0.0003521   -0.0005345 
   0.004851201     0.9682602   -0.1706637     0.0014131    0.0015597     0.0002456   -0.0004269     0.0005785    0.0010026 
   0.004951226     0.9719531   -0.1462348     0.0003017    0.0016994     0.0001428    0.0001307     0.0002449   -0.0004421 
   0.005051251     1.0058290   -0.1840838    -0.0012225    0.0024505    -0.0005657    0.0003843     0.0004577    0.0002857 
   0.005151276     0.9581951   -0.1433773     0.0019549    0.0016029     0.0002595   -0.0000086     0.0005138   -0.0002094 
   0.005251301     0.9662474   -0.1892757    -0.0002552    0.0006222    -0.0000564    0.0002970     0.0010474    0.0005760 
   0.005351326     0.9596373   -0.1511451    -0.0015213   -0.0004655    -0.0002335   -0.0000022     0.0008747    0.0007228 
   0.005451351     0.9738517   -0.1802642     0.0002364    0.0005783    -0.0005019   -0.0003074     0.0004731    0.0002372 
   0.005551376     0.9683110   -0.1971088    -0.0006973    0.0003276     0.0002208    0.0000196     0.0006825   -0.0002376 
   0.005651401     0.9923020   -0.1759333    -0.0002859   -0.0011550     0.0004358   -0.0001118    -0.0000822   -0.0004389 
   0.005751426     0.9756941   -0.1879078     0.0001233    0.0011354     0.0000588   -0.0001896     0.0004277   -0.0001113 
   0.005851451     0.9473343   -0.2092963    -0.0011839    0.0012637    -0.0002128    0.0001317    -0.0002558   -0.0002449 
   0.005951476     0.9592920   -0.1819400    -0.0010081   -0.0007348     0.0002889    0.0000817     0.0006049    0.0002883 
   0.006051501     0.9822386   -0.1929904    -0.0008135    0.0032027    -0.0001814   -0.0000930    -0.0003602    0.0004251 
   0.006151526     0.9535832   -0.2223218     0.0002089    0.0004817     0.0006521    0.0000113     0.0006407    0.0000018 
   0.006251551     0.9846392   -0.1832132    -0.0019426    0.0010752    -0.0002409   -0.0000935     0.0003534    0.0006250 
   0.006351576     0.9664522   -0.2311323     0.0009287    0.0006669     0.0004014    0.0000733    -0.0001763   -0.0001685 
   0.006451601     0.9548342   -0.2069362    -0.0003170   -0.0004878    -0.0000140    0.0001070     0.0002759    0.0008456 
   0.006551626     0.9561412   -0.2359971    -0.0002952    0.0026238     0.0001965   -0.0001858    -0.0004741    0.0000065 
   0.006651651     0.9567143   -0.2073900    -0.0004028   -0.0005419     0.0001002    0.0001572     0.0001672    0.0003083 
   0.006751676     0.9418926   -0.2401262     0.0000421   -0.0000404    -0.0003219    0.0001258     0.0008428    0.0004245 
   0.006851701     0.9637637   -0.2363409     0.0004092    0.0010693     0.0002442   -0.0001103     0.0002676   -0.0001980 
   0.006951726     0.9412984   -0.2401093     0.0002232    0.0014839     0.0000659   -0.0002517     0.0007902    0.0007578 
   0.007051751     0.9567934   -0.2334479    -0.0007975    0.0014103    -0.0002792    0.0003395     0.0002038   -0.0003223 
   0.007151776     0.9285526   -0.2333599    -0.0010821   -0.0001755     0.0003310    0.0001392     0.0008287    0.0001862 
   0.007251801     0.9559379   -0.2235875    -0.0007094    0.0009942     0.0000318    0.0000198    -0.0000993   -0.0001476 
   0.007351826     0.9617934   -0.2491149    -0.0008571    0.0001900    -0.0000713    0.0002704     0.0005694    0.0003498 
   0.007451851     0.9400815   -0.2310469     0.0008048    0.0005606     0.0000734    0.0001482     0.0011057    0.0001768 
   0.007551876     0.9659165   -0.2357649    -0.0014343    0.0003828     0.0003497    0.0002578     0.0003226   -0.0002433 
   0.007651901     0.9488581   -0.2670721    -0.0011150   -0.0016761    -0.0003163   -0.0000197    -0.0002608    0.0002523 
   0.007751926     0.9492714   -0.2457662    -0.0015625   -0.0004231     0.0004551    0.0002600     0.0002205   -0.0007000 
   0.007851951     0.9442743   -0.2389152    -0.0000243    0.0000534     0.0007801   -0.0001311     0.0001663   -0.0001092 
   0.007951976     0.9377831   -0.2581965    -0.0002679    0.0001830     0.0001307   -0.0001476     0.0006065    0.0002217 
   0.008052001     0.9621775   -0.2583278    -0.0007017   -0.0006727     0.0002152    0.0001976     0.0004424    0.0003655 
   0.008152026     0.9524858   -0.2633319     0.0001833   -0.0000558    -0.0000823   -0.0003664     0.0003284    0.0001328 
   0.008252051     0.9444742   -0.2544146     0.0016193   -0.0002518    -0.0003206   -0.0001740     0.0009992    0.0003424 
   0.008352076     0.9463764   -0.2884017    -0.0000397    0.0000203     0.0000145   -0.0000207     0.0007098    0.0003331 
   0.008452101     0.9622635   -0.2780057     0.0002735    0.0009909     0.0000122   -0.0001518    -0.0001318   -0.0000330 
   0.008552126     0.9522847   -0.2978872    -0.0013513   -0.0003977     0.0003439    0.0001088     0.0004612    0.0002412 
   0.008652151     0.9515168   -0.2717465    -0.0014792    0.0000413    -0.0001974    0.0003225     0.0002817    0.0002593 
   0.008752176     0.9671142   -0.2499031     0.0001196    0.0001204     0.0001167   -0.0001612    -0.0003099    0.0000056 
   0.008852201     0.9341148   -0.2671365    -0.0007710   -0.0002995    -0.0005246    0.0002628     0.0004875    0.0002245 
   0.008952226     0.9641604   -0.2814927     0.0015403    0.0003159    -0.0005037    0.0001620     0.0003884   -0.0003214 
   0.009052251     0.9467838   -0.2826405     0.0004222    0.0004850     0.0000986    0.0003469     0.0010642    0.0001421 
   0.009152276     0.9487203   -0.2826858    -0.0000222    0.0001655    -0.0002025   -0.0000747     0.0008767    0.0000499 
   0.009252301     0.9373648   -0.2942638     0.0005129    0.0003141     0.0001598    0.0003757     0.0001657   -0.0002639 
   0.009352326     0.9586867   -0.2937438     0.0001102    0.0004346    -0.0002008    0.0002367     0.0001906   -0.0000531 
   0.009452351     0.9438083   -0.2980641     0.0000390    0.0006379     0.0001097   -0.0002436     0.0005376   -0.0000677 
   0.009552376     0.9458913   -0.3027906    -0.0004743    0.0004358     0.0000432    0.0000963     0.0004877    0.0003462 
   0.009652401     0.9266844   -0.3023712    -0.0007490   -0.0003536    -0.0002983   -0.0001596     0.0001195    0.0005751 
   0.009752426     0.9492107   -0.3130221    -0.0001906   -0.0000715     0.0000210    0.0001348     0.0004143    0.0003801 
   0.009852451     0.9452575   -0.3113175     0.0001082    0.0000953    -0.0001217    0.0000662     0.0002329    0.0002068 
   0.009952476     0.9397950   -0.3253459     0.0002256   -0.0001449     0.0000200    0.0002272     0.0004475    0.0005690 
   0.010052501     0.9221112   -0.3095555     0.0000142    0.0007286    -0.0001233   -0.0001247     0.0003791   -0.0000015 
   0.010152526     0.9186539   -0.3036982     0.0006999   -0.0008761    -0.0000999   -0.0001419     0.0000190    0.0003733 
   0.010252551     0.9318675   -0.3256491     0.0004015   -0.0008506    -0.0000435    0.0000286     0.0002757   -0.0000293 
   0.010352576     0.9389436   -0.3255250     0.0001830   -0.0005866     0.0000272   -0.0000276     0.0002729    0.0000893 
   0.010452601     0.9457780   -0.3140969     0.0000414   -0.0006475     0.0000619   -0.0001216     0.0004484   -0.0000130 
   0.010552626     0.9060004   -0.3346606    -0.0007190    0.0005857    -0.0000207   -0.0000314     0.0001088    0.0004513 
   0.010652651     0.9272158   -0.3410693     0.0005094   -0.0004280    -0.0001522    0.0001559     0.0004800   -0.0000678 
   0.010752676     0.9294438   -0.3321137    -0.0018855    0.0000663    -0.0000016    0.0001439     0.0003659    0.0001910 
   0.010852701     0.9365918   -0.3398983    -0.0004092   -0.0015951    -0.0000481    0.0000452     0.0001690    0.0000683 
   0.010952726     0.9222865   -0.3283560     0.0005273    0.0008066     0.0001409   -0.0000696     0.0002829   -0.0000946 
   0.011052751     0.9312714   -0.3625506    -0.0003557    0.0005954    -0.0001549    0.0001513     0.0009608    0.0001287 
   0.011152776     0.9236635   -0.3574320    -0.0006609    0.0002501     0.0001490   -0.0002679     0.0000325    0.0001428 
   0.011252801     0.9199350   -0.3549017    -0.0001056    0.0005125     0.0001930   -0.0001685     0.0001386    0.0005689 
   0.011352826     0.9322102   -0.3726880     0.0008259   -0.0001771     0.0000560   -0.0000167     0.0003018   -0.0000345 
   0.011452851     0.9049444   -0.3644657    -0.0004598   -0.0012455    -0.0001145   -0.0001298     0.0000697    0.0000247 
   0.011552876     0.9123809   -0.3700402    -0.0002392    0.0010394    -0.0001948   -0.0001984     0.0007539   -0.0001225 
   0.011652901     0.9081274   -0.3870458    -0.0005725    0.0003859    -0.0001344   -0.0001682     0.0002181    0.0005580 
   0.011752926     0.9084078   -0.3626479    -0.0006054    0.0000274    -0.0000795   -0.0003522     0.0004978    0.0001643 
   0.011852951     0.9110044   -0.3890257     0.0011089   -0.0002585     0.0002250   -0.0003331     0.0002657    0.0001030 
   0.011952976     0.9082220   -0.3788834     0.0005554    0.0010179    -0.0001176   -0.0001201     0.0000850    0.0006681 
   0.012053002     0.8877587   -0.3945726     0.0007475    0.0000402     0.0000669   -0.0002098    -0.0000335    0.0001327 
   0.012153027     0.9014434   -0.4031000     0.0010123   -0.0000878    -0.0001823    0.0004204     0.0005955   -0.0002868 
   0.012253052     0.8975815   -0.3875030     0.0009226    0.0000080    -0.0002504   -0.0002179     0.0009260    0.0003846 
   0.012353077     0.9111438   -0.3912499     0.0010042    0.0003766     0.0002496   -0.0000674     0.0003909    0.0002856 
   0.012453102     0.9005887   -0.3956392    -0.0002552    0.0001754    -0.0000160   -0.0000022     0.0006057   -0.0000488 
   0.012553127     0.8853085   -0.4100030    -0.0002704    0.0000171     0.0001711   -0.0002606     0.0002564   -0.0001567 
   0.012653152     0.9106872   -0.3870022     0.0000827    0.0003158     0.0002211   -0.0000864     0.0005220    0.0002593 
   0.012753177     0.9066690   -0.3985532    -0.0001233   -0.0012458    -0.0000997   -0.0000569     0.0001149   -0.0000482 
   0.012853202     0.8986467   -0.3971973    -0.0009172    0.0015009     0.0001374   -0.0000373     0.0004098    0.0000150 
   0.012953227     0.8960987   -0.4027838    -0.0002832   -0.0014389     0.0001662   -0.0002069     0.0005230    0.0004763 
   0.013053252     0.8830205   -0.4128272    -0.0006645   -0.0000141    -0.0004961    0.0000294     0.0004581    0.0004854 
   0.013153277     0.8826127   -0.4109977     0.0005859    0.0001570    -0.0001675   -0.0000493     0.0003309    0.0001842 
   0.013253302     0.8787532   -0.3996974    -0.0004063    0.0003337    -0.0000886   -0.0002934     0.0003920   -0.0001131 
   0.013353327     0.8863127   -0.4017754    -0.0004156   -0.0001084    -0.0000183   -0.0000418     0.0004058    0.0000444 
   0.013453352     0.9004012   -0.4097332    -0.0002161   -0.0005142     0.0000561    0.0000932     0.0004199    0.0000787 
   0.013553377     0.8696091   -0.4176095    -0.0000967    0.0003280    -0.0000466   -0.0000416     0.0005021    0.0000708 
   0.013653402     0.8781695   -0.4229135     0.0003699    0.0005139    -0.0003750   -0.0000686     0.0005416    0.0001921 
   0.013753427     0.8865435   -0.4263067    -0.0007365    0.0001953     0.0001984   -0.0002400     0.0005749    0.0004726 
   0.013853452     0.8792475   -0.4441047    -0.0004552    0.0002948     0.0001244   -0.0001560     0.0003446    0.0000127 
   0.013953477     0.8659661   -0.4168881     0.0001632    0.0000033     0.0000770   -0.0000442     0.0004028    0.0000102 
   0.014053502     0.8893184   -0.4416158    -0.0009937    0.0004076    -0.0000419   -0.0002275    -0.0000171    0.0001429 
   0.014153527     0.8777741   -0.4460604    -0.0013270   -0.0002259     0.0000446   -0.0001937     0.0003985    0.0003951 
   0.014253552     0.8790845   -0.4287670    -0.0006061   -0.0001582     0.0000556   -0.0001455     0.0005814    0.0000385 
   0.014353577     0.8702452   -0.4476252    -0.0008324   -0.0001116    -0.0000928    0.0002731     0.0006166    0.0001815 
   0.014453602     0.8583608   -0.4389665    -0.0009251   -0.0000285    -0.0002388   -0.0000174     0.0002067    0.0000892 
   0.014553627     0.8629419   -0.4444711     0.0006290    0.0002114     0.0000071   -0.0001065     0.0005586    0.0001153 
   0.014653652     0.8822873   -0.4440137     0.0005843    0.0002172    -0.0000685    0.0000233     0.0006969    0.0000725 
   0.014753677     0.8626350   -0.4455527     0.0005938   -0.0006615     0.0003171    0.0000209     0.0005932    0.0001711 
   0.014853702     0.8659151   -0.4523066     0.0000455   -0.0002951     0.0000315    0.0000163     0.0001251    0.0005498 
   0.014953727     0.8635567   -0.4702372     0.0000096    0.0002773    -0.0002061    0.0002421     0.0004921    0.0005468 
   0.015053752     0.8631079   -0.4534271    -0.0005003    0.0001909     0.0001562   -0.0002009     0.0004457    0.0002433 
   0.015153777     0.8665287   -0.4663039     0.0005738    0.0000060    -0.0002068   -0.0000390     0.0006348   -0.0002660 
   0.015253802     0.8597665   -0.4655106     0.0002168   -0.0004438     0.0000300    0.0000526     0.0003840   -0.0003713 
   0.015353827     0.8554478   -0.4712240    -0.0001551    0.0001333    -0.0003705    0.0001064     0.0009517    0.0001944 
   0.015453852     0.8525456   -0.4756883     0.0000784   -0.0005838    -0.0002885   -0.0002886     0.0005201    0.0002349 
   0.015553877     0.8572625   -0.4754778    -0.0002758   -0.0001874     0.0002307   -0.0001928     0.0004215    0.0006011 
   0.015653902     0.8463610   -0.4708189     0.0000291   -0.0003696     0.0000203   -0.0000349     0.0001225    0.0001406 
