! 26-Feb-26 10:56:15 AM
! E:\VNA_MEASUREMENTS\SPDT1_OPENSHORT\SPDTSHORTRF2_1.S2P
! CHANNEL.1
! TR.MEASUREMENT
! CORRECTED.DATA
# GHZ S RI R 50.0
! FREQ.GHZ         S11RE         S11IM         S21RE         S21IM         S12RE         S12IM         S22RE         S22IM         
!; PortSelection: Port_12
   0.000050000     0.9854455    0.5020847     1.6236890   -0.0251654    -0.0049439   -0.0005388    -0.0376956    0.0213954 
   0.000150025     0.1373872    0.9175152    -1.5134550   -0.6867490     0.0003050   -0.0004366    -0.0011706   -0.0042011 
   0.000250050     0.2861807    0.1642370     0.2759992   -0.0386221     0.0005149   -0.0002668     0.0018899   -0.0018460 
   0.000350075     0.9868225   -0.0379975     0.0012343   -0.0137821     0.0004073   -0.0010038    -0.0013600   -0.0021716 
   0.000450100     0.9696709   -0.0458894    -0.0031231   -0.0050343     0.0005944    0.0000000     0.0000422   -0.0032385 
   0.000550125     0.9931653   -0.0072806    -0.0016774   -0.0076260    -0.0006982    0.0003684     0.0006972    0.0006235 
   0.000650150     1.0065760    0.0029130    -0.0029911   -0.0098926    -0.0012801    0.0011824     0.0009376   -0.0019974 
   0.000750175     0.9536322   -0.0807434    -0.0021992   -0.0090863    -0.0007766   -0.0006734    -0.0007131   -0.0001865 
   0.000850200     0.9639257   -0.1165596    -0.0078039   -0.0072562     0.0006156    0.0001158    -0.0008157   -0.0017752 
   0.000950225     0.9863714   -0.0387222    -0.0103216   -0.0087628    -0.0007684    0.0002280     0.0003855    0.0006478 
   0.001050250     0.9933425   -0.0399650    -0.0057465   -0.0045067    -0.0002504   -0.0003938    -0.0000057   -0.0006627 
   0.001150275     1.0179630   -0.0674989    -0.0090834   -0.0030101     0.0002124   -0.0004030     0.0011667    0.0003610 
   0.001250300     0.9773564   -0.0559366    -0.0096215   -0.0015216     0.0005960   -0.0004860     0.0009916    0.0000934 
   0.001350325     0.9849241   -0.0695120    -0.0114773   -0.0002581     0.0001410   -0.0013209    -0.0000678    0.0000958 
   0.001450350     0.9776769   -0.0483476    -0.0099624   -0.0013153     0.0003223   -0.0008825     0.0002703    0.0004216 
   0.001550375     0.9537717   -0.0542745    -0.0074877   -0.0012424     0.0009418   -0.0004572     0.0003420   -0.0002228 
   0.001650400     1.0082860   -0.0168750    -0.0076534   -0.0008524    -0.0006675    0.0011347    -0.0006168   -0.0003132 
   0.001750425     0.9714291   -0.0889272    -0.0093252    0.0010853    -0.0002750    0.0006093    -0.0010272    0.0006867 
   0.001850450     0.9936386   -0.0811364    -0.0061476    0.0002606     0.0008033   -0.0009277    -0.0004161    0.0001141 
   0.001950475     1.0091600   -0.0313993    -0.0074847   -0.0016828     0.0005880   -0.0001375     0.0009278   -0.0004780 
   0.002050500     0.9703791   -0.0873246    -0.0046946    0.0030169     0.0005854   -0.0002896     0.0007522   -0.0004032 
   0.002150525     1.0070460   -0.0551923    -0.0067683    0.0045678    -0.0007901   -0.0004712     0.0002697    0.0007963 
   0.002250550     0.9716893   -0.0533851    -0.0041972   -0.0014024     0.0004534   -0.0002641    -0.0007684   -0.0006258 
   0.002350575     0.9799198   -0.1352429    -0.0054152    0.0029791    -0.0007950    0.0001588     0.0002657   -0.0011325 
   0.002450600     0.9750346   -0.0704565    -0.0101812    0.0039488    -0.0001064   -0.0014464     0.0003939    0.0003986 
   0.002550625     0.9815032   -0.1153307    -0.0048562    0.0001883     0.0000194   -0.0001481    -0.0004110    0.0009354 
   0.002650650     0.9699772   -0.0848340    -0.0068421   -0.0001925     0.0008772    0.0004985    -0.0001750    0.0006400 
   0.002750675     1.0146790   -0.0363846    -0.0019071    0.0041418     0.0009186   -0.0001518    -0.0006640    0.0000742 
   0.002850700     0.9778340   -0.1105813    -0.0050941    0.0003572     0.0005242    0.0000983    -0.0001402   -0.0001520 
   0.002950725     0.9808993   -0.1162726     0.0004035    0.0032762    -0.0003201    0.0006010     0.0005655   -0.0001225 
   0.003050750     0.9871421   -0.1046930    -0.0034527    0.0011610    -0.0002555   -0.0000256     0.0002644   -0.0003845 
   0.003150775     0.9624366   -0.1084436    -0.0038485    0.0027442     0.0001044    0.0004484    -0.0007404   -0.0003136 
   0.003250800     0.9626167   -0.0639083    -0.0020077    0.0046804     0.0004686    0.0001053    -0.0002830    0.0003275 
   0.003350825     0.9940615   -0.0807960    -0.0016264   -0.0013204    -0.0009803   -0.0002703    -0.0001778   -0.0000121 
   0.003450850     0.9699520   -0.1374615    -0.0004543    0.0023617    -0.0001556    0.0004391     0.0001640   -0.0005761 
   0.003550875     0.9305754   -0.1152806    -0.0043948    0.0030735     0.0001164    0.0000538     0.0002260   -0.0006960 
   0.003650900     0.9764017   -0.1397902    -0.0047922    0.0020920     0.0004314    0.0000116     0.0005792    0.0005154 
   0.003750925     0.9803393   -0.1105451    -0.0025255    0.0036469    -0.0002950   -0.0005439    -0.0001012   -0.0008026 
   0.003850950     0.9885132   -0.1633080    -0.0012950    0.0047951     0.0001143    0.0001187    -0.0001126    0.0003402 
   0.003950975     1.0109660   -0.1048162     0.0003074    0.0015391    -0.0000547   -0.0001892     0.0000933   -0.0005083 
   0.004051001     0.9747231   -0.1807879     0.0001173    0.0019217     0.0004982    0.0003704     0.0004423    0.0003013 
   0.004151026     1.0114110   -0.1329749    -0.0002428    0.0021599     0.0005343   -0.0002366    -0.0002105    0.0002722 
   0.004251051     0.9802757   -0.1416546    -0.0011388    0.0020772    -0.0001243    0.0004965     0.0001143   -0.0001857 
   0.004351076     0.9769614   -0.1377114     0.0008468    0.0033598    -0.0004852    0.0004121     0.0009671    0.0007921 
   0.004451101     0.9990725   -0.1862515    -0.0001163    0.0021609     0.0005556    0.0001013     0.0002145   -0.0002516 
   0.004551126     0.9992239   -0.1799637     0.0008881   -0.0000334    -0.0003012    0.0000692     0.0007782    0.0002958 
   0.004651151     0.9593107   -0.1423521     0.0008000    0.0018240    -0.0002920    0.0001867     0.0002778   -0.0001813 
   0.004751176     0.9697437   -0.1748018     0.0010047    0.0012359     0.0000080    0.0000017     0.0004997   -0.0002196 
   0.004851201     0.9478503   -0.1466675    -0.0018857    0.0003915     0.0000476   -0.0004043     0.0007767    0.0009936 
   0.004951226     0.9707207   -0.1379922    -0.0027046   -0.0002823    -0.0000950    0.0001669    -0.0000699    0.0004712 
   0.005051251     1.0088820   -0.1705333     0.0006185    0.0011696    -0.0000221   -0.0000436     0.0001832   -0.0001239 
   0.005151276     0.9693274   -0.1699206    -0.0010986    0.0024040     0.0002606   -0.0001369     0.0005206   -0.0002673 
   0.005251301     0.9536431   -0.1599511    -0.0026094    0.0012823     0.0002951    0.0002870     0.0010327    0.0007858 
   0.005351326     0.9759856   -0.1472933     0.0025816   -0.0000571     0.0001645   -0.0005410     0.0006777    0.0004011 
   0.005451351     0.9887859   -0.1524900    -0.0002013   -0.0007481     0.0002069   -0.0002395     0.0007723    0.0002128 
   0.005551376     0.9627354   -0.2111534     0.0001326   -0.0001805     0.0006442    0.0001126     0.0009025   -0.0000052 
   0.005651401     0.9622329   -0.1787896    -0.0003581    0.0018354     0.0001333    0.0001675     0.0002739   -0.0005817 
   0.005751426     0.9550120   -0.1842339    -0.0008851    0.0007128     0.0002378   -0.0002857     0.0002232   -0.0000461 
   0.005851451     0.9651301   -0.2248686     0.0001360   -0.0001212     0.0004179   -0.0001098     0.0001305   -0.0002628 
   0.005951476     0.9790617   -0.2054235    -0.0004849   -0.0016046     0.0006991   -0.0001831     0.0005024    0.0006056 
   0.006051501     0.9757150   -0.1988977     0.0007973   -0.0008162     0.0000390    0.0002899    -0.0003101    0.0002092 
   0.006151526     0.9559225   -0.2010040     0.0001220   -0.0005625     0.0000930    0.0001496     0.0006240   -0.0003944 
   0.006251551     0.9646847   -0.1740666     0.0001451   -0.0011247     0.0004832   -0.0001650     0.0007097   -0.0002185 
   0.006351576     0.9661106   -0.2095031     0.0002956   -0.0001317    -0.0000222   -0.0005066     0.0001283    0.0001479 
   0.006451601     0.9589013   -0.1998961    -0.0009585   -0.0002612    -0.0003515   -0.0000539    -0.0001120    0.0005226 
   0.006551626     0.9646851   -0.2271008    -0.0007860   -0.0003436    -0.0001226   -0.0001243    -0.0005128    0.0004528 
   0.006651651     0.9533869   -0.2197038     0.0003311   -0.0003347    -0.0004633   -0.0003521     0.0002333    0.0000413 
   0.006751676     0.9525415   -0.2344654    -0.0013869   -0.0001376     0.0000904   -0.0002584     0.0007387    0.0006220 
   0.006851701     0.9592735   -0.2376759    -0.0005430    0.0010264    -0.0000393   -0.0002413     0.0002766    0.0001064 
   0.006951726     0.9415950   -0.2412481    -0.0005853   -0.0011906     0.0004584    0.0001828     0.0005206    0.0013537 
   0.007051751     0.9496875   -0.2361014     0.0006124    0.0001146    -0.0003748   -0.0001637     0.0003916    0.0000748 
   0.007151776     0.9513622   -0.2216831     0.0005022   -0.0010038     0.0002655   -0.0000888     0.0007030    0.0006280 
   0.007251801     0.9722192   -0.2217885     0.0009582    0.0008197    -0.0000577    0.0000799    -0.0002617    0.0000956 
   0.007351826     0.9652667   -0.2431631    -0.0003755   -0.0006586    -0.0000146   -0.0001747     0.0011273    0.0006947 
   0.007451851     0.9486877   -0.2523315     0.0014507   -0.0003567     0.0003368   -0.0002759     0.0006859   -0.0006044 
   0.007551876     0.9444069   -0.2477486    -0.0005067   -0.0000959    -0.0001373   -0.0000537     0.0005571   -0.0001656 
   0.007651901     0.9481605   -0.2677947     0.0008021    0.0010381    -0.0002435   -0.0000089     0.0001122   -0.0000186 
   0.007751926     0.9529389   -0.2360155    -0.0006151   -0.0000712     0.0004647    0.0006204     0.0004445   -0.0003515 
   0.007851951     0.9717375   -0.2552290    -0.0001437   -0.0002387     0.0001629    0.0001370     0.0003658    0.0006318 
   0.007951976     0.9569208   -0.2755107    -0.0003654    0.0002896     0.0000560   -0.0002744     0.0000594    0.0000512 
   0.008052001     0.9605905   -0.2610441     0.0002551   -0.0010300     0.0001765    0.0001602     0.0003356    0.0004266 
   0.008152026     0.9541295   -0.2919650    -0.0016437   -0.0005344     0.0000023    0.0004115     0.0007135   -0.0000148 
   0.008252051     0.9461791   -0.2518105    -0.0001219    0.0011929     0.0004083   -0.0000727     0.0007259    0.0003287 
   0.008352076     0.9691443   -0.2723106    -0.0014442    0.0001986    -0.0001155    0.0001198     0.0008250   -0.0002213 
   0.008452101     0.9618705   -0.2723905    -0.0011646    0.0018627    -0.0002940    0.0000635     0.0001498   -0.0002423 
   0.008552126     0.9508759   -0.2816964     0.0003326   -0.0001046    -0.0000961   -0.0001921     0.0002274    0.0007620 
   0.008652151     0.9487112   -0.2822458    -0.0002947   -0.0010912     0.0003398    0.0000038     0.0002975   -0.0001904 
   0.008752176     0.9482911   -0.2595843     0.0003468   -0.0003261     0.0000651   -0.0001716     0.0004467   -0.0004902 
   0.008852201     0.9382223   -0.2557809     0.0006946    0.0018058     0.0002275    0.0000811     0.0003817    0.0003133 
   0.008952226     0.9544124   -0.2786674    -0.0008117   -0.0009769    -0.0000675    0.0000046     0.0002338   -0.0005803 
   0.009052251     0.9474605   -0.2912696    -0.0004812   -0.0001264     0.0002115   -0.0002939     0.0006597   -0.0004748 
   0.009152276     0.9742305   -0.2811052    -0.0000002   -0.0000881     0.0000659   -0.0002017     0.0004646    0.0003956 
   0.009252301     0.9538338   -0.2929731    -0.0002462    0.0000983    -0.0000286   -0.0002665     0.0002529   -0.0000922 
   0.009352326     0.9561565   -0.3060413     0.0000030   -0.0006289     0.0003372    0.0002566     0.0003013   -0.0000629 
   0.009452351     0.9398452   -0.3082859    -0.0011498   -0.0004853    -0.0001665    0.0002909     0.0002214    0.0005135 
   0.009552376     0.9481623   -0.3009541    -0.0004951    0.0001728    -0.0000499   -0.0000871     0.0003938    0.0000248 
   0.009652401     0.9291005   -0.3065044    -0.0007456   -0.0005297     0.0001324   -0.0000944    -0.0002254    0.0001384 
   0.009752426     0.9262187   -0.3078834     0.0005540   -0.0008357    -0.0001948   -0.0000155     0.0003754    0.0006057 
   0.009852451     0.9397669   -0.3269514     0.0000020    0.0017147    -0.0003400    0.0001181     0.0004151   -0.0004014 
   0.009952476     0.9260579   -0.3285374     0.0002948    0.0004946     0.0001322   -0.0001769     0.0003294    0.0002328 
   0.010052501     0.9289298   -0.3189178     0.0000718   -0.0000319    -0.0000865   -0.0000976     0.0002892    0.0001069 
   0.010152526     0.9292386   -0.3015357     0.0005631   -0.0002231    -0.0001395   -0.0003045     0.0001301    0.0002501 
   0.010252551     0.9170379   -0.3271466     0.0004499    0.0005239    -0.0001314    0.0000685    -0.0001003   -0.0002256 
   0.010352576     0.9483336   -0.3448509    -0.0012422    0.0007046     0.0001375   -0.0000608     0.0004822    0.0004803 
   0.010452601     0.9509507   -0.3056318    -0.0001049   -0.0001638     0.0001501    0.0000375     0.0003702   -0.0004171 
   0.010552626     0.9114779   -0.3315521     0.0009339    0.0009939    -0.0001581   -0.0000454     0.0003504    0.0001813 
   0.010652651     0.9337066   -0.3457686     0.0008430   -0.0002250    -0.0000229   -0.0000057     0.0005838   -0.0000094 
   0.010752676     0.9215325   -0.3589179     0.0004705   -0.0002818     0.0000071   -0.0000874     0.0003416    0.0002718 
   0.010852701     0.9389253   -0.3343598     0.0007268    0.0002731    -0.0001500   -0.0002605     0.0005022    0.0002288 
   0.010952726     0.9326824   -0.3419105     0.0010871    0.0006265    -0.0001890    0.0000567    -0.0004600    0.0000368 
   0.011052751     0.9339225   -0.3558640    -0.0004628   -0.0002713     0.0000835    0.0000843     0.0007272    0.0005939 
   0.011152776     0.9269978   -0.3459426     0.0006006   -0.0001717     0.0000828   -0.0001515    -0.0000987    0.0004293 
   0.011252801     0.9021903   -0.3552581    -0.0002105   -0.0002127    -0.0005564   -0.0000395    -0.0000133    0.0004435 
   0.011352826     0.9232582   -0.3810918     0.0005244   -0.0004106     0.0002999    0.0001080     0.0002539    0.0001484 
   0.011452851     0.9026875   -0.3620953     0.0000602    0.0001799     0.0000656   -0.0001179     0.0000735    0.0001828 
   0.011552876     0.9076592   -0.3663857    -0.0003250    0.0007530    -0.0005687   -0.0000523     0.0005828   -0.0001898 
   0.011652901     0.9001803   -0.3810431     0.0003017   -0.0005874     0.0002847   -0.0000011     0.0001955    0.0003847 
   0.011752926     0.9166421   -0.3718329    -0.0009081   -0.0001630     0.0001770   -0.0000739     0.0003236    0.0005531 
   0.011852951     0.9097801   -0.3887149     0.0000644   -0.0014447    -0.0003728    0.0000266     0.0005468    0.0001149 
   0.011952976     0.9058887   -0.3627709     0.0011253   -0.0003685    -0.0000570   -0.0001041     0.0005765    0.0005638 
   0.012053002     0.8993438   -0.4012214     0.0016719   -0.0001513     0.0000856    0.0002143     0.0002113    0.0005216 
   0.012153027     0.9059563   -0.4045655     0.0010296   -0.0002004    -0.0003045    0.0001950     0.0006641    0.0000722 
   0.012253052     0.8979984   -0.3898833     0.0004880   -0.0007150    -0.0000376    0.0000834     0.0005727    0.0000942 
   0.012353077     0.9089305   -0.3851946     0.0015671   -0.0004275     0.0001711    0.0001592     0.0001497    0.0003780 
   0.012453102     0.9058400   -0.3925882     0.0001019    0.0013671     0.0002673    0.0000144     0.0004530    0.0004360 
   0.012553127     0.8976141   -0.4156387     0.0005452   -0.0004527     0.0001404    0.0000209     0.0003767   -0.0000302 
   0.012653152     0.9162804   -0.3778518     0.0004332    0.0001346     0.0001892    0.0001132    -0.0001054   -0.0001408 
   0.012753177     0.8903538   -0.3896858    -0.0012015   -0.0001485     0.0001444    0.0001598    -0.0001049    0.0003633 
   0.012853202     0.8982708   -0.3799985    -0.0002334    0.0007775     0.0000498    0.0000120     0.0006893    0.0002248 
   0.012953227     0.9039118   -0.3992571    -0.0014375    0.0011104     0.0002210   -0.0001134     0.0007607    0.0002785 
   0.013053252     0.8799613   -0.4134676    -0.0005162   -0.0002118     0.0000021   -0.0000406     0.0004056    0.0005524 
   0.013153277     0.8895996   -0.3987306     0.0001443   -0.0004858     0.0002137    0.0000337     0.0005414    0.0000861 
   0.013253302     0.8902489   -0.3999508     0.0012249   -0.0001497     0.0001750    0.0000447     0.0003157    0.0000384 
   0.013353327     0.8930153   -0.4223226    -0.0001331   -0.0001667     0.0002292   -0.0001528     0.0003592   -0.0000690 
   0.013453352     0.8991229   -0.4073996    -0.0002601   -0.0004663     0.0000700    0.0001566     0.0004295   -0.0000906 
   0.013553377     0.8714820   -0.4112625    -0.0008428    0.0003525     0.0000155    0.0001367     0.0001071    0.0000315 
   0.013653402     0.8815745   -0.4213151     0.0001335    0.0002971     0.0001408   -0.0001068     0.0004113    0.0003189 
   0.013753427     0.8988904   -0.4341534     0.0001617    0.0007943     0.0002231   -0.0000038    -0.0000223    0.0002689 
   0.013853452     0.8867601   -0.4420354    -0.0004993    0.0004394     0.0000620   -0.0001329     0.0001732    0.0002184 
   0.013953477     0.8658416   -0.4167577    -0.0003155    0.0001283     0.0001832    0.0002509     0.0004894    0.0003840 
   0.014053502     0.8778998   -0.4425253     0.0002194    0.0002722     0.0001284    0.0001222     0.0000664    0.0000948 
   0.014153527     0.8800538   -0.4447785     0.0002023   -0.0000746    -0.0001144   -0.0003204     0.0009032    0.0001711 
   0.014253552     0.8824668   -0.4301890    -0.0000610   -0.0004942     0.0001406   -0.0001653     0.0006207   -0.0005811 
   0.014353577     0.8689606   -0.4375391    -0.0002831   -0.0001076    -0.0000697    0.0000729     0.0007821    0.0005478 
   0.014453602     0.8654926   -0.4425149    -0.0003901   -0.0006236    -0.0002337   -0.0001405     0.0002557   -0.0000047 
   0.014553627     0.8654089   -0.4527600    -0.0001637   -0.0007568    -0.0000080   -0.0000798     0.0004057    0.0004889 
   0.014653652     0.8727599   -0.4475085    -0.0003008    0.0003496     0.0001997   -0.0002586     0.0006504   -0.0001999 
   0.014753677     0.8689824   -0.4585792     0.0006124   -0.0004398     0.0000734    0.0001314     0.0005422    0.0001264 
   0.014853702     0.8721164   -0.4445871     0.0004905    0.0001937     0.0000990   -0.0000512     0.0007643    0.0004954 
   0.014953727     0.8585499   -0.4670305    -0.0012023   -0.0003158    -0.0001226    0.0000572     0.0003540    0.0004067 
   0.015053752     0.8665918   -0.4634322    -0.0004417    0.0002948     0.0000214   -0.0001410     0.0004302    0.0002952 
   0.015153777     0.8599498   -0.4657243     0.0001430   -0.0002823    -0.0000439   -0.0001111     0.0004137    0.0000807 
   0.015253802     0.8648537   -0.4613531    -0.0001650    0.0006524     0.0001242   -0.0002163     0.0002191    0.0000939 
   0.015353827     0.8594074   -0.4713320    -0.0003756    0.0006700    -0.0000186    0.0000597     0.0004778    0.0000231 
   0.015453852     0.8663211   -0.4702552    -0.0005088   -0.0006300     0.0000544   -0.0000945     0.0007680    0.0002885 
   0.015553877     0.8556709   -0.4808832    -0.0009889   -0.0002951    -0.0002179   -0.0000530     0.0003872    0.0001637 
   0.015653902     0.8552517   -0.4794762     0.0004366   -0.0000741     0.0000840    0.0000081     0.0000507   -0.0000513 
