! 26-Feb-26 10:58:21 AM
! E:\VNA_MEASUREMENTS\SPDT1_OPENSHORT\SPDTSHORTRF2_2.S2P
! CHANNEL.1
! TR.MEASUREMENT
! CORRECTED.DATA
# GHZ S RI R 50.0
! FREQ.GHZ         S11RE         S11IM         S21RE         S21IM         S12RE         S12IM         S22RE         S22IM         
!; PortSelection: Port_12
   0.000050000     0.7106791    0.3554873     0.1376446    0.0250966     0.0001757   -0.0042174    -0.0227108    0.0366655 
   0.000150025     0.1472796    0.2126156    -0.0382641    0.8621132    -0.0007394    0.0000598     0.0023413   -0.0042930 
   0.000250050     0.0693831    0.0946196     0.0795203   -0.0041778    -0.0010159   -0.0010145    -0.0002701   -0.0024914 
   0.000350075     0.9335462   -0.0323776    -0.0014297   -0.0097935     0.0003734    0.0004126    -0.0010521   -0.0007335 
   0.000450100     0.9581310   -0.0434573    -0.0012769   -0.0087801     0.0002680    0.0005070    -0.0002105   -0.0018569 
   0.000550125     1.0177390   -0.0292258    -0.0030666   -0.0084395    -0.0010307   -0.0003712     0.0008209    0.0010194 
   0.000650150     0.9693878   -0.0085523    -0.0065374   -0.0114840     0.0000447   -0.0009946    -0.0000612   -0.0019464 
   0.000750175     0.9895327   -0.0824674    -0.0066774   -0.0082246    -0.0010560    0.0008663    -0.0011576    0.0003062 
   0.000850200     1.0213150   -0.0899174    -0.0112398   -0.0102512    -0.0004621    0.0000402    -0.0012482   -0.0004723 
   0.000950225     1.0295140   -0.0214976    -0.0113445   -0.0060616    -0.0008579   -0.0002297    -0.0003829    0.0002824 
   0.001050250     1.0399300   -0.0566103    -0.0102247   -0.0060581     0.0002311    0.0004762     0.0003341    0.0002051 
   0.001150275     0.9846874    0.0020493    -0.0110723   -0.0078202    -0.0002351   -0.0005813     0.0000285    0.0009939 
   0.001250300     0.9555190   -0.0524302    -0.0099952   -0.0039989     0.0002238    0.0001213     0.0006779    0.0009393 
   0.001350325     1.0087860   -0.0945910    -0.0074686   -0.0019107    -0.0007855   -0.0000200    -0.0007587    0.0004807 
   0.001450350     0.9988570   -0.0341422    -0.0063136   -0.0045461     0.0003721   -0.0000054     0.0005874    0.0005962 
   0.001550375     0.9928284   -0.1094863    -0.0107251    0.0013263     0.0004044   -0.0001542     0.0006023    0.0006218 
   0.001650400     1.0145660   -0.0117518    -0.0094075    0.0004706    -0.0001764    0.0011243    -0.0002382   -0.0007241 
   0.001750425     0.9798048   -0.0498454    -0.0085057    0.0023948     0.0001826    0.0003060     0.0010306    0.0001354 
   0.001850450     0.9383421   -0.0513194    -0.0091458   -0.0011202    -0.0004326   -0.0000334    -0.0001619    0.0010786 
   0.001950475     1.0170230   -0.0076051    -0.0101252    0.0047858    -0.0009688    0.0002820     0.0010714   -0.0003474 
   0.002050500     0.9847828   -0.0571031    -0.0085807    0.0029754    -0.0001483   -0.0001721     0.0005460   -0.0001655 
   0.002150525     0.9860353   -0.0589644    -0.0052029    0.0062273     0.0001888    0.0000469     0.0006052    0.0002284 
   0.002250550     0.9652926   -0.0805146    -0.0069845   -0.0001111    -0.0003619   -0.0005150    -0.0008507   -0.0006083 
   0.002350575     0.9539753   -0.1179462    -0.0024440    0.0029605     0.0007166    0.0005178     0.0003159   -0.0004227 
   0.002450600     1.0254470   -0.0620336    -0.0041302    0.0014367    -0.0000456   -0.0003745    -0.0004195    0.0005012 
   0.002550625     0.9795866   -0.0873919    -0.0027430    0.0041260    -0.0002651   -0.0003488    -0.0000038   -0.0002985 
   0.002650650     1.0398760   -0.0403198    -0.0034912    0.0072019    -0.0001319    0.0000703     0.0001773    0.0012245 
   0.002750675     1.0282270   -0.0349997    -0.0032654    0.0050610     0.0000561   -0.0002144    -0.0002988    0.0005062 
   0.002850700     0.9918439   -0.0769026    -0.0048581    0.0032013    -0.0005596    0.0004263    -0.0002824   -0.0003622 
   0.002950725     0.9586402   -0.0799312    -0.0040512    0.0014144    -0.0010684    0.0002593     0.0002298    0.0001785 
   0.003050750     0.9747785   -0.0649275    -0.0033013    0.0037595     0.0003028    0.0004684    -0.0000808   -0.0007249 
   0.003150775     0.9602950   -0.1254920    -0.0012145    0.0027436     0.0001047   -0.0002730     0.0000659    0.0003215 
   0.003250800     0.9851725   -0.0881295    -0.0005874    0.0058450    -0.0001573    0.0000274     0.0001631   -0.0003250 
   0.003350825     0.9958329   -0.0716103    -0.0018387    0.0004079    -0.0003779    0.0008426    -0.0002042    0.0006807 
   0.003450850     0.9760953   -0.1426911     0.0002335    0.0028561    -0.0000557    0.0000480     0.0006305   -0.0009797 
   0.003550875     0.9612536   -0.1146789    -0.0005198    0.0030569     0.0004269    0.0005898     0.0006926   -0.0002164 
   0.003650900     0.9815456   -0.1152679     0.0001284    0.0029968     0.0000997    0.0002358     0.0003890    0.0001826 
   0.003750925     0.9757969   -0.1687209    -0.0037696    0.0014114    -0.0000432   -0.0006842     0.0001162   -0.0003429 
   0.003850950     1.0027330   -0.1264588     0.0003570    0.0007761    -0.0001494   -0.0007373    -0.0001789    0.0003508 
   0.003950975     0.9907811   -0.0850997    -0.0010773    0.0032948     0.0005834   -0.0004283     0.0000456   -0.0005392 
   0.004051001     0.9574963   -0.1604443    -0.0026961   -0.0001236    -0.0000729    0.0000695     0.0005159    0.0001846 
   0.004151026     1.0295920   -0.1600151    -0.0011813    0.0031169    -0.0000116   -0.0002842     0.0001033   -0.0006385 
   0.004251051     0.9827001   -0.1243051    -0.0012583   -0.0020199     0.0002514    0.0000051    -0.0005372    0.0000467 
   0.004351076     0.9612036   -0.1421964     0.0017115    0.0000573     0.0002256    0.0008287     0.0009946    0.0002993 
   0.004451101     0.9907650   -0.1765023     0.0000476    0.0009951     0.0001319    0.0004986    -0.0002137   -0.0002928 
   0.004551126     0.9889207   -0.1587391     0.0020319    0.0030672    -0.0007293    0.0000756    -0.0004463    0.0002459 
   0.004651151     0.9500028   -0.1577047    -0.0008236   -0.0013768    -0.0001696   -0.0000294     0.0007215   -0.0007384 
   0.004751176     0.9915761   -0.1634164    -0.0037255   -0.0000088     0.0002384   -0.0001297     0.0000768    0.0000893 
   0.004851201     0.9547908   -0.1806998    -0.0009432   -0.0002466    -0.0001853   -0.0002706     0.0005628    0.0002045 
   0.004951226     0.9582494   -0.1399774     0.0005812   -0.0003314     0.0001826   -0.0001637     0.0000643    0.0000266 
   0.005051251     0.9817459   -0.1720760     0.0005783    0.0009658     0.0003001   -0.0002015     0.0007279   -0.0002960 
   0.005151276     0.9628519   -0.1697619    -0.0019261    0.0005862     0.0000989    0.0002236     0.0003319   -0.0005405 
   0.005251301     0.9577765   -0.1622489    -0.0012742   -0.0001866     0.0001936    0.0008532     0.0005924    0.0006392 
   0.005351326     0.9609911   -0.1503408    -0.0005403    0.0007560    -0.0001216   -0.0002684     0.0005442    0.0003044 
   0.005451351     0.9884539   -0.1802353    -0.0010359   -0.0004229    -0.0004009   -0.0000707     0.0003979    0.0001972 
   0.005551376     1.0148900   -0.1835297     0.0006444    0.0004739    -0.0002298   -0.0000113     0.0002291   -0.0000967 
   0.005651401     0.9576601   -0.1772612    -0.0019661    0.0019913     0.0004180    0.0000060    -0.0000493   -0.0005881 
   0.005751426     0.9616284   -0.1741398    -0.0007007    0.0013358    -0.0000199   -0.0007508     0.0002103   -0.0002961 
   0.005851451     0.9552754   -0.1954465    -0.0005177    0.0004234     0.0001285    0.0000801    -0.0000295   -0.0003100 
   0.005951476     0.9660738   -0.1654248    -0.0001317    0.0011998    -0.0000033    0.0000592    -0.0002752   -0.0002187 
   0.006051501     0.9782940   -0.1828824     0.0015134   -0.0010871    -0.0003421   -0.0001106    -0.0003370    0.0000734 
   0.006151526     0.9547405   -0.2081525    -0.0006473   -0.0004301    -0.0001734   -0.0003148     0.0011919    0.0004158 
   0.006251551     0.9688960   -0.1817197    -0.0002751   -0.0002085     0.0001344   -0.0000548     0.0002652    0.0003380 
   0.006351576     0.9687854   -0.2202877     0.0004384   -0.0009199     0.0004029    0.0004923    -0.0002153    0.0002892 
   0.006451601     0.9666798   -0.2299644    -0.0008872   -0.0006826     0.0004545    0.0005673    -0.0001618    0.0006262 
   0.006551626     0.9623132   -0.2128811     0.0000115    0.0019439    -0.0006130    0.0001401    -0.0003067   -0.0001582 
   0.006651651     0.9476810   -0.2125554    -0.0002830    0.0014971     0.0000110    0.0002964     0.0000939    0.0001490 
   0.006751676     0.9475424   -0.2417307     0.0000956   -0.0000488    -0.0002390   -0.0003324     0.0007713    0.0003182 
   0.006851701     0.9715091   -0.2343788    -0.0008109    0.0017809     0.0000326    0.0003626    -0.0001285    0.0000385 
   0.006951726     0.9514162   -0.2433517     0.0001244   -0.0005767     0.0001230    0.0003819     0.0003954    0.0011455 
   0.007051751     0.9531127   -0.2203535     0.0007923   -0.0017235     0.0000054   -0.0002919     0.0001704    0.0000706 
   0.007151776     0.9387243   -0.2451181    -0.0008956   -0.0005841     0.0001440    0.0001956     0.0006553    0.0002520 
   0.007251801     0.9676229   -0.2010459     0.0005487    0.0003298     0.0002519   -0.0001550     0.0000844    0.0002741 
   0.007351826     0.9559769   -0.2381872     0.0010769    0.0019823     0.0001813    0.0002554     0.0011399    0.0002462 
   0.007451851     0.9528139   -0.2382954     0.0007781    0.0009120    -0.0000663    0.0001519     0.0001454   -0.0002910 
   0.007551876     0.9471639   -0.2555454    -0.0001960   -0.0004262    -0.0000567   -0.0002622     0.0002041   -0.0001112 
   0.007651901     0.9609491   -0.2516762     0.0002610   -0.0012028     0.0001733   -0.0001230     0.0003180    0.0003104 
   0.007751926     0.9585649   -0.2438063     0.0006305    0.0009365    -0.0001994    0.0004720    -0.0000687    0.0001907 
   0.007851951     0.9399518   -0.2484650    -0.0004604    0.0007120     0.0002251    0.0001476     0.0007410   -0.0001340 
   0.007951976     0.9517952   -0.2688123     0.0002125    0.0010283    -0.0000396   -0.0003667     0.0007352    0.0002277 
   0.008052001     0.9649287   -0.2675949    -0.0012505    0.0002727     0.0000812   -0.0002730     0.0001610    0.0003755 
   0.008152026     0.9528973   -0.2757333    -0.0000283   -0.0005550     0.0003025   -0.0002306     0.0006243    0.0004364 
   0.008252051     0.9461479   -0.2609195     0.0007626    0.0000312     0.0003306   -0.0003723     0.0008907    0.0002451 
   0.008352076     0.9733304   -0.2794709     0.0005114    0.0010723     0.0000375   -0.0002122     0.0010709   -0.0001292 
   0.008452101     0.9456725   -0.2568662     0.0004508   -0.0006495    -0.0003819    0.0001266    -0.0000256   -0.0004080 
   0.008552126     0.9663460   -0.2783630    -0.0008021    0.0009428     0.0005602    0.0005839     0.0006371    0.0007482 
   0.008652151     0.9500215   -0.2716493    -0.0001870   -0.0004774     0.0001971   -0.0000058     0.0001593   -0.0000038 
   0.008752176     0.9588482   -0.2766943     0.0002782   -0.0002833     0.0000471   -0.0001740     0.0001020   -0.0003787 
   0.008852201     0.9345584   -0.2821320     0.0007166    0.0002994     0.0001103   -0.0001745     0.0004475    0.0002625 
   0.008952226     0.9520601   -0.2876160    -0.0005419    0.0004904    -0.0001416   -0.0002095     0.0005595   -0.0005785 
   0.009052251     0.9435480   -0.2940520    -0.0017493    0.0004370    -0.0001728    0.0002127     0.0006596   -0.0002890 
   0.009152276     0.9438862   -0.2838501     0.0002760    0.0001716    -0.0005013    0.0000362     0.0009440   -0.0000919 
   0.009252301     0.9410645   -0.2958442    -0.0019450    0.0007080    -0.0002188    0.0002346     0.0004997   -0.0001447 
   0.009352326     0.9536055   -0.3165753     0.0005124   -0.0000254    -0.0005446   -0.0000712     0.0003300   -0.0000888 
   0.009452351     0.9348565   -0.3011158    -0.0000811   -0.0000450     0.0000440   -0.0000359     0.0003576    0.0003665 
   0.009552376     0.9477562   -0.3132819    -0.0005042   -0.0011879     0.0002131   -0.0005638     0.0009783    0.0000665 
   0.009652401     0.9494334   -0.3084126     0.0004073    0.0001312     0.0001163   -0.0001074     0.0001632    0.0004758 
   0.009752426     0.9404945   -0.2950839     0.0004990    0.0006634    -0.0001965   -0.0000484     0.0003809    0.0003313 
   0.009852451     0.9484919   -0.3254733    -0.0000715    0.0011744     0.0001234    0.0000765     0.0001726    0.0002065 
   0.009952476     0.9277191   -0.3355128     0.0001018   -0.0001513    -0.0000522    0.0000005     0.0002421    0.0000638 
   0.010052501     0.9233304   -0.3210065     0.0011844   -0.0001059    -0.0001258    0.0001378    -0.0000927    0.0004944 
   0.010152526     0.9297435   -0.3116991    -0.0000272    0.0009519    -0.0003438   -0.0000591     0.0005662   -0.0000907 
   0.010252551     0.9256917   -0.3252454     0.0015382    0.0002566    -0.0000666    0.0003354     0.0004012    0.0000127 
   0.010352576     0.9376979   -0.3455151    -0.0003582    0.0004343    -0.0003126    0.0002084     0.0000501    0.0002455 
   0.010452601     0.9353186   -0.3322053    -0.0012791   -0.0007162    -0.0001151    0.0000447     0.0004727   -0.0001008 
   0.010552626     0.9142883   -0.3293360    -0.0004966    0.0016944    -0.0003062   -0.0001247     0.0000663    0.0003175 
   0.010652651     0.9469315   -0.3449259    -0.0000601   -0.0000015    -0.0000641    0.0001094     0.0000394   -0.0001871 
   0.010752676     0.9233935   -0.3597205     0.0000313   -0.0004540     0.0001353   -0.0001493     0.0002492    0.0002058 
   0.010852701     0.9310395   -0.3404437    -0.0007695    0.0006292    -0.0003062   -0.0000710     0.0000664    0.0004612 
   0.010952726     0.9340517   -0.3276190    -0.0001030    0.0002005     0.0003639    0.0001251    -0.0001420    0.0001403 
   0.011052751     0.9129335   -0.3645633     0.0002442   -0.0003580    -0.0000951   -0.0001916     0.0005126    0.0001745 
   0.011152776     0.9222113   -0.3394626     0.0000493    0.0004507    -0.0002439    0.0000449     0.0003558    0.0002105 
   0.011252801     0.9245371   -0.3642114    -0.0003336   -0.0008662    -0.0001936    0.0001126     0.0001771    0.0003076 
   0.011352826     0.9201107   -0.3825089    -0.0001173    0.0003055     0.0002810   -0.0001083     0.0003067    0.0002601 
   0.011452851     0.9086556   -0.3643839     0.0000033    0.0000434    -0.0001440   -0.0000429     0.0003926    0.0002569 
   0.011552876     0.8999574   -0.3685229     0.0001642   -0.0010632     0.0001806   -0.0003198     0.0002910   -0.0000377 
   0.011652901     0.9145973   -0.3793551    -0.0004343   -0.0011507    -0.0000458    0.0000221     0.0002084    0.0002465 
   0.011752926     0.8970878   -0.3731947    -0.0005725    0.0000496     0.0002622    0.0000509     0.0004684    0.0001619 
   0.011852951     0.9175300   -0.3861684    -0.0008748    0.0005596    -0.0000487    0.0000553     0.0000483    0.0001242 
   0.011952976     0.9157283   -0.3739516     0.0008452    0.0006896    -0.0001942    0.0001704     0.0002642    0.0006781 
   0.012053002     0.9049983   -0.4056487    -0.0017754   -0.0003124    -0.0004346   -0.0000756     0.0003247    0.0009077 
   0.012153027     0.9091525   -0.4041078     0.0008247    0.0012795    -0.0000748   -0.0002238     0.0005759   -0.0003915 
   0.012253052     0.8933687   -0.3905157     0.0003299    0.0002646     0.0000763   -0.0001102     0.0008558    0.0003590 
   0.012353077     0.9124777   -0.3766297     0.0005363    0.0009431     0.0001169    0.0000198     0.0001058    0.0002016 
   0.012453102     0.9027734   -0.3788771     0.0002286    0.0005621     0.0000141    0.0001536     0.0004275   -0.0001780 
   0.012553127     0.8847493   -0.4042802    -0.0001094    0.0007011    -0.0001168   -0.0000410     0.0003721   -0.0004128 
   0.012653152     0.9117669   -0.3859562    -0.0000351   -0.0004915    -0.0001026   -0.0001599    -0.0000117    0.0000949 
   0.012753177     0.9003665   -0.3995036    -0.0004404   -0.0003698    -0.0000284    0.0003808     0.0001922    0.0001240 
   0.012853202     0.8820750   -0.3937560     0.0003777   -0.0004379    -0.0001045    0.0005068     0.0007273    0.0006414 
   0.012953227     0.8957057   -0.3951603    -0.0003770    0.0003524    -0.0000885    0.0000978     0.0002776    0.0001967 
   0.013053252     0.8826935   -0.4088181    -0.0002036    0.0007506     0.0000356    0.0000162     0.0007075    0.0000280 
   0.013153277     0.8956532   -0.3998538     0.0010384   -0.0000924     0.0001285   -0.0002693     0.0004102   -0.0000842 
   0.013253302     0.8968846   -0.4000834     0.0001279    0.0000462     0.0002533    0.0000838     0.0005674   -0.0001705 
   0.013353327     0.8898224   -0.4127081    -0.0011485    0.0004574     0.0000225   -0.0000485     0.0003292    0.0002939 
   0.013453352     0.8960608   -0.3938757    -0.0004458   -0.0009614     0.0001886   -0.0001299     0.0004531    0.0002063 
   0.013553377     0.8746451   -0.4149358     0.0003089   -0.0008560     0.0001245   -0.0001815     0.0001986    0.0003212 
   0.013653402     0.8887033   -0.4214656     0.0005878    0.0003788    -0.0000731    0.0001748     0.0003399    0.0003851 
   0.013753427     0.8983014   -0.4269333     0.0005490    0.0000441     0.0000913    0.0001048     0.0006855    0.0004940 
   0.013853452     0.8870844   -0.4385135     0.0004286    0.0004866    -0.0000856    0.0002394     0.0004907   -0.0000503 
   0.013953477     0.8686918   -0.4060141     0.0003416    0.0003152    -0.0002944    0.0002331     0.0006622    0.0001964 
   0.014053502     0.8793951   -0.4471200    -0.0011002   -0.0005086    -0.0001308   -0.0001365     0.0001054   -0.0001720 
   0.014153527     0.8718418   -0.4378639    -0.0005452    0.0001821    -0.0001433    0.0001108     0.0004840    0.0000353 
   0.014253552     0.8913811   -0.4344748     0.0000366   -0.0001695    -0.0000891   -0.0000026     0.0005028   -0.0001311 
   0.014353577     0.8593411   -0.4426391    -0.0003378   -0.0001104     0.0002317    0.0001218     0.0007028    0.0001584 
   0.014453602     0.8606964   -0.4438905    -0.0000149   -0.0007206     0.0001602   -0.0001206     0.0000907    0.0002389 
   0.014553627     0.8601336   -0.4490427     0.0003058    0.0003301    -0.0001179    0.0000733     0.0003027    0.0000929 
   0.014653652     0.8669683   -0.4543039     0.0002656    0.0003738     0.0004472    0.0000632     0.0001974   -0.0001535 
   0.014753677     0.8669994   -0.4514801     0.0007642   -0.0002162     0.0004538   -0.0001108     0.0002026    0.0000534 
   0.014853702     0.8764651   -0.4520068    -0.0010012   -0.0003809     0.0001590   -0.0001334     0.0005256    0.0002184 
   0.014953727     0.8525488   -0.4644221    -0.0002768    0.0003742     0.0001807    0.0002785     0.0000677    0.0002475 
   0.015053752     0.8611321   -0.4657687     0.0008139    0.0002788     0.0000186    0.0001695     0.0004619    0.0002296 
   0.015153777     0.8655597   -0.4686021     0.0000406   -0.0003755     0.0002327   -0.0004487     0.0003300   -0.0002016 
   0.015253802     0.8572001   -0.4700459     0.0000256    0.0002213     0.0002357   -0.0003151     0.0004352   -0.0003263 
   0.015353827     0.8511354   -0.4814433    -0.0001455    0.0001775    -0.0002445    0.0001956     0.0005877   -0.0001310 
   0.015453852     0.8634806   -0.4829172     0.0003567    0.0002361    -0.0001448   -0.0003436     0.0003940    0.0001474 
   0.015553877     0.8566866   -0.4905751    -0.0001409   -0.0009870     0.0000867   -0.0000440     0.0004745    0.0001943 
   0.015653902     0.8539497   -0.4803168    -0.0000607   -0.0001402     0.0000503   -0.0002188     0.0003073    0.0003084 
