! 23-Mar-26 11:58:41 AM
! E:\UPDATEDVNAMEASUREMENTS\ANT_PATH\ANTENNA_PATH_TO_BOX_FRONT.S2P
! CHANNEL.1
! TR.MEASUREMENT
! CORRECTED.DATA
# GHZ S RI R 50.0
! FREQ.GHZ         S11RE         S11IM         S21RE         S21IM         S12RE         S12IM         S22RE         S22IM         
!; PortSelection: Port_12
   0.000050000    -0.1320370    0.1030029    -0.1852377   -0.0685038     0.0002039    0.0085018     0.9866496    0.0231075 
   0.000150025    -0.0585930    0.1099632    -0.2683659    0.0885399     0.0000723    0.0028779     0.9991072   -0.0072436 
   0.000250050    -1.1015440   -0.1950664     0.0000489   -0.0009230     0.0007272    0.0011236     1.0039100   -0.0091720 
   0.000350075     1.0376320   -0.1142122    -0.0023227   -0.0055342     0.0000281    0.0084589     0.9955570   -0.0254798 
   0.000450100     0.9826397   -0.0510229    -0.0018241    0.0022288    -0.0013130    0.0102379     0.9958827   -0.0130370 
   0.000550125     0.9523621   -0.0100825    -0.0079902   -0.0002347    -0.0020325    0.0136785     0.9940018   -0.0261431 
   0.000650150     0.9883930   -0.0511006    -0.0101956    0.0036456    -0.0010215    0.0163616     1.0012730   -0.0397031 
   0.000750175     0.9592414   -0.0528591    -0.0082441    0.0104327    -0.0009027    0.0200343     0.9968148   -0.0491205 
   0.000850200     0.9742080   -0.0834771    -0.0082435    0.0133581    -0.0016891    0.0235670     1.0056960   -0.0312862 
   0.000950225     0.9742509   -0.0133450    -0.0104352    0.0163339    -0.0024498    0.0256329     0.9888616   -0.0477836 
   0.001050250     0.9992228   -0.0598761    -0.0139586    0.0203939    -0.0032043    0.0289696     0.9980362   -0.0547032 
   0.001150275     1.0181690   -0.0424240    -0.0138203    0.0276452    -0.0025861    0.0314922     0.9815366   -0.0543012 
   0.001250300     0.9148883   -0.0297101    -0.0151709    0.0274753    -0.0018252    0.0347847     1.0021520   -0.0629965 
   0.001350325     1.0078990   -0.0713098    -0.0132448    0.0403624    -0.0026338    0.0383970     0.9902043   -0.0677923 
   0.001450350     0.9687330   -0.0756511    -0.0127034    0.0391311    -0.0021369    0.0406134     0.9935798   -0.0631824 
   0.001550375     0.9787908   -0.0453907    -0.0121201    0.0403077    -0.0031026    0.0440093     0.9941549   -0.0721196 
   0.001650400     0.9762419   -0.0342006    -0.0132105    0.0419657    -0.0031675    0.0465431     0.9867586   -0.0709200 
   0.001750425     0.9868328   -0.0626606    -0.0119734    0.0511370    -0.0012350    0.0512150     1.0043110   -0.0785544 
   0.001850450     0.9369859   -0.0961917    -0.0132583    0.0510807    -0.0008691    0.0537755     0.9926249   -0.0872790 
   0.001950475     1.0426120   -0.0610084    -0.0102320    0.0636543    -0.0020991    0.0584320     0.9914272   -0.0909571 
   0.002050500     0.9886649   -0.0780683    -0.0084764    0.0626168    -0.0022792    0.0604133     0.9877031   -0.1066401 
   0.002150525     1.0175460   -0.0506368    -0.0100928    0.0659890    -0.0017625    0.0636569     0.9892045   -0.0951649 
   0.002250550     0.9695923   -0.0981711    -0.0089543    0.0699827    -0.0000713    0.0668947     0.9875431   -0.1024612 
   0.002350575     0.9544596   -0.1302599    -0.0040740    0.0718952     0.0007871    0.0673879     0.9855052   -0.1034118 
   0.002450600     0.9908970   -0.0957560    -0.0045357    0.0747009     0.0009333    0.0734397     0.9880460   -0.1184642 
   0.002550625     1.0120360   -0.0612824    -0.0026580    0.0863251    -0.0007993    0.0766959     0.9885104   -0.1178905 
   0.002650650     0.9873639   -0.0487096    -0.0039147    0.0817370     0.0014317    0.0800690     0.9832027   -0.1269792 
   0.002750675     1.0037820   -0.0544736    -0.0031276    0.0890187     0.0002984    0.0826565     0.9801406   -0.1289235 
   0.002850700     1.0084180   -0.0974106     0.0014552    0.0899952     0.0017060    0.0876527     0.9857548   -0.1298544 
   0.002950725     0.9425407   -0.0708318    -0.0017328    0.0835314     0.0013415    0.0877605     0.9809566   -0.1319010 
   0.003050750     1.0078100   -0.0791574    -0.0002667    0.0963360     0.0022780    0.0927257     0.9807283   -0.1409942 
   0.003150775     0.9906244   -0.1192703     0.0015118    0.0967347     0.0044680    0.0944148     0.9738678   -0.1399131 
   0.003250800     0.9730420   -0.0930351    -0.0020985    0.1035794     0.0038085    0.0977962     0.9788882   -0.1474861 
   0.003350825     0.9871863   -0.0639721    -0.0010976    0.0998674     0.0038669    0.1019978     0.9672011   -0.1594946 
   0.003450850     0.9592327   -0.1435775     0.0075837    0.1052955     0.0069550    0.1037741     0.9769570   -0.1543868 
   0.003550875     0.9694527   -0.1394398     0.0096874    0.1129782     0.0086504    0.1081624     0.9718220   -0.1654553 
   0.003650900     0.9996528   -0.1070123     0.0076985    0.1151146     0.0081494    0.1112433     0.9698192   -0.1646084 
   0.003750925     0.9816637   -0.1274418     0.0070081    0.1138184     0.0095321    0.1132373     0.9664691   -0.1733428 
   0.003850950     0.9805353   -0.1688181     0.0131925    0.1184586     0.0115241    0.1162995     0.9700298   -0.1762642 
   0.003950975     0.9925274   -0.1082201     0.0113521    0.1232181     0.0090667    0.1203298     0.9635418   -0.1750038 
   0.004051001     0.9389716   -0.1510280     0.0113297    0.1250435     0.0118443    0.1205614     0.9610844   -0.1787531 
   0.004151026     1.0050220   -0.1456033     0.0126622    0.1285753     0.0138870    0.1280635     0.9625045   -0.1859057 
   0.004251051     0.9864590   -0.1584995     0.0152753    0.1306006     0.0153790    0.1294438     0.9686646   -0.1915369 
   0.004351076     0.9762292   -0.1232502     0.0124160    0.1327584     0.0142798    0.1318550     0.9616680   -0.1957061 
   0.004451101     0.9878870   -0.1553173     0.0185157    0.1376255     0.0161371    0.1358275     0.9609408   -0.1955824 
   0.004551126     0.9575828   -0.1415343     0.0167192    0.1377773     0.0163931    0.1372891     0.9621555   -0.1983241 
   0.004651151     0.9715302   -0.1530084     0.0165387    0.1399015     0.0177681    0.1411095     0.9572940   -0.2042001 
   0.004751176     0.9727174   -0.1563446     0.0179955    0.1455226     0.0196675    0.1435691     0.9541364   -0.2122423 
   0.004851201     0.9405184   -0.1567941     0.0186178    0.1449629     0.0197381    0.1446508     0.9539517   -0.2116321 
   0.004951226     0.9795454   -0.1400656     0.0197864    0.1535431     0.0197276    0.1512659     0.9520314   -0.2151078 
   0.005051251     0.9726487   -0.1792329     0.0242291    0.1532912     0.0226428    0.1526526     0.9544511   -0.2232295 
   0.005151276     0.9530020   -0.1387431     0.0185200    0.1565858     0.0226448    0.1548230     0.9471614   -0.2270000 
   0.005251301     0.9514011   -0.1954181     0.0289323    0.1601530     0.0263659    0.1566667     0.9467980   -0.2282400 
   0.005351326     0.9405941   -0.1340738     0.0239327    0.1619956     0.0244126    0.1613292     0.9510334   -0.2365244 
   0.005451351     0.9614549   -0.1589097     0.0266231    0.1637465     0.0266228    0.1649507     0.9485647   -0.2378858 
   0.005551376     0.9735035   -0.1729653     0.0299913    0.1682291     0.0284231    0.1688974     0.9433126   -0.2396836 
   0.005651401     0.9506849   -0.1740265     0.0286392    0.1700071     0.0295045    0.1699646     0.9437183   -0.2480063 
   0.005751426     0.9471098   -0.1839210     0.0341287    0.1711318     0.0325395    0.1724114     0.9405449   -0.2504531 
   0.005851451     0.9669503   -0.2027146     0.0335322    0.1752829     0.0337049    0.1765709     0.9376814   -0.2526887 
   0.005951476     0.9149597   -0.1612248     0.0288704    0.1713012     0.0310082    0.1763275     0.9384362   -0.2550487 
   0.006051501     0.9671595   -0.1983831     0.0412942    0.1869933     0.0367019    0.1820169     0.9374651   -0.2600105 
   0.006151526     0.9377207   -0.2027996     0.0403934    0.1797434     0.0373907    0.1831511     0.9393119   -0.2631971 
   0.006251551     0.9274749   -0.1825692     0.0355492    0.1778331     0.0381114    0.1847380     0.9316786   -0.2714267 
   0.006351576     0.9426666   -0.2006257     0.0363826    0.1887893     0.0403205    0.1880974     0.9291764   -0.2754321 
   0.006451601     0.9438980   -0.2190084     0.0440496    0.1915333     0.0439818    0.1920066     0.9285144   -0.2796877 
   0.006551626     0.9373340   -0.2103550     0.0433171    0.1929872     0.0430668    0.1946120     0.9273335   -0.2804680 
   0.006651651     0.9396669   -0.2177200     0.0444836    0.1950394     0.0451410    0.1963039     0.9212994   -0.2856636 
   0.006751676     0.9223751   -0.2093333     0.0416040    0.1975388     0.0464419    0.1995228     0.9267718   -0.2907597 
   0.006851701     0.9368564   -0.2226320     0.0497433    0.2036761     0.0494022    0.2028882     0.9195135   -0.2961686 
   0.006951726     0.9145140   -0.2292421     0.0514832    0.2029546     0.0497516    0.2036253     0.9176303   -0.2954273 
   0.007051751     0.9549785   -0.2179314     0.0533735    0.2099955     0.0519854    0.2089071     0.9115345   -0.3013302 
   0.007151776     0.9150893   -0.2126221     0.0503089    0.2126236     0.0517698    0.2096145     0.9108765   -0.3069382 
   0.007251801     0.9381238   -0.2303964     0.0559495    0.2123074     0.0552579    0.2128850     0.9094989   -0.3077699 
   0.007351826     0.9189706   -0.2342303     0.0572951    0.2149150     0.0574872    0.2139081     0.9111127   -0.3174840 
   0.007451851     0.9322859   -0.2208178     0.0546115    0.2190294     0.0564541    0.2170688     0.8996488   -0.3124788 
   0.007551876     0.9406155   -0.2447536     0.0604539    0.2264233     0.0606757    0.2233209     0.9075484   -0.3176472 
   0.007651901     0.9182923   -0.2493276     0.0613182    0.2224331     0.0623413    0.2214791     0.9029790   -0.3220510 
   0.007751926     0.9509352   -0.2435251     0.0640800    0.2332402     0.0652778    0.2273198     0.8965062   -0.3254376 
   0.007851951     0.9190707   -0.2363946     0.0644643    0.2267756     0.0637558    0.2286755     0.9006267   -0.3259215 
   0.007951976     0.9403360   -0.2576835     0.0658156    0.2356548     0.0686391    0.2324580     0.8944547   -0.3329022 
   0.008052001     0.9275271   -0.2391408     0.0669996    0.2355670     0.0695431    0.2347028     0.8931476   -0.3380879 
   0.008152026     0.9047386   -0.2643442     0.0716605    0.2309380     0.0715213    0.2334017     0.8923097   -0.3401357 
   0.008252051     0.9214704   -0.2344869     0.0671285    0.2411286     0.0719309    0.2386290     0.8855436   -0.3472711 
   0.008352076     0.9098761   -0.2606307     0.0750974    0.2391918     0.0744198    0.2399123     0.8881540   -0.3478583 
   0.008452101     0.9251728   -0.2553116     0.0778437    0.2471905     0.0773782    0.2444793     0.8856408   -0.3485581 
   0.008552126     0.9247195   -0.2583162     0.0779896    0.2463742     0.0800631    0.2469263     0.8835013   -0.3523043 
   0.008652151     0.9102639   -0.2656240     0.0850063    0.2455821     0.0813023    0.2465143     0.8770195   -0.3618087 
   0.008752176     0.9185851   -0.2643793     0.0836591    0.2510217     0.0833872    0.2498164     0.8784464   -0.3635396 
   0.008852201     0.8906839   -0.2685488     0.0860672    0.2456095     0.0830572    0.2495682     0.8737780   -0.3612904 
   0.008952226     0.9227082   -0.2836632     0.0917783    0.2554522     0.0879549    0.2559007     0.8745551   -0.3661142 
   0.009052251     0.9190361   -0.2928375     0.0978043    0.2584040     0.0919782    0.2567555     0.8712277   -0.3708380 
   0.009152276     0.9144235   -0.2666767     0.0889166    0.2608247     0.0902463    0.2601969     0.8647763   -0.3760716 
   0.009252301     0.9197270   -0.2783643     0.0931207    0.2655817     0.0932805    0.2623076     0.8647994   -0.3777933 
   0.009352326     0.8998282   -0.2808101     0.0918406    0.2621585     0.0932788    0.2637803     0.8625273   -0.3793732 
   0.009452351     0.9049760   -0.2839271     0.0994693    0.2661041     0.0968539    0.2664059     0.8604835   -0.3841417 
   0.009552376     0.8937723   -0.2843577     0.0959215    0.2678113     0.0967920    0.2669401     0.8542773   -0.3853739 
   0.009652401     0.8910819   -0.2885852     0.0965279    0.2671705     0.1004830    0.2692155     0.8524691   -0.3913349 
   0.009752426     0.9002517   -0.2931978     0.1054207    0.2710320     0.1031671    0.2717215     0.8524916   -0.3921759 
   0.009852451     0.8945249   -0.3130301     0.1083181    0.2714063     0.1077858    0.2727749     0.8487785   -0.3991273 
   0.009952476     0.8969245   -0.2902547     0.1049211    0.2774607     0.1065114    0.2764053     0.8450797   -0.3960496 
   0.010052501     0.8802058   -0.3035637     0.1095918    0.2753167     0.1076165    0.2774161     0.8455393   -0.3980063 
   0.010152526     0.8928533   -0.2923591     0.1091368    0.2777394     0.1110905    0.2817536     0.8405926   -0.4051575 
   0.010252551     0.8770682   -0.3010710     0.1146957    0.2812299     0.1135752    0.2829216     0.8421209   -0.4120495 
   0.010352576     0.8893484   -0.3060602     0.1125876    0.2815849     0.1172896    0.2849829     0.8349859   -0.4152098 
   0.010452601     0.8821102   -0.2945588     0.1107485    0.2858807     0.1164585    0.2876388     0.8318303   -0.4164672 
   0.010552626     0.8698294   -0.3194401     0.1213427    0.2889967     0.1206670    0.2868192     0.8326567   -0.4176633 
   0.010652651     0.8906224   -0.3153129     0.1257880    0.2924137     0.1255374    0.2908905     0.8296629   -0.4244368 
   0.010752676     0.8786939   -0.3247532     0.1242444    0.2919160     0.1258589    0.2923117     0.8278016   -0.4231543 
   0.010852701     0.8855057   -0.3062343     0.1283232    0.2951111     0.1264553    0.2987861     0.8298845   -0.4229720 
   0.010952726     0.8771294   -0.3248428     0.1306689    0.2976281     0.1287909    0.2964875     0.8204089   -0.4279166 
   0.011052751     0.8600022   -0.3258085     0.1307531    0.2946602     0.1313099    0.2973267     0.8201538   -0.4336423 
   0.011152776     0.8663738   -0.3317163     0.1346660    0.2979222     0.1348288    0.2985603     0.8136694   -0.4376471 
   0.011252801     0.8687841   -0.3364736     0.1365891    0.2976164     0.1382805    0.3011131     0.8122357   -0.4398995 
   0.011352826     0.8682632   -0.3366051     0.1365598    0.3055402     0.1385262    0.3038065     0.8118119   -0.4370357 
   0.011452851     0.8617671   -0.3361132     0.1424984    0.3037370     0.1423201    0.3046101     0.8068162   -0.4468352 
   0.011552876     0.8499064   -0.3403205     0.1454780    0.3033700     0.1442912    0.3055294     0.8069742   -0.4513474 
   0.011652901     0.8532370   -0.3505507     0.1464900    0.3044169     0.1467895    0.3063932     0.8023148   -0.4512613 
   0.011752926     0.8347812   -0.3299363     0.1405545    0.3030559     0.1427673    0.3094216     0.8004184   -0.4520125 
   0.011852951     0.8539694   -0.3471213     0.1479795    0.3131189     0.1509811    0.3130835     0.7993197   -0.4550870 
   0.011952976     0.8418053   -0.3434480     0.1529785    0.3099771     0.1500683    0.3107659     0.7904008   -0.4576209 
   0.012053002     0.8323635   -0.3487253     0.1517344    0.3090786     0.1529088    0.3126931     0.7905892   -0.4610521 
   0.012153027     0.8483545   -0.3588057     0.1586652    0.3137218     0.1592942    0.3154402     0.7882851   -0.4641477 
   0.012253052     0.8349137   -0.3511951     0.1583937    0.3184007     0.1578127    0.3164145     0.7840400   -0.4644435 
   0.012353077     0.8355539   -0.3517291     0.1630972    0.3158202     0.1595462    0.3191523     0.7848137   -0.4682938 
   0.012453102     0.8420422   -0.3537981     0.1665778    0.3201836     0.1656138    0.3201990     0.7775632   -0.4746064 
   0.012553127     0.8281084   -0.3717934     0.1647647    0.3169884     0.1660721    0.3194273     0.7737132   -0.4744025 
   0.012653152     0.8452635   -0.3498968     0.1701842    0.3257622     0.1681034    0.3255753     0.7709281   -0.4755549 
   0.012753177     0.8330696   -0.3587312     0.1718311    0.3233165     0.1717082    0.3267725     0.7708848   -0.4805422 
   0.012853202     0.8259981   -0.3503346     0.1736216    0.3260012     0.1706330    0.3273608     0.7635344   -0.4780339 
   0.012953227     0.8289374   -0.3567915     0.1753416    0.3268518     0.1745284    0.3304866     0.7656676   -0.4835233 
   0.013053252     0.8176380   -0.3757237     0.1795275    0.3229600     0.1778996    0.3294157     0.7638707   -0.4854606 
   0.013153277     0.8302289   -0.3655538     0.1833672    0.3316974     0.1825244    0.3327719     0.7600771   -0.4894185 
   0.013253302     0.8254596   -0.3559244     0.1816991    0.3321187     0.1819761    0.3362842     0.7563978   -0.4862611 
   0.013353327     0.8036251   -0.3738069     0.1885291    0.3257514     0.1826367    0.3336296     0.7554463   -0.4933466 
   0.013453352     0.8271346   -0.3583126     0.1852379    0.3346682     0.1882849    0.3393351     0.7491058   -0.4972521 
   0.013553377     0.8097460   -0.3729990     0.1929825    0.3360200     0.1883500    0.3362107     0.7458778   -0.4961519 
   0.013653402     0.8135807   -0.3742409     0.1900434    0.3354770     0.1914586    0.3383918     0.7446510   -0.4972100 
   0.013753427     0.8178080   -0.3804326     0.1957161    0.3411228     0.1960968    0.3392640     0.7385387   -0.5019887 
   0.013853452     0.8139802   -0.3958507     0.2012396    0.3397448     0.1986738    0.3389859     0.7401209   -0.4995949 
   0.013953477     0.7956101   -0.3693349     0.1958532    0.3394002     0.1974413    0.3442661     0.7355564   -0.5087515 
   0.014053502     0.8150054   -0.3834612     0.2027250    0.3448526     0.2043059    0.3441362     0.7306672   -0.5069587 
   0.014153527     0.8139502   -0.3851812     0.2065121    0.3469344     0.2068297    0.3488823     0.7330552   -0.5087782 
   0.014253552     0.8064304   -0.3920750     0.2157748    0.3492929     0.2099043    0.3472769     0.7313626   -0.5106021 
   0.014353577     0.7820365   -0.3876187     0.2076676    0.3405257     0.2066860    0.3424405     0.7200135   -0.5160536 
   0.014453602     0.7820446   -0.3807040     0.2103339    0.3415150     0.2082317    0.3498971     0.7217167   -0.5163960 
   0.014553627     0.7839283   -0.3871273     0.2130629    0.3434163     0.2127779    0.3504549     0.7198279   -0.5210097 
   0.014653652     0.7921213   -0.4007978     0.2172065    0.3489446     0.2180644    0.3487841     0.7131842   -0.5217327 
   0.014753677     0.7815399   -0.3986962     0.2242725    0.3490549     0.2171488    0.3514026     0.7121795   -0.5205907 
   0.014853702     0.7956074   -0.3918612     0.2248708    0.3473444     0.2226123    0.3550573     0.7080351   -0.5237523 
   0.014953727     0.7823846   -0.4155550     0.2323799    0.3510818     0.2249525    0.3501115     0.7072819   -0.5239155 
   0.015053752     0.7792130   -0.3940519     0.2191486    0.3469926     0.2260459    0.3560343     0.7011856   -0.5297648 
   0.015153777     0.7846984   -0.4001646     0.2293998    0.3562249     0.2319881    0.3561167     0.6996775   -0.5318792 
   0.015253802     0.7753966   -0.4065050     0.2361293    0.3535001     0.2331966    0.3566399     0.6973527   -0.5356351 
   0.015353827     0.7818724   -0.4096240     0.2436514    0.3578691     0.2365060    0.3573687     0.6951276   -0.5332397 
   0.015453852     0.7830932   -0.4041278     0.2394593    0.3619415     0.2389142    0.3594582     0.6892142   -0.5350240 
   0.015553877     0.7708461   -0.4025542     0.2412782    0.3559655     0.2392198    0.3618902     0.6872516   -0.5375987 
   0.015653902     0.7663161   -0.4076871     0.2422313    0.3563926     0.2438990    0.3602313     0.6829956   -0.5448632 
