! 26-Feb-26 1:35:02 PM
! E:\VNA_MEASUREMENTS\CAL_S11\CAL_LONGSHORT_T2T1E3_0.S2P
! CHANNEL.1
! TR.MEASUREMENT
! CORRECTED.DATA
# GHZ S RI R 50.0
! FREQ.GHZ         S11RE         S11IM         S21RE         S21IM         S12RE         S12IM         S22RE         S22IM         
!; PortSelection: Port_12
   0.000050000     0.1407067   -0.2928237     0.0521863   -0.3038447    -0.0117540    0.0014887    -0.0015041    0.0275096 
   0.000150025    -0.2305561   -0.1174850     5.0706440    0.8225363     0.0004150   -0.0002484     0.0028819   -0.0050862 
   0.000250050    -0.3430563   -0.0440524    -0.1231850    0.1024174    -0.0003975    0.0000151     0.0021120   -0.0006349 
   0.000350075     1.0068580   -0.0425061    -0.0008316   -0.0046584    -0.0008751   -0.0023576    -0.0015644   -0.0014943 
   0.000450100     0.9863548   -0.0716768    -0.0008601   -0.0076025     0.0003303    0.0004691    -0.0010908   -0.0019876 
   0.000550125     1.0224390   -0.0070320    -0.0074391   -0.0077271    -0.0001373    0.0010858     0.0013457   -0.0005375 
   0.000650150     1.0540940   -0.0512379    -0.0068673   -0.0103720     0.0006268    0.0007796     0.0011424   -0.0014071 
   0.000750175     1.0195800   -0.0559479    -0.0080340   -0.0070959     0.0006706    0.0005249    -0.0004762    0.0000346 
   0.000850200     0.9557037   -0.0780955    -0.0085231   -0.0105071     0.0002651   -0.0002103    -0.0009780    0.0004074 
   0.000950225     0.9979467   -0.0784708    -0.0111646   -0.0099721    -0.0008332    0.0002730    -0.0006619    0.0014250 
   0.001050250     1.0261730   -0.0737977    -0.0090525   -0.0055707    -0.0007149    0.0001623    -0.0009574    0.0005049 
   0.001150275     1.0059800   -0.0619783    -0.0045798    0.0004811     0.0001225   -0.0004031     0.0006058    0.0001054 
   0.001250300     0.9892466   -0.0534545    -0.0102021   -0.0053376    -0.0000987    0.0008026     0.0008903   -0.0000118 
   0.001350325     0.9613189   -0.0895292    -0.0092995   -0.0013440     0.0003650    0.0009321     0.0002790    0.0002520 
   0.001450350     1.0235950   -0.0481597    -0.0096210   -0.0031666    -0.0000482    0.0007347    -0.0001266    0.0003172 
   0.001550375     0.9679916   -0.0810021    -0.0085198    0.0021122    -0.0005044   -0.0001243     0.0004781    0.0003571 
   0.001650400     1.0286090   -0.0451721    -0.0058102   -0.0006730     0.0005948   -0.0000128    -0.0000689   -0.0003051 
   0.001750425     0.9956229   -0.0869007    -0.0041284    0.0022231    -0.0000163   -0.0005851     0.0004106   -0.0000265 
   0.001850450     0.9851086   -0.0684552    -0.0080021    0.0023924    -0.0006838    0.0006899     0.0004345    0.0008470 
   0.001950475     1.0160100   -0.0389130    -0.0075875    0.0036067     0.0000718    0.0002392     0.0009100   -0.0001507 
   0.002050500     0.9766593   -0.0346203    -0.0051982    0.0018963    -0.0003633    0.0000726     0.0011691    0.0001006 
   0.002150525     0.9802502   -0.0499140    -0.0079927    0.0005027    -0.0009583    0.0002495     0.0011544   -0.0000311 
   0.002250550     1.0067760   -0.0579213    -0.0049575    0.0037425     0.0002593    0.0002378    -0.0000500   -0.0010329 
   0.002350575     0.9477025   -0.1481986    -0.0049349    0.0042697     0.0003336   -0.0000886     0.0010058   -0.0008077 
   0.002450600     1.0026120   -0.0646045    -0.0017870    0.0005843     0.0000902    0.0011417    -0.0002627    0.0006545 
   0.002550625     0.9944336   -0.0992853    -0.0040073    0.0021775    -0.0002356   -0.0002489    -0.0000280   -0.0003477 
   0.002650650     0.9928954   -0.0682478    -0.0060562    0.0061271    -0.0008408    0.0003245    -0.0001976    0.0004340 
   0.002750675     0.9863297   -0.1049265    -0.0030611    0.0028453    -0.0006324   -0.0002648     0.0002487    0.0006246 
   0.002850700     1.0116310   -0.0831345     0.0002445    0.0013181    -0.0001936   -0.0005844    -0.0005442   -0.0004696 
   0.002950725     0.9535550   -0.0677580    -0.0041365    0.0026752     0.0000309    0.0002316     0.0006618   -0.0000467 
   0.003050750     0.9940819   -0.0931796    -0.0002293    0.0023976    -0.0003410    0.0008062     0.0003224   -0.0003491 
   0.003150775     0.9946862   -0.1263157    -0.0040760   -0.0002382    -0.0000567    0.0005156    -0.0002884    0.0001042 
   0.003250800     0.9698858   -0.0986706    -0.0010216    0.0030405     0.0004296    0.0005115     0.0002507    0.0007048 
   0.003350825     0.9832222   -0.0859538    -0.0051886    0.0029129    -0.0010867    0.0005297     0.0000133    0.0005392 
   0.003450850     0.9511575   -0.1514251    -0.0005253    0.0022976     0.0003124    0.0003245     0.0004873   -0.0004337 
   0.003550875     0.9528252   -0.1137534    -0.0001947    0.0016780     0.0002797   -0.0000314    -0.0004545   -0.0008069 
   0.003650900     0.9867999   -0.1175030    -0.0003983    0.0002853     0.0002771   -0.0002308     0.0011954   -0.0001867 
   0.003750925     0.9945538   -0.1088017    -0.0013430    0.0007632    -0.0002498   -0.0000778     0.0002109   -0.0003959 
   0.003850950     0.9420341   -0.1479996    -0.0037236   -0.0003167     0.0001659   -0.0004483    -0.0001024    0.0006749 
   0.003950975     0.9820296   -0.1150415    -0.0000734    0.0022194    -0.0004530    0.0002719     0.0005049   -0.0003702 
   0.004051001     0.9639416   -0.1492169    -0.0014398    0.0014373     0.0001468   -0.0008367     0.0001506    0.0005150 
   0.004151026     0.9739446   -0.1368782    -0.0000473    0.0009798     0.0001727    0.0002176    -0.0000591   -0.0003704 
   0.004251051     0.9837751   -0.1344713    -0.0007858   -0.0007322     0.0001599    0.0001990     0.0000338   -0.0001992 
   0.004351076     0.9940583   -0.1196065     0.0009477   -0.0012912     0.0003255   -0.0001831     0.0007695    0.0005059 
   0.004451101     0.9803184   -0.1612616    -0.0014255   -0.0001067     0.0002914    0.0004757     0.0009236   -0.0002147 
   0.004551126     1.0072750   -0.1513662    -0.0001810    0.0008304     0.0007009    0.0003070    -0.0005231    0.0005364 
   0.004651151     0.9721979   -0.1465847    -0.0008586    0.0026688    -0.0008300    0.0003349     0.0002805    0.0000512 
   0.004751176     0.9568385   -0.1718313    -0.0028297   -0.0001774     0.0001755    0.0000787     0.0000719    0.0002267 
   0.004851201     0.9492300   -0.1538989    -0.0022002    0.0020847     0.0002929    0.0003436     0.0009606    0.0002466 
   0.004951226     0.9870136   -0.1336664     0.0008785    0.0009590    -0.0000710   -0.0002221    -0.0002177   -0.0000244 
   0.005051251     1.0104290   -0.1599215     0.0016897   -0.0003994     0.0007460    0.0002019     0.0001342   -0.0005491 
   0.005151276     0.9564992   -0.1548828     0.0002095    0.0018018    -0.0000595    0.0000548     0.0005223   -0.0000186 
   0.005251301     0.9711911   -0.1524852     0.0002910   -0.0021638    -0.0001461   -0.0003504     0.0005792    0.0001739 
   0.005351326     0.9504892   -0.1254673     0.0002583    0.0007137     0.0001789    0.0001435     0.0006440    0.0000686 
   0.005451351     0.9966928   -0.1682332     0.0011690    0.0023341    -0.0004425   -0.0005326     0.0002928    0.0003339 
   0.005551376     0.9710873   -0.1767668    -0.0001227   -0.0012931     0.0000556   -0.0000330     0.0002055   -0.0002286 
   0.005651401     0.9659180   -0.1842323    -0.0009452    0.0016911     0.0000555   -0.0002065    -0.0001064   -0.0006692 
   0.005751426     0.9337512   -0.1442913    -0.0001890    0.0009982     0.0005299   -0.0003835     0.0002924    0.0002371 
   0.005851451     0.9574125   -0.1856621    -0.0006733    0.0005059     0.0005169   -0.0003191     0.0000560   -0.0000508 
   0.005951476     0.9533402   -0.1643095     0.0001735    0.0010154    -0.0002353    0.0006848     0.0002581    0.0001510 
   0.006051501     0.9767337   -0.1779214     0.0005174    0.0007920    -0.0000363   -0.0001434    -0.0001936    0.0002611 
   0.006151526     0.9559347   -0.2026550    -0.0000553   -0.0001213     0.0002314   -0.0003028     0.0004553   -0.0006393 
   0.006251551     0.9458897   -0.1658622    -0.0003955    0.0000454    -0.0000147    0.0002229     0.0002292    0.0004335 
   0.006351576     0.9579885   -0.1938948    -0.0021114   -0.0002910    -0.0001876   -0.0001638    -0.0001820   -0.0002960 
   0.006451601     0.9707840   -0.2063943     0.0001983   -0.0009281     0.0000527   -0.0000237    -0.0003369    0.0003452 
   0.006551626     0.9482225   -0.1958081    -0.0006060    0.0012192     0.0000694    0.0002701     0.0003341   -0.0004465 
   0.006651651     0.9612309   -0.2171853    -0.0003012    0.0017154    -0.0001530    0.0003799    -0.0000247    0.0000226 
   0.006751676     0.9430568   -0.2298332    -0.0003296    0.0003746     0.0000792   -0.0000315     0.0005553    0.0008200 
   0.006851701     0.9559305   -0.2035266    -0.0008520    0.0001401     0.0002331    0.0000747     0.0001165    0.0006777 
   0.006951726     0.9425884   -0.2167666    -0.0009105    0.0004843     0.0001027    0.0002513     0.0009334    0.0010709 
   0.007051751     0.9591931   -0.2173454    -0.0018572    0.0000650     0.0000606    0.0000928    -0.0000943   -0.0001596 
   0.007151776     0.9279515   -0.2239689     0.0001440    0.0006964    -0.0002811   -0.0002443     0.0001403    0.0004845 
   0.007251801     0.9697685   -0.1990265     0.0002563    0.0001752     0.0001287   -0.0005105     0.0001082    0.0002229 
   0.007351826     0.9568774   -0.2410807     0.0004248   -0.0005896     0.0000844    0.0000203     0.0006238    0.0002406 
   0.007451851     0.9349227   -0.2280581    -0.0009635   -0.0004297     0.0004007    0.0000044     0.0004323   -0.0001686 
   0.007551876     0.9567071   -0.2332069    -0.0001517    0.0001289    -0.0001191   -0.0002215     0.0004077   -0.0002944 
   0.007651901     0.9582480   -0.2640897     0.0003983    0.0007474     0.0001345   -0.0000757     0.0001171   -0.0004234 
   0.007751926     0.9473230   -0.2330171    -0.0000559    0.0000570     0.0001779    0.0002641    -0.0002419   -0.0003269 
   0.007851951     0.9573854   -0.2548776     0.0003134    0.0005721    -0.0002193    0.0000262     0.0004942   -0.0002013 
   0.007951976     0.9562910   -0.2600541     0.0005991    0.0012160    -0.0002433   -0.0003678     0.0000760   -0.0000959 
   0.008052001     0.9447952   -0.2515437    -0.0004955    0.0008554     0.0001884    0.0001061     0.0001127    0.0002544 
   0.008152026     0.9318190   -0.2437523    -0.0012970    0.0013438    -0.0005041   -0.0001211     0.0002933    0.0005653 
   0.008252051     0.9189726   -0.2463368     0.0007343    0.0000882     0.0001392    0.0001240     0.0007719    0.0003656 
   0.008352076     0.9512677   -0.2766627    -0.0004223   -0.0012331    -0.0000710   -0.0002997     0.0008877   -0.0001432 
   0.008452101     0.9355460   -0.2691270     0.0002924   -0.0007766    -0.0005155    0.0006699     0.0004116   -0.0000323 
   0.008552126     0.9451663   -0.2786633     0.0010367    0.0005420     0.0000438    0.0002361     0.0001822    0.0005494 
   0.008652151     0.9466971   -0.2552688     0.0005614   -0.0007371    -0.0000140   -0.0003108     0.0003524    0.0000618 
   0.008752176     0.9523279   -0.2747807     0.0008534   -0.0010886    -0.0000236   -0.0003327    -0.0002397   -0.0004459 
   0.008852201     0.9354252   -0.2620967     0.0001148    0.0005025    -0.0003731    0.0000315     0.0005746    0.0004020 
   0.008952226     0.9638742   -0.2907990     0.0001058    0.0003052     0.0003468   -0.0002712     0.0005436   -0.0004274 
   0.009052251     0.9310042   -0.2767517    -0.0002767    0.0005694    -0.0000074    0.0005380     0.0000531    0.0000182 
   0.009152276     0.9474932   -0.2784164     0.0015327   -0.0015433     0.0001356   -0.0001220     0.0006470    0.0004045 
   0.009252301     0.9326839   -0.3034543     0.0004017    0.0012743    -0.0002340   -0.0002087     0.0005943    0.0000474 
   0.009352326     0.9507521   -0.2835446    -0.0008139   -0.0010177    -0.0000539    0.0000780    -0.0002136    0.0000119 
   0.009452351     0.9414946   -0.3040962     0.0000519    0.0001386     0.0002758   -0.0004820     0.0005292   -0.0003236 
   0.009552376     0.9436290   -0.2961338    -0.0000578    0.0007164    -0.0000818    0.0002317     0.0004961    0.0001393 
   0.009652401     0.9319225   -0.3072541     0.0008809   -0.0004050     0.0000845   -0.0001854     0.0001980    0.0002177 
   0.009752426     0.9281009   -0.3153888    -0.0000390    0.0000800     0.0002211    0.0002262     0.0006156    0.0001690 
   0.009852451     0.9281881   -0.3230884    -0.0003260    0.0007752     0.0000877    0.0000645     0.0003214   -0.0002301 
   0.009952476     0.9428976   -0.3296575    -0.0001728   -0.0004437    -0.0001058    0.0002536     0.0001735   -0.0000186 
   0.010052501     0.9192644   -0.3210256    -0.0008025   -0.0004761     0.0002564   -0.0002267     0.0001635   -0.0002259 
   0.010152526     0.9109237   -0.3104184    -0.0004429    0.0003904     0.0001726   -0.0000307    -0.0000308    0.0001480 
   0.010252551     0.9162469   -0.3353192    -0.0007413   -0.0007161     0.0000741   -0.0001823     0.0005098   -0.0001957 
   0.010352576     0.9171665   -0.3409024     0.0011133   -0.0000370    -0.0001511   -0.0001598     0.0002652   -0.0001218 
   0.010452601     0.9408342   -0.3406478     0.0003459    0.0002888     0.0000998    0.0002674     0.0006347   -0.0001100 
   0.010552626     0.9234797   -0.3441803    -0.0017202   -0.0005196    -0.0002208   -0.0000508     0.0003239   -0.0001406 
   0.010652651     0.9210270   -0.3430043    -0.0012399   -0.0006566    -0.0000795    0.0001049     0.0005442   -0.0001514 
   0.010752676     0.9161066   -0.3673381     0.0003587    0.0008800    -0.0000133    0.0003104     0.0003249    0.0001997 
   0.010852701     0.9226409   -0.3391149    -0.0006489    0.0006640    -0.0000565    0.0000419     0.0002693    0.0004094 
   0.010952726     0.9077216   -0.3691240     0.0009737   -0.0000175    -0.0000495    0.0002120     0.0000088   -0.0004801 
   0.011052751     0.9177917   -0.3828903     0.0001151   -0.0002023     0.0001377   -0.0000393     0.0003407    0.0000885 
   0.011152776     0.9014444   -0.3820554    -0.0013074   -0.0005882     0.0000781   -0.0000798     0.0001346    0.0000176 
   0.011252801     0.8923347   -0.3765472    -0.0008241   -0.0002988    -0.0001081    0.0002936    -0.0000854    0.0003165 
   0.011352826     0.8999995   -0.3866989     0.0001673    0.0004268    -0.0000076    0.0000893     0.0002299   -0.0000529 
   0.011452851     0.8853561   -0.3901347    -0.0000538   -0.0000489     0.0001467    0.0002786     0.0004802   -0.0002227 
   0.011552876     0.8965304   -0.3886564     0.0005653    0.0009237    -0.0003912   -0.0003369     0.0001299   -0.0003888 
   0.011652901     0.8886126   -0.4070972    -0.0009150    0.0005712    -0.0001806    0.0003456     0.0001836    0.0004171 
   0.011752926     0.8785989   -0.3947433     0.0003488   -0.0002811    -0.0001883    0.0001608     0.0004098    0.0001123 
   0.011852951     0.8870645   -0.4218386    -0.0006561   -0.0005437    -0.0001351   -0.0000366     0.0003252    0.0000730 
   0.011952976     0.8703752   -0.3928485     0.0004586   -0.0004220    -0.0000909    0.0000847     0.0002372   -0.0000281 
   0.012053002     0.8750088   -0.4322329    -0.0007619   -0.0000043    -0.0001015   -0.0002465     0.0000813   -0.0000178 
   0.012153027     0.8720159   -0.4162792    -0.0009876    0.0003974    -0.0002719   -0.0001912     0.0004642    0.0000695 
   0.012253052     0.8545421   -0.4307711     0.0011792   -0.0005580     0.0003650    0.0004113     0.0004485    0.0005603 
   0.012353077     0.8705598   -0.4332085    -0.0002702   -0.0001011    -0.0000308   -0.0000648     0.0005874    0.0001842 
   0.012453102     0.8770537   -0.4263592    -0.0001900   -0.0006843    -0.0001805   -0.0001013    -0.0000032    0.0001386 
   0.012553127     0.8502188   -0.4557960     0.0001915   -0.0005420    -0.0002245   -0.0001043     0.0004098   -0.0004925 
   0.012653152     0.8610384   -0.4422619    -0.0004878    0.0001414    -0.0000706    0.0000357    -0.0000888    0.0001609 
   0.012753177     0.8493010   -0.4547914     0.0005172    0.0003155     0.0001394    0.0000512     0.0002072   -0.0001942 
   0.012853202     0.8614548   -0.4394403     0.0000546   -0.0000704    -0.0000287    0.0000195     0.0006447    0.0004781 
   0.012953227     0.8594255   -0.4457690     0.0006984    0.0002974    -0.0003667   -0.0002134     0.0005163    0.0001318 
   0.013053252     0.8285559   -0.4771065     0.0002941    0.0000730    -0.0001370   -0.0002056     0.0004344    0.0004657 
   0.013153277     0.8399075   -0.4679889     0.0003155    0.0007060    -0.0000947   -0.0004578     0.0004299    0.0001292 
   0.013253302     0.8412645   -0.4790896    -0.0003537   -0.0003703    -0.0001436   -0.0000642     0.0003353   -0.0005238 
   0.013353327     0.8309573   -0.4868395    -0.0008775    0.0000674    -0.0000973    0.0001987     0.0004505   -0.0001069 
   0.013453352     0.8331680   -0.4924679     0.0002675   -0.0006305    -0.0001686   -0.0002926     0.0003832    0.0000008 
   0.013553377     0.8082358   -0.4921408    -0.0000094    0.0004909     0.0000585    0.0001234     0.0002625    0.0000358 
   0.013653402     0.8092899   -0.5157794     0.0000076   -0.0000021     0.0000063    0.0000417     0.0005839    0.0001531 
   0.013753427     0.8080825   -0.5218728     0.0000782   -0.0003260     0.0002269    0.0002161     0.0002632    0.0004011 
   0.013853452     0.8013377   -0.5238229     0.0001643   -0.0003810    -0.0001179    0.0000497     0.0007552    0.0003890 
   0.013953477     0.7812513   -0.5192944     0.0006992   -0.0004210     0.0001214   -0.0000341     0.0001127    0.0002275 
   0.014053502     0.7910882   -0.5533069     0.0001076    0.0002794    -0.0003450    0.0001771     0.0002317    0.0000083 
   0.014153527     0.7786223   -0.5555847     0.0000120   -0.0007632    -0.0001960   -0.0000770     0.0004996    0.0002090 
   0.014253552     0.7694474   -0.5640600    -0.0001815   -0.0006946    -0.0001734    0.0000194     0.0007229   -0.0003237 
   0.014353577     0.7488222   -0.5637968    -0.0003285    0.0000674     0.0004617    0.0002075     0.0005521    0.0000219 
   0.014453602     0.7294069   -0.5658291    -0.0002256    0.0002191    -0.0001948    0.0001323    -0.0002560   -0.0003476 
   0.014553627     0.7256615   -0.5822071    -0.0003763   -0.0006803     0.0000415   -0.0000041     0.0005024   -0.0001258 
   0.014653652     0.7152793   -0.5952063    -0.0000612    0.0005969    -0.0002957   -0.0000432     0.0002788   -0.0001491 
   0.014753677     0.7072577   -0.6057000    -0.0000567    0.0016601     0.0000696    0.0000991     0.0002326   -0.0000440 
   0.014853702     0.7008173   -0.6072463     0.0000093    0.0000369    -0.0001052    0.0000408     0.0003336    0.0003062 
   0.014953727     0.6638196   -0.6333271     0.0000770   -0.0003015     0.0001266   -0.0002207     0.0002289    0.0003669 
   0.015053752     0.6545222   -0.6314011     0.0000502   -0.0003498    -0.0000730    0.0000808     0.0005124   -0.0001053 
   0.015153777     0.6309667   -0.6530194    -0.0001999    0.0002281     0.0001497   -0.0001682     0.0003448   -0.0002463 
   0.015253802     0.6089996   -0.6489782    -0.0001592    0.0001398     0.0000110   -0.0000342     0.0004525   -0.0000787 
   0.015353827     0.5770795   -0.6640946     0.0000404    0.0002253    -0.0002618    0.0000834     0.0006863    0.0000225 
   0.015453852     0.5591661   -0.6737437     0.0000136    0.0003551    -0.0002491   -0.0003011     0.0003405    0.0003617 
   0.015553877     0.5171338   -0.6856679    -0.0000013    0.0004298     0.0000823   -0.0000682     0.0003830   -0.0000522 
   0.015653902     0.4823257   -0.6895446     0.0002640    0.0001483     0.0000500    0.0002104     0.0002099    0.0000777 
