! 26-Feb-26 1:31:48 PM
! E:\VNA_MEASUREMENTS\CAL_S11\CAL_LOAD_T1T1E1_0.S2P
! CHANNEL.1
! TR.MEASUREMENT
! CORRECTED.DATA
# GHZ S RI R 50.0
! FREQ.GHZ         S11RE         S11IM         S21RE         S21IM         S12RE         S12IM         S22RE         S22IM         
!; PortSelection: Port_12
   0.000050000     0.5585749    0.1182858     0.2263111   -0.1183199     0.0006911   -0.0074677    -0.0105602    0.0358774 
   0.000150025    -0.1510321   -0.0897670     0.4565779   -1.4426300     0.0002242   -0.0005141    -0.0027366   -0.0054044 
   0.000250050     0.1045557   -0.1082976    -0.0453067   -0.0112379     0.0008266   -0.0010206     0.0002375   -0.0024598 
   0.000350075     1.0008900   -0.0504004     0.0030598   -0.0101945    -0.0000125   -0.0001481    -0.0015364   -0.0006452 
   0.000450100     1.0053250   -0.0163565     0.0006114   -0.0079520     0.0007062   -0.0000197    -0.0005015   -0.0025083 
   0.000550125     1.0077970    0.0021610    -0.0003520   -0.0112520    -0.0001783    0.0007900     0.0013170   -0.0009824 
   0.000650150     0.9815637   -0.0353836    -0.0099216   -0.0111646    -0.0002388    0.0004082     0.0006373   -0.0022681 
   0.000750175     0.9914065   -0.0600000    -0.0075790   -0.0063650    -0.0005281   -0.0000630    -0.0006744    0.0002706 
   0.000850200     0.9949011   -0.0959741    -0.0097183   -0.0065117    -0.0002844   -0.0001210    -0.0018207   -0.0016555 
   0.000950225     1.0322080   -0.0928083    -0.0074592   -0.0031426    -0.0005134   -0.0001038     0.0006736    0.0012014 
   0.001050250     1.0041220   -0.0291730    -0.0082074   -0.0014224    -0.0007557   -0.0004303    -0.0004220   -0.0000605 
   0.001150275     1.0300550   -0.0578750    -0.0107903   -0.0042139    -0.0002578    0.0004790     0.0009585    0.0001421 
   0.001250300     0.9815810   -0.0558705    -0.0074355   -0.0012529     0.0004514   -0.0006779     0.0008708    0.0003742 
   0.001350325     0.9851307   -0.0968744    -0.0101719   -0.0007103    -0.0000831   -0.0010668    -0.0006385   -0.0001724 
   0.001450350     1.0055780   -0.0596422    -0.0117085   -0.0010846     0.0001015    0.0009130     0.0002022    0.0016940 
   0.001550375     0.9809258   -0.0569856    -0.0111961   -0.0007737     0.0005764   -0.0007432     0.0014323   -0.0001613 
   0.001650400     0.9933801   -0.0528122    -0.0069582    0.0018353     0.0000393    0.0004272     0.0003603   -0.0005454 
   0.001750425     0.9920400   -0.0674832    -0.0088957   -0.0025611     0.0002398    0.0002905    -0.0005554    0.0004048 
   0.001850450     0.9638489   -0.0531430    -0.0084603    0.0017467    -0.0008167   -0.0003589     0.0003572    0.0011638 
   0.001950475     1.0002290   -0.0197486    -0.0033065    0.0028573    -0.0003747    0.0005370     0.0010732   -0.0009220 
   0.002050500     1.0109990   -0.0559105    -0.0096329    0.0024145    -0.0000993    0.0003936     0.0011056   -0.0008461 
   0.002150525     1.0122920   -0.0728560    -0.0045249    0.0014219     0.0004420   -0.0004222     0.0007285    0.0009934 
   0.002250550     0.9524074   -0.0407553    -0.0100077    0.0017426     0.0004212    0.0004260    -0.0004950    0.0003440 
   0.002350575     0.9719813   -0.1155729    -0.0072746    0.0012454    -0.0005314   -0.0003519     0.0007130    0.0004512 
   0.002450600     1.0123310   -0.0682223    -0.0020321    0.0031712    -0.0004525   -0.0000402    -0.0000882   -0.0004228 
   0.002550625     0.9597755   -0.0542625    -0.0032214    0.0043969     0.0003993   -0.0006416     0.0000349    0.0003330 
   0.002650650     0.9756977   -0.0809701    -0.0012566    0.0040435    -0.0002682    0.0000590     0.0005197    0.0008600 
   0.002750675     0.9815683   -0.0392072    -0.0006868    0.0017263     0.0001586   -0.0003259    -0.0008605   -0.0000522 
   0.002850700     1.0050340   -0.0996309    -0.0057677    0.0043808     0.0010492   -0.0001316    -0.0002725   -0.0007538 
   0.002950725     0.9637800   -0.0815435     0.0001348    0.0014453    -0.0002348   -0.0002485     0.0000341   -0.0000073 
   0.003050750     0.9885643   -0.0659298    -0.0010374    0.0032780     0.0000334   -0.0003215    -0.0003496   -0.0005091 
   0.003150775     0.9932478   -0.1217790    -0.0028028    0.0044112    -0.0005290   -0.0002265    -0.0003856    0.0006686 
   0.003250800     0.9707894   -0.0908823    -0.0024432    0.0023357    -0.0002971    0.0008738     0.0004673    0.0001840 
   0.003350825     0.9831576   -0.0749183    -0.0014266    0.0034424    -0.0001605   -0.0006487    -0.0003068    0.0010125 
   0.003450850     0.9695256   -0.1603475    -0.0030097    0.0035112    -0.0004229   -0.0002217     0.0000903    0.0000725 
   0.003550875     0.9552668   -0.1087780    -0.0028373    0.0012835    -0.0002726   -0.0002573     0.0004541   -0.0005999 
   0.003650900     0.9491608   -0.0996101    -0.0013906    0.0021350     0.0007622   -0.0000157     0.0007356   -0.0003077 
   0.003750925     0.9639481   -0.1370862     0.0012066    0.0030833    -0.0001152    0.0004114     0.0006296   -0.0001160 
   0.003850950     0.9802186   -0.1268577     0.0002442    0.0046328    -0.0005933    0.0005053    -0.0003094    0.0006726 
   0.003950975     0.9730293   -0.0993711    -0.0014666    0.0017005    -0.0006369   -0.0001276    -0.0000451   -0.0003622 
   0.004051001     0.9462731   -0.1549586    -0.0020310    0.0012906     0.0005995   -0.0006085    -0.0000231    0.0000833 
   0.004151026     0.9950470   -0.1641182     0.0006962   -0.0015928     0.0005023    0.0007340    -0.0001546    0.0004983 
   0.004251051     0.9741506   -0.1390834     0.0011553   -0.0001166    -0.0002512   -0.0000412     0.0004318   -0.0002882 
   0.004351076     0.9729614   -0.1124235     0.0004713    0.0023942    -0.0002181   -0.0001282     0.0002996    0.0003360 
   0.004451101     1.0066640   -0.1883878    -0.0000147    0.0011580    -0.0001355    0.0005466     0.0005023   -0.0003483 
   0.004551126     1.0019000   -0.1358016    -0.0017053    0.0015867     0.0000449    0.0006387    -0.0003296    0.0004080 
   0.004651151     0.9579722   -0.1598080    -0.0008550   -0.0006436     0.0005016    0.0001429    -0.0002809   -0.0005888 
   0.004751176     0.9893759   -0.1543741    -0.0020651   -0.0005813    -0.0006492   -0.0003990     0.0002192   -0.0000702 
   0.004851201     0.9240547   -0.1558689    -0.0002940   -0.0003858    -0.0001789    0.0000613     0.0003474    0.0003357 
   0.004951226     0.9580498   -0.1232601     0.0001424    0.0003339     0.0002115    0.0003894    -0.0000459   -0.0007051 
   0.005051251     0.9825237   -0.1658781    -0.0011113    0.0025191    -0.0001097    0.0001648     0.0005487   -0.0006689 
   0.005151276     0.9185019   -0.1250246    -0.0003052    0.0000769    -0.0004306   -0.0004519     0.0002346   -0.0000903 
   0.005251301     0.9520085   -0.1557848    -0.0003859    0.0005740    -0.0007282   -0.0006587     0.0007783    0.0007080 
   0.005351326     0.9415940   -0.1427073    -0.0013088    0.0013728    -0.0002835   -0.0001780     0.0007864    0.0000230 
   0.005451351     0.9638613   -0.1801599    -0.0001951   -0.0011759    -0.0000434    0.0001802     0.0003641   -0.0001507 
   0.005551376     0.9665211   -0.1914575    -0.0007742   -0.0014695    -0.0001038   -0.0005019     0.0006361   -0.0000298 
   0.005651401     0.9637277   -0.1936188     0.0003061    0.0004574    -0.0004111    0.0003181    -0.0001773   -0.0005811 
   0.005751426     0.9261403   -0.1810597     0.0002103   -0.0003517    -0.0001382   -0.0000063     0.0001436    0.0000506 
   0.005851451     0.9723594   -0.2116115    -0.0005203   -0.0017252    -0.0004107    0.0001536     0.0000235   -0.0000832 
   0.005951476     0.9390797   -0.1864578    -0.0004816    0.0017481    -0.0000122    0.0001209     0.0005724    0.0000938 
   0.006051501     0.9590988   -0.1800471    -0.0007231   -0.0010036     0.0003730   -0.0001383     0.0003550    0.0001110 
   0.006151526     0.9624139   -0.1822930     0.0007174    0.0002053     0.0000130    0.0004545     0.0003327   -0.0000689 
   0.006251551     0.9481867   -0.1905437    -0.0020912    0.0012868     0.0004059   -0.0004024    -0.0001054    0.0004570 
   0.006351576     0.9513592   -0.2003329     0.0004802    0.0015681    -0.0001859   -0.0003478    -0.0001151    0.0002261 
   0.006451601     0.9502527   -0.2043220     0.0002558    0.0005214    -0.0001651    0.0004179    -0.0001236    0.0006131 
   0.006551626     0.9296888   -0.2083690    -0.0007768    0.0011932     0.0003367    0.0001917    -0.0003508   -0.0000953 
   0.006651651     0.9338394   -0.2012251    -0.0004766    0.0012543    -0.0003523    0.0002145     0.0002537   -0.0001875 
   0.006751676     0.9194394   -0.2376859    -0.0000629    0.0025969    -0.0001535   -0.0002314     0.0007326    0.0005632 
   0.006851701     0.9454833   -0.2358285    -0.0005484    0.0002347     0.0002939    0.0000333     0.0002582    0.0001502 
   0.006951726     0.9044591   -0.2360642     0.0001406   -0.0002202    -0.0000600   -0.0004085     0.0006959    0.0012122 
   0.007051751     0.9594629   -0.2230813     0.0001200   -0.0005407     0.0003839    0.0001469     0.0004231   -0.0001376 
   0.007151776     0.9336897   -0.2198036    -0.0005273    0.0006358    -0.0004256   -0.0004492     0.0004964   -0.0000265 
   0.007251801     0.9549213   -0.1992656    -0.0000310    0.0004485    -0.0001873    0.0000890     0.0002620   -0.0004099 
   0.007351826     0.9309682   -0.2530660    -0.0008503   -0.0006398     0.0000840   -0.0001673     0.0004557    0.0000883 
   0.007451851     0.9250568   -0.2180359    -0.0020535   -0.0000150     0.0000048   -0.0002430     0.0003232   -0.0005579 
   0.007551876     0.9183844   -0.2481916    -0.0018711   -0.0008950     0.0001606    0.0002316     0.0005066   -0.0003953 
   0.007651901     0.9340283   -0.2555306     0.0002626   -0.0004592    -0.0000322    0.0002570     0.0000768    0.0001561 
   0.007751926     0.9068108   -0.2319176    -0.0004549    0.0009549    -0.0002453    0.0002292     0.0000066   -0.0003824 
   0.007851951     0.9469315   -0.2393835     0.0000815   -0.0000114    -0.0001799   -0.0001269     0.0003750   -0.0001556 
   0.007951976     0.9291733   -0.2582616    -0.0008737   -0.0015258     0.0000050    0.0000524     0.0001161    0.0002713 
   0.008052001     0.9213707   -0.2562133     0.0007552    0.0005377     0.0000579   -0.0000584     0.0001292    0.0002169 
   0.008152026     0.9243526   -0.2716146     0.0010274   -0.0011669    -0.0004185    0.0004419     0.0005034    0.0003628 
   0.008252051     0.9056741   -0.2326420     0.0006697    0.0018902     0.0001492   -0.0004803     0.0007984    0.0004664 
   0.008352076     0.9225698   -0.2559057    -0.0007655   -0.0000813     0.0002924    0.0001350     0.0004909   -0.0001771 
   0.008452101     0.9231231   -0.2407825    -0.0009917   -0.0027909     0.0000062   -0.0002559     0.0002007   -0.0001661 
   0.008552126     0.9319423   -0.2620258    -0.0003174    0.0005631     0.0000235    0.0000132     0.0002747    0.0002685 
   0.008652151     0.9325636   -0.2615378    -0.0016100    0.0001970     0.0001061    0.0000341     0.0003704   -0.0000221 
   0.008752176     0.9220515   -0.2585589     0.0008222   -0.0004829    -0.0003562   -0.0000948     0.0000523   -0.0001473 
   0.008852201     0.9168314   -0.2492404    -0.0000345    0.0021304     0.0000969    0.0000257     0.0004075    0.0003960 
   0.008952226     0.9231644   -0.2707242    -0.0004356   -0.0000172    -0.0000109    0.0005207     0.0004698   -0.0005978 
   0.009052251     0.9194937   -0.2817478    -0.0012788    0.0007246    -0.0002984   -0.0000810     0.0000904   -0.0001149 
   0.009152276     0.9151406   -0.2798136     0.0009710    0.0009651    -0.0003955   -0.0002152     0.0006353   -0.0001161 
   0.009252301     0.9076710   -0.2750801    -0.0017246    0.0003985     0.0000357    0.0001979    -0.0000774   -0.0000115 
   0.009352326     0.9173711   -0.2870793     0.0002115   -0.0004318    -0.0001993   -0.0000634     0.0001279   -0.0006413 
   0.009452351     0.8988048   -0.2794273     0.0015794   -0.0008117     0.0003278   -0.0001055     0.0003839    0.0000567 
   0.009552376     0.8962232   -0.2896993     0.0006848    0.0006995    -0.0001331   -0.0000295     0.0005728   -0.0000692 
   0.009652401     0.8764189   -0.2866189    -0.0001890    0.0005353     0.0001073   -0.0001759     0.0000106    0.0001621 
   0.009752426     0.8959754   -0.2858056    -0.0007169    0.0011880     0.0005123   -0.0002326     0.0000316    0.0001305 
   0.009852451     0.8974302   -0.2929682    -0.0002878    0.0000000     0.0001361   -0.0003571     0.0004835    0.0000201 
   0.009952476     0.8946103   -0.3011775     0.0009847    0.0004422    -0.0002553    0.0001200     0.0002604   -0.0002646 
   0.010052501     0.8857428   -0.2918707    -0.0001516   -0.0005275     0.0002981   -0.0001230     0.0003793   -0.0000635 
   0.010152526     0.8894857   -0.2969144    -0.0002088   -0.0003354    -0.0003086   -0.0002484     0.0003501    0.0003053 
   0.010252551     0.8746727   -0.2986197    -0.0005267    0.0009821    -0.0003763    0.0004390     0.0003521   -0.0002559 
   0.010352576     0.8819607   -0.3156198     0.0006550    0.0005770    -0.0003979    0.0001624     0.0004533    0.0001949 
   0.010452601     0.8703460   -0.2969487     0.0006786   -0.0005186     0.0001038   -0.0001771     0.0003943    0.0000582 
   0.010552626     0.8717707   -0.3116130     0.0000595    0.0016482    -0.0001577    0.0001061     0.0001101    0.0002077 
   0.010652651     0.8888909   -0.3123149    -0.0006258   -0.0009100    -0.0001229   -0.0000570     0.0002313   -0.0000823 
   0.010752676     0.8859115   -0.3156860    -0.0013005    0.0002049     0.0002496    0.0002632    -0.0000368    0.0004014 
   0.010852701     0.8735576   -0.2899109     0.0003933    0.0005624    -0.0005155    0.0001200     0.0003791    0.0001791 
   0.010952726     0.8702764   -0.3180436    -0.0009595   -0.0009878     0.0000909    0.0000785     0.0002949    0.0000523 
   0.011052751     0.8852813   -0.3398474     0.0005594    0.0004170     0.0000054    0.0000800     0.0003095    0.0004610 
   0.011152776     0.8729950   -0.3238066    -0.0001351    0.0003231    -0.0002223   -0.0000883    -0.0000031   -0.0000579 
   0.011252801     0.8635188   -0.3382638     0.0002582   -0.0001297    -0.0002401    0.0001090    -0.0003353    0.0004434 
   0.011352826     0.8721944   -0.3377919     0.0006077   -0.0013465    -0.0003775   -0.0001244     0.0001485   -0.0002129 
   0.011452851     0.8561469   -0.3287230    -0.0000448    0.0000830     0.0001239    0.0002350     0.0002279   -0.0000720 
   0.011552876     0.8639488   -0.3318809     0.0005375    0.0009857    -0.0001109   -0.0005098     0.0001996   -0.0002638 
   0.011652901     0.8603016   -0.3359566    -0.0012572    0.0007777     0.0001153   -0.0001142    -0.0000039    0.0004232 
   0.011752926     0.8561596   -0.3273173    -0.0000153   -0.0006831     0.0000868   -0.0002502     0.0001717    0.0002357 
   0.011852951     0.8661662   -0.3619317     0.0003063    0.0007198    -0.0002574    0.0004685    -0.0001410    0.0000201 
   0.011952976     0.8560333   -0.3352640     0.0012101   -0.0003027     0.0000505    0.0000540     0.0003276    0.0002927 
   0.012053002     0.8591105   -0.3581371    -0.0003777   -0.0003310     0.0002473    0.0002305     0.0003074    0.0006082 
   0.012153027     0.8494166   -0.3496172     0.0011106   -0.0004601    -0.0001435    0.0002483     0.0007285    0.0000866 
   0.012253052     0.8365703   -0.3483171     0.0002725    0.0009881    -0.0000611    0.0001367     0.0005767   -0.0000613 
   0.012353077     0.8529363   -0.3499398     0.0011763   -0.0002464     0.0001161   -0.0000428     0.0004627   -0.0003100 
   0.012453102     0.8411622   -0.3392448    -0.0004967    0.0007842    -0.0000987    0.0001176     0.0007280    0.0001215 
   0.012553127     0.8347213   -0.3670351    -0.0005417    0.0003363     0.0001238    0.0001557     0.0003282   -0.0002140 
   0.012653152     0.8525600   -0.3503654     0.0004139    0.0001431    -0.0002375   -0.0000226     0.0001092    0.0002270 
   0.012753177     0.8371038   -0.3508297     0.0003749   -0.0009373     0.0001133   -0.0002922     0.0002373    0.0002017 
   0.012853202     0.8304568   -0.3412127    -0.0015812   -0.0006399    -0.0002009    0.0001977     0.0006740    0.0002254 
   0.012953227     0.8391603   -0.3474531    -0.0005164    0.0004826    -0.0000984   -0.0001225     0.0008614    0.0003071 
   0.013053252     0.8191046   -0.3631717    -0.0003098    0.0004067     0.0001252    0.0000853     0.0007092    0.0003573 
   0.013153277     0.8333599   -0.3672978    -0.0000964    0.0004602     0.0001600   -0.0001638     0.0002446   -0.0000149 
   0.013253302     0.8316998   -0.3672871     0.0001706   -0.0001567    -0.0000741    0.0003630     0.0003795   -0.0002063 
   0.013353327     0.8253738   -0.3659662    -0.0005012   -0.0009357    -0.0000957    0.0004538     0.0002076   -0.0000649 
   0.013453352     0.8323834   -0.3475869     0.0000989   -0.0000635    -0.0002238   -0.0001136     0.0006532   -0.0000772 
   0.013553377     0.8075641   -0.3726330    -0.0008638   -0.0002344     0.0001435   -0.0000251     0.0002405   -0.0004203 
   0.013653402     0.8163631   -0.3736276     0.0001956    0.0007030     0.0002019    0.0001239     0.0005106    0.0003834 
   0.013753427     0.8226073   -0.3777757    -0.0007005    0.0004214    -0.0000424   -0.0002875     0.0003999    0.0006548 
   0.013853452     0.8239299   -0.3764615    -0.0000533   -0.0004465     0.0001439   -0.0002551     0.0004763    0.0000239 
   0.013953477     0.8065703   -0.3657046    -0.0001425   -0.0002098     0.0001003    0.0001597     0.0004237    0.0000289 
   0.014053502     0.8141409   -0.3787034     0.0002009   -0.0001269    -0.0001087   -0.0000894     0.0000885    0.0001360 
   0.014153527     0.8091549   -0.3857616    -0.0001023    0.0006342     0.0001452    0.0001622     0.0003347   -0.0003582 
   0.014253552     0.7989619   -0.3818557     0.0003885    0.0008195     0.0001011   -0.0000143     0.0002146   -0.0003195 
   0.014353577     0.7972420   -0.3841932    -0.0005616    0.0002604     0.0002495   -0.0001787     0.0010517   -0.0000240 
   0.014453602     0.7910746   -0.3870167    -0.0000170   -0.0003925    -0.0002142    0.0002423     0.0000952   -0.0001967 
   0.014553627     0.8029641   -0.3897850     0.0008696    0.0006415    -0.0001316    0.0003084     0.0007147   -0.0000963 
   0.014653652     0.8079737   -0.3956416     0.0008296   -0.0003206    -0.0002277   -0.0001468     0.0003797   -0.0005105 
   0.014753677     0.7971466   -0.3847077     0.0005261   -0.0003022     0.0000922   -0.0000854     0.0002209   -0.0001378 
   0.014853702     0.8031669   -0.3820986    -0.0002396   -0.0002408     0.0000678   -0.0001847     0.0008023    0.0002476 
   0.014953727     0.7905377   -0.4051331    -0.0002211    0.0001456     0.0001406    0.0000260     0.0005520    0.0002687 
   0.015053752     0.7918561   -0.3934900     0.0001313    0.0000494     0.0004290   -0.0000870     0.0006869    0.0003395 
   0.015153777     0.7829082   -0.4073598    -0.0004808    0.0007683    -0.0000888   -0.0000454     0.0006190    0.0000311 
   0.015253802     0.7902002   -0.3994371    -0.0000713   -0.0004216     0.0000635    0.0001104     0.0000443   -0.0003489 
   0.015353827     0.7862191   -0.3971310     0.0000111    0.0006758    -0.0002194    0.0000936     0.0008119    0.0000925 
   0.015453852     0.7836559   -0.4103888    -0.0001104    0.0001315     0.0000134    0.0002075     0.0002388   -0.0000152 
   0.015553877     0.7849918   -0.4072602     0.0002469   -0.0001496     0.0003504   -0.0001473     0.0003027    0.0001474 
   0.015653902     0.7866923   -0.3975320     0.0007063   -0.0009940    -0.0001078   -0.0002140     0.0001603    0.0001270 
