! 26-Feb-26 1:48:53 PM
! E:\VNA_MEASUREMENTS\CAL_S11\CAL_NOISEDIODE_T1T1E2_2.S2P
! CHANNEL.1
! TR.MEASUREMENT
! CORRECTED.DATA
# GHZ S RI R 50.0
! FREQ.GHZ         S11RE         S11IM         S21RE         S21IM         S12RE         S12IM         S22RE         S22IM         
!; PortSelection: Port_12
   0.000050000     0.2411420   -0.0660427     0.2121213   -0.0309036     0.0069497    0.0019751    -0.0067920    0.0332162 
   0.000150025    -0.2456111   -0.1007110     0.1812409    0.3066002    -0.0010274   -0.0006283     0.0004100   -0.0070979 
   0.000250050    -0.5334437   -0.1509381    -0.0460052   -0.1925212    -0.0002664   -0.0001157     0.0004204   -0.0027406 
   0.000350075     1.0210120   -0.0681480     0.0055848   -0.0136116     0.0003633   -0.0007716    -0.0007197   -0.0011520 
   0.000450100     0.9588418   -0.0358933    -0.0045887   -0.0127695     0.0002858   -0.0007223    -0.0011306   -0.0008572 
   0.000550125     1.0337600   -0.0051847    -0.0047739   -0.0124776     0.0007492    0.0007368     0.0021998   -0.0000158 
   0.000650150     1.0377410   -0.0047496    -0.0092454   -0.0074838    -0.0009034   -0.0005455     0.0004673   -0.0019187 
   0.000750175     0.9864376   -0.0667226    -0.0098495   -0.0081929    -0.0004905   -0.0007900    -0.0002307    0.0016051 
   0.000850200     0.9629395   -0.0885385    -0.0053833   -0.0057420    -0.0006656    0.0000473    -0.0007353    0.0000366 
   0.000950225     1.0331110   -0.0274257    -0.0092992   -0.0041384    -0.0003320    0.0003335     0.0008192    0.0021978 
   0.001050250     0.9873162   -0.0280601    -0.0096970   -0.0038064    -0.0007692    0.0009902     0.0002662    0.0002318 
   0.001150275     1.0655890   -0.0350886    -0.0159605   -0.0031800    -0.0008299   -0.0001010     0.0006409    0.0014366 
   0.001250300     0.9616443   -0.0342230    -0.0076837   -0.0019937     0.0007615   -0.0008375     0.0012207    0.0005885 
   0.001350325     1.0075750   -0.0699751    -0.0104881   -0.0061419     0.0003136    0.0007045    -0.0003940    0.0003884 
   0.001450350     1.0261860   -0.0850917    -0.0084658   -0.0025218    -0.0004354   -0.0007061     0.0006153    0.0003479 
   0.001550375     0.9770688   -0.0944528    -0.0100701   -0.0065336    -0.0003143   -0.0003848     0.0011367    0.0002003 
   0.001650400     1.0159650   -0.0702089    -0.0066529    0.0013636    -0.0002284   -0.0006019    -0.0005570   -0.0000475 
   0.001750425     0.9873707   -0.0819876    -0.0036866    0.0010899     0.0005704   -0.0007977     0.0003271    0.0010418 
   0.001850450     0.9828130   -0.1086045    -0.0103801    0.0002346     0.0006030    0.0006261     0.0000924    0.0013292 
   0.001950475     1.0092290   -0.0272394    -0.0066273    0.0005599     0.0002886    0.0001935     0.0006920   -0.0003465 
   0.002050500     0.9666180   -0.0536594    -0.0011458    0.0034649     0.0004108    0.0000309     0.0012406   -0.0004696 
   0.002150525     1.0101230   -0.0499961    -0.0046185    0.0026964    -0.0006857    0.0005185     0.0006172    0.0006598 
   0.002250550     0.9794580   -0.0190717    -0.0034022    0.0045291    -0.0006002    0.0003181    -0.0000340   -0.0001619 
   0.002350575     0.9885033   -0.1365119    -0.0046094    0.0035371     0.0000913    0.0000672     0.0002772   -0.0010124 
   0.002450600     1.0159120   -0.1329555    -0.0052248    0.0020233    -0.0008881   -0.0001117    -0.0001883    0.0003650 
   0.002550625     0.9862782   -0.1018854    -0.0024881    0.0032783    -0.0003163   -0.0002026     0.0000327    0.0007536 
   0.002650650     0.9619278   -0.0851491    -0.0031838    0.0021293     0.0000211    0.0006108    -0.0000591    0.0003193 
   0.002750675     1.0077170   -0.0454349    -0.0044139    0.0029912    -0.0001304    0.0002393    -0.0004728    0.0007494 
   0.002850700     0.9778427   -0.1056227    -0.0020934    0.0015861     0.0001494   -0.0006070     0.0004529   -0.0006310 
   0.002950725     0.9561117   -0.0637059     0.0001403    0.0011254    -0.0007643    0.0000020     0.0013558   -0.0000925 
   0.003050750     0.9905519   -0.0828143    -0.0049675    0.0013027    -0.0001318   -0.0000238     0.0004008    0.0002401 
   0.003150775     0.9816036   -0.1511564    -0.0018149   -0.0006186    -0.0002186   -0.0000116    -0.0005808   -0.0000196 
   0.003250800     0.9746104   -0.1064523    -0.0031813    0.0019158     0.0004046    0.0003188     0.0002750    0.0008266 
   0.003350825     1.0234010   -0.0980681    -0.0013683    0.0046636     0.0001694    0.0011405     0.0004532    0.0007818 
   0.003450850     0.9353725   -0.1472631    -0.0022555    0.0031599    -0.0002241    0.0000924     0.0001122   -0.0005465 
   0.003550875     0.9335613   -0.1134380    -0.0011711    0.0035913    -0.0003302   -0.0004257     0.0000952   -0.0001010 
   0.003650900     0.9905135   -0.0999254    -0.0027108    0.0009407     0.0000009    0.0001931     0.0000758    0.0002514 
   0.003750925     0.9765720   -0.1195207     0.0001509    0.0017206    -0.0002115   -0.0004712     0.0000182    0.0001565 
   0.003850950     0.9580115   -0.1579476    -0.0014177   -0.0000150    -0.0000386    0.0005260     0.0003232    0.0004481 
   0.003950975     1.0112170   -0.1207799     0.0006843    0.0000743    -0.0001444   -0.0001272    -0.0003330   -0.0000175 
   0.004051001     0.9773011   -0.1692061    -0.0010043    0.0035106     0.0002488    0.0003661     0.0003561    0.0000521 
   0.004151026     0.9792116   -0.1386699    -0.0023672   -0.0010366    -0.0005294   -0.0000986     0.0000384    0.0002670 
   0.004251051     0.9822618   -0.1076104    -0.0003919    0.0025593     0.0005605   -0.0000046     0.0002305   -0.0000650 
   0.004351076     0.9789222   -0.1447849     0.0003123    0.0020599     0.0003853    0.0001122     0.0011506    0.0004418 
   0.004451101     0.9945681   -0.1590255    -0.0013355    0.0024680     0.0001836    0.0006061     0.0006085   -0.0005363 
   0.004551126     0.9991572   -0.1768193    -0.0026686    0.0023874     0.0007990   -0.0002432     0.0001326    0.0009197 
   0.004651151     0.9476591   -0.1635665    -0.0001762    0.0016722    -0.0001156   -0.0008608     0.0002018   -0.0000052 
   0.004751176     0.9608226   -0.1690307    -0.0016616    0.0000818    -0.0003560    0.0000901     0.0005521   -0.0001728 
   0.004851201     0.9199819   -0.1464029    -0.0002651    0.0011945    -0.0002005   -0.0002455     0.0006291    0.0005287 
   0.004951226     0.9414413   -0.1649815     0.0015736    0.0005512    -0.0001462   -0.0000465     0.0001207    0.0000081 
   0.005051251     0.9784394   -0.1872689    -0.0016272   -0.0006252    -0.0001252   -0.0002379     0.0000374   -0.0006676 
   0.005151276     0.9521523   -0.1557287    -0.0002109    0.0005055     0.0000643   -0.0002941    -0.0000071   -0.0004059 
   0.005251301     0.9385999   -0.1418036     0.0017183    0.0013327     0.0000587   -0.0003881     0.0008811    0.0008510 
   0.005351326     0.9253135   -0.1590901    -0.0022869    0.0014161    -0.0002936   -0.0001998     0.0005308    0.0001571 
   0.005451351     0.9410685   -0.1680233     0.0006767   -0.0003690     0.0001745    0.0001333     0.0008774    0.0002519 
   0.005551376     0.9705154   -0.1881403    -0.0013090    0.0015280     0.0000975   -0.0000761     0.0003686   -0.0001184 
   0.005651401     0.9390043   -0.1983431     0.0004781    0.0028297    -0.0005609   -0.0001419     0.0004288   -0.0005813 
   0.005751426     0.9329590   -0.1886962     0.0013107    0.0017523    -0.0001179    0.0001624     0.0005151   -0.0000241 
   0.005851451     0.9343734   -0.2160494     0.0011735    0.0015652     0.0003260   -0.0006458    -0.0001351    0.0000004 
   0.005951476     0.9351688   -0.1800234    -0.0010253    0.0024263     0.0003361   -0.0004480     0.0005018    0.0006342 
   0.006051501     0.9344361   -0.1891426     0.0017094   -0.0009063     0.0004529    0.0002685    -0.0001062    0.0003288 
   0.006151526     0.9442046   -0.1975705     0.0005239    0.0002657    -0.0000625    0.0000997     0.0002980   -0.0002591 
   0.006251551     0.9479912   -0.1733583     0.0006539    0.0001837    -0.0002657    0.0000468     0.0002728    0.0002741 
   0.006351576     0.9416982   -0.1749766    -0.0007190    0.0006074     0.0000423   -0.0000762    -0.0002666    0.0001248 
   0.006451601     0.9215375   -0.2248384     0.0010595   -0.0004763     0.0000036   -0.0001822     0.0006253   -0.0000287 
   0.006551626     0.9232295   -0.2291188    -0.0004537    0.0016421     0.0000226   -0.0005314    -0.0000648   -0.0004368 
   0.006651651     0.9172830   -0.2220211     0.0001227   -0.0002155     0.0003733    0.0002970    -0.0004915    0.0001815 
   0.006751676     0.9428995   -0.2295136    -0.0011732    0.0005164    -0.0003215   -0.0000343     0.0007869    0.0004975 
   0.006851701     0.9421527   -0.2242611    -0.0001444    0.0005851    -0.0000615    0.0001099    -0.0002248    0.0000764 
   0.006951726     0.9186642   -0.2175844    -0.0002467    0.0004381    -0.0003197    0.0001900     0.0008196    0.0008650 
   0.007051751     0.9377627   -0.2261613    -0.0005434   -0.0002667     0.0000736    0.0001654     0.0004010    0.0001002 
   0.007151776     0.9065468   -0.2198071    -0.0003409   -0.0011861    -0.0000876    0.0002201     0.0005186    0.0007144 
   0.007251801     0.9190156   -0.2110093    -0.0006452    0.0012405     0.0000972   -0.0003965    -0.0000434    0.0005425 
   0.007351826     0.9414123   -0.2451003     0.0008540    0.0010385     0.0003055    0.0001442     0.0014175    0.0003777 
   0.007451851     0.9197767   -0.2298470    -0.0002968   -0.0014310     0.0002721   -0.0004327     0.0002416   -0.0000542 
   0.007551876     0.9200985   -0.2488495     0.0004998    0.0010778     0.0002681    0.0001693     0.0006583   -0.0001828 
   0.007651901     0.9075686   -0.2672149     0.0012743   -0.0006939     0.0005186   -0.0001396     0.0006596   -0.0002380 
   0.007751926     0.9156124   -0.2607304     0.0003162    0.0006373     0.0000066    0.0004786     0.0003911   -0.0000347 
   0.007851951     0.9200419   -0.2530745    -0.0004223   -0.0000591    -0.0004040    0.0001915     0.0002544   -0.0000485 
   0.007951976     0.9108323   -0.2665871    -0.0002752   -0.0002081    -0.0001206    0.0000747     0.0009848   -0.0001471 
   0.008052001     0.9248278   -0.2637905     0.0003933   -0.0010568    -0.0001996    0.0000061     0.0004286    0.0004804 
   0.008152026     0.9167305   -0.2628323    -0.0010810   -0.0012138     0.0001047   -0.0001320     0.0004236    0.0001116 
   0.008252051     0.9026891   -0.2482891     0.0005738   -0.0000522    -0.0002179   -0.0003841     0.0005081    0.0003118 
   0.008352076     0.9066127   -0.2770219     0.0010284    0.0007271     0.0000195    0.0000371     0.0003658   -0.0000181 
   0.008452101     0.9214990   -0.2520318     0.0003967   -0.0004123    -0.0005767   -0.0003576     0.0003632   -0.0003743 
   0.008552126     0.9153067   -0.2549846    -0.0010500    0.0011395     0.0001876   -0.0000630     0.0001666    0.0004650 
   0.008652151     0.9043591   -0.2475945    -0.0007149    0.0016067    -0.0000531   -0.0000574     0.0002345   -0.0000864 
   0.008752176     0.9193967   -0.2482899     0.0005116    0.0003112     0.0000939   -0.0001762     0.0001688   -0.0005066 
   0.008852201     0.8922429   -0.2472056    -0.0004379    0.0000026     0.0001772   -0.0003525     0.0004296    0.0003746 
   0.008952226     0.9075645   -0.2608191    -0.0000884    0.0002585    -0.0001859   -0.0000522     0.0006534   -0.0003598 
   0.009052251     0.9237196   -0.2535218    -0.0009962    0.0008444     0.0001734   -0.0002900     0.0004066    0.0001793 
   0.009152276     0.8948972   -0.2636743    -0.0010520   -0.0001265     0.0003791    0.0002762     0.0006327   -0.0000469 
   0.009252301     0.8962529   -0.2728235     0.0005627    0.0004917     0.0000849    0.0001347     0.0005732   -0.0000857 
   0.009352326     0.8965530   -0.2902277     0.0024758    0.0008155    -0.0002115   -0.0002383     0.0004516    0.0001082 
   0.009452351     0.8982134   -0.2842359    -0.0002088   -0.0012496    -0.0001383    0.0000055     0.0002399    0.0001099 
   0.009552376     0.8991293   -0.2833239     0.0019589   -0.0015173     0.0000767    0.0000017     0.0006886    0.0001625 
   0.009652401     0.8854617   -0.2822915    -0.0003435    0.0009163     0.0001176   -0.0000866     0.0000076    0.0003676 
   0.009752426     0.8857703   -0.2854378    -0.0003924   -0.0009598    -0.0001066    0.0001556     0.0001831    0.0004037 
   0.009852451     0.8846661   -0.3019491    -0.0005101    0.0006191    -0.0000015   -0.0000512     0.0003619    0.0000848 
   0.009952476     0.8952656   -0.2923132     0.0010062   -0.0001289     0.0000295    0.0001750     0.0004203   -0.0002612 
   0.010052501     0.8779778   -0.2903380    -0.0008788    0.0001459     0.0000321    0.0002412     0.0000197   -0.0000123 
   0.010152526     0.8668571   -0.2822541    -0.0001926    0.0003495     0.0001255   -0.0001096     0.0001303    0.0001411 
   0.010252551     0.8609199   -0.2943162     0.0002530    0.0012393     0.0001123   -0.0000622     0.0002262   -0.0004623 
   0.010352576     0.8801265   -0.3111506    -0.0000385   -0.0005560     0.0000171    0.0000799     0.0005690    0.0003567 
   0.010452601     0.8824616   -0.2887686     0.0000433    0.0000466     0.0000111    0.0000285     0.0005352   -0.0003111 
   0.010552626     0.8585368   -0.3050754    -0.0004175   -0.0004432     0.0002976    0.0002632     0.0000581   -0.0000848 
   0.010652651     0.8750584   -0.3056427    -0.0003089    0.0007001    -0.0002419    0.0000708     0.0003670   -0.0000318 
   0.010752676     0.8811073   -0.3271997     0.0001058    0.0009033     0.0002860   -0.0001627     0.0004864    0.0000757 
   0.010852701     0.8704354   -0.2982372    -0.0004784    0.0008224     0.0000905   -0.0001642     0.0005782   -0.0001254 
   0.010952726     0.8876054   -0.3067704    -0.0002442    0.0005351    -0.0002430   -0.0000512     0.0000061   -0.0003479 
   0.011052751     0.8591362   -0.3249450     0.0008824   -0.0004802     0.0002002   -0.0000891     0.0001953    0.0002441 
   0.011152776     0.8718190   -0.3096586     0.0014504   -0.0006846     0.0000080    0.0000767     0.0003036    0.0001566 
   0.011252801     0.8649864   -0.3207078    -0.0010295   -0.0000323    -0.0004231    0.0000726    -0.0001048    0.0003284 
   0.011352826     0.8530656   -0.3449740    -0.0002695   -0.0005466     0.0000366    0.0003210     0.0006236    0.0000268 
   0.011452851     0.8551252   -0.3160255     0.0001823   -0.0002788    -0.0003985    0.0001906     0.0002291   -0.0000366 
   0.011552876     0.8484293   -0.3366011     0.0000964   -0.0005942     0.0001209   -0.0001356     0.0005696   -0.0000540 
   0.011652901     0.8464679   -0.3413367    -0.0005652   -0.0003601     0.0000875    0.0001403     0.0003441    0.0001859 
   0.011752926     0.8363388   -0.3419943     0.0000937   -0.0009505     0.0000412   -0.0000993     0.0004278    0.0002632 
   0.011852951     0.8563241   -0.3444203     0.0000123    0.0008952     0.0001535    0.0002787     0.0000758    0.0000582 
   0.011952976     0.8474540   -0.3222651    -0.0005044   -0.0015524    -0.0001526   -0.0003495     0.0000490    0.0003948 
   0.012053002     0.8358089   -0.3508280    -0.0001035   -0.0003263    -0.0001606   -0.0000632     0.0007561    0.0001196 
   0.012153027     0.8357115   -0.3502447    -0.0009682    0.0011255     0.0000055   -0.0002747     0.0002283   -0.0002235 
   0.012253052     0.8195816   -0.3477416    -0.0001291    0.0003506     0.0001173   -0.0001021     0.0006099    0.0003395 
   0.012353077     0.8475060   -0.3395421    -0.0009649    0.0000291    -0.0001436   -0.0001015     0.0003071    0.0001629 
   0.012453102     0.8309457   -0.3328980    -0.0004224    0.0000863     0.0002948   -0.0000520     0.0007820    0.0000438 
   0.012553127     0.8263798   -0.3701179    -0.0007220   -0.0007512     0.0001347   -0.0000701     0.0003282   -0.0003828 
   0.012653152     0.8495230   -0.3402052    -0.0001016    0.0007014     0.0000691    0.0001312     0.0004263   -0.0002172 
   0.012753177     0.8256220   -0.3571088    -0.0004730   -0.0001011    -0.0000337    0.0000168     0.0002699    0.0002516 
   0.012853202     0.8211287   -0.3378963     0.0004682    0.0004510    -0.0001850    0.0001035     0.0000373    0.0002524 
   0.012953227     0.8281516   -0.3447080     0.0001753    0.0000590     0.0001837   -0.0000077     0.0004683    0.0002510 
   0.013053252     0.8026375   -0.3626341    -0.0000253    0.0003615     0.0000674   -0.0000931     0.0006002   -0.0000809 
   0.013153277     0.8251427   -0.3514727    -0.0015084   -0.0009235    -0.0001920   -0.0003406     0.0003235    0.0000341 
   0.013253302     0.8142021   -0.3552987     0.0000944    0.0004855    -0.0000757   -0.0002124     0.0002273    0.0000721 
   0.013353327     0.8166367   -0.3474455     0.0011712    0.0006097     0.0002006   -0.0000650     0.0008613    0.0001443 
   0.013453352     0.8239655   -0.3497292    -0.0002268    0.0002785    -0.0000191   -0.0001900     0.0008086    0.0001744 
   0.013553377     0.7982667   -0.3500153    -0.0007968   -0.0002361     0.0001483   -0.0000056     0.0001820   -0.0000370 
   0.013653402     0.8134116   -0.3681325    -0.0010122    0.0003636     0.0001776    0.0001382     0.0003199    0.0000103 
   0.013753427     0.8130355   -0.3663981     0.0004909   -0.0003139     0.0001968    0.0001542     0.0000513    0.0001936 
   0.013853452     0.8083115   -0.3830819     0.0001405   -0.0003353    -0.0001180   -0.0000580     0.0003760    0.0004611 
   0.013953477     0.7963110   -0.3555735    -0.0007160    0.0001517     0.0001308    0.0000261     0.0003073   -0.0001060 
   0.014053502     0.8039129   -0.3806371    -0.0003292    0.0006738    -0.0001508    0.0001928     0.0000712   -0.0001221 
   0.014153527     0.8043096   -0.3737375    -0.0000964   -0.0002035     0.0000645    0.0002992     0.0003076    0.0003029 
   0.014253552     0.8015029   -0.3727568     0.0000321    0.0003648    -0.0001158    0.0000054     0.0009469   -0.0003608 
   0.014353577     0.7934436   -0.3694769     0.0005710    0.0003205     0.0002198   -0.0000613     0.0010546   -0.0000225 
   0.014453602     0.7871570   -0.3769501    -0.0006684   -0.0001519    -0.0000504   -0.0000341     0.0004151    0.0002092 
   0.014553627     0.7813494   -0.3762861    -0.0012503    0.0004187     0.0000797   -0.0000828     0.0004298   -0.0004466 
   0.014653652     0.7895693   -0.3780685     0.0004587    0.0004074    -0.0000692   -0.0001140     0.0005648   -0.0001748 
   0.014753677     0.7846584   -0.3800874     0.0004593   -0.0001044    -0.0000834    0.0001568     0.0002958    0.0000094 
   0.014853702     0.7925575   -0.3787172     0.0000033    0.0000803     0.0000434    0.0001201     0.0000607    0.0000619 
   0.014953727     0.7750415   -0.3886628    -0.0008095    0.0001848     0.0003001    0.0000181     0.0006281   -0.0001337 
   0.015053752     0.7818757   -0.3744731     0.0000837    0.0007401    -0.0000208    0.0001008     0.0005971    0.0001605 
   0.015153777     0.7807384   -0.3842895     0.0008234   -0.0004724     0.0000667   -0.0000760     0.0005204   -0.0003111 
   0.015253802     0.7750006   -0.3797936    -0.0003495   -0.0003162     0.0000777    0.0000885     0.0006542    0.0001415 
   0.015353827     0.7680729   -0.3881534     0.0001351   -0.0004138     0.0000764    0.0000800     0.0006087    0.0000518 
   0.015453852     0.7769258   -0.3910501    -0.0003115   -0.0001963    -0.0000920   -0.0002195     0.0002753    0.0001375 
   0.015553877     0.7606658   -0.3920140     0.0001942   -0.0003637     0.0000575   -0.0002193     0.0005527    0.0001447 
   0.015653902     0.7624395   -0.3945349    -0.0003897    0.0006256     0.0000860    0.0001721     0.0001589    0.0001434 
