! 26-Feb-26 1:42:37 PM
! E:\VNA_MEASUREMENTS\CAL_S11\CAL_LONGOPEN_T1T1E3_1.S2P
! CHANNEL.1
! TR.MEASUREMENT
! CORRECTED.DATA
# GHZ S RI R 50.0
! FREQ.GHZ         S11RE         S11IM         S21RE         S21IM         S12RE         S12IM         S22RE         S22IM         
!; PortSelection: Port_12
   0.000050000     0.7113332   -0.4388080    -0.5681033   -1.4422940    -0.0053785    0.0096313     0.0005312    0.0192226 
   0.000150025    -0.1689213    0.1045251     0.2378218   -0.2018972     0.0004492   -0.0013475     0.0030084   -0.0025413 
   0.000250050     0.1923827   -0.2851899    -0.1305507   -0.0670006    -0.0000139   -0.0002304    -0.0013632   -0.0021953 
   0.000350075     0.9599388   -0.0710321     0.0007953   -0.0058980    -0.0007306    0.0003081    -0.0017472   -0.0007585 
   0.000450100     1.0435370   -0.0382552    -0.0020040   -0.0109824     0.0000052   -0.0006493    -0.0013833   -0.0011188 
   0.000550125     1.0215710   -0.0763171    -0.0028693   -0.0065489     0.0003401    0.0018497     0.0009576   -0.0010442 
   0.000650150     1.0441700   -0.0432943    -0.0042511   -0.0076007    -0.0004944   -0.0004716    -0.0003483   -0.0001991 
   0.000750175     1.0151260   -0.0910077    -0.0115332   -0.0052098    -0.0000776   -0.0013181    -0.0014264    0.0000783 
   0.000850200     1.0098350   -0.0906563    -0.0080677   -0.0089260    -0.0001164   -0.0010056    -0.0008590    0.0000849 
   0.000950225     1.0338070   -0.0476148    -0.0078663   -0.0081335     0.0005088   -0.0000918     0.0000294    0.0014238 
   0.001050250     0.9900360   -0.0686709    -0.0146831   -0.0074793    -0.0000445    0.0005149    -0.0000256    0.0000822 
   0.001150275     0.9742463   -0.0490318    -0.0068417   -0.0073707    -0.0011622    0.0004477     0.0002208    0.0004221 
   0.001250300     0.9726100   -0.0581228    -0.0108054   -0.0031206     0.0004848   -0.0002846     0.0001457   -0.0003425 
   0.001350325     0.9831002   -0.0386753    -0.0109121   -0.0059188     0.0001676    0.0002913    -0.0007141    0.0000822 
   0.001450350     0.9946051   -0.0452676    -0.0093815   -0.0023019     0.0001994   -0.0002965    -0.0000657    0.0007614 
   0.001550375     0.9802137   -0.0522972    -0.0092164   -0.0037020     0.0005219   -0.0001944     0.0008277    0.0006862 
   0.001650400     1.0078880   -0.0428393    -0.0036963   -0.0020718     0.0003217   -0.0003314    -0.0001565   -0.0004162 
   0.001750425     0.9685220   -0.0680958    -0.0045513   -0.0013360    -0.0001603   -0.0001960     0.0003438   -0.0008639 
   0.001850450     0.9674541   -0.0540270    -0.0073029    0.0015916     0.0005748    0.0010205    -0.0004019    0.0013396 
   0.001950475     1.0248570   -0.0156456    -0.0095293    0.0011405    -0.0000126    0.0001636     0.0015552   -0.0001097 
   0.002050500     0.9887577   -0.0329431    -0.0093182   -0.0006110     0.0002388   -0.0000925    -0.0000071   -0.0002199 
   0.002150525     1.0349790   -0.0604732    -0.0046155    0.0030670     0.0001381   -0.0001594     0.0012662    0.0000920 
   0.002250550     0.9820902   -0.0756719    -0.0067085    0.0000081    -0.0003735   -0.0004272    -0.0000906   -0.0007461 
   0.002350575     0.9695551   -0.1475643    -0.0048390    0.0022279     0.0003808    0.0000468     0.0011870    0.0000399 
   0.002450600     0.9911382   -0.0533521    -0.0050334    0.0032037    -0.0004843    0.0011819     0.0003189    0.0003771 
   0.002550625     0.9691784   -0.0838573    -0.0045477    0.0000971     0.0007822    0.0001179     0.0001289   -0.0000598 
   0.002650650     0.9795322   -0.0472472    -0.0058004    0.0038368    -0.0004397    0.0000944     0.0003196    0.0010987 
   0.002750675     0.9915777   -0.0609038    -0.0027995   -0.0006514     0.0001830    0.0004721     0.0006068   -0.0004448 
   0.002850700     0.9988618   -0.0852042    -0.0021852    0.0014252     0.0004548   -0.0005273    -0.0006271    0.0000029 
   0.002950725     0.9609810   -0.0928891    -0.0057866    0.0009662     0.0002428    0.0005864     0.0009269    0.0004210 
   0.003050750     0.9947750   -0.0772422    -0.0013672    0.0030827    -0.0001634    0.0006310     0.0001206   -0.0008165 
   0.003150775     0.9568029   -0.1357494    -0.0033500    0.0035380    -0.0003423    0.0004416    -0.0005389    0.0006487 
   0.003250800     0.9893911   -0.0774605    -0.0025651    0.0032103     0.0005988   -0.0003215     0.0004681   -0.0000837 
   0.003350825     0.9834450   -0.0855739    -0.0026756    0.0019087    -0.0005326   -0.0000656     0.0001482    0.0016214 
   0.003450850     0.9457076   -0.1174049     0.0001416    0.0030107    -0.0001462    0.0001459     0.0003416   -0.0002100 
   0.003550875     0.9575763   -0.1096617    -0.0012783   -0.0003641     0.0000015    0.0011997    -0.0001584   -0.0004091 
   0.003650900     0.9884025   -0.0933560    -0.0016833    0.0031242    -0.0003965    0.0003446     0.0006756   -0.0001430 
   0.003750925     0.9759576   -0.1193254    -0.0038701    0.0033032     0.0000576   -0.0000508     0.0001513   -0.0000082 
   0.003850950     0.9809071   -0.1541921    -0.0028304    0.0005020    -0.0002762   -0.0005514     0.0005014   -0.0000387 
   0.003950975     1.0009970   -0.1134008    -0.0019557    0.0031551     0.0005580   -0.0001309     0.0002516    0.0000132 
   0.004051001     0.9671766   -0.1531353    -0.0014144   -0.0011902     0.0000383   -0.0008488     0.0006181    0.0001036 
   0.004151026     0.9993339   -0.1120155    -0.0006840   -0.0005960    -0.0001269   -0.0003888     0.0006066    0.0001133 
   0.004251051     0.9942577   -0.1189092    -0.0008810    0.0037144    -0.0000716   -0.0001731    -0.0007518   -0.0005578 
   0.004351076     0.9770949   -0.1166873     0.0013447    0.0035015    -0.0003698    0.0002505     0.0007937    0.0010868 
   0.004451101     0.9808422   -0.1766931    -0.0007408    0.0045663    -0.0002795    0.0004545     0.0001056   -0.0005511 
   0.004551126     0.9859833   -0.1565058     0.0006715    0.0024308    -0.0000364    0.0004829    -0.0005304    0.0004095 
   0.004651151     0.9674646   -0.1322277    -0.0000089   -0.0015194    -0.0001172   -0.0002375     0.0005254   -0.0000541 
   0.004751176     0.9867293   -0.1733288     0.0006493    0.0006287     0.0004904   -0.0004961     0.0005158    0.0005330 
   0.004851201     0.9590818   -0.1338353    -0.0005594   -0.0005631     0.0003827   -0.0006656     0.0006753    0.0006062 
   0.004951226     0.9648172   -0.1429317     0.0001807    0.0011555     0.0002156    0.0004892     0.0001870   -0.0005901 
   0.005051251     1.0098550   -0.1652041    -0.0004143    0.0001470    -0.0001347    0.0003490     0.0005936   -0.0001563 
   0.005151276     0.9556603   -0.1437802     0.0017099    0.0018721     0.0003660    0.0001976     0.0006184    0.0000823 
   0.005251301     0.9651309   -0.1483939    -0.0000719   -0.0004186     0.0005585    0.0000264     0.0005337    0.0012772 
   0.005351326     0.9476842   -0.1355816     0.0016686    0.0018063     0.0000048    0.0000462     0.0008968    0.0002014 
   0.005451351     0.9721361   -0.1500422    -0.0004324    0.0010033    -0.0001922    0.0000355     0.0003483   -0.0003758 
   0.005551376     0.9957383   -0.1687429    -0.0006065    0.0000728    -0.0000397   -0.0003627     0.0002610   -0.0000758 
   0.005651401     0.9782069   -0.1753060    -0.0013162    0.0000751     0.0006518    0.0003464     0.0001661   -0.0004037 
   0.005751426     0.9561301   -0.1651268    -0.0004555    0.0009655     0.0000228    0.0004631     0.0005544    0.0001760 
   0.005851451     0.9788381   -0.2045899    -0.0008299   -0.0005015    -0.0004568    0.0001168    -0.0003746   -0.0007152 
   0.005951476     0.9266696   -0.1453765    -0.0013963    0.0014302    -0.0002122   -0.0000396     0.0002229    0.0000515 
   0.006051501     0.9707448   -0.2059279     0.0007562   -0.0005305     0.0001083    0.0001565    -0.0001338   -0.0002022 
   0.006151526     0.9677454   -0.1828767    -0.0007172    0.0000408     0.0000604    0.0000755     0.0009307   -0.0002979 
   0.006251551     0.9745228   -0.1952991    -0.0018240    0.0001906    -0.0005407    0.0000781     0.0004065    0.0001689 
   0.006351576     0.9663502   -0.1858860    -0.0014261    0.0011405     0.0001378    0.0000847    -0.0001310    0.0002548 
   0.006451601     0.9737748   -0.1808215    -0.0003456    0.0000973     0.0000836    0.0000727     0.0003612    0.0003830 
   0.006551626     0.9293211   -0.2116051    -0.0001349    0.0001484     0.0004820   -0.0000681    -0.0003879   -0.0005441 
   0.006651651     0.9492297   -0.2126128     0.0002688   -0.0011043     0.0003991    0.0002740     0.0003232    0.0003483 
   0.006751676     0.9544080   -0.2141531     0.0005372   -0.0006370     0.0002338    0.0001319     0.0003287    0.0001064 
   0.006851701     0.9603118   -0.2292521     0.0011547    0.0009843     0.0001706   -0.0002083     0.0000048    0.0000131 
   0.006951726     0.9360315   -0.2269552    -0.0003964    0.0029074    -0.0002554    0.0001500     0.0008381    0.0007460 
   0.007051751     0.9697059   -0.2202563     0.0000170    0.0002458    -0.0004224    0.0002776     0.0003658   -0.0005084 
   0.007151776     0.9440203   -0.2110694    -0.0001770   -0.0011798     0.0000125    0.0000218     0.0006788    0.0000119 
   0.007251801     0.9630793   -0.1998698     0.0009545    0.0009262     0.0006265    0.0001129     0.0001562   -0.0006184 
   0.007351826     0.9563796   -0.2329390    -0.0014941    0.0010101     0.0002296   -0.0002232     0.0003575    0.0003022 
   0.007451851     0.9307161   -0.2198282    -0.0003729   -0.0002102    -0.0000236   -0.0001742     0.0006139   -0.0001818 
   0.007551876     0.9407885   -0.2303587     0.0023333    0.0021672    -0.0000068    0.0001410     0.0005196   -0.0003353 
   0.007651901     0.9530289   -0.2462536     0.0007772    0.0009248    -0.0004469    0.0002304     0.0002715    0.0000419 
   0.007751926     0.9589896   -0.2357105    -0.0001655    0.0002364    -0.0002168    0.0002036    -0.0002242   -0.0005280 
   0.007851951     0.9628055   -0.2208604    -0.0016692    0.0012145     0.0000570    0.0003239     0.0002095   -0.0002798 
   0.007951976     0.9640338   -0.2538196     0.0004863   -0.0000132    -0.0005068   -0.0000117     0.0005019    0.0003946 
   0.008052001     0.9465055   -0.2412433    -0.0000280    0.0002994    -0.0000127    0.0003994     0.0005445    0.0001814 
   0.008152026     0.9457195   -0.2451882    -0.0000906   -0.0004838     0.0000465   -0.0003886     0.0003401    0.0000203 
   0.008252051     0.9533012   -0.2433748     0.0001804    0.0014031     0.0001559    0.0001183     0.0010089    0.0010315 
   0.008352076     0.9545077   -0.2601307    -0.0000809    0.0007775     0.0002332   -0.0003699     0.0005918    0.0000553 
   0.008452101     0.9344500   -0.2477680    -0.0002585   -0.0005270    -0.0000796   -0.0001275     0.0003073   -0.0000996 
   0.008552126     0.9371024   -0.2545001    -0.0000893   -0.0005925     0.0006350   -0.0000143     0.0005269    0.0004011 
   0.008652151     0.9514821   -0.2616142    -0.0007129   -0.0004228     0.0002665    0.0000974     0.0005407    0.0002783 
   0.008752176     0.9575583   -0.2594670    -0.0000593    0.0013039    -0.0002783   -0.0003080     0.0000678   -0.0004961 
   0.008852201     0.9264617   -0.2576080    -0.0013859    0.0013882     0.0002894   -0.0003731     0.0003803    0.0000911 
   0.008952226     0.9621884   -0.2539416    -0.0009616   -0.0004018    -0.0001402   -0.0000890     0.0008901   -0.0001546 
   0.009052251     0.9457427   -0.2636439    -0.0000268    0.0010704    -0.0002251   -0.0002446    -0.0000496   -0.0000251 
   0.009152276     0.9327316   -0.2732948    -0.0001219   -0.0015591     0.0005544    0.0001351     0.0006743   -0.0006093 
   0.009252301     0.9410226   -0.2769519     0.0004735   -0.0000624    -0.0004400   -0.0000236     0.0002373   -0.0000105 
   0.009352326     0.9559056   -0.3058674     0.0015103    0.0001759    -0.0002853   -0.0004656     0.0000327   -0.0001949 
   0.009452351     0.9352881   -0.2942881     0.0006057    0.0007392    -0.0000198   -0.0000915     0.0003793    0.0000230 
   0.009552376     0.9434091   -0.3075741    -0.0005337    0.0012163    -0.0003177   -0.0002331     0.0003675    0.0000914 
   0.009652401     0.9256969   -0.3050175    -0.0006629   -0.0001451    -0.0002847    0.0000880    -0.0002188    0.0003395 
   0.009752426     0.9215737   -0.3059959     0.0008312   -0.0007891    -0.0001907    0.0000950     0.0005074    0.0004517 
   0.009852451     0.9277309   -0.3248356    -0.0003110   -0.0007212    -0.0000998    0.0000266     0.0004238   -0.0002079 
   0.009952476     0.9371648   -0.3318674    -0.0002561   -0.0000585     0.0001954    0.0003193     0.0000164    0.0001380 
   0.010052501     0.9181706   -0.3025901    -0.0000003    0.0006974     0.0003066    0.0000144    -0.0002420    0.0001332 
   0.010152526     0.9138316   -0.3079793     0.0007442    0.0006881    -0.0000743   -0.0000193     0.0004152    0.0003124 
   0.010252551     0.9374697   -0.3307612     0.0002569   -0.0000218    -0.0001912   -0.0004096     0.0004158    0.0004131 
   0.010352576     0.9253444   -0.3296687    -0.0000526   -0.0001943     0.0005670    0.0001040     0.0001484    0.0002578 
   0.010452601     0.9371902   -0.3229657    -0.0003063    0.0011372     0.0001027   -0.0001573     0.0006238   -0.0006188 
   0.010552626     0.8952720   -0.3326070     0.0000916   -0.0002965    -0.0002459    0.0001199     0.0004306    0.0004882 
   0.010652651     0.9209224   -0.3302146    -0.0001853    0.0004481     0.0003607    0.0003847     0.0004938   -0.0004266 
   0.010752676     0.9150900   -0.3545440     0.0001180   -0.0004643    -0.0002054    0.0001189     0.0005836    0.0000551 
   0.010852701     0.9210991   -0.3317661    -0.0005226   -0.0004340     0.0001342    0.0002265     0.0002651    0.0000498 
   0.010952726     0.9248414   -0.3324675     0.0004114   -0.0007690     0.0000837   -0.0000912    -0.0001401   -0.0001329 
   0.011052751     0.9182469   -0.3486395     0.0005512   -0.0002743    -0.0000403    0.0001559     0.0003553    0.0004437 
   0.011152776     0.9113829   -0.3588523     0.0000509   -0.0001209    -0.0001103    0.0002045     0.0000444    0.0000985 
   0.011252801     0.9082684   -0.3590913    -0.0001647   -0.0003871    -0.0000260    0.0007575    -0.0002036    0.0001070 
   0.011352826     0.9006326   -0.3739376     0.0004740    0.0005852     0.0002170    0.0001628     0.0001708   -0.0000652 
   0.011452851     0.8847003   -0.3810425    -0.0002549    0.0001017    -0.0002077    0.0001442     0.0002163   -0.0000474 
   0.011552876     0.9026889   -0.3741850     0.0002968   -0.0003844    -0.0001518   -0.0001653     0.0003587   -0.0002184 
   0.011652901     0.8942707   -0.3879296    -0.0011351   -0.0012520    -0.0000518    0.0001967     0.0003405    0.0003285 
   0.011752926     0.8871913   -0.3691541    -0.0011970   -0.0005474    -0.0000856    0.0001266     0.0004176   -0.0001498 
   0.011852951     0.9117416   -0.3926619     0.0001660   -0.0001283    -0.0001036   -0.0000106     0.0002820    0.0000007 
   0.011952976     0.8878170   -0.3971355     0.0002308    0.0007687    -0.0000180    0.0000655     0.0004985    0.0000018 
   0.012053002     0.8868039   -0.4106739    -0.0008269   -0.0003810    -0.0002772    0.0004260     0.0006038    0.0005427 
   0.012153027     0.8801356   -0.4103704    -0.0003172    0.0004692    -0.0000840   -0.0000689     0.0004667   -0.0000696 
   0.012253052     0.8814331   -0.4137385    -0.0000395   -0.0002258     0.0004522    0.0001782     0.0004170    0.0002272 
   0.012353077     0.8864744   -0.3970821     0.0001873    0.0000974     0.0001950   -0.0002300     0.0003820   -0.0002004 
   0.012453102     0.8943308   -0.4094033    -0.0001384    0.0000828    -0.0003563    0.0001097     0.0006151    0.0000340 
   0.012553127     0.8531755   -0.4337652     0.0010079    0.0012730    -0.0001083    0.0001277     0.0006287   -0.0003007 
   0.012653152     0.8986179   -0.4156689    -0.0002746    0.0007139     0.0000006   -0.0005211     0.0005058    0.0001364 
   0.012753177     0.8679279   -0.4299195    -0.0002771    0.0009678    -0.0001760   -0.0001621     0.0002238   -0.0002581 
   0.012853202     0.8681636   -0.4107237    -0.0000489    0.0004323    -0.0000308   -0.0000011     0.0003462    0.0004244 
   0.012953227     0.8763901   -0.4368074     0.0008418   -0.0000844     0.0000291    0.0003191     0.0004352    0.0002710 
   0.013053252     0.8407525   -0.4546128     0.0006610   -0.0007261    -0.0000347   -0.0000945     0.0004936   -0.0002329 
   0.013153277     0.8619918   -0.4436392     0.0001314   -0.0010130    -0.0000431    0.0001184     0.0003658    0.0001105 
   0.013253302     0.8574876   -0.4491282    -0.0010488   -0.0005255     0.0001645   -0.0000314     0.0003777   -0.0001679 
   0.013353327     0.8536453   -0.4541667    -0.0011858   -0.0012605     0.0001297   -0.0001687     0.0003646   -0.0000209 
   0.013453352     0.8544084   -0.4507261     0.0003697   -0.0016013     0.0000274    0.0000241     0.0006647    0.0002944 
   0.013553377     0.8279090   -0.4573240    -0.0002204    0.0003731     0.0001190    0.0001739     0.0002981    0.0000647 
   0.013653402     0.8403993   -0.4626565    -0.0001910    0.0006335    -0.0000641   -0.0002717     0.0004536    0.0004490 
   0.013753427     0.8396004   -0.4725920     0.0006040    0.0000263    -0.0005910   -0.0002940     0.0003434   -0.0001980 
   0.013853452     0.8414752   -0.5018576    -0.0000956    0.0000943     0.0000615   -0.0001738     0.0004790    0.0003393 
   0.013953477     0.8231598   -0.4723272     0.0003092   -0.0006638    -0.0002947   -0.0001738     0.0005969    0.0000738 
   0.014053502     0.8265899   -0.5089589     0.0007201    0.0008548     0.0002703   -0.0002056    -0.0001376   -0.0001586 
   0.014153527     0.8254184   -0.4999871     0.0003443   -0.0008148     0.0000640   -0.0000780     0.0002503    0.0002423 
   0.014253552     0.8220006   -0.5033854    -0.0000160    0.0009550    -0.0000762   -0.0001277     0.0004567   -0.0004976 
   0.014353577     0.7996034   -0.5137896     0.0001830    0.0002670     0.0000524    0.0001897     0.0005702   -0.0000006 
   0.014453602     0.7914978   -0.5044656     0.0001977    0.0000571     0.0001106   -0.0000916     0.0000268    0.0000484 
   0.014553627     0.7998985   -0.5220793    -0.0000898    0.0010214    -0.0003075   -0.0001575     0.0005224    0.0001361 
   0.014653652     0.8022853   -0.5326115     0.0003624   -0.0005801     0.0002160    0.0002269     0.0005646    0.0001435 
   0.014753677     0.7843651   -0.5283982     0.0005576    0.0004965     0.0001440    0.0000744     0.0005066    0.0001354 
   0.014853702     0.7950400   -0.5442595     0.0000572   -0.0007050     0.0001737   -0.0001707     0.0003799   -0.0001536 
   0.014953727     0.7695267   -0.5614015     0.0002259   -0.0003060    -0.0000788    0.0001123     0.0002106   -0.0000698 
   0.015053752     0.7704999   -0.5551006    -0.0002190   -0.0007209    -0.0000294   -0.0002079     0.0002092    0.0006212 
   0.015153777     0.7657350   -0.5674896     0.0010426    0.0003025     0.0000207   -0.0000059     0.0004121   -0.0002254 
   0.015253802     0.7584820   -0.5694281    -0.0001632   -0.0000263    -0.0000091   -0.0001622     0.0004087    0.0001205 
   0.015353827     0.7498834   -0.5730262     0.0002585    0.0004139    -0.0000362   -0.0000592     0.0007098   -0.0001485 
   0.015453852     0.7489331   -0.5883259    -0.0004615   -0.0002919    -0.0000787   -0.0001662     0.0004750    0.0002674 
   0.015553877     0.7210040   -0.5989601    -0.0000917   -0.0004187     0.0002351   -0.0000695     0.0004309   -0.0001994 
   0.015653902     0.7198943   -0.6033093    -0.0007556    0.0002915     0.0000575    0.0003726     0.0000747    0.0000462 
