! 26-Feb-26 1:33:52 PM
! E:\VNA_MEASUREMENTS\CAL_S11\CAL_LONGOPEN_T1T1E3_0.S2P
! CHANNEL.1
! TR.MEASUREMENT
! CORRECTED.DATA
# GHZ S RI R 50.0
! FREQ.GHZ         S11RE         S11IM         S21RE         S21IM         S12RE         S12IM         S22RE         S22IM         
!; PortSelection: Port_12
   0.000050000     0.2728287    0.1789640    -0.1263668   -0.2969851    -0.0033941   -0.0011864    -0.0116559    0.0168096 
   0.000150025     0.0031811    0.0150615    -0.2895552   -0.3785423     0.0004109    0.0004727     0.0029618   -0.0027115 
   0.000250050     1.4829130   -1.1615630    -1.0330460    0.3661441    -0.0009588    0.0011342     0.0008440   -0.0027473 
   0.000350075     0.9902104   -0.0345668    -0.0000930   -0.0057748     0.0000280    0.0001098    -0.0013023   -0.0014463 
   0.000450100     1.0066880   -0.0062417    -0.0022728   -0.0086158     0.0010530   -0.0003279    -0.0009265   -0.0011315 
   0.000550125     1.0224610   -0.0557388    -0.0022405   -0.0088000     0.0020067    0.0003432    -0.0005974    0.0007795 
   0.000650150     1.0030210   -0.0347357    -0.0032438   -0.0120836     0.0005242    0.0003656     0.0005181   -0.0008825 
   0.000750175     0.9850831   -0.0777641    -0.0083536   -0.0044723     0.0005173   -0.0001535     0.0005821    0.0000906 
   0.000850200     1.0227260   -0.0754231    -0.0068625   -0.0083239    -0.0000158   -0.0010453    -0.0011486   -0.0009734 
   0.000950225     1.0592580   -0.0282214    -0.0109363   -0.0074666    -0.0008919    0.0002590     0.0008925    0.0012675 
   0.001050250     1.0031620   -0.0538599    -0.0110372   -0.0070840    -0.0001185    0.0002121     0.0003389    0.0001390 
   0.001150275     1.0012030   -0.0428820    -0.0073607   -0.0048931     0.0003022   -0.0006871     0.0006940    0.0008837 
   0.001250300     0.9368469   -0.0563705    -0.0088459   -0.0047967    -0.0005778   -0.0003752     0.0006841    0.0002919 
   0.001350325     0.9866360   -0.0583231    -0.0074946   -0.0054894     0.0007527   -0.0000364    -0.0002571    0.0001591 
   0.001450350     0.9993555   -0.0304605    -0.0116070    0.0028201    -0.0009277   -0.0014595    -0.0007569   -0.0002199 
   0.001550375     0.9425564   -0.0768595    -0.0093401   -0.0047107     0.0003580   -0.0000006     0.0014948   -0.0000406 
   0.001650400     1.0196960   -0.0547191    -0.0062168   -0.0033822     0.0003012    0.0008234    -0.0001361    0.0002390 
   0.001750425     0.9629261   -0.0322580    -0.0099551    0.0041819    -0.0003768    0.0008822     0.0006819    0.0004966 
   0.001850450     0.9748528   -0.0569904    -0.0052816   -0.0014395    -0.0002604   -0.0002640     0.0001584    0.0007946 
   0.001950475     1.0081810    0.0031373    -0.0074699   -0.0000460    -0.0002490    0.0005403     0.0010637   -0.0003459 
   0.002050500     0.9581439   -0.0556434    -0.0048537    0.0011325     0.0000211    0.0000261     0.0009564   -0.0002219 
   0.002150525     0.9898104   -0.0615772    -0.0056138    0.0017662     0.0000156    0.0003724     0.0009244    0.0001062 
   0.002250550     0.9498955   -0.0557185    -0.0068654    0.0019096     0.0005731    0.0008633     0.0003895   -0.0009852 
   0.002350575     0.9944491   -0.0859815    -0.0043689    0.0031310    -0.0003152    0.0003985     0.0011332    0.0002181 
   0.002450600     1.0076370   -0.0872339    -0.0057605    0.0024996     0.0002287   -0.0003361     0.0004609    0.0007928 
   0.002550625     0.9406134   -0.0590571    -0.0050595    0.0019421     0.0001967   -0.0002348    -0.0002215    0.0006951 
   0.002650650     1.0312520   -0.0385152    -0.0040917    0.0025235    -0.0001618   -0.0000833    -0.0002346    0.0007358 
   0.002750675     0.9895292   -0.0491964    -0.0038804    0.0004570    -0.0001561   -0.0000975     0.0000787    0.0003694 
   0.002850700     1.0007260   -0.0985829    -0.0008029    0.0030306     0.0005920    0.0003123    -0.0002430   -0.0001348 
   0.002950725     0.9884076   -0.0649210    -0.0032214    0.0010371    -0.0007836   -0.0002232     0.0005523    0.0000498 
   0.003050750     0.9333167   -0.0700472    -0.0015511    0.0030367     0.0009627   -0.0001071     0.0006950    0.0001852 
   0.003150775     0.9233716   -0.1357949    -0.0015308    0.0016642     0.0003067   -0.0000323     0.0001416   -0.0001006 
   0.003250800     0.9779333   -0.0927966    -0.0023037    0.0028327     0.0001939   -0.0002377     0.0005588   -0.0001192 
   0.003350825     0.9912722   -0.0706072    -0.0002106    0.0029565    -0.0000046   -0.0008483    -0.0003440    0.0005532 
   0.003450850     0.9516218   -0.1153431    -0.0019635    0.0017381    -0.0000193    0.0000970     0.0000384   -0.0013877 
   0.003550875     0.9769797   -0.0933792    -0.0003026    0.0022470     0.0002218   -0.0001313    -0.0005583   -0.0001739 
   0.003650900     0.9649493   -0.1111391     0.0005941    0.0028008     0.0006657    0.0010457     0.0003014   -0.0001761 
   0.003750925     0.9474576   -0.1128318    -0.0011941    0.0002923     0.0002433    0.0001410     0.0003562   -0.0000673 
   0.003850950     1.0021100   -0.1256240    -0.0006463    0.0020535     0.0004185   -0.0001886    -0.0001229    0.0009184 
   0.003950975     0.9775744   -0.1248363    -0.0007097    0.0033312    -0.0001355   -0.0002056     0.0005765   -0.0002903 
   0.004051001     0.9617023   -0.1610278    -0.0013123    0.0033194     0.0002956    0.0002303     0.0002594    0.0003768 
   0.004151026     0.9930046   -0.1374850    -0.0004561    0.0002297    -0.0000594   -0.0000320    -0.0001485   -0.0000089 
   0.004251051     0.9843085   -0.1481102    -0.0006635    0.0007119    -0.0002342   -0.0002250     0.0000819    0.0002187 
   0.004351076     0.9549726   -0.0965211    -0.0016830    0.0023825    -0.0003239    0.0008161     0.0010011    0.0002718 
   0.004451101     0.9781659   -0.1400355    -0.0012992    0.0007957     0.0002258    0.0005856     0.0003856   -0.0004972 
   0.004551126     1.0017510   -0.1561427    -0.0009690    0.0018622     0.0000610    0.0004378    -0.0003621    0.0009418 
   0.004651151     0.9857156   -0.1359920    -0.0003648    0.0000809    -0.0001148   -0.0001840     0.0005750    0.0002354 
   0.004751176     0.9810271   -0.1758585     0.0003270    0.0013150     0.0000659   -0.0003596    -0.0001420   -0.0006242 
   0.004851201     0.9561079   -0.1606459     0.0006379   -0.0007926    -0.0004343   -0.0002006     0.0006796    0.0002509 
   0.004951226     0.9448435   -0.1317936    -0.0012865    0.0006046     0.0005808   -0.0004292     0.0005773    0.0000403 
   0.005051251     1.0086280   -0.1721751    -0.0008496    0.0033320    -0.0000447    0.0000483    -0.0001557   -0.0005445 
   0.005151276     0.9779333   -0.1345655     0.0000623    0.0004920     0.0004261   -0.0001206     0.0005786   -0.0001018 
   0.005251301     0.9485324   -0.1685245    -0.0007538   -0.0002310     0.0001672    0.0004714     0.0009283    0.0003414 
   0.005351326     0.9762539   -0.1459581     0.0002292    0.0005491    -0.0000893    0.0006028     0.0004615    0.0006000 
   0.005451351     0.9421244   -0.1533825    -0.0003396   -0.0001586    -0.0000100    0.0000654     0.0004009   -0.0001821 
   0.005551376     0.9976887   -0.1757082     0.0007747    0.0002827    -0.0001169    0.0005457     0.0002258   -0.0004264 
   0.005651401     0.9674832   -0.1675358    -0.0003905    0.0008027     0.0002188    0.0000297    -0.0001104   -0.0001259 
   0.005751426     0.9461728   -0.1915692    -0.0016056    0.0015498     0.0000640    0.0001433     0.0005695   -0.0004328 
   0.005851451     0.9603015   -0.2120296    -0.0019819    0.0031171     0.0001458   -0.0002619    -0.0000930   -0.0001988 
   0.005951476     0.9462014   -0.1644739    -0.0002648    0.0012799     0.0003928   -0.0002168     0.0003628    0.0003774 
   0.006051501     0.9566171   -0.1990381     0.0000438   -0.0017644    -0.0000739    0.0004015    -0.0004023    0.0005132 
   0.006151526     0.9545736   -0.1897374    -0.0004062    0.0014125    -0.0002347   -0.0001336     0.0006971   -0.0005844 
   0.006251551     0.9748278   -0.1752081    -0.0000379    0.0022686    -0.0001266   -0.0002446    -0.0000351    0.0000030 
   0.006351576     0.9640424   -0.2006042    -0.0001733    0.0009643    -0.0000476    0.0002890     0.0000146    0.0003339 
   0.006451601     0.9670554   -0.1878036     0.0015944    0.0017670    -0.0003797   -0.0002893    -0.0001603    0.0001837 
   0.006551626     0.9523001   -0.1914484     0.0007087    0.0014217    -0.0001184    0.0001654    -0.0000749   -0.0004920 
   0.006651651     0.9440411   -0.1981271    -0.0007029    0.0002581    -0.0003282   -0.0001813    -0.0000344    0.0001013 
   0.006751676     0.9491756   -0.2098544    -0.0006760   -0.0001921    -0.0003164   -0.0002962     0.0003951    0.0003060 
   0.006851701     0.9587012   -0.2299677    -0.0001109    0.0005896     0.0002237    0.0004784    -0.0001859    0.0003785 
   0.006951726     0.9261498   -0.2253092    -0.0012273    0.0008237    -0.0002648   -0.0003236     0.0007981    0.0006432 
   0.007051751     0.9549004   -0.1959441     0.0008051   -0.0009553    -0.0003241   -0.0001321     0.0004935   -0.0002639 
   0.007151776     0.9389889   -0.2118447    -0.0009417    0.0006997    -0.0005165   -0.0000267     0.0006400    0.0005217 
   0.007251801     0.9625050   -0.2039644    -0.0004893    0.0012239     0.0002596    0.0003469     0.0003428   -0.0000129 
   0.007351826     0.9642262   -0.2497949     0.0008928   -0.0003460     0.0002049    0.0001054     0.0009439    0.0001616 
   0.007451851     0.9435625   -0.2279591     0.0007079   -0.0002391    -0.0001887   -0.0000515    -0.0000030   -0.0005767 
   0.007551876     0.9524373   -0.2293784     0.0007579   -0.0002762     0.0002788    0.0000917     0.0004919    0.0001330 
   0.007651901     0.9499969   -0.2447929     0.0001989   -0.0005356     0.0003891   -0.0001270    -0.0000458    0.0003161 
   0.007751926     0.9432852   -0.2328271     0.0003432   -0.0001945     0.0005072    0.0001003     0.0002024   -0.0007453 
   0.007851951     0.9456471   -0.2358430    -0.0000681   -0.0009081    -0.0000301   -0.0001533     0.0001963   -0.0002823 
   0.007951976     0.9507121   -0.2607364    -0.0006211   -0.0017121     0.0004426   -0.0001677     0.0004848    0.0004752 
   0.008052001     0.9519992   -0.2502599    -0.0002455   -0.0003989    -0.0000915    0.0001125     0.0004940    0.0003604 
   0.008152026     0.9391282   -0.2387760     0.0007630    0.0001970    -0.0002585    0.0000998     0.0008027    0.0002739 
   0.008252051     0.9387541   -0.2273701     0.0007478    0.0008432     0.0005690    0.0003998     0.0005585    0.0005967 
   0.008352076     0.9508556   -0.2596985     0.0007127    0.0007432     0.0002751    0.0003559     0.0006628    0.0001220 
   0.008452101     0.9567839   -0.2320027    -0.0023489    0.0001587    -0.0000972    0.0001295     0.0002585   -0.0003579 
   0.008552126     0.9340217   -0.2524235    -0.0006208   -0.0000683    -0.0005273    0.0000768    -0.0000650    0.0003587 
   0.008652151     0.9449120   -0.2569118     0.0005074    0.0001741    -0.0000043   -0.0000413     0.0007541   -0.0002017 
   0.008752176     0.9447750   -0.2563098     0.0001294   -0.0004400    -0.0003754    0.0001158    -0.0003132   -0.0005761 
   0.008852201     0.9435266   -0.2519819     0.0007749   -0.0005090     0.0002172   -0.0001635     0.0002827    0.0006331 
   0.008952226     0.9520139   -0.2742534    -0.0000511    0.0012723     0.0001168    0.0003782     0.0002051   -0.0003846 
   0.009052251     0.9386154   -0.2831889    -0.0000798    0.0007961    -0.0002555   -0.0001136     0.0003762   -0.0002479 
   0.009152276     0.9458835   -0.2718970    -0.0001014   -0.0007629     0.0001632   -0.0000302     0.0005865   -0.0002922 
   0.009252301     0.9439315   -0.2838305    -0.0004342   -0.0011226     0.0002113   -0.0005424     0.0004326   -0.0000400 
   0.009352326     0.9553491   -0.2936752     0.0003627   -0.0002204    -0.0000976    0.0001099    -0.0000158    0.0000323 
   0.009452351     0.9500690   -0.2977699     0.0012714    0.0017257     0.0002225   -0.0001538     0.0002042    0.0001419 
   0.009552376     0.9343763   -0.3145604     0.0005520   -0.0004607    -0.0004032    0.0001135     0.0006528    0.0003446 
   0.009652401     0.9344391   -0.2904438    -0.0019309   -0.0001466    -0.0003193   -0.0002653     0.0000722    0.0005215 
   0.009752426     0.9414498   -0.3077326    -0.0003354    0.0009316     0.0002895    0.0000338     0.0003730    0.0006578 
   0.009852451     0.9253515   -0.3139932     0.0003391   -0.0000161    -0.0002714   -0.0002198     0.0001374   -0.0000361 
   0.009952476     0.9316664   -0.3188663     0.0004775   -0.0000758    -0.0000358    0.0001508     0.0002424    0.0001319 
   0.010052501     0.9237953   -0.3089295     0.0001315   -0.0009349     0.0001993   -0.0001292     0.0005491   -0.0001872 
   0.010152526     0.9250556   -0.3173153    -0.0010729   -0.0001676     0.0000827   -0.0000785     0.0004112    0.0004034 
   0.010252551     0.9159220   -0.3126125     0.0003930   -0.0011729     0.0002894    0.0002200     0.0000896    0.0000228 
   0.010352576     0.9401263   -0.3323165     0.0000746    0.0005532     0.0001331    0.0000526     0.0002244    0.0003604 
   0.010452601     0.9263266   -0.3250155     0.0012353   -0.0014172    -0.0001272    0.0001410     0.0005132   -0.0001985 
   0.010552626     0.9208263   -0.3374468     0.0000299   -0.0005449     0.0000753    0.0003490     0.0000756    0.0002234 
   0.010652651     0.9146563   -0.3365753    -0.0007388   -0.0002993     0.0001641    0.0000078     0.0001742   -0.0000596 
   0.010752676     0.9220653   -0.3532098     0.0004096    0.0000305     0.0000489   -0.0002779     0.0002101    0.0002142 
   0.010852701     0.9319806   -0.3170392    -0.0001109    0.0007197     0.0001131    0.0000640     0.0000233    0.0000957 
   0.010952726     0.9140942   -0.3563316    -0.0008687    0.0000311    -0.0001282    0.0000037    -0.0001494   -0.0000554 
   0.011052751     0.9156343   -0.3685355    -0.0020987   -0.0011233    -0.0001237   -0.0000348     0.0003693    0.0001539 
   0.011152776     0.9238626   -0.3598300     0.0005581    0.0007187    -0.0003586   -0.0000981     0.0004411    0.0001294 
   0.011252801     0.8982260   -0.3722253    -0.0006108    0.0004422    -0.0001301   -0.0000671     0.0001599    0.0005784 
   0.011352826     0.9049501   -0.3698758     0.0005175   -0.0005833    -0.0000513   -0.0000448     0.0003881   -0.0003001 
   0.011452851     0.8995981   -0.3597544    -0.0002094    0.0007759     0.0000185   -0.0001328     0.0005040    0.0001342 
   0.011552876     0.8843740   -0.3751013     0.0009686   -0.0001777     0.0002733    0.0001728     0.0001793   -0.0001874 
   0.011652901     0.9041427   -0.3802821    -0.0003828    0.0013889     0.0002593   -0.0000065     0.0003030    0.0000388 
   0.011752926     0.8959892   -0.3939730     0.0005827   -0.0000637     0.0001272    0.0000227     0.0005741   -0.0001803 
   0.011852951     0.9011580   -0.3984243     0.0001566    0.0003542    -0.0000248   -0.0001798    -0.0003010   -0.0002539 
   0.011952976     0.8813230   -0.3946405    -0.0000098    0.0001226    -0.0003025   -0.0001417     0.0005883    0.0001841 
   0.012053002     0.8938807   -0.3992359     0.0010263   -0.0002174    -0.0000410    0.0000308     0.0001399    0.0002078 
   0.012153027     0.8798854   -0.4168284    -0.0008023   -0.0001832    -0.0001279   -0.0000708     0.0003218   -0.0001360 
   0.012253052     0.8745841   -0.4247562     0.0011038   -0.0003304     0.0001786   -0.0000299     0.0004593    0.0002699 
   0.012353077     0.8877370   -0.4135865    -0.0007141    0.0003683    -0.0000858    0.0000473     0.0002335    0.0000425 
   0.012453102     0.8726885   -0.4091364    -0.0001986    0.0004543    -0.0002178    0.0002666     0.0006237   -0.0001355 
   0.012553127     0.8660792   -0.4289665     0.0002951   -0.0001596    -0.0002536    0.0001046     0.0003947   -0.0001275 
   0.012653152     0.8943965   -0.4118785    -0.0002270    0.0015394    -0.0000390    0.0002255    -0.0001453    0.0002353 
   0.012753177     0.8694095   -0.4293437    -0.0000860    0.0000433     0.0000111    0.0000955     0.0004051    0.0001855 
   0.012853202     0.8652532   -0.4234488     0.0008017   -0.0009922     0.0003083    0.0005548     0.0005382    0.0003641 
   0.012953227     0.8672143   -0.4290541     0.0009370   -0.0004060     0.0000626   -0.0001447     0.0004262    0.0002616 
   0.013053252     0.8559802   -0.4454578     0.0000220   -0.0008015     0.0001528    0.0000776     0.0006122   -0.0000637 
   0.013153277     0.8546476   -0.4505338     0.0009433    0.0000115    -0.0001496   -0.0001784     0.0004633    0.0003345 
   0.013253302     0.8572516   -0.4332463    -0.0006667    0.0005202     0.0003823    0.0001954     0.0001774   -0.0000027 
   0.013353327     0.8521647   -0.4565655     0.0000154    0.0009986     0.0000770   -0.0000902     0.0001077    0.0001513 
   0.013453352     0.8482807   -0.4507519     0.0001972    0.0002753     0.0000282   -0.0000826     0.0007652    0.0000261 
   0.013553377     0.8280851   -0.4548395    -0.0003705   -0.0004558     0.0002408   -0.0001843     0.0003570    0.0000501 
   0.013653402     0.8346046   -0.4705289    -0.0001411    0.0007678    -0.0000931    0.0000659     0.0005906    0.0002325 
   0.013753427     0.8564214   -0.4789942    -0.0003810   -0.0003018    -0.0000768    0.0000647     0.0000634   -0.0001814 
   0.013853452     0.8342534   -0.4896836     0.0007553   -0.0002434    -0.0001440   -0.0000745     0.0006611    0.0001189 
   0.013953477     0.8216004   -0.4796235     0.0001393   -0.0000396    -0.0002106    0.0000958     0.0003324    0.0000881 
   0.014053502     0.8310397   -0.5005283    -0.0002258    0.0000772     0.0001205   -0.0002658     0.0000177   -0.0000161 
   0.014153527     0.8279962   -0.4948194    -0.0004262    0.0002215     0.0000151    0.0002511     0.0000376   -0.0000932 
   0.014253552     0.8186766   -0.5025596    -0.0005017   -0.0001989     0.0001255    0.0000363     0.0005899   -0.0006807 
   0.014353577     0.8122201   -0.5068511     0.0004131   -0.0010707     0.0000247    0.0000642     0.0004267    0.0004990 
   0.014453602     0.7935211   -0.5193986     0.0000787    0.0001474    -0.0001417    0.0003442     0.0000091    0.0001216 
   0.014553627     0.7992934   -0.5207610    -0.0000669    0.0002139    -0.0000194   -0.0000794     0.0001883    0.0002883 
   0.014653652     0.8012974   -0.5274097    -0.0003876    0.0002270     0.0000541   -0.0000021     0.0002867   -0.0001485 
   0.014753677     0.7912143   -0.5230700     0.0002266    0.0001464    -0.0000533   -0.0000304     0.0005388   -0.0000273 
   0.014853702     0.7889515   -0.5347097    -0.0002828    0.0006959    -0.0002211    0.0001338     0.0004109    0.0003567 
   0.014953727     0.7745597   -0.5612212    -0.0014921    0.0000961    -0.0001573    0.0000495     0.0003819    0.0000815 
   0.015053752     0.7767969   -0.5572340     0.0009860    0.0001222    -0.0002250    0.0000763     0.0005531    0.0001496 
   0.015153777     0.7641173   -0.5692762    -0.0003571    0.0007508     0.0002534   -0.0000130     0.0006824   -0.0002927 
   0.015253802     0.7437493   -0.5675582     0.0001014    0.0001827     0.0001938    0.0001947     0.0002070   -0.0003279 
   0.015353827     0.7439601   -0.5717565     0.0001825    0.0010240     0.0000031    0.0000718     0.0007008    0.0001285 
   0.015453852     0.7503932   -0.5844902    -0.0004010   -0.0004396    -0.0000330   -0.0000584     0.0004183    0.0003665 
   0.015553877     0.7277339   -0.6001868    -0.0002731    0.0002867    -0.0001275    0.0000542     0.0002361   -0.0000076 
   0.015653902     0.7188336   -0.5992289    -0.0001964   -0.0000668    -0.0000511    0.0000637     0.0001784    0.0001530 
