! 26-Feb-26 1:41:46 PM
! E:\VNA_MEASUREMENTS\CAL_S11\CAL_NOISEDIODE_T1T1E2_1.S2P
! CHANNEL.1
! TR.MEASUREMENT
! CORRECTED.DATA
# GHZ S RI R 50.0
! FREQ.GHZ         S11RE         S11IM         S21RE         S21IM         S12RE         S12IM         S22RE         S22IM         
!; PortSelection: Port_12
   0.000050000     0.0004475   -0.0315702     0.1266751   -0.1834238    -0.0036186   -0.0049426    -0.0209517    0.0292333 
   0.000150025     0.0091517   -0.0739043     0.6383096    0.2620124    -0.0007971   -0.0003827     0.0024179   -0.0035124 
   0.000250050    -0.1647413    0.0610680     0.1427136    0.1451157    -0.0004995   -0.0000299    -0.0012381   -0.0018657 
   0.000350075     1.0125470   -0.0554929    -0.0049842   -0.0106054    -0.0005235   -0.0004857    -0.0028516    0.0004000 
   0.000450100     0.9702523    0.0068394    -0.0009680   -0.0097071    -0.0006924   -0.0006742    -0.0002757   -0.0026791 
   0.000550125     1.0243830   -0.0348007    -0.0005335   -0.0102708     0.0005930   -0.0001026     0.0001661   -0.0005277 
   0.000650150     0.9836957   -0.0289114    -0.0067398   -0.0134049    -0.0001407   -0.0004654     0.0005907   -0.0021371 
   0.000750175     1.0231450   -0.0514689    -0.0049903   -0.0080128     0.0008419   -0.0009536    -0.0007564    0.0009713 
   0.000850200     0.9912927   -0.0847443    -0.0064139   -0.0101733     0.0004517    0.0003386    -0.0009534   -0.0003158 
   0.000950225     1.0156700   -0.0630782    -0.0065377   -0.0049794     0.0012919   -0.0006866    -0.0002088    0.0016824 
   0.001050250     0.9852366   -0.0520420    -0.0065981   -0.0066244    -0.0002972   -0.0009077    -0.0004493    0.0007831 
   0.001150275     0.9706501   -0.0786371    -0.0085786   -0.0057592     0.0003169    0.0005380     0.0006623    0.0006839 
   0.001250300     0.9750883   -0.0627792    -0.0092879   -0.0030372    -0.0006852    0.0001974     0.0003339    0.0010594 
   0.001350325     1.0014390   -0.0802899    -0.0084420   -0.0023337     0.0002136   -0.0000439    -0.0004238    0.0004387 
   0.001450350     1.0277700   -0.0763549    -0.0088868   -0.0001066     0.0001022   -0.0002872     0.0010062    0.0001927 
   0.001550375     0.9721330   -0.0725490    -0.0086965   -0.0069996    -0.0002949    0.0002412     0.0006961    0.0010305 
   0.001650400     0.9683427   -0.0599619    -0.0067675   -0.0037450     0.0003899   -0.0002349     0.0000783    0.0000529 
   0.001750425     0.9754065   -0.0756368    -0.0086508    0.0019522    -0.0000308   -0.0002536    -0.0006421    0.0006113 
   0.001850450     0.9526374   -0.0438430    -0.0064964   -0.0032733     0.0003359    0.0000251     0.0007007    0.0011966 
   0.001950475     0.9986967    0.0039698    -0.0078420    0.0013085     0.0000100    0.0004543     0.0011005   -0.0005916 
   0.002050500     0.9807814   -0.0673823    -0.0033934    0.0022945    -0.0001724   -0.0004723     0.0008830   -0.0004276 
   0.002150525     1.0245340   -0.0893539    -0.0045055    0.0010896    -0.0002041    0.0005136     0.0001450    0.0000153 
   0.002250550     0.9736511   -0.0659912    -0.0060745    0.0029729    -0.0001982    0.0003984    -0.0001633   -0.0012395 
   0.002350575     0.9648107   -0.1111761    -0.0066245    0.0020169     0.0003330   -0.0004312     0.0003764   -0.0004286 
   0.002450600     1.0610190   -0.1185597    -0.0051085    0.0023153     0.0005797   -0.0003333     0.0007147    0.0004623 
   0.002550625     0.9951413   -0.0603576    -0.0019370    0.0051480    -0.0007638    0.0000933     0.0000904    0.0006040 
   0.002650650     1.0211090   -0.0859146    -0.0062844    0.0024182    -0.0003434    0.0003968     0.0003522    0.0005649 
   0.002750675     0.9667743   -0.0341952    -0.0058683    0.0001097     0.0002752   -0.0007076     0.0002832   -0.0009405 
   0.002850700     0.9958558   -0.1119148    -0.0009287    0.0004795     0.0001101    0.0001191     0.0001483   -0.0002505 
   0.002950725     0.9413214   -0.0776454    -0.0004742    0.0049080    -0.0004160    0.0005210     0.0001094    0.0005276 
   0.003050750     0.9780944   -0.0558925    -0.0013608    0.0018453    -0.0000772    0.0004788     0.0004752   -0.0004998 
   0.003150775     1.0213860   -0.1368005    -0.0025331   -0.0002582     0.0002298   -0.0010416     0.0001430   -0.0003424 
   0.003250800     0.9620048   -0.1096202     0.0007316    0.0023328    -0.0001179    0.0000978     0.0002064    0.0002432 
   0.003350825     0.9789721   -0.1089780    -0.0026693    0.0011197     0.0003137   -0.0002068     0.0005852    0.0004383 
   0.003450850     0.9550472   -0.1301807    -0.0005065   -0.0016244    -0.0002585   -0.0001562     0.0006079   -0.0001431 
   0.003550875     0.9434078   -0.1336034    -0.0000244    0.0019030    -0.0000378   -0.0003795     0.0000601   -0.0005847 
   0.003650900     0.9645020   -0.1083491    -0.0027346    0.0046713     0.0000034   -0.0005958     0.0002031    0.0000869 
   0.003750925     0.9512154   -0.1304106    -0.0010460    0.0016707     0.0003208   -0.0000653     0.0003334   -0.0002369 
   0.003850950     0.9825003   -0.1486593    -0.0010972    0.0017485    -0.0001626   -0.0000541     0.0002454    0.0003988 
   0.003950975     1.0031970   -0.1048956    -0.0011470    0.0028903    -0.0004748    0.0000276     0.0003558   -0.0006408 
   0.004051001     0.9593236   -0.1581729    -0.0015496   -0.0008526    -0.0000184    0.0002945     0.0004707   -0.0001349 
   0.004151026     0.9746469   -0.1463114    -0.0001654    0.0004700     0.0001315    0.0004523    -0.0001015    0.0001908 
   0.004251051     0.9872221   -0.1447157     0.0003272    0.0021136    -0.0004925    0.0000268     0.0003094   -0.0003482 
   0.004351076     0.9453046   -0.1082682    -0.0005588    0.0023312     0.0000407    0.0003097     0.0003671    0.0004801 
   0.004451101     0.9758887   -0.1685311    -0.0001795   -0.0006220    -0.0007182    0.0002718     0.0006405   -0.0004819 
   0.004551126     0.9903910   -0.1583573    -0.0013904    0.0012833     0.0003380    0.0000416    -0.0002078    0.0004075 
   0.004651151     0.9682774   -0.1540387    -0.0029633    0.0020875    -0.0002225   -0.0006460     0.0007022    0.0001021 
   0.004751176     0.9572632   -0.1589075     0.0016198    0.0005218    -0.0001894   -0.0001050     0.0002331   -0.0002627 
   0.004851201     0.9237442   -0.1525511    -0.0020216    0.0008120    -0.0000450    0.0002111     0.0004791    0.0008552 
   0.004951226     0.9396391   -0.1487092     0.0007385   -0.0004663     0.0004975   -0.0004235     0.0003622   -0.0007266 
   0.005051251     0.9971524   -0.1682708     0.0013704    0.0002534     0.0004427    0.0003182     0.0002022   -0.0003903 
   0.005151276     0.9330479   -0.1404480     0.0005028    0.0015737    -0.0004259   -0.0002442     0.0002977    0.0000799 
   0.005251301     0.9535182   -0.1793001    -0.0001394    0.0004757    -0.0004358    0.0005382     0.0007226    0.0004959 
   0.005351326     0.9483784   -0.1593652    -0.0001725    0.0030953    -0.0006785    0.0008083     0.0006566    0.0002312 
   0.005451351     0.9681076   -0.1730890     0.0003939   -0.0006503     0.0000430   -0.0002476     0.0005099   -0.0001108 
   0.005551376     0.9821597   -0.1812420     0.0008211    0.0018025    -0.0001881    0.0001690     0.0001705   -0.0005403 
   0.005651401     0.9587804   -0.1684843    -0.0010880    0.0004299    -0.0000593   -0.0000277     0.0001986   -0.0005862 
   0.005751426     0.9470679   -0.1763519     0.0000455    0.0010251     0.0001247    0.0008256     0.0008562   -0.0002965 
   0.005851451     0.9633180   -0.2109730     0.0003756   -0.0009717    -0.0001696   -0.0001234    -0.0001112   -0.0001380 
   0.005951476     0.9266650   -0.1774105    -0.0013451    0.0017034    -0.0003201    0.0003679     0.0002466    0.0004704 
   0.006051501     0.9628706   -0.1881953     0.0001520    0.0011414     0.0002480    0.0003189     0.0004699   -0.0000859 
   0.006151526     0.9335439   -0.2205113    -0.0003519    0.0005112    -0.0002469   -0.0005145     0.0006215   -0.0004331 
   0.006251551     0.9360138   -0.1968812    -0.0008349    0.0008227     0.0000846    0.0000740    -0.0000315    0.0003776 
   0.006351576     0.9495836   -0.2227167    -0.0001727    0.0014301     0.0003452   -0.0001485     0.0003994    0.0006221 
   0.006451601     0.9470744   -0.2038976     0.0014846    0.0010922     0.0001429   -0.0000877    -0.0000568    0.0003296 
   0.006551626     0.9365372   -0.2064521     0.0017186    0.0014436     0.0000797    0.0000797    -0.0001197   -0.0002379 
   0.006651651     0.9265696   -0.1974138    -0.0006976   -0.0007887     0.0002184   -0.0000695    -0.0001427    0.0000089 
   0.006751676     0.9224885   -0.2219030     0.0020717    0.0014326     0.0003480    0.0003460     0.0005824    0.0005825 
   0.006851701     0.9584085   -0.2270246     0.0003811    0.0012846     0.0001286    0.0001662    -0.0000503    0.0000816 
   0.006951726     0.8957526   -0.2414141     0.0008844    0.0008634    -0.0001427   -0.0001055     0.0003515    0.0003532 
   0.007051751     0.9328367   -0.2134065    -0.0002742   -0.0000563     0.0004402   -0.0003175     0.0005684   -0.0003743 
   0.007151776     0.8975280   -0.2187815     0.0012106    0.0012114    -0.0003557    0.0002041     0.0008855   -0.0001140 
   0.007251801     0.9523412   -0.2279452     0.0006527    0.0004567     0.0006390   -0.0000680     0.0001979    0.0001473 
   0.007351826     0.9519361   -0.2226114     0.0004482    0.0013075    -0.0002650   -0.0003756     0.0011647    0.0000709 
   0.007451851     0.9132405   -0.2365334     0.0006132    0.0006564     0.0005721   -0.0003796     0.0004898    0.0000785 
   0.007551876     0.9222104   -0.2387959    -0.0003402    0.0008181     0.0003134    0.0005324     0.0001764    0.0001582 
   0.007651901     0.9300823   -0.2579847    -0.0016422   -0.0009855     0.0000486   -0.0001247     0.0003162    0.0008653 
   0.007751926     0.9085782   -0.2370677    -0.0006994   -0.0003191     0.0004789    0.0006684     0.0001717   -0.0001124 
   0.007851951     0.9160512   -0.2517338    -0.0015469    0.0003785    -0.0002124    0.0001712     0.0006395   -0.0000759 
   0.007951976     0.9322806   -0.2695307    -0.0010059    0.0007111    -0.0000618   -0.0002119     0.0002514    0.0000712 
   0.008052001     0.9204703   -0.2475852    -0.0000533    0.0005669     0.0008661    0.0002404     0.0004216    0.0002552 
   0.008152026     0.9190626   -0.2667700     0.0013568    0.0011611    -0.0000922   -0.0003546     0.0008009   -0.0001288 
   0.008252051     0.9013453   -0.2424896    -0.0010857   -0.0009063     0.0002697    0.0001629     0.0011737    0.0008466 
   0.008352076     0.9166744   -0.2546512    -0.0002546    0.0019801     0.0000379   -0.0001180     0.0006712    0.0001933 
   0.008452101     0.9186810   -0.2409012    -0.0001926   -0.0008963     0.0001656    0.0001407     0.0005475   -0.0004847 
   0.008552126     0.9173044   -0.2604767     0.0006178    0.0013342    -0.0000636    0.0002825     0.0006062    0.0003324 
   0.008652151     0.9012455   -0.2717169     0.0003269    0.0009509    -0.0001950    0.0000036     0.0004033    0.0001808 
   0.008752176     0.9020785   -0.2664033     0.0003671    0.0004695     0.0000972   -0.0000499    -0.0001930   -0.0001611 
   0.008852201     0.9074514   -0.2646751    -0.0003361    0.0009804    -0.0003448    0.0001862     0.0002187    0.0002723 
   0.008952226     0.9056051   -0.2729537     0.0002528   -0.0005417     0.0002030    0.0000947     0.0005473   -0.0002054 
   0.009052251     0.9077155   -0.2743466     0.0001345    0.0006990    -0.0002524    0.0001813     0.0003019   -0.0001708 
   0.009152276     0.9175531   -0.2615859    -0.0000728   -0.0006650    -0.0000676    0.0003140     0.0007896   -0.0000843 
   0.009252301     0.8886839   -0.2650597    -0.0005505    0.0006305     0.0001814    0.0001488     0.0004547   -0.0004013 
   0.009352326     0.8984502   -0.2684371     0.0003394   -0.0008475     0.0000625   -0.0000890    -0.0001131   -0.0000724 
   0.009452351     0.8960717   -0.2839302    -0.0010696   -0.0003436    -0.0003027    0.0000336     0.0001367    0.0001138 
   0.009552376     0.8922247   -0.2759059    -0.0003857   -0.0003234    -0.0000369   -0.0000397     0.0003227    0.0002256 
   0.009652401     0.8832480   -0.2914081    -0.0002255    0.0004857     0.0002851    0.0000138     0.0002956    0.0003333 
   0.009752426     0.8934142   -0.2957452    -0.0002934    0.0007575     0.0000274    0.0000293     0.0003803   -0.0002318 
   0.009852451     0.8865353   -0.3105411    -0.0001688    0.0003018     0.0000266    0.0003424     0.0004566   -0.0002738 
   0.009952476     0.8877040   -0.3026128    -0.0005972   -0.0010207     0.0001845    0.0002541     0.0002362    0.0003625 
   0.010052501     0.8756831   -0.2992705     0.0003403    0.0000531     0.0000983   -0.0001811     0.0003745    0.0000334 
   0.010152526     0.8826259   -0.2836782    -0.0006988   -0.0002301     0.0000023    0.0002350     0.0002479    0.0003878 
   0.010252551     0.8828586   -0.2880447    -0.0007810    0.0000668     0.0000265    0.0000366     0.0002915   -0.0000975 
   0.010352576     0.9044030   -0.3133508     0.0011754   -0.0003968     0.0000681   -0.0001820     0.0004993    0.0004720 
   0.010452601     0.8856989   -0.3027884    -0.0011486    0.0011828    -0.0002716    0.0001595     0.0006217   -0.0001623 
   0.010552626     0.8597181   -0.2937315    -0.0007667    0.0008236    -0.0001370    0.0000934     0.0000244   -0.0001537 
   0.010652651     0.8707927   -0.3007015    -0.0000279   -0.0006074     0.0001340    0.0001511     0.0003203    0.0002814 
   0.010752676     0.8835061   -0.3270884    -0.0012617   -0.0001573    -0.0002456    0.0003780     0.0003461    0.0001567 
   0.010852701     0.8802402   -0.2904456     0.0000958   -0.0004900    -0.0002322   -0.0000435     0.0001501    0.0003758 
   0.010952726     0.8763264   -0.3211244    -0.0000849    0.0002931    -0.0000901   -0.0000358    -0.0002264   -0.0000350 
   0.011052751     0.8714975   -0.3377470     0.0000411    0.0000050    -0.0002384   -0.0000373     0.0008293    0.0001504 
   0.011152776     0.8571225   -0.3179249    -0.0005557   -0.0001795     0.0001582    0.0001440     0.0003187    0.0001371 
   0.011252801     0.8600478   -0.3226942     0.0000456    0.0011497    -0.0002595   -0.0000884    -0.0000543    0.0005123 
   0.011352826     0.8559125   -0.3406051     0.0008805   -0.0009433     0.0001623   -0.0000333     0.0002688   -0.0001046 
   0.011452851     0.8472971   -0.3275414    -0.0006913   -0.0000506    -0.0002069    0.0001040     0.0000875    0.0002296 
   0.011552876     0.8556811   -0.3220248     0.0000900   -0.0007464     0.0000984   -0.0001387     0.0005232   -0.0000214 
   0.011652901     0.8603838   -0.3467470     0.0004212    0.0001252     0.0000860   -0.0002808     0.0001406    0.0005994 
   0.011752926     0.8411366   -0.3315702    -0.0001553    0.0004312     0.0002461    0.0002533     0.0004691    0.0003211 
   0.011852951     0.8453616   -0.3387376     0.0004096   -0.0000796     0.0000657    0.0000547     0.0002512   -0.0003795 
   0.011952976     0.8377670   -0.3266925    -0.0002017   -0.0002397     0.0001023    0.0001387     0.0002761    0.0002883 
   0.012053002     0.8376962   -0.3463598    -0.0000373    0.0011996     0.0001307   -0.0000229     0.0007980    0.0004254 
   0.012153027     0.8374035   -0.3481820    -0.0003357    0.0006600     0.0000094    0.0001175     0.0004386   -0.0003380 
   0.012253052     0.8189511   -0.3494189    -0.0001912   -0.0001823    -0.0001514    0.0001227     0.0009708    0.0005889 
   0.012353077     0.8433537   -0.3458961    -0.0004555    0.0006432     0.0004041    0.0000561     0.0000119   -0.0000506 
   0.012453102     0.8390583   -0.3375956    -0.0001176   -0.0007069    -0.0000411    0.0005351     0.0003008    0.0000838 
   0.012553127     0.8197685   -0.3743394     0.0002858   -0.0002928    -0.0002951    0.0001417     0.0006004   -0.0001704 
   0.012653152     0.8399215   -0.3495284    -0.0001397    0.0002193    -0.0000441   -0.0001659     0.0003054    0.0002376 
   0.012753177     0.8258726   -0.3417196     0.0002377   -0.0004916    -0.0000753   -0.0000986     0.0005695    0.0003376 
   0.012853202     0.8209368   -0.3255346    -0.0000214    0.0009157     0.0002873   -0.0004275     0.0004712    0.0003024 
   0.012953227     0.8379000   -0.3511897    -0.0010025    0.0000597     0.0000864   -0.0000029     0.0007245    0.0003336 
   0.013053252     0.8192855   -0.3715017    -0.0012781   -0.0005213    -0.0000197   -0.0001935     0.0005651   -0.0003123 
   0.013153277     0.8087615   -0.3532061    -0.0000780    0.0000919    -0.0001049    0.0000389     0.0002117    0.0006780 
   0.013253302     0.8282481   -0.3662382     0.0007309   -0.0000043     0.0000951    0.0001450    -0.0000653    0.0001154 
   0.013353327     0.8106706   -0.3622497    -0.0007202   -0.0006194     0.0002082    0.0001021    -0.0001198   -0.0003539 
   0.013453352     0.8182861   -0.3530101    -0.0003634   -0.0001259    -0.0000701    0.0000012     0.0006410    0.0002506 
   0.013553377     0.7971173   -0.3563052    -0.0007598   -0.0010129    -0.0000445    0.0000053     0.0004493   -0.0000904 
   0.013653402     0.8040581   -0.3547738    -0.0006852   -0.0003706    -0.0000075   -0.0001902     0.0005982    0.0001412 
   0.013753427     0.8173481   -0.3661775     0.0002106    0.0003218    -0.0000028   -0.0000463     0.0002357    0.0001028 
   0.013853452     0.8056037   -0.3725487    -0.0005074    0.0000849    -0.0002031    0.0000078     0.0000877    0.0002870 
   0.013953477     0.7963853   -0.3547646     0.0005640    0.0013934     0.0001138    0.0003729     0.0006665    0.0001678 
   0.014053502     0.8068491   -0.3690462     0.0004377    0.0002614    -0.0001621    0.0002757     0.0001278   -0.0000033 
   0.014153527     0.7887757   -0.3717554    -0.0003564    0.0008096     0.0002565    0.0004216     0.0002413    0.0001270 
   0.014253552     0.8069147   -0.3723845     0.0015360   -0.0012585     0.0000235    0.0001511     0.0007466   -0.0001151 
   0.014353577     0.7884600   -0.3743242    -0.0003516   -0.0003196     0.0000041    0.0000973     0.0003448   -0.0001922 
   0.014453602     0.7757688   -0.3685801    -0.0013405   -0.0000990     0.0001170   -0.0000454     0.0001328   -0.0000337 
   0.014553627     0.7899917   -0.3751518     0.0002846    0.0003832     0.0002605    0.0000242     0.0005016    0.0002101 
   0.014653652     0.7851571   -0.3770219    -0.0000868    0.0001907     0.0000937   -0.0000353     0.0002423   -0.0000193 
   0.014753677     0.7869365   -0.3788615     0.0009062   -0.0003372    -0.0000324   -0.0002194     0.0004214    0.0003237 
   0.014853702     0.7903832   -0.3786404    -0.0003446   -0.0003664     0.0001157    0.0002841     0.0003002    0.0001707 
   0.014953727     0.7663737   -0.3841515     0.0002104   -0.0001096     0.0000172    0.0001957     0.0005005    0.0002297 
   0.015053752     0.7861326   -0.3873177     0.0002304    0.0002269    -0.0000655    0.0000042     0.0001371    0.0001892 
   0.015153777     0.7772512   -0.3907500    -0.0000827   -0.0002381     0.0003103    0.0001611     0.0006937   -0.0001861 
   0.015253802     0.7795596   -0.3835247    -0.0000066    0.0009193    -0.0001388    0.0002678    -0.0000960   -0.0001435 
   0.015353827     0.7714517   -0.3850727     0.0000218   -0.0001080    -0.0001919   -0.0002284     0.0008802   -0.0002022 
   0.015453852     0.7806780   -0.3920784    -0.0003575   -0.0008184     0.0000860    0.0001852     0.0003488    0.0001682 
   0.015553877     0.7735148   -0.3937469     0.0009408    0.0002436    -0.0000945   -0.0003456     0.0007386    0.0000346 
   0.015653902     0.7669384   -0.3888458     0.0019356   -0.0004207     0.0002402   -0.0000903     0.0004075   -0.0001866 
