! 26-Feb-26 1:39:44 PM
! E:\VNA_MEASUREMENTS\CAL_S11\CAL_OPEN_T1T1E8_0.S2P
! CHANNEL.1
! TR.MEASUREMENT
! CORRECTED.DATA
# GHZ S RI R 50.0
! FREQ.GHZ         S11RE         S11IM         S21RE         S21IM         S12RE         S12IM         S22RE         S22IM         
!; PortSelection: Port_12
   0.000050000    -0.3259830    0.2211110     0.0301833   -0.6821049     0.0024597   -0.0044172     0.0002489    0.0396812 
   0.000150025    -0.3241764    0.1054852     0.1442158    0.7467805    -0.0000815   -0.0004596     0.0036983   -0.0076434 
   0.000250050     0.2438977    0.1707432     0.1508544    0.1369468     0.0003687    0.0005537    -0.0004915   -0.0036958 
   0.000350075     1.0080300   -0.0406410    -0.0031937   -0.0053463     0.0000529   -0.0010315    -0.0030159   -0.0004353 
   0.000450100     0.9732262   -0.0528753    -0.0002376   -0.0113148    -0.0003737    0.0008652     0.0003828   -0.0023282 
   0.000550125     0.9949644   -0.0005588    -0.0050083   -0.0115769     0.0004078    0.0006814     0.0000535    0.0011115 
   0.000650150     0.9712646   -0.0018196    -0.0090414   -0.0073060     0.0002609    0.0010876    -0.0000649   -0.0014070 
   0.000750175     0.9590797   -0.0033931    -0.0079321   -0.0092878    -0.0007460   -0.0001308    -0.0003611   -0.0000165 
   0.000850200     0.9718254   -0.0775895    -0.0126013   -0.0074462    -0.0000115    0.0002533    -0.0013476   -0.0013605 
   0.000950225     1.0065650   -0.0206392    -0.0043540   -0.0056488     0.0013134    0.0002006    -0.0001560    0.0002886 
   0.001050250     1.0212280   -0.0452721    -0.0090839   -0.0073466    -0.0005133    0.0014483     0.0011187    0.0002596 
   0.001150275     1.0088760   -0.0245683    -0.0071665   -0.0074046    -0.0005639    0.0000868     0.0003715   -0.0000890 
   0.001250300     0.9432278   -0.0291550    -0.0062425   -0.0023545    -0.0004070    0.0006706     0.0006776    0.0007890 
   0.001350325     0.9771370   -0.0255705    -0.0093199   -0.0063257    -0.0003366   -0.0006694    -0.0003889   -0.0006216 
   0.001450350     1.0010320   -0.0293315    -0.0082180   -0.0036179    -0.0004400    0.0001031     0.0000064    0.0011159 
   0.001550375     0.9483837   -0.0474480    -0.0111045   -0.0008830    -0.0006735   -0.0000771     0.0004797    0.0011213 
   0.001650400     0.9787094   -0.0079835    -0.0106237    0.0007160     0.0007784    0.0000953    -0.0008293    0.0002669 
   0.001750425     1.0327140   -0.0565043    -0.0050173   -0.0003055    -0.0001448   -0.0000627    -0.0000669    0.0005964 
   0.001850450     0.9603238   -0.0106163    -0.0086673   -0.0010226     0.0000614    0.0002855     0.0004425   -0.0003101 
   0.001950475     0.9819149    0.0022488    -0.0051410   -0.0005688     0.0003314   -0.0012128     0.0013449   -0.0004333 
   0.002050500     0.9705225   -0.0162268    -0.0077524    0.0022204    -0.0002644   -0.0001250     0.0006365    0.0000160 
   0.002150525     0.9953938    0.0062572    -0.0075129    0.0030821     0.0005969   -0.0001751    -0.0002100    0.0006582 
   0.002250550     0.9792962    0.0009772    -0.0061799    0.0029627     0.0001826   -0.0009429    -0.0004931   -0.0002800 
   0.002350575     0.9367074   -0.0752592    -0.0057111    0.0015904     0.0004916    0.0005461     0.0000541   -0.0008983 
   0.002450600     1.0099410   -0.0155737    -0.0045071    0.0030328     0.0004949   -0.0007034     0.0000972    0.0000011 
   0.002550625     1.0027920   -0.0358016    -0.0033634    0.0031385    -0.0004664    0.0008323    -0.0000181    0.0001693 
   0.002650650     0.9755495    0.0241821    -0.0028310    0.0040850    -0.0002890    0.0006494    -0.0001872    0.0013295 
   0.002750675     0.9707119    0.0245703    -0.0043192    0.0024004    -0.0001045   -0.0007290    -0.0003204    0.0010852 
   0.002850700     1.0019900   -0.0288865    -0.0055752    0.0028254    -0.0000201    0.0004095    -0.0007404    0.0000427 
   0.002950725     0.9443680   -0.0227534    -0.0024893    0.0043747    -0.0000894    0.0000479     0.0006540    0.0000025 
   0.003050750     0.9598829   -0.0072933    -0.0011323    0.0003243     0.0001596    0.0005706    -0.0001178   -0.0001985 
   0.003150775     0.9883744   -0.0567066    -0.0030368    0.0039469    -0.0007787   -0.0005555     0.0003924    0.0006951 
   0.003250800     0.9310282    0.0022647    -0.0024581    0.0019701    -0.0002043    0.0000756     0.0003932    0.0004153 
   0.003350825     0.9961887   -0.0142231    -0.0018815    0.0022303     0.0003944    0.0002479     0.0006030    0.0007216 
   0.003450850     0.9462725   -0.0385037    -0.0016172    0.0031256     0.0001837   -0.0000942     0.0001783   -0.0005299 
   0.003550875     0.9318795   -0.0628747    -0.0002861    0.0018525    -0.0000296   -0.0004236     0.0004252    0.0004403 
   0.003650900     0.9728115   -0.0195110    -0.0029252    0.0023115     0.0000977   -0.0001174     0.0010555   -0.0002825 
   0.003750925     0.9503905   -0.0442105    -0.0013241    0.0020988    -0.0001205    0.0001866     0.0000351   -0.0007204 
   0.003850950     0.9649274   -0.0455829    -0.0020972    0.0023480     0.0003498    0.0001377    -0.0000458   -0.0001321 
   0.003950975     0.9805561   -0.0082201     0.0006322    0.0017159     0.0002431   -0.0003965     0.0000803   -0.0008854 
   0.004051001     0.9515197   -0.0570454    -0.0023096    0.0027983     0.0001301   -0.0005594     0.0001797   -0.0003590 
   0.004151026     0.9818379   -0.0162621    -0.0021298    0.0005684    -0.0003897   -0.0002394    -0.0004022    0.0001849 
   0.004251051     0.9695746   -0.0241147    -0.0002612    0.0012440    -0.0000653    0.0003020     0.0003722    0.0005989 
   0.004351076     0.9511268   -0.0021264    -0.0027042    0.0016346    -0.0003134    0.0000543    -0.0000487    0.0006362 
   0.004451101     0.9786083   -0.0474315    -0.0006020   -0.0006603     0.0001476    0.0001756     0.0006752   -0.0004561 
   0.004551126     0.9859669   -0.0350432     0.0013797    0.0010001    -0.0002545   -0.0005753    -0.0001292    0.0007179 
   0.004651151     0.9376586   -0.0321660     0.0008957    0.0016111     0.0003507   -0.0002661     0.0003221    0.0000629 
   0.004751176     0.9656391   -0.0348659    -0.0002846   -0.0002531     0.0001678   -0.0000899     0.0003242   -0.0001132 
   0.004851201     0.9406688   -0.0319233    -0.0011643    0.0011432    -0.0003752   -0.0002527     0.0003273    0.0004293 
   0.004951226     0.9571177    0.0147875    -0.0005036    0.0008658     0.0000767   -0.0003058     0.0004447   -0.0003138 
   0.005051251     1.0053670   -0.0689643    -0.0006381    0.0019856    -0.0001535    0.0003555     0.0001378   -0.0002169 
   0.005151276     0.9378947   -0.0199512     0.0002770    0.0023306     0.0004727    0.0001378     0.0007941   -0.0001805 
   0.005251301     0.9575670   -0.0399297    -0.0007295   -0.0001626    -0.0001225    0.0002316     0.0004247    0.0004619 
   0.005351326     0.9280771   -0.0150122    -0.0004494    0.0024029    -0.0002425    0.0003506     0.0009828    0.0006206 
   0.005451351     0.9639109   -0.0280513    -0.0008301    0.0007635    -0.0000300   -0.0008136     0.0000817   -0.0002443 
   0.005551376     0.9686784   -0.0243523    -0.0006654    0.0003416    -0.0000275   -0.0003692     0.0000275   -0.0007162 
   0.005651401     0.9834498   -0.0370748    -0.0027916   -0.0007207    -0.0005595    0.0000175     0.0001338   -0.0004585 
   0.005751426     0.9312607   -0.0399138     0.0002028    0.0000371     0.0002265    0.0000527     0.0001935    0.0000474 
   0.005851451     0.9714578   -0.0578998     0.0012253   -0.0004700     0.0003259    0.0002494     0.0001297    0.0003065 
   0.005951476     0.9400341   -0.0370474     0.0003829    0.0007903     0.0002714    0.0000398     0.0003502    0.0005137 
   0.006051501     0.9383802   -0.0470503     0.0016560    0.0012508     0.0002458    0.0000815    -0.0004567   -0.0002117 
   0.006151526     0.9565525   -0.0367646     0.0004530   -0.0008518     0.0001976    0.0004337     0.0010858   -0.0002324 
   0.006251551     0.9641427   -0.0224538    -0.0003472    0.0014019    -0.0003653    0.0000705     0.0005029    0.0000919 
   0.006351576     0.9612366   -0.0398297     0.0003652    0.0000444     0.0002868    0.0001751     0.0000534   -0.0002327 
   0.006451601     0.9825664   -0.0394162    -0.0025207   -0.0005475    -0.0000813    0.0002517     0.0000381    0.0005566 
   0.006551626     0.9449565   -0.0275873     0.0004836    0.0018514    -0.0004327   -0.0000844    -0.0008255   -0.0002016 
   0.006651651     0.9748638   -0.0296217    -0.0011246   -0.0003833     0.0001846   -0.0003411     0.0002599   -0.0003483 
   0.006751676     0.9630868   -0.0443122     0.0012454    0.0014746     0.0002468    0.0000915     0.0001994    0.0004976 
   0.006851701     0.9668092   -0.0415044    -0.0008132    0.0006915    -0.0002545   -0.0002084    -0.0000160   -0.0001389 
   0.006951726     0.9527911   -0.0420773     0.0002718    0.0008706     0.0000555    0.0001411     0.0009373    0.0014695 
   0.007051751     0.9659159   -0.0361832     0.0007731    0.0014266    -0.0000092   -0.0002675     0.0007561   -0.0002194 
   0.007151776     0.9301296   -0.0671881     0.0010930    0.0010370     0.0001878   -0.0004545     0.0006410    0.0007684 
   0.007251801     0.9725198   -0.0255527    -0.0002755    0.0003087    -0.0001375   -0.0001397    -0.0000843    0.0001276 
   0.007351826     0.9619570   -0.0559706     0.0011385   -0.0000888     0.0004612   -0.0000520     0.0006794    0.0006152 
   0.007451851     0.9315590   -0.0415288     0.0007693   -0.0010672     0.0002368    0.0001123     0.0008964   -0.0003832 
   0.007551876     0.9450137   -0.0355738    -0.0007874   -0.0020107     0.0001371    0.0000288    -0.0000240   -0.0003777 
   0.007651901     0.9847577   -0.0491166    -0.0004394    0.0004461    -0.0002409   -0.0002456     0.0000093    0.0002380 
   0.007751926     0.9765939   -0.0512659     0.0010394   -0.0005303    -0.0009362   -0.0002248     0.0001545   -0.0003410 
   0.007851951     0.9723431   -0.0374614    -0.0011280    0.0007087    -0.0007056    0.0004471     0.0006036   -0.0001322 
   0.007951976     0.9705490   -0.0504860    -0.0009480    0.0002476     0.0000452    0.0002189     0.0001743    0.0003250 
   0.008052001     0.9704617   -0.0394299    -0.0025609   -0.0003467    -0.0000092   -0.0000294     0.0002878   -0.0000238 
   0.008152026     0.9596823   -0.0348711    -0.0005321   -0.0000547    -0.0000809   -0.0004430     0.0005415    0.0001280 
   0.008252051     0.9396689   -0.0232258     0.0003922   -0.0004794     0.0002445    0.0002517     0.0004986    0.0007617 
   0.008352076     0.9510064   -0.0355937     0.0006889   -0.0008828     0.0000773    0.0001405     0.0010092   -0.0001010 
   0.008452101     0.9602048   -0.0210713    -0.0010604   -0.0006931    -0.0000302   -0.0001245     0.0004308   -0.0006035 
   0.008552126     0.9496358   -0.0358129     0.0001873    0.0000967    -0.0003373    0.0003290     0.0002599    0.0003040 
   0.008652151     0.9408004   -0.0285563     0.0005345    0.0008106    -0.0002443   -0.0001692     0.0001771    0.0000508 
   0.008752176     0.9490944   -0.0197826    -0.0002311   -0.0003498    -0.0000670    0.0001705     0.0000803   -0.0007577 
   0.008852201     0.9381335   -0.0258668    -0.0008374    0.0001967     0.0001768    0.0000731     0.0001704   -0.0000508 
   0.008952226     0.9690617   -0.0234677     0.0000963   -0.0001409     0.0001070    0.0004008     0.0004523   -0.0001378 
   0.009052251     0.9566751   -0.0357117    -0.0015440   -0.0014982     0.0001412    0.0002318    -0.0000542   -0.0005234 
   0.009152276     0.9519340   -0.0155507    -0.0006796   -0.0011991     0.0002299   -0.0002145     0.0007543    0.0003762 
   0.009252301     0.9306694   -0.0451659    -0.0000219    0.0011474     0.0000910   -0.0000220     0.0001394   -0.0001992 
   0.009352326     0.9601174   -0.0209253     0.0004965    0.0004239    -0.0000733   -0.0001300     0.0001589   -0.0000807 
   0.009452351     0.9650979   -0.0334941    -0.0018424   -0.0011019    -0.0001485    0.0000494     0.0006545    0.0000473 
   0.009552376     0.9772454   -0.0415319    -0.0001013    0.0001127     0.0001856   -0.0002980     0.0004849   -0.0001503 
   0.009652401     0.9549127   -0.0467823     0.0004252   -0.0011289     0.0001733    0.0000065     0.0000702    0.0002826 
   0.009752426     0.9572483   -0.0374795     0.0000446    0.0011427     0.0000420   -0.0002697     0.0002581    0.0003405 
   0.009852451     0.9643928   -0.0513010     0.0004526    0.0006621     0.0001314    0.0001809     0.0000236    0.0003821 
   0.009952476     0.9573251   -0.0410080     0.0000403   -0.0006296     0.0000036    0.0003870     0.0005039    0.0000831 
   0.010052501     0.9534168   -0.0260195    -0.0002790    0.0003507     0.0002111   -0.0000947     0.0000822   -0.0000303 
   0.010152526     0.9568706   -0.0316307    -0.0006788   -0.0005718    -0.0003343   -0.0002073     0.0004788    0.0000842 
   0.010252551     0.9532991   -0.0379291     0.0006214    0.0016109     0.0000355   -0.0003291     0.0002264    0.0002499 
   0.010352576     0.9672541   -0.0419118    -0.0005168    0.0007990     0.0002666   -0.0000415     0.0006442    0.0000426 
   0.010452601     0.9373420   -0.0197025    -0.0004997   -0.0009852     0.0001739   -0.0000746     0.0004196   -0.0003138 
   0.010552626     0.9413790   -0.0458405    -0.0014403   -0.0011232    -0.0000151    0.0001610     0.0004005    0.0001651 
   0.010652651     0.9478623   -0.0347106    -0.0000568    0.0007401     0.0001190    0.0001686     0.0007081   -0.0001162 
   0.010752676     0.9680719   -0.0502470    -0.0006656   -0.0010176    -0.0000072    0.0000331     0.0003982   -0.0001908 
   0.010852701     0.9582227   -0.0323236     0.0001365   -0.0012492     0.0000834   -0.0001246     0.0004396   -0.0001025 
   0.010952726     0.9535553   -0.0458160    -0.0005025   -0.0003304    -0.0004186    0.0000415    -0.0002248   -0.0001737 
   0.011052751     0.9663352   -0.0487830     0.0001842   -0.0008683    -0.0000346    0.0004577     0.0004643   -0.0000960 
   0.011152776     0.9530122   -0.0277765     0.0005013    0.0004930    -0.0000453   -0.0000612     0.0001678   -0.0004899 
   0.011252801     0.9579429   -0.0359850    -0.0005932   -0.0006258     0.0001749   -0.0002288    -0.0002733    0.0003406 
   0.011352826     0.9621890   -0.0465457    -0.0001812   -0.0001587     0.0000166    0.0000207     0.0007762   -0.0000849 
   0.011452851     0.9490092   -0.0351129     0.0000376   -0.0006440    -0.0001067   -0.0002207     0.0003144    0.0001296 
   0.011552876     0.9510953   -0.0504045     0.0009703   -0.0005713     0.0001131   -0.0002191     0.0000679   -0.0000122 
   0.011652901     0.9615504   -0.0493500    -0.0002180   -0.0000115    -0.0001819    0.0001170     0.0002651    0.0005058 
   0.011752926     0.9361902   -0.0515292     0.0008565    0.0011422     0.0002401    0.0001576     0.0001969   -0.0002258 
   0.011852951     0.9680061   -0.0402721     0.0003350    0.0010112    -0.0000628   -0.0002458     0.0001305   -0.0002618 
   0.011952976     0.9500486   -0.0375814     0.0000457    0.0005310     0.0000053   -0.0000856     0.0006197    0.0001344 
   0.012053002     0.9797179   -0.0623487     0.0002713    0.0007432    -0.0001960    0.0003787     0.0004624    0.0003868 
   0.012153027     0.9561699   -0.0589051    -0.0004358    0.0007027    -0.0003492   -0.0001755     0.0001671    0.0000301 
   0.012253052     0.9472497   -0.0613290    -0.0007047    0.0002270     0.0003018   -0.0000036     0.0004654    0.0003070 
   0.012353077     0.9604759   -0.0488213     0.0006886   -0.0002708     0.0003096    0.0001663     0.0001583    0.0001520 
   0.012453102     0.9576541   -0.0416942     0.0007154   -0.0002813    -0.0000204   -0.0001263     0.0004950   -0.0000849 
   0.012553127     0.9595706   -0.0718680    -0.0001500    0.0004081    -0.0003921    0.0001075     0.0006134   -0.0002487 
   0.012653152     0.9551315   -0.0303843     0.0010556    0.0002021    -0.0004164   -0.0000538     0.0004658   -0.0000967 
   0.012753177     0.9429423   -0.0516646    -0.0008401    0.0013930    -0.0003376    0.0002227     0.0001470    0.0002079 
   0.012853202     0.9583260   -0.0365231    -0.0010040    0.0003511     0.0000469   -0.0000045     0.0004262    0.0004841 
   0.012953227     0.9609716   -0.0365035    -0.0001217   -0.0001262     0.0000804    0.0002078     0.0002446   -0.0001016 
   0.013053252     0.9603114   -0.0592529     0.0001249   -0.0005814    -0.0003833    0.0003328     0.0002794   -0.0000174 
   0.013153277     0.9563652   -0.0364572     0.0003391    0.0008203    -0.0001695    0.0000334     0.0000459    0.0002500 
   0.013253302     0.9520213   -0.0501765    -0.0000976    0.0001929     0.0003139    0.0000926     0.0003067    0.0001486 
   0.013353327     0.9591643   -0.0365776    -0.0004347    0.0000047     0.0000524   -0.0003976     0.0004618   -0.0001805 
   0.013453352     0.9496951   -0.0303511    -0.0014844    0.0013628    -0.0002637   -0.0000217     0.0003993    0.0000960 
   0.013553377     0.9643835   -0.0565468    -0.0003958    0.0008946     0.0001711    0.0001190     0.0003697   -0.0004353 
   0.013653402     0.9577330   -0.0380108     0.0002600   -0.0006942     0.0001052   -0.0001551     0.0004767    0.0000246 
   0.013753427     0.9571116   -0.0597322     0.0005522    0.0000000    -0.0000847   -0.0003418     0.0001299    0.0003387 
   0.013853452     0.9787562   -0.0649564     0.0003395    0.0002819    -0.0001511   -0.0003677     0.0002413    0.0001893 
   0.013953477     0.9448867   -0.0339183     0.0002030    0.0013558     0.0001405   -0.0003479     0.0005893    0.0001232 
   0.014053502     0.9633084   -0.0464266    -0.0001455    0.0005288     0.0001105    0.0000571    -0.0000463   -0.0000785 
   0.014153527     0.9530224   -0.0423987    -0.0000873    0.0008002    -0.0001401    0.0001650     0.0003469    0.0002358 
   0.014253552     0.9782088   -0.0397748     0.0004828    0.0004000     0.0000133   -0.0004020     0.0006654   -0.0002254 
   0.014353577     0.9540137   -0.0686337     0.0002665    0.0002981     0.0001101   -0.0001413     0.0003661   -0.0002776 
   0.014453602     0.9541283   -0.0498760    -0.0012342   -0.0000511    -0.0002490   -0.0000444    -0.0000162    0.0000759 
   0.014553627     0.9484200   -0.0502420     0.0010283   -0.0002580    -0.0000830   -0.0004224     0.0006571    0.0000072 
   0.014653652     0.9638515   -0.0618435    -0.0000203    0.0012779    -0.0002335    0.0000667     0.0002546   -0.0001989 
   0.014753677     0.9439663   -0.0520974    -0.0001753    0.0004578     0.0001374    0.0001666     0.0004139    0.0000386 
   0.014853702     0.9646341   -0.0485768    -0.0000915    0.0001407    -0.0001310   -0.0002335     0.0004738    0.0001439 
   0.014953727     0.9581002   -0.0614483    -0.0002737    0.0005590    -0.0000185   -0.0001566     0.0005061   -0.0001410 
   0.015053752     0.9651318   -0.0497510     0.0012985   -0.0001114    -0.0004346   -0.0002442     0.0004835    0.0001731 
   0.015153777     0.9541720   -0.0511904    -0.0005902   -0.0006748     0.0002892    0.0000080     0.0000790    0.0001455 
   0.015253802     0.9625194   -0.0613523     0.0001924   -0.0004049     0.0000373   -0.0001126     0.0004772   -0.0002553 
   0.015353827     0.9574453   -0.0515712     0.0003671    0.0001677     0.0002198    0.0000167     0.0010415    0.0000382 
   0.015453852     0.9531662   -0.0446028     0.0003334   -0.0005733     0.0000366    0.0001650     0.0005193    0.0003635 
   0.015553877     0.9631200   -0.0617269     0.0002969   -0.0010112     0.0003047   -0.0000249     0.0001945   -0.0000904 
   0.015653902     0.9537445   -0.0651669    -0.0000829    0.0002964    -0.0001674   -0.0002877     0.0001110   -0.0002005 
