! 26-Feb-26 1:49:48 PM
! E:\VNA_MEASUREMENTS\CAL_S11\CAL_LONGOPEN_T1T1E3_2.S2P
! CHANNEL.1
! TR.MEASUREMENT
! CORRECTED.DATA
# GHZ S RI R 50.0
! FREQ.GHZ         S11RE         S11IM         S21RE         S21IM         S12RE         S12IM         S22RE         S22IM         
!; PortSelection: Port_12
   0.000050000    -0.4888317   -0.1014117    -0.3056615    0.3471666     0.0078225    0.0015616     0.0089351    0.0134125 
   0.000150025    -0.0168203    0.0375172     1.0130330    0.2250600     0.0008915   -0.0011034     0.0016822   -0.0042198 
   0.000250050    -0.2340705    0.0075239     0.0443934    0.0382479     0.0000784    0.0001566     0.0015647   -0.0028685 
   0.000350075     1.0324980   -0.0771194     0.0015131   -0.0107810    -0.0021350    0.0013175    -0.0015482   -0.0003630 
   0.000450100     0.9964629   -0.0693648    -0.0062843   -0.0084037     0.0000455    0.0004177    -0.0007303   -0.0015673 
   0.000550125     0.9870669   -0.0404624    -0.0041503   -0.0081969    -0.0000195    0.0005753     0.0008827    0.0011655 
   0.000650150     1.0254160   -0.0214986    -0.0012899   -0.0082021    -0.0002365   -0.0003524     0.0005209   -0.0014757 
   0.000750175     1.0211640   -0.0218259    -0.0036465   -0.0088284    -0.0012284    0.0003589    -0.0003756    0.0009990 
   0.000850200     0.9682608   -0.0600499    -0.0079144   -0.0084760    -0.0000833   -0.0001270    -0.0016003   -0.0002506 
   0.000950225     1.0101930   -0.0437120    -0.0031137   -0.0085342    -0.0000113    0.0002066     0.0003865    0.0008992 
   0.001050250     1.0195620   -0.0317517    -0.0080636   -0.0042894    -0.0000841    0.0007744     0.0003245    0.0004768 
   0.001150275     0.9960454    0.0149336    -0.0035272   -0.0029788    -0.0012315    0.0007690    -0.0004536    0.0009170 
   0.001250300     0.9819500   -0.0526375    -0.0079374   -0.0056694    -0.0002831   -0.0000528     0.0003774    0.0003169 
   0.001350325     1.0218910   -0.0745489    -0.0087510   -0.0059730     0.0003824   -0.0004845    -0.0001123   -0.0003876 
   0.001450350     1.0137410   -0.0602862    -0.0113786   -0.0016276     0.0000216    0.0005282     0.0011671    0.0004182 
   0.001550375     0.9674713   -0.0773600    -0.0077571   -0.0005260     0.0001071   -0.0006765     0.0009023    0.0002095 
   0.001650400     1.0361880   -0.0222568    -0.0097142    0.0022030    -0.0001467    0.0010196     0.0001339    0.0000912 
   0.001750425     0.9796724   -0.0374609    -0.0109868   -0.0001625    -0.0006578    0.0006405     0.0000637    0.0012387 
   0.001850450     1.0006250   -0.0597016    -0.0085231    0.0008306    -0.0007088   -0.0001628    -0.0004114    0.0012835 
   0.001950475     1.0282820   -0.0134556    -0.0052824    0.0001284    -0.0009673    0.0012900     0.0009411   -0.0005296 
   0.002050500     0.9627597   -0.0518202    -0.0067766   -0.0009066     0.0006412    0.0000242     0.0010037   -0.0000104 
   0.002150525     0.9866980   -0.0760440    -0.0042114    0.0039502     0.0001532   -0.0005029     0.0007011    0.0002663 
   0.002250550     0.9666118   -0.0390287    -0.0020048    0.0031600    -0.0003067    0.0005093    -0.0014042   -0.0000710 
   0.002350575     0.9491419   -0.1151319    -0.0035715   -0.0004934     0.0003873    0.0005249     0.0006782    0.0000404 
   0.002450600     0.9798659   -0.0882293    -0.0029326    0.0007017     0.0001769    0.0003208    -0.0001176    0.0006449 
   0.002550625     0.9791524   -0.0758190    -0.0059983    0.0030634     0.0005008   -0.0003337     0.0003581    0.0004211 
   0.002650650     0.9824625   -0.0620182    -0.0037729    0.0034066     0.0000265   -0.0010784     0.0002989    0.0007799 
   0.002750675     0.9694706   -0.0561261    -0.0050010    0.0025028     0.0001007    0.0003160    -0.0000597   -0.0000405 
   0.002850700     1.0076980   -0.0940713    -0.0032771    0.0049010    -0.0003507   -0.0003498    -0.0005801   -0.0003105 
   0.002950725     0.9738333   -0.0586497    -0.0002938    0.0024440    -0.0004556    0.0000731     0.0005841    0.0003650 
   0.003050750     1.0246580   -0.0885800     0.0005105    0.0031095    -0.0001710    0.0001117    -0.0002909   -0.0004328 
   0.003150775     0.9763022   -0.1406227    -0.0032537    0.0013548     0.0002635    0.0006606    -0.0004509    0.0004516 
   0.003250800     0.9551110   -0.0846416    -0.0030754    0.0026777     0.0000521   -0.0003134     0.0003663    0.0003185 
   0.003350825     0.9682792   -0.1295720    -0.0023446    0.0026015     0.0002953   -0.0003579    -0.0006472    0.0004101 
   0.003450850     0.9857082   -0.1330167    -0.0024943    0.0013302    -0.0004188    0.0004860     0.0002999   -0.0003972 
   0.003550875     0.9229780   -0.1284777    -0.0005116   -0.0022955    -0.0003983   -0.0000091     0.0002233   -0.0007298 
   0.003650900     0.9920087   -0.0929557    -0.0032578    0.0011457    -0.0000795    0.0004822     0.0010575   -0.0003535 
   0.003750925     0.9741471   -0.1213826    -0.0006030    0.0027779     0.0004825   -0.0004601    -0.0002171   -0.0001649 
   0.003850950     0.9642971   -0.1225655     0.0011791    0.0014686    -0.0003356   -0.0005373    -0.0003358    0.0004609 
   0.003950975     0.9973931   -0.0711279    -0.0020237    0.0008064     0.0004319   -0.0001807    -0.0000290   -0.0004652 
   0.004051001     0.9850640   -0.1563210    -0.0002805    0.0007986     0.0003053   -0.0003135    -0.0000473    0.0004393 
   0.004151026     0.9958090   -0.1238189    -0.0002629    0.0008660     0.0001239    0.0005641     0.0001864    0.0001755 
   0.004251051     0.9823951   -0.0934271    -0.0017241   -0.0003810    -0.0001701    0.0003046     0.0000104    0.0002936 
   0.004351076     0.9658705   -0.0964260     0.0000006    0.0000018    -0.0002709    0.0001945     0.0009402    0.0007835 
   0.004451101     0.9990714   -0.1418557     0.0008665    0.0033547     0.0002043    0.0002892     0.0005395   -0.0004119 
   0.004551126     1.0102690   -0.1582824     0.0014912    0.0007238    -0.0001137   -0.0002320    -0.0001138   -0.0002375 
   0.004651151     0.9466418   -0.1320921    -0.0004007    0.0027289     0.0003712    0.0004750     0.0004206   -0.0001229 
   0.004751176     0.9720007   -0.1698110     0.0019381    0.0001203    -0.0002277    0.0002489     0.0001041    0.0003590 
   0.004851201     0.9469706   -0.1439533    -0.0003707   -0.0014152     0.0003356   -0.0002074     0.0008948    0.0007717 
   0.004951226     0.9622186   -0.1394403     0.0012452    0.0020748     0.0002124   -0.0000794     0.0001602   -0.0001108 
   0.005051251     1.0135460   -0.1749540    -0.0013175    0.0000807    -0.0003641   -0.0006750     0.0007122   -0.0003762 
   0.005151276     0.9610623   -0.1298992    -0.0004240    0.0007746     0.0003124   -0.0000789     0.0005444   -0.0003957 
   0.005251301     0.9581460   -0.1577918    -0.0013822   -0.0000776    -0.0002707    0.0004954     0.0006978    0.0006066 
   0.005351326     0.9555269   -0.1349968    -0.0007346    0.0013916    -0.0000638   -0.0000633     0.0007873    0.0002308 
   0.005451351     0.9793483   -0.1707234    -0.0000270    0.0022762     0.0004002    0.0002026     0.0002098    0.0001080 
   0.005551376     0.9837430   -0.1884175    -0.0022698    0.0021622    -0.0002899   -0.0002727     0.0008491   -0.0001543 
   0.005651401     0.9726426   -0.1643230     0.0002673   -0.0009092    -0.0005726   -0.0003935     0.0001327   -0.0004000 
   0.005751426     0.9449942   -0.1594249     0.0023067    0.0015380    -0.0002584   -0.0000852     0.0005723   -0.0001225 
   0.005851451     0.9517716   -0.1858870     0.0013072    0.0006441     0.0000219    0.0003581    -0.0001565   -0.0006920 
   0.005951476     0.9483629   -0.1737931    -0.0007221    0.0000724     0.0002247   -0.0001702     0.0003146    0.0000832 
   0.006051501     0.9480737   -0.1962921     0.0004823    0.0006323     0.0000491    0.0004065    -0.0001715    0.0006162 
   0.006151526     0.9430283   -0.1933908    -0.0018268    0.0005869     0.0001112    0.0002022     0.0007362   -0.0005479 
   0.006251551     0.9706222   -0.1599301    -0.0020142    0.0014738    -0.0003540    0.0001607     0.0003542    0.0002140 
   0.006351576     0.9531190   -0.1996907     0.0002061   -0.0008689     0.0007875   -0.0000132    -0.0000321    0.0002760 
   0.006451601     0.9551820   -0.1993481    -0.0008314    0.0011101     0.0000833   -0.0004075     0.0002788    0.0005112 
   0.006551626     0.9724742   -0.1879078     0.0002111    0.0008176     0.0003854   -0.0000943    -0.0002158    0.0000586 
   0.006651651     0.9649007   -0.2039767     0.0009664    0.0009708     0.0000466    0.0001361    -0.0000624   -0.0000988 
   0.006751676     0.9644867   -0.2105450     0.0011304    0.0031103    -0.0001174    0.0003917     0.0005352    0.0004830 
   0.006851701     0.9735513   -0.2173721    -0.0004109   -0.0009596     0.0003939   -0.0000949     0.0005877    0.0000214 
   0.006951726     0.9469161   -0.2278348     0.0010016    0.0012651     0.0001507   -0.0000214     0.0007921    0.0012891 
   0.007051751     0.9684212   -0.2127023    -0.0007600   -0.0001303     0.0000724   -0.0002056    -0.0001530   -0.0001960 
   0.007151776     0.9335741   -0.2177421    -0.0008437    0.0000829     0.0001177    0.0004789     0.0005335    0.0002892 
   0.007251801     0.9598487   -0.2302253     0.0002301   -0.0003119     0.0001159    0.0001067    -0.0001056   -0.0003393 
   0.007351826     0.9475287   -0.2280548     0.0001253    0.0001753    -0.0002718    0.0001222     0.0004573   -0.0000428 
   0.007451851     0.9457588   -0.2233795    -0.0000970   -0.0003448    -0.0000029    0.0000983     0.0003282   -0.0001675 
   0.007551876     0.9823931   -0.2219550     0.0019642   -0.0004308    -0.0002508   -0.0000951     0.0000738   -0.0002351 
   0.007651901     0.9499492   -0.2415073    -0.0000136    0.0007553    -0.0001863   -0.0000063    -0.0004121    0.0006541 
   0.007751926     0.9563861   -0.2313977    -0.0000105    0.0020546    -0.0006986   -0.0002449     0.0002049   -0.0001961 
   0.007851951     0.9669886   -0.2440045    -0.0005128    0.0002342    -0.0001757   -0.0000296     0.0007005   -0.0000337 
   0.007951976     0.9696099   -0.2423506    -0.0007035    0.0014347    -0.0001140   -0.0004713     0.0003143    0.0000175 
   0.008052001     0.9547691   -0.2350374     0.0001206    0.0010851     0.0002341   -0.0000646     0.0003453    0.0003046 
   0.008152026     0.9568247   -0.2601197     0.0014336   -0.0013982     0.0000539    0.0000396     0.0004368    0.0001830 
   0.008252051     0.9420084   -0.2374763     0.0014031   -0.0007667    -0.0000296    0.0004993     0.0004321    0.0001704 
   0.008352076     0.9552192   -0.2508293    -0.0004466    0.0011407    -0.0000907    0.0000339     0.0006709   -0.0000820 
   0.008452101     0.9373605   -0.2534811     0.0004396   -0.0015798     0.0000877    0.0003317     0.0000315   -0.0003076 
   0.008552126     0.9551533   -0.2608962    -0.0002148   -0.0002753     0.0002258    0.0003404     0.0006843    0.0011423 
   0.008652151     0.9563977   -0.2477417    -0.0003664   -0.0003676     0.0000300   -0.0001773     0.0006264    0.0000361 
   0.008752176     0.9494495   -0.2561628     0.0008289    0.0002613    -0.0002942    0.0001207     0.0000147   -0.0001728 
   0.008852201     0.9452811   -0.2588944    -0.0009287   -0.0001840    -0.0001428    0.0000031     0.0002536   -0.0000297 
   0.008952226     0.9538172   -0.2697627    -0.0008472   -0.0001275    -0.0001329   -0.0003519     0.0003490   -0.0002695 
   0.009052251     0.9406037   -0.2803061    -0.0016774   -0.0004254     0.0001305   -0.0001529     0.0002195    0.0001482 
   0.009152276     0.9672890   -0.2718037     0.0012500   -0.0003390    -0.0003664   -0.0002071     0.0005374    0.0000305 
   0.009252301     0.9360363   -0.2733789    -0.0019148   -0.0012599    -0.0000491   -0.0002017     0.0005492   -0.0000862 
   0.009352326     0.9641635   -0.2866471     0.0008779    0.0006945     0.0002694    0.0002390     0.0000832   -0.0000462 
   0.009452351     0.9532087   -0.2850188    -0.0003582   -0.0003651    -0.0004373    0.0002496     0.0005344    0.0000930 
   0.009552376     0.9514654   -0.3013190     0.0009629   -0.0005884    -0.0003306   -0.0000344     0.0006514    0.0002400 
   0.009652401     0.9182095   -0.2907222    -0.0001331    0.0000004    -0.0000773    0.0005586    -0.0000124    0.0005329 
   0.009752426     0.9376867   -0.3090916    -0.0000659   -0.0004551     0.0003760   -0.0001912     0.0003348    0.0000280 
   0.009852451     0.9285052   -0.3119752    -0.0001265   -0.0006183    -0.0000663   -0.0001630     0.0001110    0.0001539 
   0.009952476     0.9293811   -0.3060758    -0.0008361   -0.0000267    -0.0000602   -0.0000629     0.0002454    0.0001122 
   0.010052501     0.9155630   -0.3150971    -0.0008547    0.0002139    -0.0001982   -0.0003178     0.0000575   -0.0002080 
   0.010152526     0.9200798   -0.3126572     0.0006264    0.0005560     0.0000030   -0.0001752     0.0007124    0.0003017 
   0.010252551     0.9349687   -0.3251154     0.0004841    0.0006808    -0.0001871    0.0001293     0.0003563   -0.0002206 
   0.010352576     0.9462357   -0.3342784    -0.0000510    0.0020021    -0.0000966    0.0002681     0.0003948   -0.0002658 
   0.010452601     0.9341692   -0.3153605    -0.0000480    0.0002666    -0.0000918    0.0001106     0.0002538   -0.0001514 
   0.010552626     0.9091069   -0.3338677     0.0010064   -0.0002118     0.0000585   -0.0000253     0.0004761    0.0001383 
   0.010652651     0.9212797   -0.3366268    -0.0009363   -0.0001573    -0.0002354   -0.0003084     0.0007355   -0.0003615 
   0.010752676     0.9279487   -0.3580158     0.0007464    0.0003375     0.0001481   -0.0002061     0.0001062    0.0004208 
   0.010852701     0.9196471   -0.3193755    -0.0004382    0.0003367    -0.0000079    0.0000537     0.0002675   -0.0001367 
   0.010952726     0.9107054   -0.3418251     0.0009669   -0.0010779     0.0001607    0.0001848    -0.0000053    0.0002441 
   0.011052751     0.9145188   -0.3719780     0.0006398    0.0011766     0.0004949   -0.0001928     0.0004409    0.0006766 
   0.011152776     0.9172001   -0.3528973     0.0006439    0.0000620    -0.0001550   -0.0002172     0.0005514   -0.0001107 
   0.011252801     0.9057668   -0.3615267    -0.0020757    0.0003626     0.0001279    0.0004195    -0.0002168   -0.0000762 
   0.011352826     0.9102224   -0.3745439    -0.0011855    0.0002472    -0.0000601   -0.0001021     0.0004916   -0.0000951 
   0.011452851     0.9187019   -0.3675631    -0.0007224   -0.0000122     0.0001190   -0.0000381     0.0002325    0.0001602 
   0.011552876     0.9012757   -0.3734227     0.0007933    0.0005662     0.0003976    0.0000035     0.0002265    0.0000555 
   0.011652901     0.8970071   -0.3924333     0.0000423    0.0002968     0.0001122    0.0000686     0.0002824    0.0003245 
   0.011752926     0.8852822   -0.3737065     0.0001167    0.0004503     0.0002647   -0.0000061     0.0006872    0.0001105 
   0.011852951     0.8985468   -0.4022451    -0.0003443   -0.0005774    -0.0001379   -0.0000438     0.0004762    0.0001548 
   0.011952976     0.8824304   -0.3797481    -0.0001132   -0.0008302     0.0001068   -0.0002109     0.0003708    0.0001243 
   0.012053002     0.8762910   -0.4239570    -0.0004527   -0.0002854    -0.0002939    0.0002028     0.0001201    0.0003985 
   0.012153027     0.8854664   -0.4082567    -0.0005456    0.0000690     0.0001422   -0.0001421     0.0005537   -0.0002901 
   0.012253052     0.8622752   -0.4240265     0.0001667   -0.0003321     0.0001346   -0.0004417     0.0007569   -0.0000365 
   0.012353077     0.8971612   -0.4146158     0.0004535    0.0007133    -0.0000747    0.0002818     0.0000504    0.0003422 
   0.012453102     0.8883128   -0.4234207    -0.0003978   -0.0004305     0.0001342    0.0000037     0.0004401   -0.0004181 
   0.012553127     0.8744399   -0.4422790     0.0000151   -0.0008407    -0.0002206   -0.0002912     0.0003486   -0.0000958 
   0.012653152     0.8761208   -0.4207124    -0.0001664    0.0000299    -0.0002311   -0.0000297     0.0002967   -0.0000207 
   0.012753177     0.8688850   -0.4211609     0.0002259    0.0003241     0.0002037   -0.0000150     0.0002869    0.0001603 
   0.012853202     0.8736453   -0.4188400    -0.0003036    0.0004742    -0.0003164   -0.0000575     0.0003693    0.0005007 
   0.012953227     0.8811091   -0.4263775     0.0001511    0.0004069    -0.0000016    0.0001948     0.0003843    0.0007672 
   0.013053252     0.8602234   -0.4526541    -0.0001286   -0.0007285    -0.0000423   -0.0001880     0.0005998   -0.0001289 
   0.013153277     0.8590574   -0.4412790     0.0002885   -0.0000081    -0.0001299   -0.0001479     0.0003270    0.0000737 
   0.013253302     0.8686627   -0.4502922    -0.0001163    0.0007496     0.0001342   -0.0001254     0.0002523   -0.0000398 
   0.013353327     0.8466337   -0.4628556    -0.0000177    0.0007753     0.0000625   -0.0000508     0.0001422    0.0001582 
   0.013453352     0.8711362   -0.4594109     0.0003031   -0.0014914     0.0000971    0.0000110     0.0002933   -0.0000338 
   0.013553377     0.8293098   -0.4566875     0.0006820    0.0006429    -0.0000702   -0.0000275     0.0003579    0.0003796 
   0.013653402     0.8381371   -0.4681614     0.0006596   -0.0001423     0.0000193    0.0001228     0.0005737   -0.0001223 
   0.013753427     0.8435727   -0.4762187    -0.0009960    0.0010551     0.0003048    0.0001883     0.0005536    0.0002786 
   0.013853452     0.8380285   -0.5008685     0.0003938   -0.0000746     0.0001289    0.0000432     0.0004532    0.0003286 
   0.013953477     0.8306172   -0.4769433    -0.0001264    0.0008515     0.0002707    0.0000773     0.0001178    0.0003171 
   0.014053502     0.8336856   -0.5079849    -0.0002531    0.0003545    -0.0001224    0.0000517     0.0002926   -0.0002653 
   0.014153527     0.8241045   -0.4993287     0.0000264    0.0009207     0.0001941   -0.0001865     0.0004301    0.0000014 
   0.014253552     0.8284925   -0.4971686    -0.0008432   -0.0011195     0.0002162    0.0004084     0.0003203   -0.0005155 
   0.014353577     0.8058146   -0.5097893    -0.0007325    0.0003748     0.0001683    0.0001901     0.0002098    0.0001032 
   0.014453602     0.7968730   -0.5202996    -0.0007626   -0.0002118     0.0002073   -0.0000598    -0.0000834   -0.0001406 
   0.014553627     0.7930431   -0.5172912    -0.0004202    0.0003910     0.0002512    0.0000829     0.0006042    0.0001981 
   0.014653652     0.8008722   -0.5303373     0.0000900   -0.0001975     0.0000652   -0.0002386     0.0008230   -0.0001548 
   0.014753677     0.7817379   -0.5363275    -0.0001419    0.0003860    -0.0003469    0.0000684     0.0005470    0.0002861 
   0.014853702     0.7899634   -0.5294293     0.0003072    0.0002300     0.0000866   -0.0000044     0.0002376    0.0000249 
   0.014953727     0.7635690   -0.5524471    -0.0001260    0.0005825     0.0000167   -0.0003185     0.0003918    0.0003669 
   0.015053752     0.7771070   -0.5620337     0.0005974   -0.0016947    -0.0000272    0.0001679     0.0002152    0.0004525 
   0.015153777     0.7674501   -0.5759981     0.0002027    0.0003542     0.0001851   -0.0004541     0.0001751   -0.0000155 
   0.015253802     0.7549413   -0.5713561     0.0004922    0.0003147    -0.0000917    0.0001569     0.0002916    0.0002163 
   0.015353827     0.7399772   -0.5818581     0.0000198    0.0000506    -0.0000775   -0.0000716     0.0005229    0.0000295 
   0.015453852     0.7381845   -0.5833783    -0.0002357    0.0001752     0.0001435    0.0000749     0.0007234    0.0002684 
   0.015553877     0.7298037   -0.5993890     0.0000730   -0.0000327    -0.0002228   -0.0000597     0.0004507    0.0001100 
   0.015653902     0.7168001   -0.6000162     0.0002063   -0.0002302    -0.0001346    0.0000640     0.0001772    0.0002108 
