! 26-Feb-26 1:47:53 PM
! E:\VNA_MEASUREMENTS\CAL_S11\CAL_LOAD_T1T1E1_2.S2P
! CHANNEL.1
! TR.MEASUREMENT
! CORRECTED.DATA
# GHZ S RI R 50.0
! FREQ.GHZ         S11RE         S11IM         S21RE         S21IM         S12RE         S12IM         S22RE         S22IM         
!; PortSelection: Port_12
   0.000050000     0.2338357   -0.0562764     0.2482524   -0.2323185     0.0009069   -0.0049203     0.0024638    0.0335865 
   0.000150025    -0.1056785    0.2500517    -0.1106764    0.2329666    -0.0002037    0.0011510     0.0027278   -0.0018879 
   0.000250050     0.1659407    0.2501238    -0.0518181   -0.0033236    -0.0001589   -0.0006158     0.0008190   -0.0017111 
   0.000350075     1.0336410   -0.0662892    -0.0004385   -0.0109672    -0.0005576   -0.0000989    -0.0003192    0.0001366 
   0.000450100     0.9870312   -0.0241269     0.0013682   -0.0097835    -0.0000503   -0.0006432    -0.0003000   -0.0009839 
   0.000550125     0.9809054   -0.0272879    -0.0030050   -0.0088304    -0.0004208   -0.0006689     0.0009682   -0.0009244 
   0.000650150     0.9475963   -0.0385330    -0.0069387   -0.0067274     0.0001129    0.0007753     0.0007230   -0.0026864 
   0.000750175     0.9893394   -0.0820443    -0.0069594   -0.0091107     0.0007998   -0.0002441    -0.0011936   -0.0000792 
   0.000850200     0.9192985   -0.0721963    -0.0088494   -0.0082848     0.0004009    0.0001097    -0.0015660   -0.0004437 
   0.000950225     1.0499630    0.0060451    -0.0091834   -0.0104944     0.0003583    0.0007897     0.0009660    0.0017800 
   0.001050250     0.9920121   -0.1032828    -0.0088819   -0.0075104     0.0001625   -0.0003273     0.0006287   -0.0004276 
   0.001150275     1.0425570   -0.0834369    -0.0100080   -0.0070596     0.0007472   -0.0000233     0.0022867    0.0007180 
   0.001250300     0.9801132   -0.0168611    -0.0053240   -0.0022457     0.0008556    0.0009232     0.0003366    0.0009008 
   0.001350325     0.9735171   -0.0831972    -0.0105356   -0.0008984     0.0001827   -0.0002461    -0.0001367   -0.0003112 
   0.001450350     0.9962264   -0.0473000    -0.0071763   -0.0028377     0.0001518    0.0005389    -0.0004696   -0.0002999 
   0.001550375     0.9442198   -0.0874645    -0.0099886   -0.0030465    -0.0003468    0.0001935     0.0011767   -0.0006440 
   0.001650400     0.9882498   -0.0297350    -0.0067539   -0.0004496    -0.0001174   -0.0002718    -0.0004080   -0.0001306 
   0.001750425     0.9981672   -0.1299261    -0.0039225   -0.0024391    -0.0006091    0.0006190    -0.0000394   -0.0000949 
   0.001850450     0.9887792   -0.0632346    -0.0095057    0.0000511     0.0006442   -0.0000117    -0.0003491    0.0011910 
   0.001950475     1.0126350   -0.0250818    -0.0055158   -0.0007624    -0.0000780    0.0009433     0.0001533   -0.0005124 
   0.002050500     0.9600375   -0.0769698    -0.0030858    0.0022993    -0.0005143    0.0001136     0.0009569   -0.0005035 
   0.002150525     1.0338460   -0.0768067    -0.0090140    0.0036174    -0.0000549    0.0001475     0.0009614    0.0011789 
   0.002250550     0.9734274   -0.0800409    -0.0063688    0.0015635     0.0005865   -0.0000856    -0.0000151    0.0004919 
   0.002350575     0.9730984   -0.1177104    -0.0027907    0.0011892     0.0005754   -0.0002604     0.0003147   -0.0012784 
   0.002450600     1.0167020   -0.1180146    -0.0046588    0.0007132    -0.0011115   -0.0000195     0.0000441    0.0002731 
   0.002550625     0.9775047   -0.0858741    -0.0047439    0.0038472     0.0004194    0.0004592    -0.0001759    0.0007098 
   0.002650650     1.0085960   -0.0748207    -0.0079309    0.0005765     0.0003798   -0.0003520     0.0001767    0.0004513 
   0.002750675     1.0050130   -0.0715077    -0.0040919    0.0022396     0.0008503   -0.0001320     0.0000276    0.0002124 
   0.002850700     1.0012080   -0.1245636    -0.0025762    0.0034210    -0.0002811   -0.0000092     0.0001561   -0.0001229 
   0.002950725     0.9658619   -0.0619510    -0.0017818    0.0024750    -0.0001461   -0.0001898     0.0013647    0.0008962 
   0.003050750     0.9636528   -0.1031004    -0.0055828    0.0017250     0.0004642   -0.0002919    -0.0000938   -0.0007534 
   0.003150775     0.9652268   -0.1597614    -0.0036495    0.0011516     0.0000156    0.0002081     0.0000122    0.0003926 
   0.003250800     0.9812974   -0.0724703    -0.0009382    0.0034923    -0.0001106    0.0004034     0.0002637   -0.0001649 
   0.003350825     0.9661971   -0.0735230    -0.0039526    0.0025767     0.0002403    0.0006253    -0.0002490    0.0014156 
   0.003450850     0.9687883   -0.1309608    -0.0002529    0.0025279     0.0001199   -0.0001336     0.0001908   -0.0003319 
   0.003550875     0.9600164   -0.1136798    -0.0009229    0.0008137    -0.0005240   -0.0002030     0.0001769   -0.0004930 
   0.003650900     0.9778358   -0.1079806    -0.0018260   -0.0007059     0.0000674   -0.0001600     0.0001360   -0.0002213 
   0.003750925     0.9645224   -0.1668126    -0.0002863    0.0026347    -0.0003001    0.0002346     0.0002850   -0.0005874 
   0.003850950     0.9796364   -0.1312522    -0.0029760    0.0020287    -0.0004315    0.0002800    -0.0000178    0.0003047 
   0.003950975     0.9711459   -0.1026168    -0.0010275    0.0028311     0.0001275    0.0002443     0.0002740   -0.0001323 
   0.004051001     0.9609752   -0.1660445    -0.0028390    0.0031663    -0.0004044    0.0001577     0.0003464    0.0002746 
   0.004151026     0.9864802   -0.1503170     0.0007459    0.0026117    -0.0003291   -0.0006761     0.0002535   -0.0006666 
   0.004251051     0.9609140   -0.1612026     0.0003755    0.0006320    -0.0008373    0.0000909    -0.0002388   -0.0004793 
   0.004351076     0.9686697   -0.1223896    -0.0010566    0.0035003    -0.0002492    0.0001613     0.0006100    0.0006978 
   0.004451101     0.9682639   -0.1553913    -0.0012947    0.0019064     0.0003179    0.0006341     0.0004710   -0.0006407 
   0.004551126     0.9933916   -0.1454688     0.0018431    0.0020844    -0.0001835   -0.0001498    -0.0000311    0.0002995 
   0.004651151     0.9661872   -0.1572475    -0.0014943    0.0014061    -0.0002453    0.0001160     0.0003088    0.0002378 
   0.004751176     0.9473764   -0.2046361    -0.0000539    0.0019849    -0.0001571   -0.0001422     0.0006280   -0.0001889 
   0.004851201     0.9443419   -0.1571271    -0.0014795    0.0004799    -0.0004018    0.0001348     0.0009308    0.0003566 
   0.004951226     0.9552076   -0.1632129     0.0009518    0.0013733    -0.0001724    0.0000959     0.0003226    0.0000318 
   0.005051251     0.9909286   -0.1590014     0.0005958    0.0014780    -0.0005524   -0.0000979    -0.0001515    0.0000004 
   0.005151276     0.9458846   -0.1673430     0.0011430    0.0018403     0.0002717   -0.0003038     0.0007230   -0.0005408 
   0.005251301     0.9339170   -0.1782035     0.0001230    0.0026049    -0.0002210   -0.0002264     0.0006571    0.0008766 
   0.005351326     0.9290717   -0.1615753    -0.0012332    0.0012283     0.0001577   -0.0002546     0.0006958    0.0005683 
   0.005451351     0.9736887   -0.1691773    -0.0016719    0.0013294     0.0002112    0.0001552     0.0004556    0.0004660 
   0.005551376     0.9727545   -0.1962201    -0.0020284   -0.0006409    -0.0001179   -0.0002319     0.0004410   -0.0011236 
   0.005651401     0.9611800   -0.1612882    -0.0003655   -0.0000572     0.0002150    0.0000535    -0.0001137   -0.0004178 
   0.005751426     0.9414812   -0.1848160    -0.0012120    0.0012180     0.0001487    0.0001669     0.0006266   -0.0001317 
   0.005851451     0.9581997   -0.1799237    -0.0005508   -0.0001394     0.0001802    0.0005654    -0.0004171    0.0001829 
   0.005951476     0.9372117   -0.1887167    -0.0003416    0.0000010    -0.0000271    0.0005841     0.0003724    0.0005197 
   0.006051501     0.9193404   -0.1869534     0.0007209   -0.0000650     0.0001652    0.0001990    -0.0001619    0.0001932 
   0.006151526     0.9452769   -0.2164216     0.0004455    0.0006147     0.0000796    0.0001686     0.0004770    0.0000559 
   0.006251551     0.9391722   -0.1954586    -0.0001967    0.0017105     0.0003362    0.0003002     0.0002011   -0.0004571 
   0.006351576     0.9397375   -0.2216069    -0.0007715   -0.0015243    -0.0000240    0.0004346     0.0003212    0.0004100 
   0.006451601     0.9292220   -0.1958358    -0.0008465    0.0022162     0.0000128   -0.0003950    -0.0000854    0.0002552 
   0.006551626     0.9311476   -0.2056541     0.0009222    0.0003315     0.0000930    0.0001064    -0.0004635    0.0001036 
   0.006651651     0.9331808   -0.1984726    -0.0004474    0.0003473    -0.0004163   -0.0002064    -0.0001237   -0.0001703 
   0.006751676     0.9404362   -0.2336683    -0.0007718   -0.0007696     0.0002741    0.0000388     0.0007899    0.0004961 
   0.006851701     0.9578381   -0.2208579     0.0004055    0.0015498    -0.0000215    0.0003101    -0.0004319   -0.0000476 
   0.006951726     0.9366944   -0.2325082     0.0009435    0.0009902     0.0003140   -0.0000087     0.0005991    0.0007923 
   0.007051751     0.9331626   -0.2154877     0.0009082    0.0004340    -0.0005902    0.0003148     0.0006244    0.0002914 
   0.007151776     0.9170212   -0.2242303    -0.0012538    0.0002987     0.0001943   -0.0002412     0.0003665    0.0002517 
   0.007251801     0.9468412   -0.2228070    -0.0017558   -0.0003963    -0.0000375   -0.0002243    -0.0000513   -0.0004303 
   0.007351826     0.9385681   -0.2256365    -0.0001306   -0.0003144    -0.0004120   -0.0001476     0.0007518    0.0004504 
   0.007451851     0.9196895   -0.2280568     0.0004647   -0.0000488    -0.0002456    0.0001339     0.0005302   -0.0003525 
   0.007551876     0.9252347   -0.2235708    -0.0010646   -0.0012582     0.0000926    0.0000780     0.0001319   -0.0002046 
   0.007651901     0.9251105   -0.2333459     0.0009371    0.0003877    -0.0000930   -0.0004594     0.0003932    0.0004022 
   0.007751926     0.9445325   -0.2258821    -0.0008597   -0.0003327     0.0002677    0.0001903     0.0003395   -0.0002845 
   0.007851951     0.9254428   -0.2479483     0.0005722    0.0002493     0.0000701   -0.0002514    -0.0000637   -0.0000131 
   0.007951976     0.9340595   -0.2682118     0.0007266    0.0010205     0.0001969   -0.0001090     0.0002510   -0.0000078 
   0.008052001     0.9141029   -0.2314360     0.0007047   -0.0013309    -0.0002786    0.0001309     0.0004911    0.0000995 
   0.008152026     0.9102461   -0.2653320     0.0002557    0.0015482     0.0004656    0.0003642     0.0004675    0.0003221 
   0.008252051     0.9109547   -0.2467604    -0.0000746    0.0009752     0.0000227    0.0001676     0.0009943    0.0004687 
   0.008352076     0.9256040   -0.2617427     0.0003340   -0.0005680    -0.0001653    0.0003713     0.0008320    0.0000426 
   0.008452101     0.9115030   -0.2442910    -0.0000248   -0.0000096     0.0003611    0.0004384     0.0002965    0.0000831 
   0.008552126     0.9186955   -0.2548380    -0.0003487   -0.0000561     0.0003562    0.0002858     0.0004267    0.0006532 
   0.008652151     0.9263678   -0.2618324     0.0004553    0.0007168    -0.0001195   -0.0002564     0.0005394   -0.0000257 
   0.008752176     0.9197087   -0.2569767     0.0007173    0.0013899    -0.0004591    0.0002958    -0.0000972   -0.0005229 
   0.008852201     0.9107273   -0.2531336    -0.0008050   -0.0008769     0.0003404    0.0000266     0.0007795    0.0001671 
   0.008952226     0.9407865   -0.2650982     0.0010366   -0.0012371     0.0003388   -0.0003241     0.0000876   -0.0002364 
   0.009052251     0.9210180   -0.2606791    -0.0005926    0.0008078     0.0000363    0.0000595     0.0007087   -0.0005295 
   0.009152276     0.9094005   -0.2763513     0.0003829   -0.0008151     0.0003490   -0.0001887     0.0009135    0.0002138 
   0.009252301     0.8988594   -0.2674385     0.0002322    0.0009315     0.0005562   -0.0000347     0.0005136   -0.0003479 
   0.009352326     0.9115624   -0.2836538    -0.0005437   -0.0000382     0.0003548   -0.0000107     0.0002840   -0.0001129 
   0.009452351     0.9104695   -0.2872299     0.0001706   -0.0010582    -0.0000014    0.0001026     0.0002917    0.0001516 
   0.009552376     0.9206823   -0.2839670     0.0002181   -0.0001702    -0.0001842   -0.0001728     0.0004724    0.0002024 
   0.009652401     0.8871974   -0.2696866     0.0004056   -0.0011764    -0.0001725    0.0000070    -0.0000758    0.0005201 
   0.009752426     0.8858595   -0.2821615     0.0001070    0.0005968     0.0002243   -0.0000235     0.0000974    0.0006323 
   0.009852451     0.9002670   -0.2955646     0.0002482    0.0008112     0.0001232   -0.0002576     0.0004587   -0.0005106 
   0.009952476     0.8875197   -0.2991148    -0.0001547   -0.0010728     0.0000663   -0.0001883     0.0002363    0.0000308 
   0.010052501     0.8874872   -0.2849075    -0.0004769    0.0001418     0.0000161    0.0003837     0.0001727    0.0001627 
   0.010152526     0.8848979   -0.3036795    -0.0002756    0.0001666    -0.0000331    0.0004164    -0.0000334    0.0001343 
   0.010252551     0.8858472   -0.3027846     0.0009346    0.0004228    -0.0002850   -0.0000361     0.0002202   -0.0001527 
   0.010352576     0.9031045   -0.3053098    -0.0003455    0.0002010    -0.0004053   -0.0000574     0.0001926    0.0005312 
   0.010452601     0.8889226   -0.2826911    -0.0001220   -0.0009442    -0.0001089   -0.0000686     0.0003993   -0.0001481 
   0.010552626     0.8613669   -0.3087547     0.0000667   -0.0006735     0.0000590   -0.0000358     0.0001106    0.0003901 
   0.010652651     0.8889313   -0.3109513     0.0004974    0.0006243    -0.0001440   -0.0002769     0.0004740   -0.0001985 
   0.010752676     0.8706548   -0.3163515     0.0012137   -0.0006612     0.0000478   -0.0001090     0.0000496    0.0000240 
   0.010852701     0.8878288   -0.2999508     0.0007897   -0.0003423     0.0002224    0.0000926     0.0005324   -0.0001576 
   0.010952726     0.8837000   -0.3182544    -0.0001210   -0.0008565     0.0000758   -0.0003451     0.0001510   -0.0002058 
   0.011052751     0.8764353   -0.3182799    -0.0009333    0.0005859     0.0002403   -0.0001610     0.0009011    0.0004098 
   0.011152776     0.8809137   -0.3188510    -0.0017547    0.0002162    -0.0000724    0.0005925     0.0001422   -0.0005968 
   0.011252801     0.8688537   -0.3423254    -0.0004081   -0.0002236    -0.0000097   -0.0000910     0.0001124   -0.0001562 
   0.011352826     0.8746387   -0.3479257    -0.0005318   -0.0000297    -0.0001886   -0.0001906    -0.0000177    0.0000204 
   0.011452851     0.8542877   -0.3188936    -0.0002764    0.0006971     0.0000714   -0.0000251     0.0002576    0.0000161 
   0.011552876     0.8521779   -0.3413525    -0.0007828   -0.0006387     0.0000093    0.0004648     0.0006487    0.0001311 
   0.011652901     0.8597036   -0.3498893     0.0006906   -0.0004183     0.0000216    0.0000848     0.0002528    0.0003384 
   0.011752926     0.8405200   -0.3320872     0.0001606    0.0002737    -0.0001246   -0.0002909     0.0004060    0.0000391 
   0.011852951     0.8625309   -0.3540599     0.0001985   -0.0006911     0.0000814   -0.0000189     0.0002095   -0.0000760 
   0.011952976     0.8457895   -0.3334060    -0.0001334    0.0001697    -0.0002013   -0.0001150     0.0001846    0.0004700 
   0.012053002     0.8445192   -0.3593265    -0.0004326    0.0006471    -0.0001034   -0.0001004     0.0003682    0.0003706 
   0.012153027     0.8521314   -0.3579016    -0.0008657   -0.0008472    -0.0004039    0.0000824     0.0006395    0.0001126 
   0.012253052     0.8322964   -0.3605862    -0.0000199   -0.0010225    -0.0002642    0.0003508     0.0008246    0.0000748 
   0.012353077     0.8552266   -0.3426100     0.0003090   -0.0006965     0.0000093   -0.0002383     0.0002934    0.0002250 
   0.012453102     0.8476563   -0.3510302    -0.0003928   -0.0009394     0.0000938   -0.0000818     0.0005712   -0.0001802 
   0.012553127     0.8264866   -0.3783497     0.0004658   -0.0000521    -0.0000928    0.0005130     0.0003185   -0.0002500 
   0.012653152     0.8514175   -0.3389386     0.0001257   -0.0004035     0.0002203   -0.0000665    -0.0002207    0.0002905 
   0.012753177     0.8296930   -0.3560693     0.0002184   -0.0000600     0.0000343   -0.0001915     0.0006699    0.0000344 
   0.012853202     0.8366187   -0.3472029    -0.0001491   -0.0005236    -0.0003443   -0.0001990     0.0000677    0.0001537 
   0.012953227     0.8358550   -0.3530905     0.0004431    0.0015360    -0.0002001    0.0000637     0.0005167    0.0001490 
   0.013053252     0.8244610   -0.3729391    -0.0001659   -0.0005084    -0.0000965   -0.0000559     0.0003819   -0.0001058 
   0.013153277     0.8359219   -0.3576571     0.0007758    0.0000690    -0.0002478    0.0000120     0.0004344    0.0000735 
   0.013253302     0.8276145   -0.3490742    -0.0000049    0.0004584    -0.0000207    0.0001081     0.0002874   -0.0002955 
   0.013353327     0.8182774   -0.3653923    -0.0003642   -0.0001277    -0.0000978   -0.0003377     0.0005868    0.0003208 
   0.013453352     0.8241459   -0.3558616     0.0000518    0.0000929    -0.0003257    0.0000697     0.0000766   -0.0001885 
   0.013553377     0.8094265   -0.3641991    -0.0003356   -0.0002463    -0.0002381    0.0001494    -0.0000082   -0.0002545 
   0.013653402     0.8200849   -0.3710169    -0.0003055   -0.0010279     0.0002451   -0.0002524     0.0003856    0.0002462 
   0.013753427     0.8192820   -0.3796435     0.0007163    0.0000621     0.0003946    0.0000435     0.0002581   -0.0000206 
   0.013853452     0.8263497   -0.3846042    -0.0000310    0.0000453    -0.0003414    0.0000706     0.0003013   -0.0000095 
   0.013953477     0.8011555   -0.3646273    -0.0012373   -0.0008060    -0.0001148    0.0000062     0.0005543    0.0001089 
   0.014053502     0.8136435   -0.3842774     0.0001096   -0.0000827     0.0001739    0.0002301    -0.0000443    0.0001063 
   0.014153527     0.8052069   -0.3837389    -0.0000063   -0.0000308     0.0000915   -0.0000856     0.0000934    0.0002999 
   0.014253552     0.8126222   -0.3808005     0.0002549   -0.0006047    -0.0000049   -0.0001484     0.0005099   -0.0002446 
   0.014353577     0.8013797   -0.3707706     0.0009224    0.0000938    -0.0002623   -0.0002342     0.0007916    0.0002140 
   0.014453602     0.7951451   -0.3765676    -0.0001915    0.0006072    -0.0000806   -0.0000629    -0.0001440   -0.0002037 
   0.014553627     0.8013874   -0.3855966    -0.0005477   -0.0001790     0.0000486    0.0002130     0.0001496    0.0000739 
   0.014653652     0.7980121   -0.3845801    -0.0005895    0.0001103     0.0000175   -0.0003017     0.0003949   -0.0004044 
   0.014753677     0.7954074   -0.3884130    -0.0002845   -0.0014927     0.0001352    0.0001262     0.0005263    0.0001340 
   0.014853702     0.8031496   -0.3803621    -0.0005589    0.0002200     0.0001941    0.0000233     0.0005635    0.0001739 
   0.014953727     0.7908890   -0.4015635     0.0000698    0.0004997    -0.0000730   -0.0001130     0.0006160    0.0001644 
   0.015053752     0.7866495   -0.3956304     0.0000868   -0.0002301     0.0000165   -0.0000916     0.0006016    0.0003710 
   0.015153777     0.7978773   -0.4002800    -0.0001580   -0.0002218    -0.0000599   -0.0001121     0.0001311    0.0000894 
   0.015253802     0.7879241   -0.4011204     0.0004472    0.0011690    -0.0000983    0.0000179     0.0005463   -0.0001187 
   0.015353827     0.7750718   -0.4078853    -0.0002308    0.0005194    -0.0001251    0.0000823     0.0005958   -0.0000506 
   0.015453852     0.7845786   -0.4044394    -0.0002699    0.0006316     0.0000158    0.0000462     0.0006108    0.0001480 
   0.015553877     0.7855034   -0.4131554     0.0003039   -0.0005785     0.0002177   -0.0000590     0.0005690   -0.0001455 
   0.015653902     0.7750542   -0.4097036     0.0004985    0.0002876    -0.0000448   -0.0002816     0.0001245    0.0000747 
