! 26-Feb-26 1:36:09 PM
! E:\VNA_MEASUREMENTS\CAL_S11\CAL_HEATEDLOAD_T1T1E4_0.S2P
! CHANNEL.1
! TR.MEASUREMENT
! CORRECTED.DATA
# GHZ S RI R 50.0
! FREQ.GHZ         S11RE         S11IM         S21RE         S21IM         S12RE         S12IM         S22RE         S22IM         
!; PortSelection: Port_12
   0.000050000     0.0068592    0.1582482     0.1261815   -0.2832133     0.0034068   -0.0024765    -0.0037887    0.0145939 
   0.000150025    -0.0360720    0.1532708    -0.3965713   -0.8244254    -0.0005876    0.0005846     0.0031389   -0.0055839 
   0.000250050    -0.2994182   -0.1181262     0.0977730    0.0867850     0.0001102   -0.0003353     0.0003444   -0.0036194 
   0.000350075     1.0185950   -0.0585290    -0.0031765   -0.0114091     0.0008687    0.0005112    -0.0007530   -0.0008162 
   0.000450100     0.9691233   -0.0189139     0.0010666   -0.0109245    -0.0001212   -0.0005531    -0.0006836   -0.0007381 
   0.000550125     0.9831446   -0.0335031    -0.0037307   -0.0098882     0.0001500   -0.0001239     0.0005063    0.0004202 
   0.000650150     0.9434090   -0.0074955    -0.0053134   -0.0050570    -0.0003538   -0.0003659    -0.0002448   -0.0016150 
   0.000750175     1.0163870   -0.0505763    -0.0046691   -0.0076450    -0.0005502   -0.0006580    -0.0015406    0.0003189 
   0.000850200     1.0065600   -0.1035538    -0.0105975   -0.0083370    -0.0008184   -0.0002297    -0.0005948   -0.0001280 
   0.000950225     1.0424580   -0.0416854    -0.0085124   -0.0104585     0.0003652    0.0003174     0.0005880    0.0008681 
   0.001050250     0.9974089   -0.0153568    -0.0087494   -0.0065831    -0.0003341   -0.0004801     0.0003671   -0.0007694 
   0.001150275     1.0505860   -0.0684366    -0.0126266   -0.0055924     0.0005527    0.0005512     0.0010664    0.0004354 
   0.001250300     0.9649129   -0.0353363    -0.0082033   -0.0062158     0.0000745   -0.0001266     0.0011195   -0.0007899 
   0.001350325     1.0018560   -0.0840429    -0.0107690   -0.0021110    -0.0001894    0.0002908    -0.0003617   -0.0001230 
   0.001450350     0.9631589   -0.0759219    -0.0106994   -0.0037016    -0.0006134    0.0003248     0.0007143    0.0000516 
   0.001550375     0.9934447   -0.0806139    -0.0085282   -0.0039702    -0.0004745   -0.0001466     0.0007095    0.0004753 
   0.001650400     0.9986295   -0.0653869    -0.0077462   -0.0042552    -0.0000004   -0.0000569    -0.0003622    0.0000796 
   0.001750425     1.0132600   -0.0954033    -0.0087220    0.0027027     0.0003198   -0.0006533     0.0000174    0.0002744 
   0.001850450     0.9565560   -0.0799973    -0.0087918   -0.0017096    -0.0006051    0.0004503    -0.0012488    0.0006561 
   0.001950475     0.9886919   -0.0360678    -0.0046838    0.0003282    -0.0006597    0.0002900     0.0014019   -0.0001539 
   0.002050500     0.9459217   -0.0431743    -0.0031563    0.0000326     0.0003998   -0.0000180     0.0009464   -0.0002105 
   0.002150525     0.9982839   -0.0645004    -0.0071741    0.0043527    -0.0003163    0.0000076     0.0003872   -0.0000963 
   0.002250550     0.9803472   -0.0572919    -0.0075343    0.0023921     0.0000370    0.0000373    -0.0008443   -0.0002783 
   0.002350575     0.9586885   -0.1359500    -0.0045429    0.0043215    -0.0000129    0.0001903     0.0022516   -0.0001691 
   0.002450600     0.9862067   -0.0820067    -0.0025850    0.0038803    -0.0005963   -0.0004247    -0.0000876    0.0006783 
   0.002550625     1.0056840   -0.0656223    -0.0026347    0.0018682     0.0004473    0.0004332    -0.0002193    0.0006118 
   0.002650650     1.0030000   -0.0639248    -0.0018723    0.0027514     0.0006499    0.0001169     0.0001322    0.0005102 
   0.002750675     0.9951059   -0.0437105    -0.0034231    0.0028017    -0.0002740    0.0003624    -0.0003421    0.0004541 
   0.002850700     1.0149940   -0.1076353    -0.0028629    0.0047214    -0.0006353   -0.0002683     0.0002012   -0.0005482 
   0.002950725     0.9490277   -0.0752053    -0.0032569    0.0018774    -0.0004670   -0.0002532     0.0003083   -0.0003189 
   0.003050750     0.9434856   -0.0936602    -0.0022759    0.0052365    -0.0000288    0.0000345     0.0002063   -0.0008884 
   0.003150775     0.9531418   -0.1178027    -0.0042770    0.0029978    -0.0005091    0.0007581    -0.0002149   -0.0004253 
   0.003250800     0.9760246   -0.1052533    -0.0001052    0.0016562     0.0003219   -0.0009613     0.0004684    0.0006995 
   0.003350825     0.9614999   -0.0979718    -0.0035630    0.0002152    -0.0001106    0.0005867     0.0005996    0.0007888 
   0.003450850     0.9638008   -0.1220412    -0.0042290    0.0047227     0.0002335   -0.0001183     0.0003504    0.0003043 
   0.003550875     0.9634029   -0.1344996    -0.0015976    0.0041308    -0.0002217    0.0001926     0.0007309   -0.0005984 
   0.003650900     0.9527994   -0.1155838    -0.0027548    0.0013152     0.0001129   -0.0006229     0.0008885   -0.0000491 
   0.003750925     0.9570209   -0.1208962     0.0023859    0.0023436    -0.0001336   -0.0004909     0.0009295   -0.0004039 
   0.003850950     0.9567330   -0.1472783    -0.0019751    0.0025871     0.0002637   -0.0006553    -0.0001380    0.0008550 
   0.003950975     0.9840872   -0.1232726     0.0008751   -0.0014807    -0.0006107   -0.0002784    -0.0001721   -0.0007394 
   0.004051001     0.9833384   -0.1666097     0.0000692    0.0038682    -0.0002989    0.0000920     0.0000990    0.0000217 
   0.004151026     1.0016700   -0.1202071    -0.0013206    0.0014820     0.0002546   -0.0001246     0.0000534    0.0000761 
   0.004251051     0.9878234   -0.1225288    -0.0003006    0.0001692    -0.0004849   -0.0004145    -0.0004517   -0.0005100 
   0.004351076     0.9584196   -0.1272126     0.0003174    0.0013170    -0.0004389    0.0000602     0.0008246    0.0003704 
   0.004451101     0.9941422   -0.1766970    -0.0000370    0.0035182    -0.0002597    0.0000873     0.0005026   -0.0010452 
   0.004551126     0.9994259   -0.1858348    -0.0009216    0.0032456     0.0004200   -0.0005754    -0.0002387    0.0004726 
   0.004651151     0.9737967   -0.1683246    -0.0025719    0.0011849     0.0003698   -0.0003871     0.0008725    0.0004836 
   0.004751176     0.9554655   -0.1586022    -0.0014422    0.0021749     0.0003762    0.0003166     0.0003683   -0.0004134 
   0.004851201     0.9317169   -0.1671718    -0.0011908   -0.0006254    -0.0002064   -0.0001746     0.0005511    0.0001322 
   0.004951226     0.9416288   -0.1617949     0.0008539   -0.0008590     0.0000099   -0.0001267     0.0003191   -0.0003877 
   0.005051251     0.9808323   -0.1769748     0.0010323    0.0019793     0.0000581    0.0002181    -0.0000850   -0.0005660 
   0.005151276     0.9286606   -0.1592506    -0.0013146    0.0018826     0.0003987    0.0001093     0.0002546   -0.0002165 
   0.005251301     0.9231946   -0.1485439    -0.0020800    0.0025824    -0.0001122   -0.0002369     0.0008221    0.0009052 
   0.005351326     0.9534959   -0.1552191    -0.0011858    0.0002511    -0.0001887   -0.0001030    -0.0001296    0.0003729 
   0.005451351     0.9250262   -0.1942559    -0.0007113    0.0007493     0.0001264   -0.0002093     0.0003127    0.0000952 
   0.005551376     0.9881845   -0.1775005     0.0011774   -0.0015457     0.0000278   -0.0002709     0.0001480   -0.0001333 
   0.005651401     0.9606029   -0.1807395    -0.0001233    0.0022553     0.0000814    0.0001300     0.0001994   -0.0010664 
   0.005751426     0.9372698   -0.1903283     0.0007983   -0.0002146     0.0002034   -0.0005331     0.0001724    0.0000314 
   0.005851451     0.9458382   -0.2049986     0.0006014    0.0019852    -0.0003701    0.0004581     0.0005705   -0.0000502 
   0.005951476     0.9415899   -0.1658278    -0.0004988    0.0003799    -0.0003285    0.0001294     0.0002488    0.0004230 
   0.006051501     0.9499162   -0.1991436     0.0000649    0.0009192    -0.0003555    0.0005449    -0.0001992    0.0001816 
   0.006151526     0.9335692   -0.2060500     0.0000729    0.0013614     0.0002517    0.0001588     0.0008875   -0.0003172 
   0.006251551     0.9321445   -0.1894344     0.0000022    0.0001920     0.0001600    0.0000420     0.0002445    0.0000092 
   0.006351576     0.9417688   -0.2039139    -0.0011010    0.0020052     0.0001181   -0.0004316     0.0004981   -0.0003074 
   0.006451601     0.9313685   -0.1991736    -0.0000138    0.0012432     0.0002158    0.0001089     0.0001037    0.0002078 
   0.006551626     0.9230832   -0.2079725     0.0005721    0.0003404    -0.0003895   -0.0005668    -0.0004298   -0.0003117 
   0.006651651     0.9275980   -0.2138329     0.0008210    0.0004532    -0.0006939    0.0003614    -0.0001892   -0.0001789 
   0.006751676     0.9393253   -0.2161290     0.0005356    0.0005126    -0.0001849    0.0001286     0.0010677    0.0003533 
   0.006851701     0.9512904   -0.2478506    -0.0019412    0.0004569     0.0001786   -0.0002921    -0.0001467   -0.0000289 
   0.006951726     0.9261843   -0.2204290    -0.0012678    0.0004345    -0.0000694    0.0002685     0.0003345    0.0011019 
   0.007051751     0.9221714   -0.2241576    -0.0011796   -0.0004656     0.0000740    0.0003554     0.0005937   -0.0001667 
   0.007151776     0.9104967   -0.2355631    -0.0001237   -0.0005802     0.0003206    0.0003814     0.0012038    0.0001033 
   0.007251801     0.9529286   -0.2082210     0.0006298   -0.0003155    -0.0005203    0.0000014     0.0002758   -0.0003432 
   0.007351826     0.9073486   -0.2297915     0.0002268   -0.0005518    -0.0002381   -0.0001606     0.0007226    0.0001124 
   0.007451851     0.9109818   -0.2336547    -0.0003950    0.0012611    -0.0005359   -0.0000893     0.0002382   -0.0003627 
   0.007551876     0.9109005   -0.2382390     0.0003254   -0.0000008     0.0004256    0.0001161     0.0006526   -0.0002367 
   0.007651901     0.9283119   -0.2599137    -0.0012535   -0.0007670    -0.0001812    0.0001143     0.0003454    0.0004083 
   0.007751926     0.9298097   -0.2419033     0.0000428    0.0001810     0.0002445   -0.0001256     0.0002829   -0.0007999 
   0.007851951     0.9205400   -0.2462251     0.0009698    0.0017071     0.0004930    0.0000433     0.0003477   -0.0002932 
   0.007951976     0.9199515   -0.2696744     0.0008833   -0.0016612    -0.0003739   -0.0003356     0.0006420    0.0004626 
   0.008052001     0.9216715   -0.2478734     0.0022333   -0.0014066     0.0000870    0.0001361     0.0002865   -0.0000028 
   0.008152026     0.9237671   -0.2500173    -0.0006414   -0.0010267    -0.0001459   -0.0001293     0.0002068   -0.0002846 
   0.008252051     0.8941720   -0.2420483     0.0000206   -0.0004782     0.0003164   -0.0001620     0.0010932    0.0003783 
   0.008352076     0.9054980   -0.2725638    -0.0007392   -0.0001757    -0.0000215   -0.0001763     0.0006074    0.0002107 
   0.008452101     0.9106072   -0.2645840    -0.0008093    0.0000003    -0.0001851    0.0000097    -0.0000341   -0.0003836 
   0.008552126     0.9214562   -0.2593665    -0.0013174    0.0006086     0.0004617   -0.0001877     0.0006993    0.0004839 
   0.008652151     0.9089991   -0.2481504     0.0013756   -0.0000224    -0.0000938    0.0002837    -0.0001035   -0.0003170 
   0.008752176     0.9055079   -0.2433619    -0.0018703    0.0007371    -0.0003361    0.0001700    -0.0001249   -0.0002920 
   0.008852201     0.9017574   -0.2599791     0.0005139   -0.0001346    -0.0001802    0.0003186     0.0005975    0.0003934 
   0.008952226     0.9148798   -0.2784380     0.0010777    0.0001569    -0.0000674   -0.0003559     0.0003988   -0.0008735 
   0.009052251     0.9086545   -0.2751585     0.0005119    0.0003744     0.0003939    0.0001009     0.0002418   -0.0004158 
   0.009152276     0.8997371   -0.2694016    -0.0000757    0.0002010     0.0000335    0.0001131     0.0008956   -0.0000815 
   0.009252301     0.8904603   -0.2742659    -0.0003042   -0.0001033     0.0004412   -0.0001826     0.0006474   -0.0005577 
   0.009352326     0.9106998   -0.2906363     0.0009888   -0.0001334     0.0001133    0.0001495     0.0002327    0.0001105 
   0.009452351     0.9024485   -0.2879269    -0.0005202   -0.0003893     0.0001778    0.0002119     0.0003405    0.0000402 
   0.009552376     0.8991263   -0.2961999     0.0009998   -0.0004830     0.0000873   -0.0000533     0.0005678   -0.0001516 
   0.009652401     0.8838179   -0.2835831    -0.0002594   -0.0004840     0.0005110    0.0000184    -0.0000947    0.0000762 
   0.009752426     0.9000245   -0.2838010     0.0010506   -0.0000273    -0.0001094   -0.0000331     0.0003883    0.0002611 
   0.009852451     0.8838906   -0.2972521     0.0000663   -0.0001546    -0.0000473    0.0000511     0.0002268    0.0001926 
   0.009952476     0.8875488   -0.3106115    -0.0002094    0.0000276     0.0000414   -0.0002964     0.0002524   -0.0000858 
   0.010052501     0.8784834   -0.2940018    -0.0002851    0.0004476    -0.0001128   -0.0002344     0.0005233   -0.0002427 
   0.010152526     0.8829550   -0.2946278     0.0000332   -0.0005173     0.0000242    0.0002982     0.0006269   -0.0000361 
   0.010252551     0.8786107   -0.2933986     0.0004545   -0.0002113     0.0000332   -0.0003320     0.0010226   -0.0001878 
   0.010352576     0.8861682   -0.3108938    -0.0008196    0.0002214    -0.0000238   -0.0000253     0.0006809    0.0004386 
   0.010452601     0.8864971   -0.2971129     0.0002357    0.0003002     0.0000413    0.0004345     0.0006484    0.0001861 
   0.010552626     0.8601115   -0.3173624    -0.0003238    0.0008169     0.0002847   -0.0001609    -0.0002611    0.0001811 
   0.010652651     0.8702999   -0.3069373    -0.0008879   -0.0002876    -0.0000628   -0.0003176     0.0004156    0.0000274 
   0.010752676     0.8796167   -0.3147415    -0.0003364   -0.0001320    -0.0002723    0.0001747     0.0003964    0.0003164 
   0.010852701     0.8779668   -0.3023719    -0.0011402   -0.0001357     0.0003043   -0.0000521     0.0001343    0.0005454 
   0.010952726     0.8682687   -0.3088201    -0.0002673   -0.0003286     0.0002181   -0.0001026    -0.0003518   -0.0001633 
   0.011052751     0.8632917   -0.3298715     0.0001292   -0.0000693     0.0001407   -0.0000828     0.0006463    0.0001726 
   0.011152776     0.8691534   -0.3191993    -0.0006750   -0.0007170    -0.0000533    0.0000051    -0.0001747    0.0000851 
   0.011252801     0.8642768   -0.3282693    -0.0004885   -0.0002135    -0.0000398    0.0002297     0.0002426   -0.0000054 
   0.011352826     0.8692106   -0.3341560    -0.0005843    0.0000989    -0.0002958    0.0003264     0.0007616    0.0000408 
   0.011452851     0.8496279   -0.3307307    -0.0005791   -0.0001780     0.0002398    0.0003101    -0.0000303   -0.0000137 
   0.011552876     0.8479552   -0.3392069    -0.0002368   -0.0007007     0.0001230   -0.0002584     0.0000501   -0.0001117 
   0.011652901     0.8463224   -0.3418026     0.0001652   -0.0006580    -0.0000021    0.0001739     0.0001369    0.0007366 
   0.011752926     0.8392167   -0.3216433    -0.0011182    0.0004165    -0.0003581    0.0000559     0.0005902   -0.0003102 
   0.011852951     0.8598182   -0.3557653    -0.0002719    0.0004025     0.0000732   -0.0001615     0.0002499   -0.0000627 
   0.011952976     0.8462255   -0.3299849     0.0001656   -0.0006828    -0.0001708   -0.0001853     0.0001156    0.0001455 
   0.012053002     0.8377104   -0.3517966    -0.0007406   -0.0003611    -0.0005164   -0.0000822     0.0002334    0.0002448 
   0.012153027     0.8456280   -0.3537905     0.0003378    0.0001460    -0.0001360   -0.0001794     0.0005706   -0.0000359 
   0.012253052     0.8334044   -0.3492762    -0.0009133   -0.0008524    -0.0000365    0.0000797     0.0005703    0.0001874 
   0.012353077     0.8395474   -0.3369106     0.0004244    0.0003144    -0.0003950   -0.0002568     0.0003347    0.0002342 
   0.012453102     0.8350997   -0.3551952    -0.0005105    0.0006514    -0.0000060   -0.0000362     0.0002551   -0.0000198 
   0.012553127     0.8273293   -0.3736330    -0.0005821   -0.0007550    -0.0000614   -0.0000072     0.0004905    0.0001871 
   0.012653152     0.8477699   -0.3481575     0.0004834    0.0009212    -0.0000967   -0.0001458     0.0003098    0.0000791 
   0.012753177     0.8266773   -0.3496703    -0.0002550    0.0004009     0.0000762   -0.0003745     0.0001713    0.0001927 
   0.012853202     0.8302064   -0.3453304     0.0003122   -0.0000990     0.0001493   -0.0000590     0.0004142    0.0006079 
   0.012953227     0.8316072   -0.3527431    -0.0003387   -0.0000583     0.0001532   -0.0000299     0.0003452   -0.0002229 
   0.013053252     0.8163537   -0.3653527    -0.0004336   -0.0002216    -0.0003635    0.0001555     0.0006702   -0.0001437 
   0.013153277     0.8178009   -0.3582111    -0.0010358   -0.0008897     0.0000820    0.0001636     0.0001630    0.0000745 
   0.013253302     0.8166200   -0.3643755    -0.0001817   -0.0002627    -0.0000549    0.0000698     0.0007074   -0.0004534 
   0.013353327     0.8258310   -0.3595102     0.0003369    0.0002748     0.0000983    0.0000962     0.0002980   -0.0000923 
   0.013453352     0.8203616   -0.3525316    -0.0003300   -0.0001507     0.0001054    0.0001433     0.0004072    0.0001543 
   0.013553377     0.7994300   -0.3665524     0.0001430    0.0002647     0.0000817    0.0000218     0.0004203    0.0000586 
   0.013653402     0.8053900   -0.3678739     0.0000970    0.0008582    -0.0001297   -0.0001575     0.0006976   -0.0001578 
   0.013753427     0.8105463   -0.3695979     0.0003195   -0.0000777     0.0000392   -0.0001755     0.0000445    0.0004256 
   0.013853452     0.8159804   -0.3793636     0.0009854    0.0001330     0.0000417   -0.0000683     0.0002994   -0.0000220 
   0.013953477     0.8024153   -0.3586823     0.0005863    0.0000856     0.0000870   -0.0004175     0.0003036    0.0001206 
   0.014053502     0.8085635   -0.3853830    -0.0003698    0.0002556    -0.0002415    0.0001798    -0.0004776    0.0000340 
   0.014153527     0.8015419   -0.3794996    -0.0000962   -0.0003087     0.0000999   -0.0000890     0.0002635   -0.0000617 
   0.014253552     0.8054099   -0.3727763    -0.0007905   -0.0002138     0.0001476    0.0000299     0.0003896   -0.0002959 
   0.014353577     0.7880184   -0.3752097     0.0008404   -0.0002472    -0.0001470   -0.0002880     0.0008436    0.0001566 
   0.014453602     0.7881993   -0.3855195     0.0000786   -0.0001396    -0.0004412   -0.0001024    -0.0001606    0.0001015 
   0.014553627     0.7850089   -0.3842340     0.0001893    0.0003223     0.0002122    0.0000196     0.0003484   -0.0003433 
   0.014653652     0.7984601   -0.3854008    -0.0003454   -0.0000553    -0.0002142    0.0000586     0.0004123   -0.0000802 
   0.014753677     0.7851745   -0.3920719    -0.0010345    0.0004673    -0.0003126    0.0001503     0.0002102   -0.0001342 
   0.014853702     0.7957775   -0.3745663     0.0002619    0.0001525     0.0000455    0.0001427     0.0002434    0.0001800 
   0.014953727     0.7749429   -0.4001756    -0.0005600   -0.0004548     0.0001549    0.0001952     0.0002846    0.0002971 
   0.015053752     0.7787683   -0.3929645     0.0003951    0.0003553     0.0000166   -0.0001523     0.0006811    0.0000736 
   0.015153777     0.7911805   -0.3979086     0.0005251   -0.0001528    -0.0000457    0.0001828     0.0004815    0.0001204 
   0.015253802     0.7837712   -0.3973541     0.0001252    0.0000817    -0.0001902    0.0001854     0.0004330   -0.0002289 
   0.015353827     0.7675726   -0.3988684     0.0004029   -0.0001214    -0.0001433    0.0001622     0.0006277    0.0002698 
   0.015453852     0.7791628   -0.3988029    -0.0002391    0.0000677     0.0002291    0.0001125     0.0007019   -0.0001483 
   0.015553877     0.7752891   -0.4012748    -0.0001330    0.0008671    -0.0000900    0.0001095     0.0005419    0.0001544 
   0.015653902     0.7685187   -0.4016501    -0.0002707   -0.0006229     0.0002406    0.0000977     0.0002046    0.0002613 
