! 26-Feb-26 1:54:31 PM
! E:\VNA_MEASUREMENTS\CAL_S11\CAL_OPEN_T1T1E8_2.S2P
! CHANNEL.1
! TR.MEASUREMENT
! CORRECTED.DATA
# GHZ S RI R 50.0
! FREQ.GHZ         S11RE         S11IM         S21RE         S21IM         S12RE         S12IM         S22RE         S22IM         
!; PortSelection: Port_12
   0.000050000     0.2553563    0.0402657     0.2239604   -0.1712918     0.0011989   -0.0063224    -0.0237474    0.0024953 
   0.000150025    -0.1335032    0.0673027    -0.2974129    0.0464276    -0.0002255   -0.0009084    -0.0005265   -0.0059495 
   0.000250050    -0.0610448   -0.0163993    -0.0275970   -0.0331685     0.0006614   -0.0003650    -0.0000937   -0.0042852 
   0.000350075     0.9724841    0.0090477    -0.0025022   -0.0094832     0.0003290   -0.0014749    -0.0009299   -0.0005352 
   0.000450100     0.9747100   -0.0322410    -0.0023227   -0.0108714    -0.0012644    0.0007083    -0.0003223   -0.0021471 
   0.000550125     1.0205410   -0.0309248    -0.0084610   -0.0084778     0.0001724    0.0003306     0.0014431   -0.0000452 
   0.000650150     0.9945634   -0.0160203    -0.0047583   -0.0135671     0.0008811   -0.0011494     0.0003381   -0.0011419 
   0.000750175     1.0300110   -0.0847633    -0.0055684   -0.0083902     0.0005550    0.0001039    -0.0015786    0.0006144 
   0.000850200     0.9880815   -0.0748965    -0.0070188   -0.0067086    -0.0009405    0.0006459    -0.0007197   -0.0005255 
   0.000950225     1.0209440   -0.0195530    -0.0061342   -0.0062407    -0.0008825    0.0012974     0.0001102    0.0016496 
   0.001050250     1.0122780   -0.0501212    -0.0069216   -0.0073868     0.0002843    0.0000102     0.0000037   -0.0000286 
   0.001150275     0.9927778   -0.0680795    -0.0098147   -0.0044299     0.0005701   -0.0003953     0.0004833   -0.0002885 
   0.001250300     0.9977404   -0.0736421    -0.0090541   -0.0017732    -0.0004167    0.0010419     0.0005310    0.0009959 
   0.001350325     0.9897911   -0.0254040    -0.0070789   -0.0047042     0.0008116    0.0002556     0.0006881   -0.0008883 
   0.001450350     0.9958866    0.0180066    -0.0088250   -0.0040582     0.0003574    0.0002423     0.0001059    0.0000451 
   0.001550375     0.9889340   -0.0534182    -0.0046802    0.0006221    -0.0008963   -0.0002307     0.0002400   -0.0002164 
   0.001650400     0.9970046    0.0138404    -0.0089705   -0.0039896     0.0001351    0.0002396    -0.0006677   -0.0003522 
   0.001750425     0.9520317   -0.0011767    -0.0062016    0.0027009     0.0010381    0.0010039    -0.0001459    0.0001267 
   0.001850450     0.9616318   -0.0306928    -0.0056848    0.0025656    -0.0003799    0.0008357    -0.0001003    0.0011037 
   0.001950475     0.9847314   -0.0185905    -0.0090280   -0.0007821     0.0003209   -0.0002132     0.0013738   -0.0007506 
   0.002050500     0.9439377    0.0029659    -0.0087816    0.0034717     0.0007991    0.0006189     0.0003537    0.0010244 
   0.002150525     0.9346635   -0.0475498    -0.0088785    0.0025056    -0.0000108    0.0003753    -0.0004023    0.0004427 
   0.002250550     0.9612074   -0.0090532    -0.0035190    0.0021258     0.0003135    0.0002672    -0.0000610   -0.0001837 
   0.002350575     0.9626555   -0.0571053    -0.0030291    0.0024065    -0.0012685   -0.0001212     0.0001435   -0.0003226 
   0.002450600     0.9494881   -0.0259136    -0.0036714    0.0023841    -0.0000245   -0.0000209     0.0007405   -0.0005770 
   0.002550625     0.9840142   -0.0296406    -0.0049740    0.0050981    -0.0001684   -0.0000249     0.0003785    0.0009370 
   0.002650650     0.9747784   -0.0390678    -0.0082421    0.0024815    -0.0001896   -0.0006230    -0.0012322    0.0007514 
   0.002750675     0.9667099   -0.0009306    -0.0013909    0.0005998     0.0000034   -0.0000424    -0.0001360   -0.0000616 
   0.002850700     0.9840048   -0.0293474    -0.0054434    0.0025371     0.0002627   -0.0002667     0.0001120   -0.0010390 
   0.002950725     0.9682836   -0.0364492    -0.0021159   -0.0004037    -0.0000073   -0.0001281     0.0005887   -0.0004033 
   0.003050750     0.9631422   -0.0381897    -0.0010840    0.0021964    -0.0006006   -0.0010051     0.0004389   -0.0010236 
   0.003150775     0.9960885   -0.0767793     0.0002921    0.0018518     0.0001427    0.0000272    -0.0001889   -0.0000126 
   0.003250800     0.9599925   -0.0224045    -0.0026410    0.0024956     0.0004112   -0.0004449     0.0002779    0.0006592 
   0.003350825     0.9831894   -0.0297228    -0.0009522    0.0010302    -0.0000805    0.0001859     0.0005867    0.0002021 
   0.003450850     0.9315001   -0.0368805    -0.0035638    0.0022442     0.0002191   -0.0005291     0.0000947   -0.0003615 
   0.003550875     0.9305385   -0.0161817    -0.0013899    0.0032100    -0.0001984    0.0001624     0.0005969   -0.0004129 
   0.003650900     0.9842702   -0.0042972    -0.0006303    0.0016061     0.0003867    0.0006800     0.0008320   -0.0001762 
   0.003750925     0.9656945   -0.0357450    -0.0015053    0.0037337     0.0002708    0.0002524     0.0005084   -0.0001060 
   0.003850950     0.9457543   -0.0299105    -0.0043545    0.0018484    -0.0001265   -0.0006068     0.0006202    0.0001961 
   0.003950975     1.0053720   -0.0325261    -0.0006713    0.0028259     0.0001305    0.0005534     0.0001568   -0.0004226 
   0.004051001     0.9532714   -0.0808444    -0.0014520    0.0010034     0.0000239   -0.0005820    -0.0004485    0.0003343 
   0.004151026     1.0049140   -0.0587018     0.0008321    0.0010493     0.0002866    0.0005859    -0.0003182   -0.0003264 
   0.004251051     0.9785655   -0.0292564    -0.0021029    0.0046889    -0.0001693    0.0000514    -0.0000862   -0.0004135 
   0.004351076     0.9430872   -0.0030295    -0.0010278    0.0010062    -0.0002792   -0.0000507     0.0006965    0.0008733 
   0.004451101     0.9600509   -0.0395758    -0.0003037    0.0003636     0.0004144    0.0004496     0.0007180   -0.0005385 
   0.004551126     0.9776005   -0.0103686    -0.0010290    0.0022167     0.0003074   -0.0003482    -0.0002449    0.0005727 
   0.004651151     0.9552961   -0.0171875    -0.0033522    0.0009000     0.0008807   -0.0001943     0.0005558   -0.0002378 
   0.004751176     0.9781784   -0.0322102    -0.0015389   -0.0022799    -0.0000228   -0.0002246     0.0001362   -0.0001201 
   0.004851201     0.9357924   -0.0334839    -0.0002559    0.0016140    -0.0004880   -0.0003508     0.0008831    0.0010929 
   0.004951226     0.9640110   -0.0126194    -0.0004274    0.0003690    -0.0001131    0.0000773     0.0003382   -0.0002620 
   0.005051251     0.9855601   -0.0221520     0.0011928    0.0008243     0.0009071    0.0001191     0.0007076   -0.0004441 
   0.005151276     0.9364348   -0.0288657    -0.0007833    0.0011791     0.0000299    0.0000533     0.0008942    0.0001154 
   0.005251301     0.9384798   -0.0485477     0.0014817    0.0003859     0.0003719   -0.0001737     0.0013366    0.0005980 
   0.005351326     0.9414077   -0.0138837     0.0006514    0.0006482    -0.0002551    0.0000569     0.0004520    0.0007576 
   0.005451351     0.9522514   -0.0043929    -0.0002940    0.0004072     0.0002417   -0.0000170     0.0004327    0.0005082 
   0.005551376     0.9849820   -0.0748798    -0.0004302    0.0004215     0.0002581   -0.0001422    -0.0000793    0.0002393 
   0.005651401     0.9660897   -0.0354901    -0.0017384    0.0011758     0.0001409    0.0003519     0.0001750   -0.0004788 
   0.005751426     0.9460610   -0.0314524    -0.0020196    0.0000203    -0.0001589    0.0002863     0.0006331    0.0000150 
   0.005851451     0.9676939   -0.0543203    -0.0021435    0.0015310    -0.0000104   -0.0001986     0.0002245   -0.0001539 
   0.005951476     0.9502103   -0.0080745     0.0008385    0.0028849    -0.0000384    0.0002999     0.0002734    0.0003848 
   0.006051501     0.9622600   -0.0236734     0.0000331   -0.0002638     0.0001645    0.0000657    -0.0005006   -0.0000956 
   0.006151526     0.9728278   -0.0436087    -0.0009139    0.0000933    -0.0001911   -0.0003276     0.0004102   -0.0000966 
   0.006251551     0.9486888   -0.0172547    -0.0004991   -0.0003269     0.0002155    0.0003179     0.0001586    0.0000355 
   0.006351576     0.9537750   -0.0392703     0.0011392   -0.0011062    -0.0000600   -0.0000717     0.0003310    0.0000987 
   0.006451601     0.9597349   -0.0272512    -0.0010655    0.0011355     0.0002559   -0.0002962    -0.0000183    0.0004974 
   0.006551626     0.9328637   -0.0316812    -0.0006598   -0.0009247    -0.0000948    0.0003296    -0.0000202   -0.0000670 
   0.006651651     0.9557869   -0.0303333    -0.0009699    0.0002776     0.0005969    0.0000830     0.0006080   -0.0000101 
   0.006751676     0.9513249   -0.0564769    -0.0003178    0.0015710    -0.0005301    0.0002469     0.0008483    0.0005411 
   0.006851701     0.9705884   -0.0522460    -0.0016750    0.0008910     0.0002700   -0.0001906     0.0002408    0.0001081 
   0.006951726     0.9482979   -0.0434621    -0.0008073    0.0014898    -0.0004493    0.0000627     0.0006284    0.0007270 
   0.007051751     0.9756574   -0.0320847    -0.0005011   -0.0005482    -0.0003214    0.0000011     0.0005220   -0.0002652 
   0.007151776     0.9421965   -0.0439088     0.0005339    0.0004196     0.0001046   -0.0005363     0.0003746    0.0001383 
   0.007251801     0.9597066   -0.0142431     0.0007508    0.0010204    -0.0007058    0.0000445     0.0001281    0.0001444 
   0.007351826     0.9606127   -0.0436223    -0.0011082   -0.0000553    -0.0006090    0.0003750     0.0012666    0.0007602 
   0.007451851     0.9325321   -0.0314835    -0.0014411    0.0008957     0.0001049   -0.0000234     0.0004188   -0.0005805 
   0.007551876     0.9547251   -0.0317603     0.0008499   -0.0004424     0.0002192    0.0003411     0.0001623   -0.0002261 
   0.007651901     0.9728731   -0.0413443    -0.0003559    0.0011681    -0.0000637    0.0001503     0.0000328    0.0001720 
   0.007751926     0.9575666   -0.0468864     0.0000764   -0.0002331     0.0003462   -0.0005905    -0.0002775   -0.0006295 
   0.007851951     0.9698166   -0.0358570    -0.0013264    0.0004191    -0.0002237   -0.0003019     0.0005836   -0.0002467 
   0.007951976     0.9611309   -0.0461533     0.0000452    0.0019776    -0.0001450   -0.0003289     0.0007957    0.0003673 
   0.008052001     0.9563650   -0.0353850    -0.0022134   -0.0011410     0.0000212    0.0002292     0.0001091    0.0004553 
   0.008152026     0.9500645   -0.0308540    -0.0001861   -0.0002119    -0.0000080    0.0003358     0.0004424   -0.0000181 
   0.008252051     0.9418138   -0.0350192    -0.0013603   -0.0010483     0.0001324    0.0003157     0.0003936    0.0002296 
   0.008352076     0.9514791   -0.0401135     0.0005646    0.0004293    -0.0003898    0.0000673     0.0005232   -0.0004396 
   0.008452101     0.9582486   -0.0322803    -0.0002312    0.0001794     0.0002352    0.0000352     0.0004979   -0.0003187 
   0.008552126     0.9691674   -0.0366434     0.0000412   -0.0004732    -0.0000553   -0.0003881     0.0002196    0.0003571 
   0.008652151     0.9603546   -0.0292444     0.0005109   -0.0008612    -0.0001312    0.0000421     0.0002103    0.0000415 
   0.008752176     0.9739894   -0.0346703    -0.0006610   -0.0005803    -0.0001132    0.0002294     0.0003221   -0.0004579 
   0.008852201     0.9422676   -0.0256868     0.0014364   -0.0006310    -0.0002204    0.0001417     0.0002139    0.0001375 
   0.008952226     0.9709718   -0.0345052    -0.0012465    0.0013240    -0.0000922   -0.0003110     0.0003975   -0.0005154 
   0.009052251     0.9798214   -0.0410302    -0.0012047    0.0000798     0.0004424   -0.0001541     0.0007121    0.0000123 
   0.009152276     0.9506190   -0.0393342     0.0011797    0.0006958     0.0003513    0.0000939     0.0012322    0.0002349 
   0.009252301     0.9491421   -0.0413091    -0.0005321   -0.0000395    -0.0001167    0.0003504     0.0003897   -0.0001978 
   0.009352326     0.9617586   -0.0404926     0.0003961   -0.0005085    -0.0001213    0.0000015     0.0004536   -0.0001416 
   0.009452351     0.9773063   -0.0251015     0.0000326   -0.0002996     0.0004860   -0.0001158     0.0004438   -0.0002793 
   0.009552376     0.9720960   -0.0447300    -0.0002229   -0.0009445     0.0003282   -0.0000263     0.0007613    0.0001109 
   0.009652401     0.9451271   -0.0346631     0.0004107   -0.0000770    -0.0004448    0.0002645     0.0003739    0.0001568 
   0.009752426     0.9517035   -0.0472667     0.0016001    0.0001492     0.0001086    0.0000182     0.0001295    0.0005599 
   0.009852451     0.9614607   -0.0401427    -0.0001995    0.0000206    -0.0003790    0.0001509     0.0001253   -0.0002713 
   0.009952476     0.9550230   -0.0458412    -0.0007393   -0.0000684     0.0005318   -0.0001698     0.0005160   -0.0000573 
   0.010052501     0.9447742   -0.0485398    -0.0005135    0.0000853    -0.0001319   -0.0001006    -0.0001724    0.0000340 
   0.010152526     0.9444287   -0.0313438     0.0009316    0.0008722    -0.0001818   -0.0000491     0.0002775    0.0001418 
   0.010252551     0.9506265   -0.0343062    -0.0001181    0.0002625    -0.0002260    0.0003726     0.0002645   -0.0000665 
   0.010352576     0.9765906   -0.0325285    -0.0001756   -0.0006548    -0.0001766    0.0002351     0.0003226    0.0003265 
   0.010452601     0.9606085   -0.0242463     0.0008613    0.0010658    -0.0000361    0.0000795     0.0005612   -0.0002464 
   0.010552626     0.9456119   -0.0593609    -0.0012210   -0.0006059    -0.0002380   -0.0000221     0.0002158    0.0000380 
   0.010652651     0.9527293   -0.0374048     0.0005964   -0.0008099    -0.0004025   -0.0000559     0.0004792   -0.0005109 
   0.010752676     0.9665439   -0.0391978     0.0014021   -0.0005133     0.0003314   -0.0000162     0.0003252    0.0002246 
   0.010852701     0.9611025   -0.0222198    -0.0006616    0.0003584    -0.0001467   -0.0000323     0.0001874   -0.0001663 
   0.010952726     0.9523048   -0.0379672    -0.0021799   -0.0005482     0.0002559    0.0003516    -0.0001127   -0.0000076 
   0.011052751     0.9603652   -0.0514281     0.0003393   -0.0008864     0.0000870   -0.0003219     0.0005114    0.0000174 
   0.011152776     0.9581802   -0.0419409     0.0006579    0.0014231    -0.0000659   -0.0000391     0.0002532    0.0001882 
   0.011252801     0.9614907   -0.0404471    -0.0000507    0.0006234    -0.0000848   -0.0000402    -0.0001067    0.0005987 
   0.011352826     0.9663190   -0.0554017    -0.0001239   -0.0004845     0.0000164   -0.0001457     0.0005617   -0.0000425 
   0.011452851     0.9645340   -0.0467431     0.0004964   -0.0002026     0.0008441    0.0002269     0.0003282    0.0002457 
   0.011552876     0.9622707   -0.0492680     0.0009122   -0.0007307     0.0001324   -0.0002763     0.0004233   -0.0000077 
   0.011652901     0.9592774   -0.0494192    -0.0003350    0.0009746     0.0000471   -0.0000348     0.0001647    0.0004201 
   0.011752926     0.9350777   -0.0277941    -0.0017243   -0.0003353     0.0004386   -0.0001546     0.0003992    0.0000328 
   0.011852951     0.9648154   -0.0607761     0.0004864   -0.0002655    -0.0002315   -0.0004240     0.0001106   -0.0000238 
   0.011952976     0.9485294   -0.0521546     0.0000439   -0.0004798     0.0001368   -0.0000558     0.0003806   -0.0000095 
   0.012053002     0.9606447   -0.0693489     0.0006521    0.0001286    -0.0000579    0.0002192     0.0002537    0.0001106 
   0.012153027     0.9703247   -0.0567593    -0.0005351   -0.0003224    -0.0000481    0.0001674     0.0003320   -0.0002868 
   0.012253052     0.9412135   -0.0663814     0.0002009    0.0000845     0.0002496    0.0003218     0.0003119    0.0002780 
   0.012353077     0.9587547   -0.0468713     0.0009588    0.0002637    -0.0003950   -0.0000204     0.0000611    0.0001238 
   0.012453102     0.9586432   -0.0410875    -0.0006230   -0.0008430     0.0001636   -0.0000396     0.0005598    0.0003839 
   0.012553127     0.9558718   -0.0653197    -0.0002292    0.0003951    -0.0002223   -0.0003476     0.0005542   -0.0000008 
   0.012653152     0.9605542   -0.0456996    -0.0007369    0.0003619     0.0000159   -0.0003804     0.0003207    0.0002418 
   0.012753177     0.9503468   -0.0450238    -0.0008115    0.0006162     0.0001423   -0.0001648     0.0000751   -0.0001876 
   0.012853202     0.9420847   -0.0361058    -0.0001619    0.0005237     0.0000906   -0.0001749     0.0005680    0.0006266 
   0.012953227     0.9549145   -0.0494302     0.0003084   -0.0011407    -0.0001229   -0.0001313     0.0002259    0.0001480 
   0.013053252     0.9469277   -0.0677060     0.0004828   -0.0003607    -0.0002056   -0.0000849     0.0005430    0.0003700 
   0.013153277     0.9592221   -0.0556189    -0.0005457   -0.0004029     0.0000753   -0.0002552     0.0004889    0.0000752 
   0.013253302     0.9551034   -0.0521786     0.0014208   -0.0013654     0.0000289    0.0001354     0.0004396   -0.0001596 
   0.013353327     0.9510410   -0.0502455    -0.0001494   -0.0004279     0.0001014   -0.0000804     0.0002225   -0.0000162 
   0.013453352     0.9504192   -0.0433083    -0.0000559   -0.0004394    -0.0000526   -0.0001551     0.0006815    0.0000601 
   0.013553377     0.9593564   -0.0415461    -0.0001935    0.0008099     0.0001906   -0.0001948     0.0002494   -0.0001015 
   0.013653402     0.9505094   -0.0477857     0.0000183   -0.0011522     0.0002083    0.0002143     0.0007306    0.0000971 
   0.013753427     0.9644849   -0.0372099     0.0002059    0.0003639     0.0001398    0.0002620     0.0003469   -0.0002494 
   0.013853452     0.9669148   -0.0588863     0.0001881   -0.0012510     0.0003026    0.0001768     0.0003885   -0.0002368 
   0.013953477     0.9497924   -0.0377835     0.0005480    0.0003959    -0.0002670    0.0001788     0.0004070    0.0003091 
   0.014053502     0.9669600   -0.0609501     0.0004182    0.0000968    -0.0000697    0.0000360     0.0000993   -0.0001915 
   0.014153527     0.9559954   -0.0432146    -0.0009376    0.0005945    -0.0004463    0.0003986     0.0006019    0.0003635 
   0.014253552     0.9666522   -0.0465755    -0.0004268   -0.0001992    -0.0000695   -0.0000883     0.0005247   -0.0001936 
   0.014353577     0.9457244   -0.0538085    -0.0004159   -0.0002694    -0.0001459   -0.0002344     0.0003023   -0.0003244 
   0.014453602     0.9476193   -0.0601283     0.0008300   -0.0004472    -0.0000663    0.0003150     0.0003684   -0.0001278 
   0.014553627     0.9441813   -0.0453163     0.0002561    0.0003342    -0.0000892    0.0001490     0.0001785    0.0000913 
   0.014653652     0.9578033   -0.0573510    -0.0006967   -0.0003237     0.0000605    0.0000382     0.0005101   -0.0005211 
   0.014753677     0.9540507   -0.0696904    -0.0006351   -0.0003491     0.0000126   -0.0002278     0.0002548   -0.0002513 
   0.014853702     0.9608997   -0.0524209     0.0009371   -0.0005291    -0.0001494   -0.0000833     0.0005989    0.0005043 
   0.014953727     0.9492014   -0.0675170    -0.0000494   -0.0002817    -0.0002979   -0.0000906     0.0003561    0.0001825 
   0.015053752     0.9573900   -0.0487905     0.0005155   -0.0001009    -0.0002827   -0.0001133     0.0002754    0.0003286 
   0.015153777     0.9652420   -0.0425064     0.0010231   -0.0001279    -0.0000446   -0.0000219     0.0007081   -0.0002898 
   0.015253802     0.9498836   -0.0559949    -0.0001925   -0.0003436    -0.0000004    0.0001720     0.0005971   -0.0000924 
   0.015353827     0.9546053   -0.0569150    -0.0008581   -0.0004040    -0.0001940    0.0002078     0.0010461    0.0001049 
   0.015453852     0.9581503   -0.0480977     0.0002347   -0.0003284     0.0001340    0.0001003     0.0006818    0.0001811 
   0.015553877     0.9494119   -0.0625674     0.0000568    0.0006471     0.0000759    0.0001613     0.0004375    0.0002417 
   0.015653902     0.9556101   -0.0465278     0.0001574   -0.0000755     0.0001823   -0.0000756     0.0002746   -0.0001793 
