! 26-Feb-26 1:52:26 PM
! E:\VNA_MEASUREMENTS\CAL_S11\CAL_TESTSRC_T1T1E5_2.S2P
! CHANNEL.1
! TR.MEASUREMENT
! CORRECTED.DATA
# GHZ S RI R 50.0
! FREQ.GHZ         S11RE         S11IM         S21RE         S21IM         S12RE         S12IM         S22RE         S22IM         
!; PortSelection: Port_12
   0.000050000    -0.1133154   -0.8748092    -0.1936544   -0.6663731     0.0080620    0.0095091     0.0070778    0.0307505 
   0.000150025    -0.4339764    0.0223366     0.0592253    0.4528475    -0.0004563    0.0007648     0.0031734   -0.0058401 
   0.000250050     0.1325919    0.1857931    -0.0392173    0.0263597    -0.0000989   -0.0006038     0.0006237   -0.0033117 
   0.000350075     0.9651777   -0.0406751     0.0042492   -0.0097564     0.0004766   -0.0005434    -0.0023726   -0.0000820 
   0.000450100     0.9981847    0.0042825    -0.0056871   -0.0057639     0.0005847   -0.0000396    -0.0003477   -0.0014415 
   0.000550125     1.0050010   -0.0802278    -0.0050297   -0.0065820    -0.0002499   -0.0000199     0.0011620    0.0007079 
   0.000650150     0.9825229   -0.0359925    -0.0075964   -0.0101912     0.0003099   -0.0004939    -0.0000952   -0.0017430 
   0.000750175     0.9580454   -0.0826130    -0.0107201   -0.0074477    -0.0001015   -0.0010483    -0.0004529    0.0004156 
   0.000850200     1.0201600   -0.1161715    -0.0085334   -0.0089491    -0.0007586    0.0006743    -0.0003708   -0.0002180 
   0.000950225     1.0105660   -0.0314266    -0.0104543   -0.0081569    -0.0004205   -0.0004881    -0.0001978    0.0010108 
   0.001050250     0.9856522   -0.0507956    -0.0085323   -0.0056474    -0.0006113   -0.0004392     0.0001875    0.0004200 
   0.001150275     1.0206780   -0.0473617    -0.0099301    0.0007600     0.0008692   -0.0006800    -0.0003036    0.0002939 
   0.001250300     0.9295416   -0.0310708    -0.0089429   -0.0026454     0.0004739    0.0000766    -0.0002362    0.0002357 
   0.001350325     0.9963191   -0.0516409    -0.0065748   -0.0026667     0.0011177    0.0001546     0.0002634   -0.0000817 
   0.001450350     0.9976786   -0.0735203    -0.0083296   -0.0038519     0.0002353   -0.0000286    -0.0005922    0.0007295 
   0.001550375     0.9937310   -0.0655289    -0.0075394   -0.0025514    -0.0002031    0.0001513     0.0007555   -0.0002554 
   0.001650400     0.9789250   -0.0784651    -0.0117021    0.0004599     0.0006034   -0.0000463    -0.0005006    0.0002549 
   0.001750425     0.9594463   -0.0828953    -0.0046617    0.0019379     0.0001140   -0.0004196    -0.0001738    0.0002096 
   0.001850450     0.9645691   -0.0538829    -0.0080845    0.0026183    -0.0003719   -0.0008678     0.0004159    0.0014174 
   0.001950475     1.0038800   -0.0108965    -0.0082417   -0.0006968     0.0009029   -0.0000054     0.0008714   -0.0002858 
   0.002050500     0.9806365   -0.0430006    -0.0061865    0.0059290    -0.0001048   -0.0005350     0.0008666   -0.0001958 
   0.002150525     0.9926179   -0.0744667    -0.0071066    0.0036994    -0.0001962   -0.0006309     0.0010560   -0.0000780 
   0.002250550     0.9841635   -0.0712940    -0.0055036    0.0048652     0.0001927    0.0000908    -0.0001835   -0.0016654 
   0.002350575     0.9298843   -0.1390982    -0.0038899   -0.0000873     0.0002107   -0.0000767     0.0009761   -0.0004452 
   0.002450600     0.9676186   -0.0911760    -0.0047597    0.0013519     0.0000316   -0.0002902    -0.0001831    0.0005713 
   0.002550625     1.0096180   -0.0880268    -0.0048308    0.0012048     0.0000913   -0.0000714     0.0004383    0.0010120 
   0.002650650     0.9998637   -0.0945184    -0.0023119    0.0036523     0.0005239   -0.0005654     0.0003537    0.0007291 
   0.002750675     1.0062840   -0.0792607    -0.0043548    0.0030578    -0.0003660   -0.0002452    -0.0001644   -0.0004873 
   0.002850700     0.9695027   -0.0914004    -0.0072708    0.0042499    -0.0001062    0.0001025    -0.0005147   -0.0004516 
   0.002950725     0.9916728   -0.0930218    -0.0006440    0.0023049     0.0005295    0.0001883     0.0007023    0.0004969 
   0.003050750     0.9711645   -0.0894312    -0.0012214    0.0004811    -0.0009570    0.0001353    -0.0004355   -0.0003940 
   0.003150775     1.0051190   -0.1550924    -0.0012717    0.0034631    -0.0001938   -0.0009614    -0.0000143    0.0005934 
   0.003250800     0.9427167   -0.0934363    -0.0052143    0.0024785     0.0000886    0.0000726     0.0006169    0.0007311 
   0.003350825     0.9828111   -0.1164643    -0.0011332    0.0019719     0.0002799    0.0001030    -0.0002712   -0.0001932 
   0.003450850     0.9579972   -0.1337953    -0.0037470    0.0037108    -0.0005382   -0.0003151    -0.0002334   -0.0001985 
   0.003550875     0.9289375   -0.1200984    -0.0021464    0.0026102     0.0005137   -0.0002230     0.0005218   -0.0005658 
   0.003650900     1.0112270   -0.1136441    -0.0007768   -0.0001740     0.0006491   -0.0003943     0.0005999   -0.0005847 
   0.003750925     0.9698356   -0.1361412    -0.0003781    0.0049867     0.0001027    0.0000438     0.0002125   -0.0003266 
   0.003850950     0.9908482   -0.1520956    -0.0015220    0.0017309     0.0001382    0.0001153    -0.0000808    0.0005778 
   0.003950975     0.9624808   -0.1156994    -0.0019342    0.0005459     0.0006602    0.0002154     0.0004352   -0.0004188 
   0.004051001     0.9605742   -0.1688268    -0.0006149    0.0033659     0.0001103   -0.0003190     0.0000727    0.0005317 
   0.004151026     0.9609464   -0.1769798    -0.0028000    0.0017879     0.0003734    0.0002642     0.0001629   -0.0000001 
   0.004251051     0.9676690   -0.1329088    -0.0008068    0.0006588    -0.0004160    0.0002901    -0.0001779   -0.0002931 
   0.004351076     0.9513882   -0.1306740    -0.0010387    0.0020439     0.0001224    0.0004056     0.0003059    0.0000129 
   0.004451101     0.9916680   -0.1605244     0.0030143    0.0027513     0.0002532    0.0003681     0.0005416   -0.0006886 
   0.004551126     0.9888946   -0.1776455    -0.0004209    0.0023744    -0.0002650   -0.0000236    -0.0001448    0.0004507 
   0.004651151     0.9642967   -0.1624795     0.0002290    0.0006566    -0.0006466   -0.0004414     0.0003829    0.0002326 
   0.004751176     0.9654824   -0.1873845    -0.0007369    0.0024150    -0.0003298    0.0002210    -0.0001681    0.0000515 
   0.004851201     0.9334298   -0.1784095    -0.0014522    0.0019307     0.0000873    0.0001829     0.0006199    0.0009279 
   0.004951226     0.9388473   -0.1574984    -0.0001840    0.0022584    -0.0001204   -0.0002054     0.0003474   -0.0005424 
   0.005051251     0.9792975   -0.1655108    -0.0001159    0.0013938    -0.0001026   -0.0001777    -0.0001489   -0.0007151 
   0.005151276     0.9372473   -0.1554201    -0.0025007    0.0019737     0.0003475   -0.0001628     0.0005859   -0.0003116 
   0.005251301     0.9343979   -0.1566890     0.0000814    0.0013790    -0.0004615    0.0000101     0.0011780    0.0007236 
   0.005351326     0.9390028   -0.1624011     0.0004398    0.0010204    -0.0000534    0.0003781     0.0009086    0.0007119 
   0.005451351     0.9608465   -0.1665707    -0.0009397    0.0024587    -0.0005635   -0.0002685     0.0008876    0.0005799 
   0.005551376     0.9446923   -0.1944270    -0.0004485    0.0020148    -0.0000736    0.0000742     0.0004774    0.0001765 
   0.005651401     0.9651854   -0.1764003     0.0022186    0.0001691     0.0003727    0.0000606     0.0000221   -0.0000154 
   0.005751426     0.9246587   -0.1892006     0.0000430   -0.0003175     0.0001023    0.0007288     0.0007732   -0.0001507 
   0.005851451     0.9390338   -0.2053522    -0.0001164   -0.0016234     0.0005146    0.0004702     0.0001233   -0.0002612 
   0.005951476     0.9482660   -0.1763476    -0.0004925   -0.0000871    -0.0001452    0.0001784     0.0000056    0.0003664 
   0.006051501     0.9294627   -0.1912719     0.0010291    0.0018073     0.0001568    0.0000543    -0.0000950    0.0001295 
   0.006151526     0.9384228   -0.2015896     0.0005123   -0.0002819    -0.0000117   -0.0002414     0.0001467   -0.0003607 
   0.006251551     0.9605240   -0.1833693    -0.0010524    0.0003341     0.0004662    0.0001482     0.0004403    0.0002482 
   0.006351576     0.9357236   -0.2144729     0.0009036   -0.0008718    -0.0002079   -0.0000724     0.0003454    0.0001701 
   0.006451601     0.9368442   -0.2030081    -0.0003538   -0.0014423     0.0002486   -0.0000117     0.0001450    0.0002656 
   0.006551626     0.9309301   -0.2170925    -0.0002669    0.0002656    -0.0005209    0.0001487    -0.0003609   -0.0000254 
   0.006651651     0.9266708   -0.2046919    -0.0006163    0.0011484    -0.0000170   -0.0001680     0.0003642   -0.0001320 
   0.006751676     0.9241865   -0.2240092     0.0001452   -0.0001635     0.0001342    0.0003052     0.0004771   -0.0000300 
   0.006851701     0.9256998   -0.2290407    -0.0013704    0.0014617    -0.0002387   -0.0002288     0.0003935   -0.0001930 
   0.006951726     0.9089428   -0.2349149    -0.0021103   -0.0002970    -0.0000334   -0.0001401     0.0008586    0.0010709 
   0.007051751     0.9189173   -0.2159882     0.0016360    0.0015782     0.0001193   -0.0000643     0.0006662    0.0001037 
   0.007151776     0.8810832   -0.2427655    -0.0002810   -0.0003901     0.0002611    0.0003314     0.0008235    0.0000269 
   0.007251801     0.9400396   -0.2079655     0.0005538   -0.0007187     0.0001809   -0.0001747    -0.0001780    0.0003734 
   0.007351826     0.9184461   -0.2422186    -0.0005418   -0.0014786     0.0002050    0.0004275     0.0004027    0.0006699 
   0.007451851     0.9309968   -0.2330939     0.0002520    0.0010952    -0.0003218   -0.0001800     0.0003693   -0.0003989 
   0.007551876     0.9305428   -0.2221397     0.0001347   -0.0007066     0.0000849   -0.0002963     0.0005797   -0.0009641 
   0.007651901     0.9476129   -0.2641908    -0.0017564   -0.0003728     0.0001423   -0.0000954     0.0001149    0.0003079 
   0.007751926     0.9434366   -0.2425348     0.0001569    0.0001473     0.0003770    0.0002528    -0.0001548   -0.0004983 
   0.007851951     0.9003878   -0.2333097     0.0005309   -0.0000291    -0.0001210   -0.0001016     0.0003523   -0.0002369 
   0.007951976     0.9075639   -0.2632801    -0.0005918   -0.0012594     0.0001991   -0.0003175     0.0002211    0.0002458 
   0.008052001     0.9239492   -0.2651187    -0.0002301   -0.0002729     0.0001069   -0.0000032     0.0001606   -0.0001019 
   0.008152026     0.9146622   -0.2688432    -0.0006601    0.0010557     0.0002801    0.0003251     0.0009321    0.0004112 
   0.008252051     0.8916028   -0.2411254     0.0001077    0.0009272    -0.0003131   -0.0000217     0.0008884    0.0003479 
   0.008352076     0.9204401   -0.2655983    -0.0016001   -0.0004900     0.0003813    0.0003010     0.0004990   -0.0002707 
   0.008452101     0.9063497   -0.2591182    -0.0004609   -0.0012710     0.0001827    0.0002611     0.0003262   -0.0003239 
   0.008552126     0.9231877   -0.2823733     0.0004745    0.0002988     0.0000018    0.0000978     0.0004444    0.0005382 
   0.008652151     0.9102434   -0.2604599    -0.0011445    0.0014672     0.0000418   -0.0002323     0.0002736    0.0000136 
   0.008752176     0.9095509   -0.2537051    -0.0001649   -0.0007964    -0.0000587    0.0000558     0.0001752   -0.0007043 
   0.008852201     0.8997967   -0.2640415    -0.0009201   -0.0004228     0.0001753    0.0002919     0.0007657    0.0003924 
   0.008952226     0.9172156   -0.2749276     0.0006843   -0.0014016    -0.0001684    0.0000023     0.0008802   -0.0003084 
   0.009052251     0.9132620   -0.2548124     0.0014226    0.0003763    -0.0000805   -0.0000636     0.0004539   -0.0001417 
   0.009152276     0.9076336   -0.2786514     0.0012252    0.0010424     0.0002159    0.0002908     0.0007437    0.0002557 
   0.009252301     0.9034915   -0.2733271     0.0005116    0.0001716    -0.0002832   -0.0000668    -0.0000357   -0.0002037 
   0.009352326     0.9007784   -0.2778676     0.0008899   -0.0007636     0.0001447   -0.0004080     0.0002919   -0.0002179 
   0.009452351     0.9120775   -0.2834558     0.0004090   -0.0010269     0.0003651   -0.0001298     0.0006897   -0.0000009 
   0.009552376     0.9020138   -0.2907792    -0.0005346   -0.0006861     0.0004464   -0.0001769     0.0006033    0.0001768 
   0.009652401     0.8852486   -0.2847989    -0.0015941    0.0003375     0.0001275   -0.0001493     0.0002125    0.0005693 
   0.009752426     0.8782641   -0.3021060    -0.0006352    0.0007875     0.0000650   -0.0003367     0.0005611    0.0002655 
   0.009852451     0.8973383   -0.3053952     0.0005375    0.0002343    -0.0001162    0.0001054     0.0008500   -0.0001767 
   0.009952476     0.8768817   -0.3195695    -0.0001675    0.0003266    -0.0001006    0.0001532     0.0003779   -0.0000268 
   0.010052501     0.8764976   -0.3084312     0.0006373   -0.0015755     0.0000632   -0.0000252     0.0004075   -0.0000480 
   0.010152526     0.8660307   -0.3027368     0.0012295    0.0007671     0.0001203   -0.0000050     0.0003351    0.0003720 
   0.010252551     0.8657624   -0.2933498    -0.0006861   -0.0007151     0.0001624   -0.0000431     0.0004426   -0.0002445 
   0.010352576     0.8872012   -0.3071818    -0.0003762   -0.0006779     0.0001552    0.0003872     0.0005142   -0.0001518 
   0.010452601     0.8871180   -0.3048255    -0.0004537    0.0006322    -0.0000071    0.0000661     0.0004698   -0.0002210 
   0.010552626     0.8579166   -0.3139279    -0.0007078    0.0006453     0.0001016   -0.0001491     0.0003052    0.0003755 
   0.010652651     0.8762712   -0.3041454     0.0003082    0.0010277     0.0003948    0.0001011     0.0005681   -0.0001901 
   0.010752676     0.8759109   -0.3247766     0.0005769   -0.0002842    -0.0000378    0.0002567     0.0001239    0.0000940 
   0.010852701     0.8568586   -0.2926713    -0.0008183    0.0009162    -0.0001875   -0.0001902    -0.0001643    0.0006124 
   0.010952726     0.8662763   -0.3178796    -0.0000557    0.0003242    -0.0000252   -0.0001157    -0.0000149    0.0000992 
   0.011052751     0.8650158   -0.3306544    -0.0003846   -0.0006548    -0.0000574   -0.0001821     0.0004511    0.0002135 
   0.011152776     0.8671724   -0.3136224    -0.0000568   -0.0004410     0.0002065   -0.0001423     0.0003402    0.0000134 
   0.011252801     0.8646839   -0.3314232     0.0003449   -0.0012548     0.0002122   -0.0002279     0.0001675    0.0005659 
   0.011352826     0.8611164   -0.3414005     0.0013029    0.0002072     0.0002707    0.0002144     0.0005009    0.0000828 
   0.011452851     0.8507863   -0.3306125     0.0002341   -0.0000955    -0.0001271    0.0003373     0.0004799    0.0000834 
   0.011552876     0.8392641   -0.3520093    -0.0001899    0.0007534     0.0001849    0.0001270     0.0004432   -0.0002375 
   0.011652901     0.8416420   -0.3455502     0.0004371    0.0001248    -0.0002396    0.0000658     0.0000478    0.0001354 
   0.011752926     0.8368790   -0.3372402     0.0008302   -0.0007366    -0.0000791    0.0002359     0.0004611   -0.0002251 
   0.011852951     0.8559074   -0.3518903     0.0017639   -0.0001860    -0.0001135    0.0002125     0.0002115   -0.0002012 
   0.011952976     0.8309374   -0.3318320    -0.0002214    0.0003497    -0.0001334    0.0000385     0.0005371   -0.0000440 
   0.012053002     0.8363867   -0.3569576     0.0003242    0.0006697    -0.0000615    0.0000869     0.0006559    0.0004513 
   0.012153027     0.8345816   -0.3514563     0.0010496    0.0008730    -0.0001192    0.0002956     0.0005416    0.0002876 
   0.012253052     0.8172517   -0.3450603    -0.0006239   -0.0003293    -0.0005297   -0.0001267     0.0009181   -0.0002294 
   0.012353077     0.8431298   -0.3560375    -0.0004256   -0.0001062    -0.0001267   -0.0000138     0.0001801    0.0005504 
   0.012453102     0.8323628   -0.3546778     0.0004692   -0.0002671     0.0000158    0.0000363     0.0007088   -0.0000830 
   0.012553127     0.8375850   -0.3699372     0.0003404   -0.0001338    -0.0000089    0.0001116     0.0005708   -0.0002954 
   0.012653152     0.8402528   -0.3463314    -0.0004097    0.0002103    -0.0002228    0.0000319     0.0002034   -0.0000702 
   0.012753177     0.8265235   -0.3499449    -0.0002532   -0.0012550    -0.0001183   -0.0000261     0.0002389   -0.0002838 
   0.012853202     0.8249805   -0.3371309     0.0005099   -0.0002323    -0.0001411    0.0000331     0.0005627    0.0003514 
   0.012953227     0.8237494   -0.3578438    -0.0000651   -0.0005124    -0.0003223    0.0002368     0.0004266    0.0001807 
   0.013053252     0.8175149   -0.3784236     0.0002031    0.0001707     0.0002899    0.0001761     0.0006303    0.0002457 
   0.013153277     0.8173804   -0.3683443     0.0007703   -0.0004594    -0.0000226   -0.0000742     0.0000220   -0.0003539 
   0.013253302     0.8144433   -0.3531461    -0.0003714    0.0004868    -0.0001009    0.0001739     0.0004466   -0.0000291 
   0.013353327     0.8192825   -0.3651532    -0.0006466   -0.0003829    -0.0001459   -0.0003237     0.0002970   -0.0000752 
   0.013453352     0.8230472   -0.3551599     0.0001073   -0.0000658     0.0000968    0.0002173     0.0003882    0.0003207 
   0.013553377     0.8000107   -0.3692034    -0.0003527    0.0001989    -0.0001543    0.0001373     0.0001998    0.0001427 
   0.013653402     0.8015106   -0.3653632    -0.0002585    0.0001152    -0.0001487   -0.0002581     0.0008454   -0.0000545 
   0.013753427     0.8046089   -0.3673759    -0.0006790   -0.0004804    -0.0000147    0.0000471     0.0003114    0.0000071 
   0.013853452     0.8084850   -0.3880752    -0.0013348   -0.0011491    -0.0001178    0.0000762     0.0004638    0.0000486 
   0.013953477     0.7936037   -0.3663284    -0.0003748   -0.0009398     0.0001315   -0.0001036     0.0003666    0.0002888 
   0.014053502     0.8151581   -0.3928387     0.0001458   -0.0011106    -0.0000939    0.0003142     0.0002190   -0.0000460 
   0.014153527     0.7990873   -0.3771130    -0.0004251    0.0002449    -0.0000866   -0.0003128     0.0004174    0.0002635 
   0.014253552     0.8026937   -0.3835644    -0.0011110   -0.0009233    -0.0000787   -0.0000663     0.0003448   -0.0004178 
   0.014353577     0.7927312   -0.3869732    -0.0004118    0.0008981     0.0002205   -0.0001299     0.0003611    0.0002936 
   0.014453602     0.7769232   -0.3820288    -0.0005953    0.0000162     0.0000349   -0.0000968    -0.0000162    0.0000715 
   0.014553627     0.7857694   -0.3821985    -0.0000467   -0.0000867     0.0002081    0.0002116     0.0005068    0.0003893 
   0.014653652     0.7860348   -0.3935340    -0.0005202   -0.0001644     0.0000366   -0.0002032     0.0001790   -0.0001922 
   0.014753677     0.7827878   -0.3938866    -0.0001809   -0.0001755     0.0000795   -0.0001926     0.0002448    0.0002976 
   0.014853702     0.7876194   -0.3844785    -0.0000894   -0.0005331     0.0002083   -0.0000459     0.0005355    0.0002375 
   0.014953727     0.7684669   -0.3966447    -0.0001095    0.0004451    -0.0002003    0.0001849     0.0006854    0.0000923 
   0.015053752     0.7777745   -0.4017391    -0.0002445    0.0000163    -0.0000638   -0.0001616     0.0004380    0.0004199 
   0.015153777     0.7765792   -0.4091522     0.0001359   -0.0002074    -0.0001350    0.0000506     0.0006649    0.0000899 
   0.015253802     0.7667493   -0.3983825    -0.0004644   -0.0004141    -0.0002924    0.0001839     0.0006010    0.0000089 
   0.015353827     0.7635212   -0.3971278     0.0000029    0.0003705     0.0001058    0.0002236     0.0009498   -0.0000863 
   0.015453852     0.7649862   -0.3955706     0.0004237    0.0001313    -0.0004808    0.0000961     0.0007979    0.0002853 
   0.015553877     0.7652034   -0.4094715     0.0003699   -0.0000058     0.0004780    0.0001977     0.0005906    0.0002885 
   0.015653902     0.7686774   -0.4023224    -0.0001273   -0.0003442     0.0002640   -0.0000352    -0.0000130    0.0000040 
