! 26-Feb-26 1:46:14 PM
! E:\VNA_MEASUREMENTS\CAL_S11\CAL_SHORT_T1T1E7_1.S2P
! CHANNEL.1
! TR.MEASUREMENT
! CORRECTED.DATA
# GHZ S RI R 50.0
! FREQ.GHZ         S11RE         S11IM         S21RE         S21IM         S12RE         S12IM         S22RE         S22IM         
!; PortSelection: Port_12
   0.000050000     1.0917970    0.1573356     0.6558857    0.3354121     0.0044630   -0.0000686    -0.0035230    0.0273290 
   0.000150025     0.0414314    0.3236771     0.3504506    0.3278873    -0.0008833    0.0007881    -0.0028799   -0.0007073 
   0.000250050     0.0624007   -0.2149157    -0.0756065    0.1346806     0.0002510    0.0005617    -0.0003207   -0.0011000 
   0.000350075     0.9694294   -0.0901702    -0.0000922   -0.0142767     0.0006219   -0.0006889     0.0002049   -0.0011729 
   0.000450100     0.9473868   -0.0690505    -0.0031669   -0.0096417    -0.0002729   -0.0003749    -0.0010781    0.0002259 
   0.000550125     1.0377680   -0.0130597    -0.0033121   -0.0102098    -0.0006116   -0.0007622     0.0012894    0.0005943 
   0.000650150     0.9775997   -0.0000677    -0.0047534   -0.0117110     0.0010025   -0.0001821    -0.0005965   -0.0009425 
   0.000750175     1.0147360   -0.0377959    -0.0043004   -0.0104991    -0.0004829   -0.0001390    -0.0002207    0.0001977 
   0.000850200     1.0256530   -0.0640156    -0.0046640   -0.0065389    -0.0006338    0.0002896    -0.0018426    0.0000233 
   0.000950225     1.0448870   -0.0354645    -0.0071235   -0.0052612    -0.0005406    0.0008165     0.0001245    0.0016924 
   0.001050250     1.0147040   -0.0407957    -0.0062399   -0.0044709     0.0004486   -0.0005426     0.0007186   -0.0000245 
   0.001150275     1.0382540   -0.0571661    -0.0079380   -0.0049524    -0.0001418    0.0008963     0.0003136    0.0009497 
   0.001250300     0.9906765   -0.0729001    -0.0094319   -0.0001064    -0.0008967    0.0005476     0.0007640    0.0000644 
   0.001350325     0.9960896   -0.1102280    -0.0094061   -0.0023003    -0.0001496   -0.0010113    -0.0004430    0.0005441 
   0.001450350     1.0138470   -0.0831566    -0.0099288   -0.0014078     0.0002675    0.0005012    -0.0005106    0.0005130 
   0.001550375     0.9801095   -0.0502550    -0.0099847   -0.0004748     0.0004866    0.0009775     0.0014580    0.0004848 
   0.001650400     1.0118880   -0.0021794    -0.0082059   -0.0023086     0.0003038   -0.0012402    -0.0003740    0.0002375 
   0.001750425     0.9914393   -0.0458761    -0.0097251   -0.0001591    -0.0003453    0.0001699    -0.0003546   -0.0000211 
   0.001850450     0.9862971   -0.0868119    -0.0058078    0.0009548    -0.0006186   -0.0004658    -0.0011953    0.0012619 
   0.001950475     1.0329180   -0.0537327    -0.0080016   -0.0026603     0.0001406    0.0000855     0.0015140   -0.0006485 
   0.002050500     0.9628750   -0.0407318    -0.0079920   -0.0002195     0.0006839    0.0001702    -0.0001904   -0.0002804 
   0.002150525     1.0025300   -0.0693045    -0.0036883    0.0018478     0.0001721   -0.0001286     0.0004890    0.0002890 
   0.002250550     0.9470805   -0.0352919    -0.0016376    0.0036278    -0.0004732    0.0000546     0.0000511   -0.0004823 
   0.002350575     0.9877598   -0.0997835    -0.0055965    0.0023789    -0.0002429    0.0003695     0.0002305    0.0000136 
   0.002450600     1.0006360   -0.1034401    -0.0028050    0.0024280    -0.0004288    0.0001658     0.0001257    0.0007309 
   0.002550625     0.9829717   -0.0834354    -0.0027553    0.0014398     0.0006368   -0.0003097     0.0000544    0.0008166 
   0.002650650     0.9985948   -0.0617342    -0.0010293    0.0045148    -0.0002862    0.0006283    -0.0004523    0.0005773 
   0.002750675     1.0216730   -0.0544338    -0.0017256    0.0027432     0.0003299    0.0011222    -0.0006545    0.0004891 
   0.002850700     0.9943564   -0.1149577    -0.0007284    0.0045673     0.0004318   -0.0000329     0.0000603   -0.0003324 
   0.002950725     0.9875909   -0.0825967    -0.0015296    0.0025378    -0.0003900   -0.0002133     0.0003607    0.0005470 
   0.003050750     0.9839821   -0.0973579    -0.0024963   -0.0008397     0.0005426   -0.0001624     0.0004715   -0.0007122 
   0.003150775     0.9735329   -0.1247003    -0.0013108    0.0010347    -0.0001727    0.0000291    -0.0005212   -0.0003695 
   0.003250800     0.9794144   -0.0819193    -0.0002371    0.0029271    -0.0004649    0.0005103     0.0003360    0.0005863 
   0.003350825     0.9596663   -0.0937957    -0.0002257    0.0014669     0.0000393    0.0003200    -0.0000460    0.0004640 
   0.003450850     0.9600355   -0.1552061    -0.0022179    0.0039349    -0.0003982   -0.0001189     0.0010168   -0.0000697 
   0.003550875     0.9587532   -0.1439251    -0.0009198    0.0035312    -0.0003045   -0.0003327     0.0000144   -0.0007683 
   0.003650900     0.9499707   -0.1070147    -0.0022425   -0.0010008    -0.0003590   -0.0005461     0.0002575    0.0000777 
   0.003750925     0.9773307   -0.1426887    -0.0011664    0.0031332     0.0004661   -0.0005276     0.0004208    0.0001726 
   0.003850950     0.9686992   -0.1426664    -0.0020146    0.0010455     0.0000332    0.0003916     0.0003521    0.0000458 
   0.003950975     1.0172650   -0.1095342    -0.0018616    0.0028862    -0.0003841   -0.0000565     0.0000622   -0.0006386 
   0.004051001     0.9853092   -0.1623612    -0.0021677    0.0011884     0.0000117    0.0000772     0.0006802    0.0000965 
   0.004151026     0.9930977   -0.1715769     0.0012294    0.0017320    -0.0000674    0.0002111    -0.0005104   -0.0002146 
   0.004251051     0.9656005   -0.1371537    -0.0031295    0.0025898     0.0002789   -0.0002417     0.0001740    0.0000135 
   0.004351076     0.9833267   -0.1235138    -0.0009241    0.0010346     0.0000243   -0.0002964     0.0005735    0.0007426 
   0.004451101     0.9957413   -0.1632102    -0.0012581    0.0015056    -0.0005349   -0.0007937     0.0005951   -0.0005644 
   0.004551126     0.9968151   -0.1507762     0.0010008    0.0021182     0.0002249   -0.0003519    -0.0006789    0.0006860 
   0.004651151     0.9829497   -0.1510849    -0.0011656   -0.0006031     0.0008725    0.0000527     0.0006066    0.0000832 
   0.004751176     0.9920166   -0.1714810    -0.0002599    0.0002128    -0.0003540    0.0002643     0.0000130    0.0003959 
   0.004851201     0.9446597   -0.1531425     0.0011478    0.0016449    -0.0000605    0.0000025     0.0006324    0.0000332 
   0.004951226     0.9580746   -0.1493864    -0.0013856    0.0019192    -0.0003185   -0.0001313     0.0008869   -0.0008862 
   0.005051251     0.9836595   -0.1841457     0.0012572   -0.0011673     0.0000575    0.0000946    -0.0000643   -0.0002072 
   0.005151276     0.9324017   -0.1450209    -0.0002594    0.0013411    -0.0001965    0.0004662     0.0007298    0.0000248 
   0.005251301     0.9591491   -0.1700963    -0.0003649    0.0001862     0.0002370   -0.0002979     0.0004690    0.0012954 
   0.005351326     0.9647117   -0.1634106     0.0004099    0.0015642     0.0000866   -0.0003596     0.0006073    0.0007247 
   0.005451351     0.9655639   -0.1823985    -0.0021805    0.0015140    -0.0001284    0.0002200     0.0008041    0.0003125 
   0.005551376     0.9967538   -0.1820791     0.0013014    0.0009244    -0.0002693    0.0001251     0.0007125    0.0000124 
   0.005651401     0.9747946   -0.1797966    -0.0013595    0.0017536     0.0001881    0.0001144     0.0004271   -0.0007870 
   0.005751426     0.9393524   -0.2007085     0.0001430    0.0006908     0.0003418    0.0000383     0.0007648   -0.0000466 
   0.005851451     0.9775168   -0.1904101     0.0005585    0.0007488     0.0002438   -0.0000917    -0.0001938   -0.0002779 
   0.005951476     0.9726256   -0.1829101    -0.0008392    0.0011567     0.0004224    0.0000633     0.0005927    0.0007071 
   0.006051501     0.9556522   -0.1985732     0.0002238    0.0000407    -0.0005247    0.0001727     0.0000798   -0.0003092 
   0.006151526     0.9364297   -0.2115529    -0.0005733    0.0020140     0.0001453   -0.0006331     0.0005288   -0.0004731 
   0.006251551     0.9648588   -0.1936298    -0.0009502    0.0015784    -0.0001765    0.0001979     0.0004772    0.0002033 
   0.006351576     0.9647381   -0.2090086    -0.0013560    0.0012845    -0.0003171    0.0004648     0.0000296    0.0000966 
   0.006451601     0.9642430   -0.2015881     0.0005163    0.0007983     0.0001163   -0.0001099     0.0001313    0.0004010 
   0.006551626     0.9643042   -0.2056423     0.0007530    0.0011352     0.0000318   -0.0002935    -0.0003520   -0.0000542 
   0.006651651     0.9528820   -0.2212425     0.0004619    0.0003815     0.0000093   -0.0001233     0.0001220    0.0002702 
   0.006751676     0.9609650   -0.2279941     0.0001254    0.0006410     0.0004547    0.0002821     0.0011141    0.0002683 
   0.006851701     0.9496107   -0.2317412    -0.0002412   -0.0004684    -0.0001160   -0.0000465     0.0000195   -0.0000154 
   0.006951726     0.9321553   -0.2383849    -0.0010141    0.0002091    -0.0001730   -0.0003122     0.0007462    0.0007902 
   0.007051751     0.9735104   -0.2321891     0.0006876    0.0014765    -0.0001991    0.0002916    -0.0000045   -0.0001992 
   0.007151776     0.9247161   -0.2430226    -0.0026299    0.0003190     0.0005631   -0.0005268     0.0003798    0.0004861 
   0.007251801     0.9643701   -0.2259940     0.0014640   -0.0006253     0.0003392    0.0001719     0.0001780   -0.0000685 
   0.007351826     0.9742495   -0.2541328    -0.0001016   -0.0014803     0.0000685   -0.0003369     0.0008201    0.0001986 
   0.007451851     0.9390556   -0.2415617     0.0003739   -0.0015536     0.0000249    0.0000724     0.0010495   -0.0003670 
   0.007551876     0.9695851   -0.2274328    -0.0006279    0.0004444     0.0001110   -0.0001256     0.0001028    0.0000757 
   0.007651901     0.9533813   -0.2736143    -0.0007086    0.0002291    -0.0007098   -0.0000515     0.0000391    0.0001149 
   0.007751926     0.9496695   -0.2559466    -0.0002223   -0.0001314     0.0001207    0.0001882     0.0003236   -0.0001923 
   0.007851951     0.9424021   -0.2425526    -0.0001653    0.0008506     0.0000262   -0.0002452     0.0003286   -0.0002633 
   0.007951976     0.9702049   -0.2736201    -0.0002136   -0.0023400    -0.0000557    0.0003754     0.0003078    0.0000527 
   0.008052001     0.9824969   -0.2555917    -0.0001735   -0.0001871     0.0001864    0.0000609    -0.0000416    0.0003674 
   0.008152026     0.9508001   -0.2682986    -0.0014789    0.0010575     0.0001673   -0.0001326     0.0006301   -0.0002176 
   0.008252051     0.9375593   -0.2454852    -0.0006419    0.0000234    -0.0000243   -0.0005422     0.0010278    0.0001297 
   0.008352076     0.9420229   -0.2772692    -0.0003298    0.0008344     0.0000105    0.0002815     0.0005118   -0.0000608 
   0.008452101     0.9511438   -0.2671750    -0.0000689    0.0001454    -0.0000523   -0.0001492     0.0000356   -0.0004707 
   0.008552126     0.9538212   -0.2677118    -0.0002263    0.0010227    -0.0000239   -0.0003312     0.0004625    0.0001576 
   0.008652151     0.9467437   -0.2793025     0.0011283   -0.0005423    -0.0001118    0.0001028    -0.0002755   -0.0001589 
   0.008752176     0.9411361   -0.2721534    -0.0002809    0.0006765     0.0001648   -0.0000514     0.0001189   -0.0003947 
   0.008852201     0.9389481   -0.2696751     0.0004932    0.0012617     0.0001697    0.0000544     0.0005435    0.0003894 
   0.008952226     0.9501914   -0.2894823    -0.0002644    0.0002281    -0.0000073    0.0000420     0.0006994   -0.0001872 
   0.009052251     0.9510291   -0.2896585    -0.0000091   -0.0002294     0.0003020    0.0000795     0.0003885   -0.0004700 
   0.009152276     0.9453606   -0.2859684    -0.0004886    0.0009336    -0.0001489    0.0000565     0.0008567    0.0001133 
   0.009252301     0.9470824   -0.2821452    -0.0003193    0.0000135    -0.0001574    0.0002991     0.0003137   -0.0001899 
   0.009352326     0.9465218   -0.3057059     0.0000777   -0.0000468     0.0001655   -0.0001141     0.0005613    0.0002876 
   0.009452351     0.9420511   -0.2958192     0.0002935    0.0001812     0.0001558   -0.0002319     0.0001689   -0.0002905 
   0.009552376     0.9476079   -0.3123655     0.0002614   -0.0007419     0.0002899    0.0002397     0.0008474    0.0001945 
   0.009652401     0.9302852   -0.3106493     0.0005884    0.0005075    -0.0000439   -0.0001250    -0.0000105    0.0005698 
   0.009752426     0.9302796   -0.3310167    -0.0002784   -0.0009117     0.0003718    0.0001230     0.0004329    0.0004784 
   0.009852451     0.9350416   -0.3238626     0.0007855    0.0002341    -0.0003034   -0.0001136     0.0003601   -0.0000131 
   0.009952476     0.9428415   -0.3169495     0.0005533    0.0010370    -0.0000790    0.0002987     0.0005049   -0.0000598 
   0.010052501     0.9214033   -0.3167698    -0.0003856   -0.0000182     0.0002190    0.0000201     0.0002718   -0.0001929 
   0.010152526     0.9198176   -0.3236330    -0.0008513   -0.0007470     0.0001265   -0.0003227     0.0002655    0.0008085 
   0.010252551     0.9168808   -0.3309173    -0.0000146   -0.0004351     0.0000723   -0.0001365     0.0002848   -0.0001732 
   0.010352576     0.9578577   -0.3363380    -0.0000160    0.0013873     0.0000349   -0.0001226     0.0000657    0.0002633 
   0.010452601     0.9330585   -0.2998426     0.0007403    0.0000464     0.0001459    0.0002121     0.0003224   -0.0004219 
   0.010552626     0.9112249   -0.3418869    -0.0002899   -0.0005848    -0.0003975   -0.0000580     0.0007232    0.0004343 
   0.010652651     0.9291058   -0.3369263    -0.0009812    0.0003446     0.0003035    0.0000589     0.0005794   -0.0004817 
   0.010752676     0.9318001   -0.3577490    -0.0003173   -0.0007693     0.0000754    0.0003126     0.0002339    0.0003780 
   0.010852701     0.9197968   -0.3197537     0.0005338   -0.0004532    -0.0004474    0.0001921     0.0005592    0.0004142 
   0.010952726     0.9155874   -0.3392206    -0.0006397    0.0010001     0.0000790    0.0004451    -0.0001371   -0.0004769 
   0.011052751     0.9100546   -0.3619271    -0.0002792    0.0005482    -0.0001060   -0.0002599     0.0008217    0.0004059 
   0.011152776     0.9108366   -0.3460973     0.0004335    0.0002376     0.0003194   -0.0000232     0.0000573    0.0001973 
   0.011252801     0.9258847   -0.3542486     0.0003784    0.0000857     0.0002454   -0.0002183     0.0000805    0.0002209 
   0.011352826     0.9076515   -0.3863568    -0.0000608    0.0002452    -0.0003066    0.0000145     0.0000811   -0.0003361 
   0.011452851     0.8973128   -0.3657871     0.0014843   -0.0012190     0.0000521   -0.0003875     0.0001080   -0.0000076 
   0.011552876     0.9128500   -0.3620324     0.0003219   -0.0003021    -0.0004831   -0.0001582     0.0001950    0.0004304 
   0.011652901     0.9170215   -0.3756996    -0.0003075    0.0014214     0.0000292    0.0001000     0.0000390    0.0003260 
   0.011752926     0.9032659   -0.3598657     0.0002891    0.0008009    -0.0000584   -0.0000851     0.0001313   -0.0001926 
   0.011852951     0.9128898   -0.3870078     0.0002736   -0.0003776     0.0000169    0.0000975     0.0004249   -0.0003670 
   0.011952976     0.9137163   -0.3612297    -0.0003376    0.0000698     0.0001216    0.0002015     0.0002791    0.0005437 
   0.012053002     0.9039757   -0.3861984    -0.0011403   -0.0000795    -0.0001031   -0.0004705     0.0005197    0.0003494 
   0.012153027     0.8998921   -0.3912893     0.0006847   -0.0000442    -0.0000344    0.0001498     0.0005164   -0.0000374 
   0.012253052     0.8859358   -0.3888568    -0.0004232   -0.0009844     0.0002739    0.0004696     0.0005135    0.0001835 
   0.012353077     0.9087902   -0.3791274     0.0008408   -0.0003664    -0.0000320   -0.0000295     0.0001065    0.0000661 
   0.012453102     0.8915457   -0.3903411    -0.0000997    0.0000559     0.0002486    0.0001805     0.0003884   -0.0001302 
   0.012553127     0.8911367   -0.3964598    -0.0006295   -0.0007002    -0.0000217    0.0001728     0.0003506   -0.0003651 
   0.012653152     0.9071528   -0.3784980    -0.0001784    0.0006450     0.0000306    0.0001080     0.0005821   -0.0002657 
   0.012753177     0.8928326   -0.4084641     0.0004028   -0.0010158     0.0000473   -0.0001694    -0.0001845    0.0000879 
   0.012853202     0.8896299   -0.3904811    -0.0002877    0.0002736    -0.0000219   -0.0000152     0.0003224    0.0001698 
   0.012953227     0.8894631   -0.4001179     0.0002839   -0.0009011    -0.0003352   -0.0003270     0.0006659    0.0001382 
   0.013053252     0.8744806   -0.4074596     0.0002468   -0.0003075    -0.0001218   -0.0001430     0.0006143    0.0002122 
   0.013153277     0.8945153   -0.4046829    -0.0008460   -0.0000547     0.0000006    0.0000294     0.0002182   -0.0000690 
   0.013253302     0.8780420   -0.3981562     0.0005595   -0.0004186     0.0001473   -0.0000730     0.0000879   -0.0002778 
   0.013353327     0.8845496   -0.4119532     0.0006322   -0.0006443     0.0002370   -0.0000998     0.0000559    0.0001820 
   0.013453352     0.8946888   -0.3982216    -0.0003536   -0.0001201     0.0000207   -0.0000798     0.0006283    0.0000332 
   0.013553377     0.8734803   -0.4106967     0.0004003    0.0004531    -0.0000828    0.0000218     0.0001415    0.0000182 
   0.013653402     0.8669315   -0.4240692    -0.0003490   -0.0007382     0.0003104    0.0000885     0.0004682    0.0001043 
   0.013753427     0.8849965   -0.4216890    -0.0003878   -0.0005749     0.0001410   -0.0002350     0.0002107    0.0001121 
   0.013853452     0.8859041   -0.4338728     0.0002339   -0.0000276     0.0001396    0.0000195     0.0009472   -0.0000056 
   0.013953477     0.8592584   -0.4257005    -0.0000885   -0.0003524    -0.0001026   -0.0000114     0.0003544    0.0004686 
   0.014053502     0.8841408   -0.4470032    -0.0001413    0.0000008     0.0001495   -0.0002226    -0.0001367    0.0000002 
   0.014153527     0.8682936   -0.4414704    -0.0001687    0.0007533    -0.0000446    0.0001216     0.0008677    0.0004013 
   0.014253552     0.8837718   -0.4345473     0.0011676    0.0007937     0.0000568   -0.0002303     0.0004128   -0.0005045 
   0.014353577     0.8578728   -0.4409870     0.0004732    0.0001515    -0.0000424    0.0000279     0.0003477    0.0000935 
   0.014453602     0.8527218   -0.4528094    -0.0005592    0.0007183     0.0000240   -0.0003077     0.0000419    0.0003593 
   0.014553627     0.8580526   -0.4435567     0.0007095    0.0007817    -0.0000357    0.0000099     0.0004325    0.0000482 
   0.014653652     0.8622081   -0.4544370    -0.0003414    0.0002277    -0.0003964    0.0000190     0.0003265   -0.0001135 
   0.014753677     0.8608274   -0.4529253    -0.0011527    0.0002871    -0.0002332    0.0000441     0.0003591    0.0000034 
   0.014853702     0.8749139   -0.4495646     0.0001013    0.0002249     0.0000616    0.0000782     0.0006469    0.0001646 
   0.014953727     0.8470709   -0.4722499    -0.0006914    0.0000412     0.0001344   -0.0002436     0.0007057    0.0001931 
   0.015053752     0.8633085   -0.4552933    -0.0009029    0.0008332     0.0001039    0.0002001     0.0006018    0.0002302 
   0.015153777     0.8631413   -0.4673651    -0.0003304   -0.0009083     0.0000853    0.0002664     0.0004261   -0.0003297 
   0.015253802     0.8475394   -0.4600850    -0.0001887    0.0008761    -0.0000385    0.0003219     0.0008061   -0.0001371 
   0.015353827     0.8473769   -0.4762034     0.0000702    0.0003618     0.0001432    0.0001312     0.0006830   -0.0000824 
   0.015453852     0.8641504   -0.4724928    -0.0007627    0.0003124    -0.0000155    0.0002323     0.0005456   -0.0000263 
   0.015553877     0.8548698   -0.4753442     0.0000876    0.0004719     0.0000887   -0.0002582     0.0003524    0.0000474 
   0.015653902     0.8421065   -0.4793901     0.0001953   -0.0000078    -0.0000932    0.0000044     0.0000478    0.0002266 
