! 26-Feb-26 1:40:45 PM
! E:\VNA_MEASUREMENTS\CAL_S11\CAL_LOAD_T1T1E1_1.S2P
! CHANNEL.1
! TR.MEASUREMENT
! CORRECTED.DATA
# GHZ S RI R 50.0
! FREQ.GHZ         S11RE         S11IM         S21RE         S21IM         S12RE         S12IM         S22RE         S22IM         
!; PortSelection: Port_12
   0.000050000    -0.1147539    0.1559211    -0.2734087    0.0705982    -0.0080481   -0.0035614    -0.0167530    0.0260826 
   0.000150025    -0.0129030   -0.7945566    -0.6657667    0.3713635    -0.0005690    0.0012185     0.0007076   -0.0033141 
   0.000250050    -0.7374571    0.6242743     0.0033272    0.1043311    -0.0001237   -0.0007442     0.0007249   -0.0005337 
   0.000350075     1.0426150   -0.0606849    -0.0053480   -0.0093112     0.0006875    0.0009620    -0.0021275    0.0000846 
   0.000450100     0.9931748   -0.0544034    -0.0036011   -0.0023871     0.0001824    0.0019022     0.0007451   -0.0023654 
   0.000550125     1.0269020   -0.0396840    -0.0058861   -0.0150235     0.0001526   -0.0007446     0.0009249    0.0007216 
   0.000650150     0.9875886   -0.0506360    -0.0121381   -0.0105202    -0.0008941   -0.0007059     0.0010762   -0.0014867 
   0.000750175     0.9783354   -0.0462392    -0.0058350   -0.0090164    -0.0004821    0.0005908    -0.0004656    0.0004823 
   0.000850200     0.9834037   -0.1234079    -0.0095030   -0.0111939     0.0001325    0.0004246    -0.0000878   -0.0004350 
   0.000950225     1.0376540   -0.0780648    -0.0137503   -0.0067910    -0.0014367    0.0005183     0.0007557    0.0003816 
   0.001050250     0.9899457   -0.0732181    -0.0116574   -0.0053392    -0.0001494   -0.0003455     0.0001542    0.0000246 
   0.001150275     1.0298910   -0.0387380    -0.0083196   -0.0046784     0.0003201   -0.0011650    -0.0001939    0.0006377 
   0.001250300     0.9472613   -0.0689297    -0.0126290   -0.0009274     0.0002156   -0.0000105     0.0017298    0.0004180 
   0.001350325     0.9666401   -0.0701145    -0.0051487    0.0006134     0.0003709    0.0002407    -0.0004067    0.0000298 
   0.001450350     1.0300010   -0.0553055    -0.0081111   -0.0014044    -0.0006685    0.0011421    -0.0000458    0.0000610 
   0.001550375     0.9848766   -0.1051322    -0.0120773   -0.0043460    -0.0000960   -0.0004929     0.0001105    0.0002959 
   0.001650400     1.0093820   -0.0389609    -0.0056752    0.0009239     0.0014025    0.0005513     0.0000647   -0.0005741 
   0.001750425     0.9436154   -0.0661444    -0.0054745   -0.0036588    -0.0014236    0.0003926     0.0002513    0.0001987 
   0.001850450     0.9683200   -0.0507385    -0.0053852    0.0016533    -0.0013536   -0.0002374    -0.0002315    0.0012855 
   0.001950475     0.9871568   -0.0036351    -0.0081593   -0.0012616    -0.0004008   -0.0000842     0.0007452    0.0001804 
   0.002050500     0.9496626   -0.0440151    -0.0065556   -0.0011340     0.0007240    0.0003667     0.0007746    0.0002578 
   0.002150525     1.0080390   -0.0499040    -0.0056652    0.0043083    -0.0006192   -0.0005243     0.0006186    0.0001804 
   0.002250550     0.9535922   -0.0516374    -0.0069351    0.0039158     0.0001181    0.0001413     0.0000151   -0.0010714 
   0.002350575     0.9890531   -0.0840288    -0.0037252    0.0006917    -0.0000228   -0.0007760     0.0008808   -0.0005700 
   0.002450600     1.0267590   -0.0397138    -0.0033372    0.0001432    -0.0004479    0.0003107     0.0004369    0.0000460 
   0.002550625     0.9478652   -0.0936135    -0.0053841    0.0029779    -0.0004190    0.0006456    -0.0006027    0.0003740 
   0.002650650     0.9909577   -0.0809319    -0.0058601    0.0042399    -0.0001620   -0.0003729     0.0000327    0.0003097 
   0.002750675     0.9878452   -0.0290100    -0.0017619    0.0049303    -0.0000434    0.0003051    -0.0004123   -0.0004202 
   0.002850700     0.9942766   -0.1072562    -0.0062569    0.0039931    -0.0002347    0.0003145    -0.0007073   -0.0000703 
   0.002950725     0.9450357   -0.0776617     0.0008914    0.0026090    -0.0001951    0.0001145     0.0004831    0.0005191 
   0.003050750     0.9402593   -0.1214250    -0.0025756    0.0041950    -0.0004529   -0.0008599     0.0001548    0.0004067 
   0.003150775     0.9480296   -0.1408150    -0.0032965    0.0012989     0.0004003   -0.0000280     0.0002022    0.0005390 
   0.003250800     0.9637396   -0.0726483    -0.0044922    0.0054507     0.0000662   -0.0001489     0.0008700    0.0006882 
   0.003350825     0.9705437   -0.1191378    -0.0005383    0.0003761    -0.0005916    0.0005852    -0.0006323    0.0004581 
   0.003450850     0.9562275   -0.1291533     0.0012669    0.0021080    -0.0001460    0.0006756     0.0000976   -0.0008700 
   0.003550875     0.9473956   -0.1301641     0.0017262    0.0024619    -0.0000051    0.0000320    -0.0002070   -0.0002832 
   0.003650900     0.9823697   -0.1054048    -0.0028572    0.0057047     0.0003654    0.0004604     0.0005186   -0.0001975 
   0.003750925     0.9857381   -0.1043739    -0.0016965    0.0022843     0.0001675   -0.0003219     0.0002046   -0.0004802 
   0.003850950     0.9679946   -0.1388225     0.0005493   -0.0010510     0.0003977   -0.0001630     0.0004384    0.0007398 
   0.003950975     1.0151710   -0.1387196    -0.0026910    0.0023498    -0.0002207   -0.0000445     0.0005338   -0.0006632 
   0.004051001     0.9612487   -0.1540080     0.0009486    0.0021517    -0.0010770    0.0001807    -0.0000787    0.0002190 
   0.004151026     0.9788427   -0.1381829    -0.0001964   -0.0001687    -0.0001316   -0.0004525    -0.0000305   -0.0002665 
   0.004251051     0.9655228   -0.1504084    -0.0013154    0.0007367     0.0003814   -0.0005065     0.0001511   -0.0001711 
   0.004351076     0.9718480   -0.1334515    -0.0016969    0.0016060     0.0003151    0.0004717     0.0009610    0.0002463 
   0.004451101     0.9795658   -0.1713539    -0.0016535    0.0015272    -0.0000007    0.0001650     0.0007191   -0.0005847 
   0.004551126     0.9785289   -0.1574440    -0.0022750    0.0014866     0.0000190   -0.0001361    -0.0002152    0.0005466 
   0.004651151     0.9880464   -0.1671041     0.0010404    0.0002873    -0.0004443   -0.0001727     0.0009686   -0.0001445 
   0.004751176     0.9572741   -0.1630694    -0.0009755   -0.0002021    -0.0002629    0.0007937     0.0003148   -0.0001608 
   0.004851201     0.9345184   -0.1651545    -0.0008922    0.0025382     0.0000772    0.0000385     0.0005048   -0.0002598 
   0.004951226     0.9630185   -0.1370642     0.0001322   -0.0003503    -0.0008942    0.0003054    -0.0002455    0.0000462 
   0.005051251     0.9946153   -0.1796476     0.0007221    0.0019145    -0.0001211    0.0003262     0.0003999   -0.0006119 
   0.005151276     0.9396428   -0.1409333    -0.0004508   -0.0010444    -0.0003203    0.0001971     0.0003375   -0.0001273 
   0.005251301     0.9523567   -0.1573485     0.0002330    0.0015843    -0.0004089   -0.0002508     0.0006255    0.0003832 
   0.005351326     0.9557033   -0.1477008    -0.0002876    0.0015883     0.0000314   -0.0008811     0.0011150    0.0005505 
   0.005451351     0.9651209   -0.1630090     0.0004323    0.0006926    -0.0001060    0.0002722     0.0005096    0.0003266 
   0.005551376     0.9551429   -0.1941540     0.0008697    0.0002192    -0.0000533   -0.0000980     0.0008818   -0.0006443 
   0.005651401     0.9685438   -0.1995344     0.0001538    0.0006935     0.0001053    0.0003107     0.0000623   -0.0006855 
   0.005751426     0.9394216   -0.1636131    -0.0033259    0.0024057     0.0001587    0.0001709     0.0006159   -0.0004358 
   0.005851451     0.9345997   -0.1987437    -0.0012638   -0.0016974     0.0000065    0.0002723    -0.0002416   -0.0001843 
   0.005951476     0.9404329   -0.1893229     0.0007698    0.0000923    -0.0000830    0.0001421     0.0002936    0.0001889 
   0.006051501     0.9644561   -0.1914806     0.0024410    0.0001473    -0.0004077    0.0000686    -0.0000435    0.0001228 
   0.006151526     0.9490483   -0.2027117     0.0005186    0.0010410    -0.0003174    0.0000321     0.0007169    0.0000569 
   0.006251551     0.9350235   -0.1835391    -0.0016595    0.0002853     0.0003607    0.0003955     0.0005263    0.0007077 
   0.006351576     0.9431258   -0.2018856    -0.0001163   -0.0000950     0.0004975    0.0000428     0.0001457   -0.0004485 
   0.006451601     0.9421932   -0.2143721    -0.0011030    0.0009172    -0.0000967    0.0002284     0.0002878    0.0007280 
   0.006551626     0.9138856   -0.1974287     0.0009174    0.0009729     0.0002073    0.0001621    -0.0004724   -0.0005610 
   0.006651651     0.9407822   -0.2171394    -0.0001165    0.0008975    -0.0003718   -0.0003375    -0.0001383    0.0003580 
   0.006751676     0.9094442   -0.2463840    -0.0000897   -0.0010128    -0.0008019    0.0000968     0.0008933    0.0006186 
   0.006851701     0.9444559   -0.2254853    -0.0016726    0.0006144    -0.0001432    0.0001487    -0.0003335   -0.0000431 
   0.006951726     0.9103712   -0.2148694    -0.0008421   -0.0002635    -0.0000530   -0.0001419     0.0009761    0.0011830 
   0.007051751     0.9563360   -0.2288474    -0.0002584   -0.0011100     0.0000802   -0.0001564     0.0006102   -0.0001328 
   0.007151776     0.9049003   -0.2273980    -0.0003257   -0.0008640     0.0003748   -0.0002577     0.0005712    0.0001071 
   0.007251801     0.9455327   -0.2290848     0.0004316   -0.0008370     0.0001757   -0.0001797     0.0002444   -0.0001707 
   0.007351826     0.9348346   -0.2322636    -0.0007613   -0.0003403    -0.0001712    0.0005288     0.0010708    0.0005965 
   0.007451851     0.9026557   -0.2309758    -0.0009062   -0.0004912    -0.0006258    0.0001071     0.0000242   -0.0001955 
   0.007551876     0.9281603   -0.2308033    -0.0008672    0.0006470     0.0002694    0.0001265     0.0004388   -0.0004092 
   0.007651901     0.9400865   -0.2450927    -0.0003473   -0.0003577     0.0001823   -0.0000448     0.0003426    0.0000665 
   0.007751926     0.9262719   -0.2343493    -0.0003168   -0.0000104     0.0001343    0.0000744     0.0000322   -0.0005827 
   0.007851951     0.9334539   -0.2471563     0.0002437    0.0002441     0.0004304    0.0005470     0.0002899   -0.0003378 
   0.007951976     0.9248911   -0.2579942     0.0001753   -0.0009895     0.0000166   -0.0004924     0.0004022    0.0003339 
   0.008052001     0.9150706   -0.2576327     0.0000704    0.0008511    -0.0001606    0.0000745     0.0000584    0.0000799 
   0.008152026     0.9205154   -0.2646791     0.0027558    0.0017185     0.0000677    0.0002375     0.0005971   -0.0001205 
   0.008252051     0.9123039   -0.2444429    -0.0008785   -0.0008808    -0.0001261    0.0000429     0.0005001    0.0002368 
   0.008352076     0.9273398   -0.2600587     0.0002722    0.0003375    -0.0000779    0.0002182     0.0008648   -0.0004150 
   0.008452101     0.9297249   -0.2563792    -0.0007141    0.0001000     0.0000210   -0.0000999     0.0003834   -0.0000996 
   0.008552126     0.9244944   -0.2565578     0.0013858    0.0011328     0.0001985    0.0003230     0.0006938    0.0002954 
   0.008652151     0.9197427   -0.2709138    -0.0002663    0.0005224    -0.0001453   -0.0002404     0.0001408    0.0002368 
   0.008752176     0.9226785   -0.2577179    -0.0008844    0.0005293     0.0002403    0.0000160    -0.0003217   -0.0003911 
   0.008852201     0.8977262   -0.2331302    -0.0008112   -0.0014506     0.0000293    0.0002004     0.0003964   -0.0000489 
   0.008952226     0.9116521   -0.2612290    -0.0005187   -0.0004975    -0.0001241    0.0000320     0.0005874   -0.0000622 
   0.009052251     0.9211084   -0.2597177    -0.0014890    0.0007570    -0.0004187    0.0002252     0.0000663   -0.0003034 
   0.009152276     0.9141040   -0.2599964    -0.0000797    0.0003727    -0.0001408    0.0000417     0.0005868    0.0001900 
   0.009252301     0.8960212   -0.2692769    -0.0002430    0.0000699    -0.0001648    0.0002905     0.0001047   -0.0000235 
   0.009352326     0.9192598   -0.2796828     0.0000778    0.0007545     0.0002428   -0.0000463     0.0000245   -0.0002815 
   0.009452351     0.9059608   -0.2749805    -0.0004599   -0.0001589     0.0000534    0.0000011     0.0005980    0.0001240 
   0.009552376     0.9047644   -0.2859872    -0.0003059    0.0008917     0.0001109   -0.0000043     0.0003865   -0.0003609 
   0.009652401     0.8850521   -0.2886761     0.0010448   -0.0000367     0.0000616   -0.0001152     0.0001021    0.0001916 
   0.009752426     0.8930299   -0.2959967     0.0003920   -0.0004326     0.0002907    0.0002091     0.0003362    0.0006866 
   0.009852451     0.8910375   -0.2823542     0.0001841    0.0004513     0.0000127    0.0005181     0.0002578    0.0002045 
   0.009952476     0.8911661   -0.3000359    -0.0006925    0.0006171    -0.0000763    0.0003548     0.0001450    0.0002367 
   0.010052501     0.8923340   -0.2929086     0.0019899   -0.0006389    -0.0000328    0.0005445    -0.0000168    0.0000482 
   0.010152526     0.8723249   -0.2911703    -0.0003205    0.0000527    -0.0003264    0.0000878     0.0002958    0.0001466 
   0.010252551     0.8797890   -0.3036567    -0.0010967    0.0003572    -0.0002708    0.0000165     0.0003427    0.0000855 
   0.010352576     0.8866020   -0.3125230    -0.0001608   -0.0003313     0.0004078    0.0001591     0.0005933    0.0002399 
   0.010452601     0.8907446   -0.3035789     0.0012985   -0.0003768     0.0001594    0.0000285     0.0005272   -0.0000324 
   0.010552626     0.8682044   -0.3209812     0.0001115    0.0001266     0.0001090    0.0000923     0.0002806    0.0003582 
   0.010652651     0.8680320   -0.3095485     0.0006119    0.0004110    -0.0000716   -0.0000758     0.0004883   -0.0002772 
   0.010752676     0.8839910   -0.3229954    -0.0000257   -0.0003381     0.0001890    0.0000222     0.0004556    0.0002493 
   0.010852701     0.8794187   -0.2999425    -0.0001564    0.0001114    -0.0000814    0.0001156    -0.0000461   -0.0003578 
   0.010952726     0.8709109   -0.3086176     0.0002516   -0.0003249     0.0002892    0.0000480    -0.0000891   -0.0000724 
   0.011052751     0.8709700   -0.3337716     0.0015720    0.0006819     0.0001305    0.0000809     0.0003105    0.0003382 
   0.011152776     0.8728267   -0.3375890    -0.0001529    0.0010302    -0.0001074    0.0001237    -0.0002854   -0.0000360 
   0.011252801     0.8703797   -0.3293925     0.0001450   -0.0003766    -0.0002429   -0.0002239    -0.0000014    0.0003139 
   0.011352826     0.8789386   -0.3431520     0.0002444   -0.0004520    -0.0000387    0.0002386     0.0001757   -0.0002817 
   0.011452851     0.8640532   -0.3209964    -0.0016695   -0.0009070    -0.0005144   -0.0001599     0.0002228    0.0000318 
   0.011552876     0.8551461   -0.3391172    -0.0005377   -0.0009824    -0.0003184   -0.0002424     0.0002253   -0.0000790 
   0.011652901     0.8556501   -0.3350122    -0.0016479   -0.0002534    -0.0001457    0.0002699    -0.0001167    0.0005424 
   0.011752926     0.8437931   -0.3256119    -0.0001144   -0.0000383     0.0002680    0.0000432    -0.0000258   -0.0003332 
   0.011852951     0.8567925   -0.3498225     0.0004317   -0.0008753    -0.0000567   -0.0000022     0.0002748    0.0001039 
   0.011952976     0.8530685   -0.3396002    -0.0000769    0.0002596     0.0000467    0.0000051    -0.0000387    0.0002975 
   0.012053002     0.8441530   -0.3592445     0.0002673   -0.0004527     0.0000095   -0.0002140     0.0003609    0.0000606 
   0.012153027     0.8471324   -0.3532317     0.0003325    0.0002839    -0.0002337    0.0001311     0.0003951   -0.0001292 
   0.012253052     0.8285263   -0.3438055    -0.0004895   -0.0003898    -0.0001880   -0.0001493     0.0008250    0.0000499 
   0.012353077     0.8502582   -0.3534406    -0.0004332    0.0007349     0.0001919    0.0000491     0.0008699    0.0001978 
   0.012453102     0.8531430   -0.3490188     0.0009235   -0.0004758     0.0000300   -0.0003856     0.0002839   -0.0000237 
   0.012553127     0.8326178   -0.3732715     0.0006495   -0.0001289    -0.0002539   -0.0003679     0.0004238   -0.0003289 
   0.012653152     0.8497335   -0.3456582     0.0006269    0.0004700     0.0000306    0.0001580     0.0000083    0.0002575 
   0.012753177     0.8343217   -0.3574145     0.0006797   -0.0000175    -0.0002597    0.0001959     0.0003802   -0.0002013 
   0.012853202     0.8378707   -0.3406353    -0.0000303   -0.0000767    -0.0001044   -0.0000829     0.0004612    0.0003642 
   0.012953227     0.8407181   -0.3399146     0.0005386    0.0003702     0.0000769   -0.0001992     0.0006712    0.0002349 
   0.013053252     0.8204819   -0.3667455     0.0003224   -0.0002988    -0.0001270   -0.0003226     0.0006211   -0.0000758 
   0.013153277     0.8195906   -0.3581738     0.0000745    0.0016556    -0.0000976    0.0000814     0.0003156    0.0002086 
   0.013253302     0.8286047   -0.3586237     0.0004889    0.0000072     0.0004902   -0.0002939     0.0001642   -0.0000235 
   0.013353327     0.8214355   -0.3682736    -0.0000033   -0.0004319     0.0001729   -0.0001829     0.0005561    0.0000839 
   0.013453352     0.8239318   -0.3553060     0.0005389    0.0017848    -0.0001324   -0.0000248     0.0006121    0.0002998 
   0.013553377     0.8099898   -0.3701445     0.0001110   -0.0000593     0.0002741   -0.0000996     0.0005518   -0.0002071 
   0.013653402     0.8119431   -0.3661508    -0.0004918   -0.0008974    -0.0000411    0.0001305     0.0005517    0.0000620 
   0.013753427     0.8206896   -0.3782042    -0.0003158    0.0011200    -0.0001410    0.0000857     0.0000597    0.0006602 
   0.013853452     0.8250660   -0.3855022     0.0009602   -0.0009333    -0.0001876   -0.0001715     0.0001760   -0.0001050 
   0.013953477     0.8060191   -0.3559144     0.0012470   -0.0003095     0.0001143    0.0001309     0.0003953    0.0000035 
   0.014053502     0.8154517   -0.3794441    -0.0004322   -0.0000527    -0.0000682   -0.0003143    -0.0000395    0.0000189 
   0.014153527     0.8067824   -0.3757372     0.0000390    0.0002492    -0.0000962    0.0000175     0.0007754    0.0000575 
   0.014253552     0.8179231   -0.3810844     0.0003187    0.0004719     0.0002794    0.0000017     0.0002728   -0.0002110 
   0.014353577     0.8022747   -0.3894776     0.0001526   -0.0005365    -0.0000733   -0.0002196     0.0003826   -0.0001884 
   0.014453602     0.7906939   -0.3849372    -0.0008971   -0.0004419     0.0002910    0.0001168    -0.0000351   -0.0000705 
   0.014553627     0.7993653   -0.3835450     0.0005782    0.0007378    -0.0000633    0.0001725     0.0003042    0.0000026 
   0.014653652     0.8016343   -0.3933755     0.0003889    0.0000397    -0.0001149   -0.0000139     0.0005435   -0.0002887 
   0.014753677     0.7916861   -0.3906275    -0.0007848    0.0002497    -0.0001549    0.0002505     0.0003460   -0.0000006 
   0.014853702     0.8004168   -0.3746432     0.0000753    0.0008803    -0.0001252    0.0000798     0.0002516    0.0002172 
   0.014953727     0.7843959   -0.4179508    -0.0001425    0.0000774    -0.0000233    0.0001009     0.0004278    0.0004661 
   0.015053752     0.7920820   -0.3855279     0.0004911   -0.0002745     0.0001666    0.0000427     0.0003490    0.0002929 
   0.015153777     0.7882223   -0.4037325     0.0003162   -0.0002790    -0.0000556   -0.0001889     0.0000844   -0.0002465 
   0.015253802     0.7902544   -0.3926555    -0.0002389    0.0008608    -0.0001709    0.0001955     0.0002640   -0.0001752 
   0.015353827     0.7756634   -0.4016289     0.0002051   -0.0001984     0.0001410   -0.0000657     0.0007712   -0.0001522 
   0.015453852     0.7842206   -0.3923141     0.0000460    0.0005906    -0.0003176   -0.0004793     0.0008210    0.0002244 
   0.015553877     0.7716776   -0.4051493    -0.0005981   -0.0003438    -0.0000547   -0.0000908     0.0003742   -0.0000409 
   0.015653902     0.7793530   -0.4023656     0.0002681    0.0004321     0.0002694    0.0000617    -0.0001163    0.0001838 
