! 26-Feb-26 1:53:39 PM
! E:\VNA_MEASUREMENTS\CAL_S11\CAL_SHORT_T1T1E7_2.S2P
! CHANNEL.1
! TR.MEASUREMENT
! CORRECTED.DATA
# GHZ S RI R 50.0
! FREQ.GHZ         S11RE         S11IM         S21RE         S21IM         S12RE         S12IM         S22RE         S22IM         
!; PortSelection: Port_12
   0.000050000     0.3302112    0.2018789     0.1982347   -0.1256831    -0.0091415   -0.0048180    -0.0193951    0.0350570 
   0.000150025    -0.2290743   -0.1670209     0.0951148   -0.3681179    -0.0001507   -0.0001230     0.0032339   -0.0058254 
   0.000250050    -0.0293882   -0.2630721    -0.0661259    0.1726985    -0.0000326   -0.0004407    -0.0003972   -0.0024784 
   0.000350075     1.0006920   -0.0591063    -0.0060587   -0.0113625    -0.0004130    0.0004475    -0.0014900   -0.0024667 
   0.000450100     0.9794940   -0.0006648    -0.0017198   -0.0083242     0.0005244    0.0002833    -0.0000392   -0.0006389 
   0.000550125     1.0101490   -0.0156004    -0.0041518   -0.0144987    -0.0002940   -0.0006994     0.0006592   -0.0005866 
   0.000650150     1.0228040   -0.0246799    -0.0053498   -0.0126814     0.0001784   -0.0004661     0.0011790   -0.0012182 
   0.000750175     0.9617456   -0.0795596    -0.0100466   -0.0067960    -0.0004073   -0.0005909    -0.0006336    0.0000532 
   0.000850200     1.0058000   -0.0922544    -0.0085873   -0.0051135    -0.0011377   -0.0005844    -0.0010984   -0.0006160 
   0.000950225     0.9778555   -0.0269612    -0.0103231   -0.0027100     0.0007181   -0.0000642    -0.0007060    0.0017673 
   0.001050250     1.0540800   -0.0670900    -0.0080704   -0.0042852     0.0000346    0.0004934    -0.0004785   -0.0005009 
   0.001150275     0.9938315   -0.0716354    -0.0106321   -0.0025404     0.0014060   -0.0003355    -0.0000398    0.0005658 
   0.001250300     0.9958229   -0.0444019    -0.0123768   -0.0033034    -0.0001095   -0.0005198    -0.0000772    0.0009427 
   0.001350325     1.0348490   -0.0601988    -0.0075739   -0.0037716    -0.0002915   -0.0005810    -0.0005083   -0.0012634 
   0.001450350     0.9985567   -0.0931336    -0.0100980   -0.0000889     0.0001082   -0.0008235    -0.0008067    0.0003658 
   0.001550375     0.9669465   -0.0684383    -0.0087543   -0.0022344    -0.0001138   -0.0002251     0.0009378    0.0003800 
   0.001650400     0.9971176   -0.0491476    -0.0109274    0.0016652     0.0001886   -0.0001221     0.0001539   -0.0009271 
   0.001750425     0.9667401   -0.0804519    -0.0086591    0.0000636     0.0001677    0.0001495     0.0005518   -0.0006783 
   0.001850450     0.9907264   -0.0720910    -0.0039872    0.0018323     0.0004332   -0.0001760     0.0000499    0.0012240 
   0.001950475     1.0109120   -0.0750136    -0.0082113    0.0027346    -0.0000179   -0.0002332     0.0010437   -0.0004703 
   0.002050500     0.9522547   -0.0707287    -0.0089042    0.0015936    -0.0004653   -0.0007382     0.0008123    0.0001057 
   0.002150525     1.0094640   -0.0889036    -0.0072207    0.0040217    -0.0008294    0.0003070     0.0003463    0.0006465 
   0.002250550     0.9753159   -0.0761564    -0.0061762    0.0009155    -0.0005529   -0.0000668    -0.0001834   -0.0008350 
   0.002350575     0.9470526   -0.1234085    -0.0076156    0.0032677     0.0011245    0.0000415     0.0010202   -0.0005488 
   0.002450600     1.0054260   -0.0969945    -0.0052565    0.0022683     0.0002054    0.0004474     0.0004411    0.0002916 
   0.002550625     1.0068990   -0.0538667    -0.0035460    0.0045311    -0.0000377   -0.0002786     0.0001223    0.0010400 
   0.002650650     1.0223540   -0.0609096    -0.0018635    0.0005677    -0.0007298    0.0008803    -0.0006806    0.0010115 
   0.002750675     0.9752923   -0.0323920    -0.0041814    0.0026224     0.0004828   -0.0000858    -0.0003204    0.0002722 
   0.002850700     1.0433030   -0.1361785    -0.0044017    0.0032122    -0.0000834    0.0002937     0.0000266    0.0009192 
   0.002950725     0.9640539   -0.0845174     0.0025742    0.0035691    -0.0000312   -0.0002313     0.0005255    0.0000537 
   0.003050750     0.9644536   -0.1050924    -0.0019559    0.0001620     0.0001351   -0.0014002    -0.0000450   -0.0007470 
   0.003150775     0.9839413   -0.1196348    -0.0009901    0.0041290    -0.0001739   -0.0006734     0.0001846   -0.0004872 
   0.003250800     0.9598882   -0.0983405    -0.0025695    0.0028878    -0.0002201   -0.0007431    -0.0002628    0.0001473 
   0.003350825     0.9732299   -0.0864114     0.0015904    0.0026360    -0.0001410    0.0006821    -0.0001132    0.0006867 
   0.003450850     0.9864372   -0.1393458    -0.0019761   -0.0001484     0.0003476    0.0003752     0.0003810   -0.0004336 
   0.003550875     0.9622132   -0.1575141    -0.0018307    0.0006567     0.0008116    0.0001414     0.0005618   -0.0005810 
   0.003650900     0.9729840   -0.1217472    -0.0011699    0.0028313     0.0009166   -0.0004430     0.0006996   -0.0001158 
   0.003750925     0.9642022   -0.1197010     0.0003588    0.0008074     0.0007133   -0.0002077     0.0002178   -0.0004216 
   0.003850950     0.9704381   -0.1459966    -0.0005902    0.0022734     0.0001515    0.0000235    -0.0005722    0.0001842 
   0.003950975     0.9971958   -0.1218813    -0.0008444    0.0015531    -0.0001067    0.0003185     0.0005094   -0.0003940 
   0.004051001     0.9814430   -0.1690491    -0.0011678    0.0021643    -0.0003310    0.0001610     0.0006238   -0.0002908 
   0.004151026     0.9980589   -0.1527705    -0.0007966    0.0016704     0.0008759    0.0004018    -0.0000238    0.0001816 
   0.004251051     0.9722571   -0.1384177     0.0002484    0.0017391    -0.0003898    0.0001314    -0.0003915   -0.0001778 
   0.004351076     0.9860982   -0.1250819    -0.0020441    0.0000394    -0.0003499    0.0001358     0.0009501    0.0003880 
   0.004451101     0.9871925   -0.1976456    -0.0008973    0.0019956     0.0002263   -0.0003211     0.0005882   -0.0006276 
   0.004551126     0.9884118   -0.1480597    -0.0022366    0.0005899     0.0003671    0.0001504    -0.0001624    0.0008598 
   0.004651151     0.9659435   -0.1439397     0.0007976    0.0034313     0.0002181   -0.0000763     0.0003150    0.0009113 
   0.004751176     0.9849954   -0.1768912     0.0004534    0.0020637     0.0004009   -0.0000669    -0.0000721   -0.0005859 
   0.004851201     0.9504461   -0.1506974    -0.0003306    0.0019794    -0.0002561   -0.0001495     0.0010394    0.0009413 
   0.004951226     0.9690683   -0.1616977     0.0014817    0.0001785    -0.0000591   -0.0002579     0.0001262   -0.0002012 
   0.005051251     0.9426962   -0.1557020    -0.0004227   -0.0002804     0.0000566    0.0004476    -0.0001613   -0.0002565 
   0.005151276     0.9546943   -0.1548307    -0.0003193    0.0012680     0.0000005    0.0001919     0.0005238    0.0004548 
   0.005251301     0.9679847   -0.1821388     0.0004487    0.0010683     0.0002535   -0.0002966     0.0004404    0.0004025 
   0.005351326     0.9567297   -0.1616949    -0.0016508   -0.0000895    -0.0003456    0.0000567     0.0003464    0.0006764 
   0.005451351     0.9167096   -0.1793685    -0.0025581    0.0003603    -0.0001607    0.0001379     0.0003550   -0.0000160 
   0.005551376     0.9966753   -0.2031885     0.0004815   -0.0007720    -0.0002297   -0.0000180     0.0002445   -0.0002497 
   0.005651401     0.9449874   -0.1838903    -0.0010935    0.0028155     0.0000529   -0.0000561    -0.0000094    0.0000173 
   0.005751426     0.9595402   -0.1878525    -0.0003040    0.0017775     0.0002238    0.0000955     0.0002858    0.0002441 
   0.005851451     0.9840324   -0.2134006    -0.0020063    0.0001686     0.0000909    0.0004599    -0.0000287   -0.0005299 
   0.005951476     0.9804772   -0.1706348    -0.0013826   -0.0002638     0.0004603   -0.0002933     0.0003959    0.0006312 
   0.006051501     0.9583698   -0.2047709    -0.0016938    0.0018526     0.0001874    0.0003193    -0.0000688   -0.0001653 
   0.006151526     0.9460977   -0.2129197    -0.0003007    0.0014747     0.0004973   -0.0000444     0.0006188   -0.0003522 
   0.006251551     0.9587817   -0.1910340     0.0004609    0.0012741     0.0004464    0.0006045     0.0001629    0.0005626 
   0.006351576     0.9693418   -0.2132427    -0.0003830    0.0004774     0.0000765   -0.0007725    -0.0003970   -0.0000436 
   0.006451601     0.9715375   -0.2282779     0.0001494   -0.0006919    -0.0003222    0.0002597    -0.0000098    0.0008432 
   0.006551626     0.9256748   -0.2190692    -0.0003601   -0.0009345     0.0000881    0.0000528     0.0000701   -0.0005552 
   0.006651651     0.9571651   -0.2140267    -0.0011287    0.0010084     0.0000861   -0.0001212     0.0001353    0.0003050 
   0.006751676     0.9530342   -0.2385567     0.0004006    0.0000408    -0.0000750   -0.0003255     0.0008140   -0.0000512 
   0.006851701     0.9761443   -0.2437108    -0.0002109    0.0013255    -0.0001629   -0.0005537    -0.0002679    0.0003227 
   0.006951726     0.9246796   -0.2324643    -0.0006910    0.0003433    -0.0005526    0.0002168     0.0007668    0.0010128 
   0.007051751     0.9447430   -0.2207227    -0.0006122    0.0000684    -0.0001574    0.0003945     0.0005320   -0.0001088 
   0.007151776     0.9362499   -0.2101853    -0.0004948    0.0011624    -0.0003880   -0.0003534     0.0002872    0.0002171 
   0.007251801     0.9677534   -0.2094571    -0.0005280   -0.0002215    -0.0001299    0.0001221    -0.0000544   -0.0001111 
   0.007351826     0.9488717   -0.2554212     0.0006427   -0.0009231    -0.0001325   -0.0000039     0.0010282    0.0003693 
   0.007451851     0.9317842   -0.2438634    -0.0014151    0.0010819    -0.0000542   -0.0002564     0.0005717   -0.0000996 
   0.007551876     0.9512104   -0.2601358     0.0005824   -0.0007736     0.0001981    0.0001869     0.0005188    0.0000556 
   0.007651901     0.9507349   -0.2871167    -0.0020452    0.0006622     0.0004243    0.0001788     0.0002495    0.0001417 
   0.007751926     0.9515232   -0.2244451    -0.0008329   -0.0003578    -0.0002910    0.0002718     0.0001107   -0.0006569 
   0.007851951     0.9676530   -0.2437038     0.0012031    0.0007257    -0.0003223    0.0002726     0.0008216    0.0001174 
   0.007951976     0.9724882   -0.2778979     0.0010377    0.0011395    -0.0001747    0.0004098     0.0001507    0.0002609 
   0.008052001     0.9568062   -0.2704008    -0.0017326    0.0012761     0.0003367    0.0002964     0.0008574    0.0005579 
   0.008152026     0.9400756   -0.2804455    -0.0000717    0.0008706     0.0003753    0.0001458     0.0007694    0.0000391 
   0.008252051     0.9319751   -0.2407633    -0.0002701    0.0001960    -0.0000882    0.0003483     0.0005655    0.0001797 
   0.008352076     0.9455439   -0.2804036     0.0000204    0.0001091     0.0002848   -0.0000482     0.0007036   -0.0001874 
   0.008452101     0.9475257   -0.2759797    -0.0006925    0.0011194     0.0000915    0.0001332     0.0002938   -0.0003366 
   0.008552126     0.9621534   -0.2668391    -0.0006838    0.0003409    -0.0001279    0.0000294     0.0002810    0.0003776 
   0.008652151     0.9334258   -0.2618783    -0.0010364    0.0002875    -0.0002537    0.0002908     0.0004070   -0.0000437 
   0.008752176     0.9389293   -0.2735115    -0.0003198   -0.0007804     0.0001148    0.0001246    -0.0001105   -0.0001089 
   0.008852201     0.9394329   -0.2623017    -0.0013588   -0.0001713    -0.0001982   -0.0002217     0.0004881    0.0003476 
   0.008952226     0.9572114   -0.2917956    -0.0004744    0.0004212     0.0001299   -0.0001229     0.0005803   -0.0006250 
   0.009052251     0.9479640   -0.2825119    -0.0011692    0.0007467     0.0000170   -0.0001077     0.0004702    0.0001082 
   0.009152276     0.9452661   -0.2857873    -0.0005797    0.0007514     0.0000247    0.0000455     0.0006123    0.0000403 
   0.009252301     0.9378833   -0.2851691     0.0002522    0.0015424    -0.0003928   -0.0002995    -0.0000866   -0.0000575 
   0.009352326     0.9504035   -0.3035153     0.0004784   -0.0005932    -0.0002833    0.0001415     0.0000431   -0.0002717 
   0.009452351     0.9362503   -0.3092358    -0.0005261   -0.0002474     0.0002513   -0.0000326     0.0002476   -0.0002514 
   0.009552376     0.9383060   -0.3154951    -0.0012658    0.0006803     0.0002089    0.0000539     0.0004485    0.0002382 
   0.009652401     0.9306446   -0.2908205     0.0011597   -0.0000988    -0.0000797   -0.0002315    -0.0001054    0.0000363 
   0.009752426     0.9239657   -0.3029731    -0.0008670    0.0000792     0.0001170    0.0002421     0.0006239    0.0004380 
   0.009852451     0.9327106   -0.3341379     0.0003167   -0.0004155    -0.0001351   -0.0001833     0.0006104    0.0000776 
   0.009952476     0.9252051   -0.3267567    -0.0006346   -0.0005678     0.0002758    0.0000533     0.0004838    0.0001710 
   0.010052501     0.9219299   -0.3130030    -0.0005531   -0.0001161     0.0002080   -0.0000655     0.0005070   -0.0000446 
   0.010152526     0.9307054   -0.3081079    -0.0014717    0.0009284     0.0000704    0.0000432    -0.0003178    0.0000284 
   0.010252551     0.9115459   -0.3318252    -0.0001599   -0.0000996     0.0001098    0.0000325     0.0004472    0.0000663 
   0.010352576     0.9576268   -0.3484759    -0.0003518   -0.0002974     0.0001003    0.0000449     0.0004220    0.0001861 
   0.010452601     0.9375625   -0.3200910     0.0005538   -0.0015064     0.0001891    0.0000043     0.0004579   -0.0002765 
   0.010552626     0.9104350   -0.3427830    -0.0003369    0.0004253     0.0005136   -0.0000227     0.0002199    0.0000613 
   0.010652651     0.9301313   -0.3386014    -0.0008746   -0.0015388     0.0001642   -0.0000900     0.0000269   -0.0002357 
   0.010752676     0.9257922   -0.3679165     0.0006877   -0.0003240    -0.0000812    0.0000990     0.0001303    0.0001190 
   0.010852701     0.9210251   -0.3230484    -0.0000926   -0.0009870    -0.0000732    0.0003511     0.0004743    0.0004179 
   0.010952726     0.9210582   -0.3531688    -0.0002813   -0.0003418    -0.0002255    0.0000999    -0.0000623   -0.0004774 
   0.011052751     0.9213090   -0.3562530     0.0012170    0.0005604    -0.0005019    0.0002822     0.0009745   -0.0000040 
   0.011152776     0.9313890   -0.3425887     0.0008869    0.0006769    -0.0001546   -0.0004239    -0.0000040    0.0001610 
   0.011252801     0.9111012   -0.3546353     0.0007677   -0.0003972    -0.0000193    0.0004712    -0.0001334    0.0000123 
   0.011352826     0.9220812   -0.3931571    -0.0000679   -0.0004985     0.0003019    0.0000172     0.0000650   -0.0000091 
   0.011452851     0.9032130   -0.3672751     0.0002111   -0.0000506     0.0002501    0.0000399     0.0002160   -0.0001782 
   0.011552876     0.8989084   -0.3679680     0.0011249   -0.0006721     0.0000481    0.0001052     0.0002765   -0.0000738 
   0.011652901     0.9021932   -0.3804062    -0.0002762   -0.0010320    -0.0001280    0.0001905     0.0003178    0.0003324 
   0.011752926     0.8902168   -0.3508323     0.0007831    0.0005461     0.0000618    0.0000428     0.0001225    0.0000398 
   0.011852951     0.9077872   -0.3830477    -0.0003091    0.0002332     0.0003676   -0.0000495     0.0000622    0.0000581 
   0.011952976     0.9028966   -0.3745686     0.0006691   -0.0004725     0.0002505    0.0001063     0.0000906    0.0001892 
   0.012053002     0.8936743   -0.3929603     0.0006807    0.0005997     0.0002413    0.0002150     0.0007207    0.0002514 
   0.012153027     0.9022807   -0.3886579     0.0011021    0.0001279     0.0001026    0.0003185     0.0007717   -0.0000773 
   0.012253052     0.8974236   -0.4050050     0.0005275   -0.0000401     0.0003482   -0.0002037     0.0008260    0.0001231 
   0.012353077     0.8860461   -0.3894615    -0.0004182   -0.0000796     0.0001220   -0.0003488     0.0002640    0.0002457 
   0.012453102     0.9026933   -0.3900018    -0.0008662    0.0007632    -0.0001397    0.0001668     0.0007195    0.0000499 
   0.012553127     0.8771394   -0.4061213     0.0003566   -0.0002688    -0.0001443    0.0000772     0.0004607   -0.0003406 
   0.012653152     0.8975418   -0.3911417    -0.0001653    0.0005051    -0.0002498    0.0001112     0.0001350    0.0002231 
   0.012753177     0.8787900   -0.3965082     0.0006777   -0.0002615     0.0000517    0.0000742     0.0002079   -0.0000595 
   0.012853202     0.9018639   -0.3781628    -0.0004931    0.0002634    -0.0000255   -0.0000213     0.0001633    0.0006428 
   0.012953227     0.8833211   -0.3890511     0.0006315   -0.0001851    -0.0000968    0.0000269     0.0003010    0.0000813 
   0.013053252     0.8820290   -0.4069458     0.0004177   -0.0008967     0.0001928    0.0001059     0.0003906   -0.0002548 
   0.013153277     0.8806955   -0.4094032    -0.0001233    0.0000893    -0.0001338    0.0000395     0.0006813    0.0001610 
   0.013253302     0.8891623   -0.4069029     0.0005609    0.0003485     0.0002283    0.0000524     0.0003680   -0.0006050 
   0.013353327     0.8722879   -0.4086687    -0.0008715    0.0002034     0.0000826   -0.0000488     0.0004754   -0.0001100 
   0.013453352     0.8910484   -0.4057299     0.0001366   -0.0014322     0.0001298    0.0000224     0.0007120    0.0001732 
   0.013553377     0.8690671   -0.4137827    -0.0011556   -0.0000426     0.0000152   -0.0002729     0.0001404   -0.0002132 
   0.013653402     0.8702371   -0.4146626    -0.0002343   -0.0011174     0.0001113    0.0001393     0.0005303    0.0000604 
   0.013753427     0.8826827   -0.4197861     0.0007107    0.0002948     0.0000522    0.0001504     0.0004672    0.0003118 
   0.013853452     0.8790882   -0.4225673     0.0002206    0.0005548     0.0000784   -0.0000709     0.0006919    0.0002379 
   0.013953477     0.8647664   -0.4147174    -0.0006428   -0.0007810     0.0001049   -0.0001931     0.0004971    0.0001190 
   0.014053502     0.8829884   -0.4441750    -0.0005474   -0.0001766    -0.0002229   -0.0001189     0.0001802   -0.0001029 
   0.014153527     0.8646710   -0.4319422     0.0002147   -0.0000115     0.0001141    0.0001576     0.0003365    0.0004658 
   0.014253552     0.8767724   -0.4268487     0.0000743   -0.0003749     0.0000269   -0.0001442     0.0009021   -0.0005250 
   0.014353577     0.8629752   -0.4346117    -0.0006717   -0.0000493    -0.0002824   -0.0000566     0.0004378    0.0002916 
   0.014453602     0.8558292   -0.4487064     0.0001150    0.0006009     0.0000316   -0.0000513    -0.0001097   -0.0000653 
   0.014553627     0.8638577   -0.4444312    -0.0008501    0.0000000     0.0003221   -0.0000487     0.0004281    0.0000275 
   0.014653652     0.8648920   -0.4524426     0.0006656   -0.0004176     0.0001468   -0.0001399     0.0004844   -0.0002904 
   0.014753677     0.8573695   -0.4477999    -0.0007125    0.0010578     0.0000921    0.0002085     0.0000836    0.0002339 
   0.014853702     0.8729395   -0.4464601    -0.0003807    0.0006910    -0.0003041   -0.0000281     0.0004141    0.0002216 
   0.014953727     0.8547705   -0.4714298    -0.0009034   -0.0002898    -0.0001662   -0.0000100     0.0007393    0.0001035 
   0.015053752     0.8541710   -0.4575516     0.0002383    0.0007688     0.0001361    0.0001419     0.0006509    0.0004155 
   0.015153777     0.8604603   -0.4785541    -0.0002979   -0.0002863    -0.0001731   -0.0001990     0.0002397   -0.0006836 
   0.015253802     0.8558303   -0.4661215    -0.0006265   -0.0003298    -0.0000666   -0.0000536     0.0000344   -0.0002165 
   0.015353827     0.8453784   -0.4747204    -0.0003878   -0.0003946     0.0000385    0.0002065     0.0007770    0.0000155 
   0.015453852     0.8596656   -0.4792559     0.0008117    0.0004836    -0.0000060   -0.0000491     0.0003488    0.0005363 
   0.015553877     0.8431718   -0.4755084    -0.0005888   -0.0003302     0.0001483   -0.0001882     0.0003522   -0.0002446 
   0.015653902     0.8491228   -0.4810425     0.0006804    0.0002814     0.0001227   -0.0000775     0.0001330   -0.0001139 
