! 26-Feb-26 1:43:33 PM
! E:\VNA_MEASUREMENTS\CAL_S11\CAL_LONGSHORT_T2T1E3_1.S2P
! CHANNEL.1
! TR.MEASUREMENT
! CORRECTED.DATA
# GHZ S RI R 50.0
! FREQ.GHZ         S11RE         S11IM         S21RE         S21IM         S12RE         S12IM         S22RE         S22IM         
!; PortSelection: Port_12
   0.000050000    -0.0467610    0.0531245     0.0956686   -0.2755068    -0.0041755   -0.0039353    -0.0119817    0.0216972 
   0.000150025    -0.1800107    0.1863978    -0.1139179    0.0693865    -0.0002609    0.0006765     0.0020967    0.0001142 
   0.000250050     0.0717746    0.5492705     0.0567186   -0.1886366    -0.0003349    0.0007625     0.0009981   -0.0024007 
   0.000350075     0.9849887   -0.0450594    -0.0029216   -0.0116146    -0.0002890   -0.0015234    -0.0027483    0.0002782 
   0.000450100     0.9912038   -0.0432783    -0.0027466   -0.0110757     0.0013617   -0.0000671    -0.0001356   -0.0006478 
   0.000550125     0.9821432    0.0200159    -0.0030515   -0.0133142    -0.0010707    0.0006334     0.0010621    0.0005100 
   0.000650150     1.0196040   -0.0531870    -0.0086654   -0.0123692     0.0012958   -0.0006548     0.0001430   -0.0015865 
   0.000750175     0.9924772   -0.0966510    -0.0091027   -0.0095044    -0.0002835   -0.0000156    -0.0001031   -0.0002779 
   0.000850200     0.9866099   -0.0764233    -0.0067749   -0.0067539     0.0003767   -0.0003541    -0.0006960   -0.0005886 
   0.000950225     0.9995769   -0.0569123    -0.0127696   -0.0083725    -0.0001131    0.0002419     0.0011984    0.0014695 
   0.001050250     0.9753097   -0.0528228    -0.0086411   -0.0048078     0.0003202   -0.0004442    -0.0002729    0.0002385 
   0.001150275     1.0136550   -0.0795331    -0.0071708    0.0008638     0.0000693   -0.0007128     0.0005894    0.0003555 
   0.001250300     0.9847344   -0.0677906    -0.0113684   -0.0056469     0.0005433   -0.0001639     0.0007642    0.0011909 
   0.001350325     0.9900805   -0.0644432    -0.0119936   -0.0057658    -0.0004401    0.0010012    -0.0000405   -0.0003791 
   0.001450350     1.0005980   -0.0573809    -0.0142294   -0.0013209     0.0008301   -0.0003869    -0.0002448    0.0005624 
   0.001550375     0.9845080   -0.0443926    -0.0094896   -0.0081280     0.0009941   -0.0000537     0.0004651    0.0004065 
   0.001650400     0.9948463   -0.0432309    -0.0091982   -0.0003507     0.0001503   -0.0000644    -0.0006558   -0.0002892 
   0.001750425     0.9646794   -0.0746471    -0.0076433    0.0032600     0.0000016   -0.0006120     0.0004122   -0.0000294 
   0.001850450     0.9749366   -0.0644185    -0.0058806    0.0010556     0.0007400    0.0004926    -0.0005948    0.0010702 
   0.001950475     0.9965469   -0.0202543    -0.0112533    0.0046765     0.0001036    0.0003627     0.0008853   -0.0002266 
   0.002050500     0.9676614   -0.0673104    -0.0046450    0.0007209    -0.0000305    0.0005889     0.0010962   -0.0000698 
   0.002150525     1.0025920   -0.0760552    -0.0077246    0.0016883     0.0003907    0.0000326     0.0009453   -0.0002940 
   0.002250550     0.9727906   -0.0683464    -0.0041903    0.0034857     0.0001535   -0.0007601    -0.0003979   -0.0001744 
   0.002350575     0.9305657   -0.1180114    -0.0027040    0.0018344    -0.0001464    0.0000644     0.0009297   -0.0013353 
   0.002450600     0.9745149   -0.0438426    -0.0038982    0.0030125     0.0007490    0.0000006     0.0003440    0.0009855 
   0.002550625     0.9922957   -0.1136005    -0.0054282    0.0020344    -0.0006833   -0.0000470    -0.0005997    0.0009222 
   0.002650650     1.0325920   -0.0597363    -0.0039760    0.0046713     0.0001831   -0.0007638    -0.0001029    0.0006104 
   0.002750675     0.9997399   -0.0349901    -0.0049883    0.0009074     0.0000599   -0.0001871    -0.0011078    0.0003436 
   0.002850700     1.0158500   -0.0895990    -0.0044514    0.0039794    -0.0003809   -0.0005115    -0.0002178   -0.0002583 
   0.002950725     0.9918195   -0.0822734    -0.0043917    0.0009650     0.0005724   -0.0004731     0.0009232    0.0000761 
   0.003050750     0.9976791   -0.0958568    -0.0048193    0.0020052    -0.0006977   -0.0001490     0.0005997   -0.0004225 
   0.003150775     0.9416955   -0.1234020    -0.0029777    0.0044038     0.0002356    0.0005806     0.0000353    0.0007339 
   0.003250800     0.9602212   -0.0855915    -0.0002632    0.0044701     0.0006120    0.0006091     0.0005387    0.0007986 
   0.003350825     1.0035260   -0.0715662    -0.0014797    0.0025496     0.0000193    0.0002389    -0.0001123    0.0005895 
   0.003450850     0.9696205   -0.1247927    -0.0025181    0.0041077     0.0001363   -0.0001490     0.0008352   -0.0001986 
   0.003550875     0.9559085   -0.1132719    -0.0033862    0.0006281     0.0002207   -0.0004936     0.0003300   -0.0002322 
   0.003650900     0.9724751   -0.0951370    -0.0015684    0.0039785     0.0000271   -0.0001407     0.0000078    0.0000833 
   0.003750925     0.9711975   -0.1384600     0.0004639    0.0006620    -0.0003219   -0.0004944     0.0010240   -0.0000821 
   0.003850950     0.9629410   -0.1319870    -0.0032284    0.0044697    -0.0003526    0.0001939    -0.0001035    0.0001838 
   0.003950975     0.9980266   -0.1199048    -0.0010655    0.0022479     0.0007326   -0.0001058     0.0004284   -0.0005756 
   0.004051001     0.9672784   -0.1554271    -0.0016599    0.0026652    -0.0000558    0.0003662     0.0001124   -0.0000301 
   0.004151026     0.9990026   -0.1363934     0.0005514   -0.0013789     0.0001933   -0.0002487    -0.0000548   -0.0002205 
   0.004251051     0.9952531   -0.1588182    -0.0010527    0.0027264     0.0004132    0.0001852    -0.0003587   -0.0000281 
   0.004351076     0.9730443   -0.1077866    -0.0004722   -0.0001129     0.0002679    0.0000877     0.0013021    0.0003509 
   0.004451101     0.9706239   -0.1226379    -0.0031298    0.0010858     0.0001111   -0.0000646     0.0002650   -0.0007545 
   0.004551126     1.0009410   -0.1474594    -0.0015660    0.0016512     0.0003974   -0.0003759    -0.0003543    0.0003081 
   0.004651151     0.9631593   -0.1389103     0.0009922    0.0018577     0.0005303    0.0003355     0.0002577    0.0007901 
   0.004751176     0.9600586   -0.1723043     0.0005532    0.0009571     0.0000812    0.0004750     0.0005511   -0.0002841 
   0.004851201     0.9688132   -0.1359702    -0.0011803    0.0015081     0.0000153   -0.0005178     0.0008476    0.0004121 
   0.004951226     0.9672320   -0.1090261    -0.0014900    0.0017440     0.0002509    0.0001771     0.0002034   -0.0005369 
   0.005051251     0.9913098   -0.1874378    -0.0003582   -0.0001465     0.0002581    0.0001447    -0.0001455    0.0001273 
   0.005151276     0.9537616   -0.1311222     0.0006028    0.0004502     0.0002236    0.0003311     0.0005066   -0.0001097 
   0.005251301     0.9621468   -0.1334149     0.0000400    0.0006397    -0.0001589    0.0000182     0.0004093    0.0007430 
   0.005351326     0.9442670   -0.1312435    -0.0005273    0.0011633     0.0001342   -0.0006449     0.0012222    0.0001538 
   0.005451351     0.9540744   -0.1467534    -0.0006707    0.0012608     0.0000286   -0.0000351     0.0006788    0.0001540 
   0.005551376     0.9887234   -0.1742515    -0.0004367    0.0012032    -0.0000910   -0.0003690     0.0000331   -0.0004133 
   0.005651401     0.9537705   -0.1537363    -0.0005381    0.0014030    -0.0002040    0.0000502     0.0005834   -0.0003561 
   0.005751426     0.9312549   -0.1722514     0.0003713    0.0011553    -0.0003251   -0.0002280     0.0009451   -0.0001899 
   0.005851451     0.9557505   -0.2086914    -0.0012922    0.0010702     0.0002344    0.0001762    -0.0003299   -0.0002791 
   0.005951476     0.9446300   -0.1839909    -0.0014282   -0.0002929     0.0000159    0.0000564     0.0003692    0.0001697 
   0.006051501     0.9885181   -0.1804623     0.0000709   -0.0008001    -0.0007460    0.0004239    -0.0003564    0.0005170 
   0.006151526     0.9673641   -0.2108431     0.0006445   -0.0007777     0.0002202   -0.0000592     0.0009422   -0.0000063 
   0.006251551     0.9698527   -0.1767154    -0.0002330    0.0001149    -0.0000611    0.0005449     0.0001745    0.0000166 
   0.006351576     0.9574493   -0.2183156     0.0015767   -0.0001448    -0.0004047   -0.0000869    -0.0001348    0.0001512 
   0.006451601     0.9547827   -0.1827607     0.0006961   -0.0024521     0.0003484    0.0000240     0.0000425    0.0003936 
   0.006551626     0.9537020   -0.2002918    -0.0002270    0.0000151    -0.0000966    0.0006080    -0.0007024    0.0000247 
   0.006651651     0.9624573   -0.2048621     0.0005329    0.0004435     0.0000292   -0.0001798     0.0000207    0.0001171 
   0.006751676     0.9497184   -0.2432066     0.0004925    0.0009125     0.0004365   -0.0000739     0.0005216    0.0004034 
   0.006851701     0.9541436   -0.2273422    -0.0008326   -0.0008558    -0.0000920   -0.0005089    -0.0001176    0.0004292 
   0.006951726     0.9359861   -0.2139990     0.0000629    0.0020684     0.0003173   -0.0000212     0.0006415    0.0005261 
   0.007051751     0.9604372   -0.2192245     0.0001256   -0.0001602    -0.0002219   -0.0001736     0.0006304    0.0000018 
   0.007151776     0.9255030   -0.2260481     0.0000807    0.0010241    -0.0004466    0.0001799     0.0007765    0.0004056 
   0.007251801     0.9746484   -0.2095198    -0.0015037    0.0009697     0.0003154   -0.0000070     0.0003008    0.0000891 
   0.007351826     0.9521416   -0.2330466     0.0008969    0.0011785     0.0001198    0.0003332     0.0012373    0.0002421 
   0.007451851     0.9507623   -0.2087956    -0.0008277   -0.0003782     0.0002015    0.0004447     0.0003658   -0.0005179 
   0.007551876     0.9554993   -0.2459271    -0.0008555    0.0002409     0.0001733    0.0000081     0.0004328   -0.0001787 
   0.007651901     0.9682413   -0.2776257     0.0005051    0.0011205     0.0003368   -0.0003958     0.0000326    0.0002579 
   0.007751926     0.9471132   -0.2385104    -0.0001672    0.0000294     0.0000826   -0.0000498     0.0000034   -0.0009422 
   0.007851951     0.9596921   -0.2388276    -0.0003814    0.0008311     0.0001317    0.0002827     0.0003751    0.0000404 
   0.007951976     0.9656447   -0.2603010     0.0001637    0.0014502    -0.0001870    0.0000013    -0.0002728    0.0001926 
   0.008052001     0.9539751   -0.2534480     0.0005920   -0.0003862    -0.0003094   -0.0003213     0.0003325    0.0006497 
   0.008152026     0.9539102   -0.2750633    -0.0020006   -0.0010314     0.0000083    0.0000902     0.0005148   -0.0002316 
   0.008252051     0.9180865   -0.2449868    -0.0010871   -0.0003572     0.0000074   -0.0002090     0.0005649    0.0004906 
   0.008352076     0.9455689   -0.2684638     0.0014392   -0.0005929     0.0001507   -0.0000682     0.0011651   -0.0000794 
   0.008452101     0.9608292   -0.2700312     0.0002910   -0.0006656     0.0004194    0.0002753    -0.0002334    0.0001736 
   0.008552126     0.9619674   -0.2632875     0.0000684   -0.0000073     0.0000195   -0.0002230     0.0003101    0.0000217 
   0.008652151     0.9513280   -0.2599215    -0.0001963    0.0006189    -0.0000263   -0.0002774     0.0005553   -0.0000612 
   0.008752176     0.9708197   -0.2672525    -0.0011002    0.0006462    -0.0001052   -0.0001741     0.0001248   -0.0003140 
   0.008852201     0.9419160   -0.2527249     0.0008886   -0.0002003     0.0001646   -0.0001984     0.0000753   -0.0003841 
   0.008952226     0.9509974   -0.2856687     0.0007589    0.0012474     0.0001291    0.0001071     0.0003039   -0.0003892 
   0.009052251     0.9408013   -0.2758734     0.0007426   -0.0003093     0.0003200   -0.0000455     0.0002302   -0.0003327 
   0.009152276     0.9342406   -0.2902659     0.0006182    0.0007590     0.0002015    0.0000483     0.0005181    0.0003472 
   0.009252301     0.9312971   -0.2816614     0.0000563   -0.0005720     0.0001202    0.0001738     0.0000233   -0.0003678 
   0.009352326     0.9364985   -0.2905054     0.0002039    0.0004750     0.0000553   -0.0000851     0.0002227   -0.0003764 
   0.009452351     0.9484600   -0.2953301     0.0001669   -0.0000373     0.0000881    0.0000986     0.0004110    0.0002746 
   0.009552376     0.9537067   -0.3048799     0.0007902    0.0001299    -0.0001048    0.0000302     0.0002212    0.0000678 
   0.009652401     0.9055905   -0.3014462    -0.0000130   -0.0004335     0.0000349   -0.0000750     0.0000665    0.0002052 
   0.009752426     0.9315093   -0.3154643     0.0000559    0.0008624     0.0000304   -0.0002203     0.0004771    0.0006318 
   0.009852451     0.9313831   -0.3416287    -0.0005054    0.0001834    -0.0001937   -0.0001274    -0.0000129    0.0002782 
   0.009952476     0.9190928   -0.3239102     0.0008299    0.0011157     0.0000077    0.0000337     0.0005912    0.0002111 
   0.010052501     0.9117434   -0.3235894     0.0002552    0.0013687    -0.0000219    0.0002007     0.0001491   -0.0000536 
   0.010152526     0.9273025   -0.3101423    -0.0010761   -0.0007322     0.0000627   -0.0005913     0.0002720   -0.0001458 
   0.010252551     0.9136403   -0.3223018    -0.0005417    0.0007322     0.0003804    0.0001940     0.0003416   -0.0003664 
   0.010352576     0.9344007   -0.3418946     0.0006927    0.0002839     0.0000147   -0.0002240     0.0005908    0.0000852 
   0.010452601     0.9192197   -0.3312010    -0.0012902   -0.0006079    -0.0001260    0.0001111     0.0006175    0.0001163 
   0.010552626     0.9082369   -0.3378702    -0.0008277   -0.0003938     0.0000323    0.0002415     0.0007113    0.0003375 
   0.010652651     0.9195642   -0.3396517     0.0009345   -0.0000450    -0.0003682   -0.0001934     0.0005913   -0.0002128 
   0.010752676     0.9167182   -0.3661464     0.0012470    0.0008745    -0.0003223   -0.0002334     0.0004030    0.0001454 
   0.010852701     0.9207861   -0.3378326     0.0001934   -0.0004579     0.0004537   -0.0001346     0.0000917   -0.0002424 
   0.010952726     0.9172075   -0.3563955     0.0008134   -0.0006850    -0.0000554   -0.0001048    -0.0000012   -0.0002653 
   0.011052751     0.9091309   -0.3663661     0.0000011    0.0003630     0.0001529    0.0003316     0.0007928    0.0006464 
   0.011152776     0.9019610   -0.3668829    -0.0001306   -0.0006162    -0.0002756    0.0001370     0.0002108    0.0000698 
   0.011252801     0.9029996   -0.3776706    -0.0006219   -0.0008803    -0.0002186   -0.0000887    -0.0000467    0.0003219 
   0.011352826     0.9043534   -0.3975714    -0.0005916   -0.0008446    -0.0002117   -0.0001901     0.0001555    0.0000350 
   0.011452851     0.8914493   -0.3908081    -0.0002259    0.0008477     0.0001435    0.0001861     0.0001738    0.0000757 
   0.011552876     0.8816637   -0.3880486     0.0007756    0.0001635    -0.0001180   -0.0001468     0.0005933   -0.0004354 
   0.011652901     0.8865027   -0.4104451    -0.0001546   -0.0000969    -0.0000798   -0.0003257     0.0002312    0.0007113 
   0.011752926     0.8745682   -0.3863240    -0.0006015    0.0003276    -0.0000754   -0.0001230     0.0004982   -0.0000701 
   0.011852951     0.8891144   -0.4210060    -0.0001880    0.0001060    -0.0002060    0.0001807    -0.0001423    0.0000429 
   0.011952976     0.8829444   -0.4135461     0.0007059    0.0004881     0.0003649   -0.0001797     0.0003297    0.0001971 
   0.012053002     0.8786795   -0.4156273     0.0005067    0.0006075    -0.0003877    0.0000611     0.0006407    0.0004221 
   0.012153027     0.8695465   -0.4288743     0.0003236   -0.0000495     0.0002551   -0.0001508     0.0003120   -0.0001299 
   0.012253052     0.8612193   -0.4359711     0.0008367   -0.0007091     0.0000811    0.0000120     0.0006233    0.0003645 
   0.012353077     0.8794828   -0.4266942    -0.0007469    0.0013158     0.0001551    0.0003717     0.0004518    0.0001188 
   0.012453102     0.8486705   -0.4280569    -0.0003838    0.0008688     0.0000502    0.0001314     0.0006655   -0.0003784 
   0.012553127     0.8582148   -0.4529721    -0.0004426   -0.0003320     0.0000683   -0.0003442     0.0004373   -0.0001066 
   0.012653152     0.8574998   -0.4470997     0.0003102    0.0006738     0.0002963   -0.0000737     0.0004609    0.0001917 
   0.012753177     0.8535917   -0.4581687    -0.0002898    0.0011700    -0.0001875    0.0000883     0.0005486   -0.0001489 
   0.012853202     0.8555294   -0.4500487     0.0004964   -0.0008000     0.0000987    0.0000716     0.0000994    0.0004371 
   0.012953227     0.8519217   -0.4568934    -0.0002010    0.0000167    -0.0000332    0.0002960     0.0003225    0.0001046 
   0.013053252     0.8365636   -0.4823382    -0.0006309   -0.0003866     0.0001578    0.0000810     0.0007175    0.0001567 
   0.013153277     0.8400012   -0.4605853     0.0002293    0.0001384     0.0000311    0.0003373     0.0002073    0.0001061 
   0.013253302     0.8372392   -0.4688615     0.0005687    0.0004563     0.0002203    0.0002915     0.0005040   -0.0001232 
   0.013353327     0.8192019   -0.4863300    -0.0008111    0.0005623     0.0002114    0.0002138     0.0002302   -0.0004003 
   0.013453352     0.8279468   -0.4823564     0.0005826    0.0007428     0.0002704    0.0000052     0.0005662    0.0003772 
   0.013553377     0.8145899   -0.4889539    -0.0004875    0.0006883    -0.0000103   -0.0001920     0.0002825   -0.0002483 
   0.013653402     0.8230477   -0.5098069    -0.0001804   -0.0003233    -0.0000008   -0.0003278     0.0002831    0.0000306 
   0.013753427     0.8087650   -0.5219648    -0.0001127    0.0012923    -0.0002686   -0.0001033    -0.0004063    0.0005612 
   0.013853452     0.8035258   -0.5406011     0.0004889   -0.0002795    -0.0002678   -0.0001407     0.0003182    0.0003809 
   0.013953477     0.7859765   -0.5136176     0.0003751   -0.0008759    -0.0001973   -0.0000938     0.0004462    0.0002860 
   0.014053502     0.7856696   -0.5509484    -0.0000648    0.0013337    -0.0000734   -0.0002564     0.0004282    0.0001414 
   0.014153527     0.7711135   -0.5483130     0.0000661   -0.0002516    -0.0000017   -0.0000131     0.0005401    0.0002707 
   0.014253552     0.7645368   -0.5526335    -0.0007471   -0.0009799     0.0000382   -0.0000767     0.0004350   -0.0002005 
   0.014353577     0.7536580   -0.5701281     0.0005547    0.0004659     0.0000005   -0.0000104     0.0010396    0.0000378 
   0.014453602     0.7323644   -0.5638860     0.0002600    0.0003147     0.0001113    0.0000283     0.0004359    0.0000283 
   0.014553627     0.7287920   -0.5839065    -0.0003008   -0.0002036    -0.0000697    0.0000024     0.0004119   -0.0001542 
   0.014653652     0.7187859   -0.5991334    -0.0001037   -0.0007196     0.0002082    0.0000223     0.0004773   -0.0000365 
   0.014753677     0.7043462   -0.6049858    -0.0007338   -0.0005049    -0.0002314    0.0001508     0.0005129   -0.0000335 
   0.014853702     0.7063363   -0.6053728    -0.0003527   -0.0000414    -0.0000550    0.0001223     0.0002956    0.0000716 
   0.014953727     0.6527626   -0.6276107     0.0000174    0.0001613    -0.0000432    0.0000827     0.0005994    0.0001779 
   0.015053752     0.6633339   -0.6439431     0.0009124    0.0000597    -0.0001648   -0.0000800     0.0003803   -0.0000295 
   0.015153777     0.6317906   -0.6515750    -0.0005169    0.0003461    -0.0000539   -0.0000553     0.0004328   -0.0002478 
   0.015253802     0.6029425   -0.6556299     0.0004323    0.0001430     0.0003865   -0.0000090     0.0001314    0.0001384 
   0.015353827     0.5792050   -0.6676816     0.0002957    0.0005325    -0.0000504    0.0001783     0.0009416    0.0002196 
   0.015453852     0.5623710   -0.6782242     0.0005018   -0.0002625    -0.0002074   -0.0000669     0.0007399    0.0001048 
   0.015553877     0.5120479   -0.6878818     0.0005383    0.0000788     0.0000676    0.0000364     0.0005762   -0.0002088 
   0.015653902     0.4800508   -0.6908287     0.0007946   -0.0001484     0.0000110    0.0002420     0.0000221    0.0002653 
