! 26-Feb-26 1:38:27 PM
! E:\VNA_MEASUREMENTS\CAL_S11\CAL_SHORT_T1T1E7_0.S2P
! CHANNEL.1
! TR.MEASUREMENT
! CORRECTED.DATA
# GHZ S RI R 50.0
! FREQ.GHZ         S11RE         S11IM         S21RE         S21IM         S12RE         S12IM         S22RE         S22IM         
!; PortSelection: Port_12
   0.000050000     1.4875060    0.3249037     1.6392380    0.9034345    -0.0009988    0.0045573    -0.0284349    0.0352930 
   0.000150025    -0.5243252   -0.1938860     0.0135226    1.8625590    -0.0009341   -0.0001361     0.0004484   -0.0057819 
   0.000250050    -0.2962294    0.0620939     0.2417819    0.1908836    -0.0003438    0.0002489     0.0012385   -0.0046225 
   0.000350075     1.0143450   -0.0494193     0.0022650   -0.0060294    -0.0001613   -0.0002064    -0.0025608   -0.0005475 
   0.000450100     0.9808276   -0.0524930    -0.0056476   -0.0125264    -0.0011844    0.0003617    -0.0008829   -0.0024537 
   0.000550125     1.0203600    0.0100240    -0.0076372   -0.0055773     0.0002593    0.0012047     0.0006839    0.0002605 
   0.000650150     0.9821650    0.0030486    -0.0044596   -0.0100410    -0.0014381   -0.0002153     0.0005913   -0.0005920 
   0.000750175     0.9682348   -0.0724196    -0.0056165   -0.0073838    -0.0008858   -0.0007527    -0.0002093   -0.0012332 
   0.000850200     0.9866395   -0.1027849    -0.0038359   -0.0092673     0.0006195    0.0009547     0.0002839   -0.0015859 
   0.000950225     1.0422780   -0.1008191    -0.0078507   -0.0039186     0.0004975    0.0013117    -0.0000569    0.0013904 
   0.001050250     0.9731158   -0.0846406    -0.0101887   -0.0042060    -0.0007134   -0.0003541     0.0004350   -0.0003178 
   0.001150275     0.9871994   -0.0453408    -0.0063644   -0.0032761    -0.0022357   -0.0000538     0.0007649   -0.0005763 
   0.001250300     0.9610223   -0.0453155    -0.0100391   -0.0067353     0.0001534   -0.0004984    -0.0000741    0.0003662 
   0.001350325     0.9714545   -0.0588147    -0.0070360   -0.0008223    -0.0000178    0.0000195    -0.0002707   -0.0004962 
   0.001450350     0.9445364   -0.0248662    -0.0110287   -0.0002003    -0.0002683   -0.0005646     0.0007509    0.0002547 
   0.001550375     0.9843098   -0.0626371    -0.0098212   -0.0016076    -0.0000178    0.0012547     0.0014271    0.0002745 
   0.001650400     1.0020740   -0.0545690    -0.0086639   -0.0014100     0.0001138    0.0004820    -0.0006218   -0.0000329 
   0.001750425     0.9641973   -0.0823698    -0.0079128   -0.0019398    -0.0011915    0.0004377    -0.0000579   -0.0001659 
   0.001850450     0.9912932   -0.0185516    -0.0107300    0.0032929     0.0009622    0.0003240     0.0002008    0.0007643 
   0.001950475     1.0356490   -0.0190273    -0.0059061    0.0006410    -0.0002251   -0.0003297     0.0013053   -0.0005189 
   0.002050500     0.9863537   -0.0637288    -0.0062719    0.0049735     0.0008422   -0.0004768     0.0013027   -0.0006956 
   0.002150525     1.0085240   -0.0912122     0.0006853   -0.0014573     0.0000064   -0.0001290    -0.0004548    0.0006504 
   0.002250550     1.0036360   -0.0540198    -0.0064965    0.0022816    -0.0006676   -0.0004406     0.0003272   -0.0009033 
   0.002350575     0.9247701   -0.1115848    -0.0063399    0.0037879    -0.0002388   -0.0001234     0.0007906   -0.0007496 
   0.002450600     0.9912947   -0.1009872    -0.0074202    0.0049954     0.0005984   -0.0006414    -0.0005143   -0.0001725 
   0.002550625     0.9837823   -0.1006969    -0.0068897   -0.0004770     0.0005478    0.0006949     0.0006634    0.0003503 
   0.002650650     1.0447260   -0.0666726    -0.0003132    0.0023044    -0.0003130   -0.0004487     0.0003614    0.0002618 
   0.002750675     0.9892652   -0.0263686    -0.0026041    0.0029957     0.0002051   -0.0002128     0.0001008   -0.0003647 
   0.002850700     0.9889328   -0.1064753    -0.0016003    0.0003996     0.0004651   -0.0007585    -0.0000611   -0.0000396 
   0.002950725     0.9651391   -0.1128634    -0.0038934   -0.0000004     0.0006318    0.0000632     0.0009591    0.0008987 
   0.003050750     0.9828801   -0.1075665    -0.0043275    0.0016028     0.0007287   -0.0006241     0.0001625   -0.0004814 
   0.003150775     0.9707321   -0.0792972    -0.0049657   -0.0020364    -0.0002986    0.0000155    -0.0000872    0.0003687 
   0.003250800     0.9661801   -0.0564176    -0.0039328    0.0020620     0.0009900   -0.0006710    -0.0000426    0.0003210 
   0.003350825     0.9905182   -0.1042537     0.0007539    0.0009981     0.0005710   -0.0003334     0.0000678    0.0005692 
   0.003450850     0.9515322   -0.1653692    -0.0019083    0.0037576     0.0004225    0.0002465     0.0003059   -0.0003568 
   0.003550875     0.9592561   -0.0965480    -0.0021509    0.0025252    -0.0000491    0.0000600     0.0001840   -0.0004028 
   0.003650900     0.9675858   -0.1119688    -0.0026326    0.0007503     0.0000407   -0.0000267     0.0006286   -0.0006386 
   0.003750925     0.9740475   -0.1489947    -0.0022359    0.0013686    -0.0001679   -0.0003156    -0.0006332   -0.0001685 
   0.003850950     0.9872968   -0.1344054     0.0000447    0.0012074     0.0004194    0.0007361     0.0005043    0.0006588 
   0.003950975     1.0037760   -0.1423833    -0.0002431    0.0020958     0.0004880    0.0001893    -0.0001186   -0.0014643 
   0.004051001     0.9765797   -0.1652038    -0.0021124    0.0031631     0.0003113   -0.0000792     0.0002718    0.0000461 
   0.004151026     0.9881514   -0.1398948    -0.0013780    0.0022993     0.0001058    0.0002407    -0.0000026   -0.0000828 
   0.004251051     0.9704937   -0.1274664    -0.0033326    0.0013043     0.0003920    0.0003672    -0.0003546    0.0000064 
   0.004351076     0.9734620   -0.1053770     0.0013951    0.0014122    -0.0001973   -0.0001693     0.0010218    0.0005317 
   0.004451101     0.9650300   -0.1683526    -0.0006385    0.0016310    -0.0001588    0.0002444     0.0001492   -0.0009457 
   0.004551126     1.0210000   -0.1517791    -0.0004135   -0.0000357     0.0000817   -0.0003076    -0.0002354   -0.0003117 
   0.004651151     0.9668382   -0.1699907    -0.0011809    0.0007838     0.0002769   -0.0002956     0.0006479    0.0002658 
   0.004751176     0.9761199   -0.1820791    -0.0014153    0.0016122    -0.0005376   -0.0000111    -0.0006069   -0.0001269 
   0.004851201     0.9543364   -0.1417229     0.0003749   -0.0002860     0.0002549   -0.0000455     0.0009292    0.0004772 
   0.004951226     0.9615524   -0.1769678     0.0006641    0.0012152     0.0000271    0.0003779    -0.0000272   -0.0000793 
   0.005051251     0.9889096   -0.1525647    -0.0010796   -0.0004810    -0.0000015   -0.0004694     0.0001839   -0.0000474 
   0.005151276     0.9493942   -0.1495141     0.0000563   -0.0003217    -0.0004073   -0.0004500     0.0007957   -0.0006846 
   0.005251301     0.9664935   -0.1576052    -0.0009565   -0.0010349     0.0001406    0.0004708     0.0002360    0.0008417 
   0.005351326     0.9400172   -0.1585286     0.0001007    0.0018315     0.0001266    0.0009226     0.0013425    0.0005097 
   0.005451351     0.9620296   -0.1448170     0.0020138   -0.0007943     0.0003316    0.0003999     0.0007319    0.0000184 
   0.005551376     0.9571722   -0.1982767    -0.0019927    0.0019030    -0.0003311    0.0001300     0.0003064   -0.0002747 
   0.005651401     0.9584628   -0.1534143     0.0001992    0.0002419     0.0000670   -0.0003368    -0.0000828   -0.0009068 
   0.005751426     0.9449931   -0.1851829    -0.0017930    0.0004070     0.0002885   -0.0001785     0.0005396   -0.0000095 
   0.005851451     0.9651920   -0.2159609    -0.0017281   -0.0008775     0.0001974    0.0002148    -0.0001873   -0.0000436 
   0.005951476     0.9599292   -0.1970723     0.0017441    0.0021695    -0.0001332    0.0002931     0.0000570   -0.0001366 
   0.006051501     0.9573542   -0.2035917     0.0022031   -0.0005232    -0.0002727   -0.0002263    -0.0002820    0.0001825 
   0.006151526     0.9625194   -0.2312297     0.0001740    0.0000877     0.0003637   -0.0003319     0.0005014   -0.0001477 
   0.006251551     0.9656035   -0.1738537    -0.0012316    0.0006175     0.0002729    0.0002881     0.0002837    0.0003718 
   0.006351576     0.9620247   -0.2147903    -0.0013398    0.0001792    -0.0003935   -0.0000033     0.0001394    0.0000217 
   0.006451601     0.9460424   -0.2166565    -0.0001620    0.0009645     0.0000923    0.0000764     0.0002046    0.0004375 
   0.006551626     0.9390805   -0.2171062    -0.0019974    0.0001297    -0.0002113   -0.0001444    -0.0007257    0.0004456 
   0.006651651     0.9312168   -0.2223794     0.0012966    0.0011576     0.0000899   -0.0000454     0.0002318    0.0000386 
   0.006751676     0.9607534   -0.2305765    -0.0005930    0.0019911    -0.0003689    0.0005783     0.0008235    0.0004277 
   0.006851701     0.9615314   -0.2432130     0.0016817    0.0018433     0.0002862    0.0000126     0.0008465    0.0001859 
   0.006951726     0.9370590   -0.2370512    -0.0006241   -0.0013381    -0.0000647   -0.0005385     0.0009993    0.0011121 
   0.007051751     0.9542986   -0.2306551     0.0011939    0.0019910    -0.0000267    0.0004654     0.0005081   -0.0004531 
   0.007151776     0.9269169   -0.2383365    -0.0003671   -0.0001328    -0.0001270   -0.0003885     0.0007061   -0.0000404 
   0.007251801     0.9586466   -0.2122051    -0.0009393   -0.0006923     0.0002357   -0.0000905     0.0002079    0.0000845 
   0.007351826     0.9644109   -0.2424598     0.0000390    0.0007807    -0.0000594    0.0005080     0.0009909   -0.0000878 
   0.007451851     0.9335328   -0.2407600     0.0006144    0.0011565     0.0000151    0.0002980     0.0002695   -0.0002826 
   0.007551876     0.9554037   -0.2464460    -0.0004713   -0.0004221     0.0004056   -0.0003991     0.0002322   -0.0004825 
   0.007651901     0.9598779   -0.2658066     0.0001002   -0.0004812     0.0000998   -0.0002422    -0.0000586    0.0000150 
   0.007751926     0.9300157   -0.2556015    -0.0008057   -0.0008285    -0.0006025    0.0001110     0.0008197   -0.0004318 
   0.007851951     0.9613076   -0.2538450     0.0000441    0.0003940    -0.0001954    0.0004081     0.0005902   -0.0003208 
   0.007951976     0.9481598   -0.2804806    -0.0008836    0.0001014     0.0004599    0.0000655     0.0007075    0.0003082 
   0.008052001     0.9513146   -0.2664653     0.0000333    0.0005277    -0.0000888   -0.0001380     0.0004103    0.0006757 
   0.008152026     0.9473467   -0.2899535     0.0012816    0.0009277     0.0000366    0.0002720     0.0007032    0.0000072 
   0.008252051     0.9385060   -0.2620907    -0.0005405    0.0002182     0.0005473    0.0003481     0.0004306    0.0004294 
   0.008352076     0.9463747   -0.2756525     0.0006339   -0.0009760     0.0001784    0.0002715     0.0004556    0.0001382 
   0.008452101     0.9614520   -0.2592232     0.0011561   -0.0007508    -0.0003032   -0.0004319     0.0007386   -0.0005002 
   0.008552126     0.9417977   -0.2760526     0.0017971   -0.0003980     0.0001042   -0.0002052     0.0005558    0.0002259 
   0.008652151     0.9445877   -0.2772672    -0.0001765   -0.0003093     0.0001839    0.0001321     0.0003989    0.0003183 
   0.008752176     0.9448688   -0.2631061     0.0007713   -0.0001081     0.0000616   -0.0001100    -0.0000626   -0.0005654 
   0.008852201     0.9379529   -0.2604886    -0.0000139    0.0005054    -0.0003394   -0.0004161     0.0002200    0.0007499 
   0.008952226     0.9574909   -0.2986231    -0.0011754   -0.0009783    -0.0001541   -0.0001083     0.0005616   -0.0002650 
   0.009052251     0.9511684   -0.2730988    -0.0007571    0.0007080     0.0000062    0.0004299     0.0003789   -0.0002075 
   0.009152276     0.9527182   -0.3150481     0.0013614   -0.0007259     0.0001930    0.0002919     0.0007713    0.0000226 
   0.009252301     0.9379472   -0.3045329     0.0002643    0.0012936    -0.0001142   -0.0003881     0.0004361   -0.0004473 
   0.009352326     0.9416493   -0.3075556     0.0006597   -0.0012913     0.0000182    0.0001105     0.0001230    0.0002290 
   0.009452351     0.9372720   -0.2827475    -0.0014733    0.0010183     0.0001287   -0.0000050     0.0004385    0.0001799 
   0.009552376     0.9431298   -0.3058229    -0.0001555    0.0003841     0.0001972   -0.0001152     0.0003543    0.0002441 
   0.009652401     0.9202768   -0.3106202    -0.0004802   -0.0014615     0.0000131    0.0000892    -0.0000101    0.0006200 
   0.009752426     0.9176067   -0.3145073    -0.0002614    0.0010051     0.0000606    0.0000429     0.0005423    0.0003018 
   0.009852451     0.9304661   -0.3129804    -0.0001360    0.0002311     0.0001769    0.0003388     0.0001964    0.0002772 
   0.009952476     0.9327683   -0.3196277    -0.0005762   -0.0003001    -0.0000628    0.0000766     0.0000084   -0.0002263 
   0.010052501     0.9287741   -0.3184299    -0.0001408   -0.0002024     0.0000077   -0.0002802     0.0003209    0.0000029 
   0.010152526     0.9189639   -0.3203845    -0.0005910   -0.0001990     0.0000636    0.0001132     0.0002705    0.0000909 
   0.010252551     0.9381088   -0.3176550     0.0012197    0.0007003     0.0000840   -0.0001639     0.0002372    0.0001543 
   0.010352576     0.9517953   -0.3360105    -0.0003789   -0.0001875    -0.0002327   -0.0002325     0.0004967    0.0002717 
   0.010452601     0.9512560   -0.3258680    -0.0001431   -0.0000856    -0.0000968    0.0000645     0.0005938   -0.0001040 
   0.010552626     0.9163758   -0.3362260    -0.0012533    0.0006804     0.0000627    0.0000432     0.0001772    0.0002181 
   0.010652651     0.9294987   -0.3398994    -0.0015032   -0.0003306     0.0001828   -0.0001117     0.0005504    0.0001645 
   0.010752676     0.9386684   -0.3625961    -0.0008456    0.0004805     0.0000378   -0.0002802     0.0004414   -0.0003304 
   0.010852701     0.9121739   -0.3257470    -0.0000351   -0.0006248     0.0001044   -0.0000389    -0.0001077    0.0001091 
   0.010952726     0.9240169   -0.3427804    -0.0009418   -0.0009451     0.0004029    0.0000853    -0.0002967   -0.0001822 
   0.011052751     0.9287462   -0.3549994     0.0005321   -0.0004491     0.0001615    0.0000085     0.0005759   -0.0000709 
   0.011152776     0.9101251   -0.3595678     0.0004508   -0.0015412     0.0001088   -0.0000152    -0.0000166    0.0003723 
   0.011252801     0.9161003   -0.3687326     0.0000339    0.0000082     0.0001269   -0.0001055     0.0000958    0.0000844 
   0.011352826     0.9016702   -0.3744444     0.0007163    0.0004666     0.0000627   -0.0000910     0.0003740   -0.0003245 
   0.011452851     0.9032701   -0.3450850    -0.0004151   -0.0010280    -0.0001985   -0.0000877     0.0001180   -0.0000889 
   0.011552876     0.9038061   -0.3733497    -0.0003379   -0.0004437    -0.0000653   -0.0001457     0.0003120    0.0001043 
   0.011652901     0.8960260   -0.3688594    -0.0009087   -0.0004436     0.0000123    0.0000382     0.0003100    0.0004929 
   0.011752926     0.8881989   -0.3694565    -0.0010070    0.0004709     0.0000989   -0.0000961     0.0005571    0.0003197 
   0.011852951     0.9028874   -0.3831626    -0.0001744   -0.0004579    -0.0002280   -0.0002367     0.0004595   -0.0003335 
   0.011952976     0.8964098   -0.3757836     0.0004560    0.0004692     0.0000358    0.0003577     0.0002013    0.0003445 
   0.012053002     0.9021557   -0.3993257    -0.0000078    0.0005316     0.0001538    0.0001777     0.0000668    0.0000528 
   0.012153027     0.8955804   -0.3850880     0.0004455   -0.0004317     0.0002595    0.0000514     0.0001035    0.0002880 
   0.012253052     0.8859019   -0.3903289     0.0015925   -0.0004912    -0.0000505   -0.0001778     0.0004462   -0.0000307 
   0.012353077     0.8956302   -0.3804891    -0.0001013   -0.0006595     0.0001732    0.0000395     0.0001255   -0.0001699 
   0.012453102     0.8905704   -0.3816643     0.0003796    0.0001189     0.0000574    0.0001079     0.0005555   -0.0004510 
   0.012553127     0.8821392   -0.4103730     0.0001591    0.0003523    -0.0001228    0.0000679     0.0002364   -0.0001875 
   0.012653152     0.9002656   -0.3889780    -0.0001936   -0.0001311     0.0001222    0.0000116     0.0003492   -0.0000685 
   0.012753177     0.8906590   -0.3934299    -0.0007393   -0.0009850     0.0000525    0.0003206    -0.0000058    0.0001030 
   0.012853202     0.8933357   -0.3869121    -0.0002755    0.0000105    -0.0001497    0.0002856     0.0002467    0.0002847 
   0.012953227     0.8862454   -0.3991890    -0.0001635    0.0000966    -0.0001714    0.0000848     0.0005773    0.0001722 
   0.013053252     0.8728960   -0.4212228     0.0005618    0.0003599     0.0002008    0.0000922     0.0003016   -0.0003046 
   0.013153277     0.8717830   -0.4035473    -0.0006943    0.0004962    -0.0000761    0.0001756     0.0004718    0.0000908 
   0.013253302     0.8810210   -0.4173393    -0.0007748   -0.0007886     0.0000657    0.0001890     0.0004185   -0.0000389 
   0.013353327     0.8832958   -0.4082045     0.0001563    0.0008933    -0.0003215   -0.0001797     0.0005012    0.0000397 
   0.013453352     0.8850684   -0.4107264     0.0004908   -0.0003836    -0.0000389    0.0000436     0.0007617   -0.0001052 
   0.013553377     0.8616390   -0.4171635    -0.0005903   -0.0001779     0.0000904    0.0000882     0.0005499   -0.0000183 
   0.013653402     0.8716877   -0.4226664    -0.0002270    0.0002809    -0.0000619    0.0002070     0.0005563   -0.0000838 
   0.013753427     0.8767301   -0.4243438     0.0003211   -0.0002227     0.0001374    0.0000559     0.0000294    0.0004157 
   0.013853452     0.8835366   -0.4404022     0.0007332    0.0000422    -0.0001326   -0.0002755     0.0005461    0.0001410 
   0.013953477     0.8646231   -0.4200132     0.0004471   -0.0004691     0.0000502    0.0000349     0.0004078    0.0000106 
   0.014053502     0.8777814   -0.4478168     0.0001883    0.0001440     0.0001011    0.0000848     0.0000585    0.0001516 
   0.014153527     0.8753873   -0.4349309    -0.0000797    0.0006684    -0.0000208    0.0000165     0.0003701    0.0001894 
   0.014253552     0.8746613   -0.4498802     0.0011111    0.0001407     0.0000065    0.0001122     0.0004212   -0.0003925 
   0.014353577     0.8646039   -0.4448646    -0.0001434   -0.0005965     0.0000182    0.0001704     0.0004324    0.0000814 
   0.014453602     0.8510801   -0.4431111     0.0006609    0.0001805    -0.0000848   -0.0000297     0.0001182   -0.0003150 
   0.014553627     0.8567495   -0.4438953     0.0001263    0.0000112     0.0001702    0.0000501     0.0001819    0.0001740 
   0.014653652     0.8665600   -0.4516112     0.0010579    0.0001285     0.0001904    0.0000349     0.0002532   -0.0002846 
   0.014753677     0.8501254   -0.4537814     0.0004255    0.0005182     0.0003188   -0.0001511     0.0004933    0.0000607 
   0.014853702     0.8743392   -0.4404011    -0.0005172    0.0007376    -0.0000170   -0.0000539     0.0003594   -0.0000201 
   0.014953727     0.8446457   -0.4673226    -0.0001828   -0.0011516    -0.0000431   -0.0000107     0.0002663   -0.0001828 
   0.015053752     0.8549681   -0.4649413     0.0009375    0.0004505     0.0000217    0.0001690     0.0001942    0.0002028 
   0.015153777     0.8539973   -0.4617561     0.0002189   -0.0003672    -0.0005322   -0.0000990     0.0007156   -0.0004225 
   0.015253802     0.8613250   -0.4660001    -0.0000420   -0.0007663    -0.0000066    0.0001541     0.0002920   -0.0002704 
   0.015353827     0.8463703   -0.4766363    -0.0003785    0.0007754     0.0002976    0.0000755     0.0009658    0.0000303 
   0.015453852     0.8523546   -0.4703470    -0.0006676    0.0005013    -0.0001966    0.0000598     0.0005221    0.0000096 
   0.015553877     0.8431836   -0.4760378    -0.0003216   -0.0000398     0.0002518    0.0001480     0.0004032   -0.0001581 
   0.015653902     0.8500640   -0.4805830     0.0002872    0.0009719    -0.0001841    0.0000490     0.0001886    0.0000218 
