! 26-Feb-26 1:51:32 PM
! E:\VNA_MEASUREMENTS\CAL_S11\CAL_HEATEDLOAD_T1T1E4_2.S2P
! CHANNEL.1
! TR.MEASUREMENT
! CORRECTED.DATA
# GHZ S RI R 50.0
! FREQ.GHZ         S11RE         S11IM         S21RE         S21IM         S12RE         S12IM         S22RE         S22IM         
!; PortSelection: Port_12
   0.000050000     0.0836555    0.1139739     0.2830047    0.0895585    -0.0030081   -0.0036684    -0.0187202    0.0590357 
   0.000150025    -0.2020269    0.1065982     0.3290499    0.4378806    -0.0006861   -0.0001648    -0.0005763   -0.0038952 
   0.000250050     0.0919106   -0.0352927    -0.1271178    0.0391648    -0.0000396   -0.0005224     0.0003839   -0.0019549 
   0.000350075     1.0231920   -0.0470636     0.0023625   -0.0067611    -0.0004555   -0.0004837    -0.0019991   -0.0018479 
   0.000450100     0.9924732   -0.0348835    -0.0038448   -0.0053908    -0.0006571   -0.0000599     0.0000043   -0.0012163 
   0.000550125     0.9798698   -0.0359638    -0.0051416   -0.0089166    -0.0001865    0.0002641     0.0008390    0.0002725 
   0.000650150     1.0580740   -0.0448650    -0.0028122   -0.0061460    -0.0001116   -0.0012108     0.0004095   -0.0009364 
   0.000750175     1.0019450   -0.0403583    -0.0081361   -0.0052232    -0.0000624   -0.0003759    -0.0001679    0.0004381 
   0.000850200     0.9899366   -0.0807442    -0.0080413   -0.0088815     0.0005395   -0.0007041     0.0000686    0.0005529 
   0.000950225     1.0458730   -0.0237157    -0.0083931   -0.0051608     0.0005255   -0.0002030     0.0007909    0.0005754 
   0.001050250     1.0003500   -0.0331118    -0.0098235   -0.0034393     0.0007589   -0.0006562     0.0001601   -0.0002671 
   0.001150275     0.9806260   -0.0767426    -0.0124661   -0.0086081    -0.0004265   -0.0000894    -0.0002820    0.0011420 
   0.001250300     0.9557288   -0.0543138    -0.0069280   -0.0051368    -0.0002383   -0.0007915     0.0008586    0.0011928 
   0.001350325     1.0245180   -0.0498304    -0.0085365   -0.0046898     0.0006709    0.0010406    -0.0006200   -0.0000532 
   0.001450350     0.9737727   -0.0554656    -0.0091297   -0.0011054    -0.0001585   -0.0002242    -0.0000710    0.0002382 
   0.001550375     0.9354806   -0.0724593    -0.0113511    0.0007315    -0.0005655   -0.0002947     0.0013037   -0.0004002 
   0.001650400     0.9873144   -0.0420520    -0.0089942   -0.0022034    -0.0004652    0.0006031     0.0003174   -0.0001578 
   0.001750425     0.9858156   -0.0577308    -0.0088636   -0.0011963    -0.0002285   -0.0011307    -0.0003998    0.0011033 
   0.001850450     0.9471273   -0.0641682    -0.0072754    0.0044444    -0.0000780   -0.0003338    -0.0004034    0.0006846 
   0.001950475     1.0130080   -0.0460859    -0.0072445    0.0047440    -0.0000544   -0.0002570     0.0005007   -0.0006283 
   0.002050500     0.9779881   -0.0513347    -0.0063334   -0.0000077    -0.0008197    0.0003625     0.0005461    0.0003473 
   0.002150525     1.0007400   -0.0517098    -0.0043434   -0.0002461     0.0004132   -0.0000786     0.0004537    0.0003318 
   0.002250550     0.9552478   -0.0720702    -0.0079434    0.0023027    -0.0004720   -0.0001772    -0.0006789   -0.0004667 
   0.002350575     0.9439260   -0.0708423    -0.0046198    0.0021679     0.0002372   -0.0005893     0.0006209   -0.0001912 
   0.002450600     0.9871811   -0.1098023    -0.0039292    0.0000131    -0.0001371    0.0000274    -0.0000009    0.0004629 
   0.002550625     1.0085480   -0.0757966    -0.0019575    0.0013563     0.0006749    0.0002886    -0.0001363    0.0009360 
   0.002650650     0.9864739   -0.0437458    -0.0047925    0.0022039     0.0002318    0.0005871    -0.0000489    0.0009562 
   0.002750675     0.9823120   -0.0454503    -0.0018729    0.0037002    -0.0000264   -0.0003435    -0.0002914    0.0002704 
   0.002850700     1.0054410   -0.0513802    -0.0014526    0.0022962    -0.0000556    0.0004151    -0.0004238    0.0004287 
   0.002950725     0.9443052   -0.0969821    -0.0014760    0.0019426     0.0002991   -0.0006874     0.0012347   -0.0007388 
   0.003050750     0.9530182   -0.1083763    -0.0015260    0.0028299    -0.0000469    0.0000228    -0.0002074   -0.0002783 
   0.003150775     0.9761040   -0.1634623    -0.0041069    0.0014497    -0.0004501    0.0005483    -0.0001173    0.0001374 
   0.003250800     0.9682426   -0.0851266    -0.0009222    0.0018356    -0.0004363   -0.0002316     0.0003468    0.0003881 
   0.003350825     0.9635970   -0.0723777    -0.0018568    0.0043277     0.0002733   -0.0002074     0.0002211    0.0002855 
   0.003450850     0.9577946   -0.1436790    -0.0020165    0.0040946    -0.0000119    0.0001852    -0.0000455   -0.0005334 
   0.003550875     0.9474793   -0.1267343    -0.0022646    0.0020716     0.0000705   -0.0006801    -0.0000195   -0.0006941 
   0.003650900     0.9645370   -0.1273697    -0.0005348    0.0038389     0.0006736   -0.0000614     0.0003014    0.0000185 
   0.003750925     0.9512156   -0.1422832    -0.0032756    0.0006105    -0.0000062    0.0005526     0.0003599   -0.0000336 
   0.003850950     0.9689562   -0.1437389     0.0010044    0.0006034    -0.0001892    0.0003106    -0.0003367   -0.0002598 
   0.003950975     0.9588330   -0.1043185    -0.0006231    0.0018413     0.0000644   -0.0004633    -0.0000172   -0.0006698 
   0.004051001     0.9628472   -0.1628272    -0.0009090    0.0003349    -0.0002632   -0.0008145     0.0006816   -0.0002399 
   0.004151026     0.9889053   -0.1417772     0.0004401    0.0013956     0.0000156    0.0001700    -0.0001552    0.0000389 
   0.004251051     0.9660420   -0.1549240    -0.0004507    0.0022060    -0.0003035    0.0004059    -0.0004959   -0.0002181 
   0.004351076     0.9526432   -0.1184507    -0.0019485    0.0022029    -0.0001666    0.0005627     0.0010185    0.0005531 
   0.004451101     1.0070570   -0.1639414    -0.0036697    0.0013762     0.0002744   -0.0002574     0.0006142   -0.0007277 
   0.004551126     0.9912746   -0.1254962    -0.0015587    0.0006461     0.0002030   -0.0006375     0.0001212    0.0002373 
   0.004651151     0.9529696   -0.1664551     0.0002513   -0.0009294     0.0006796   -0.0007633     0.0011873    0.0003440 
   0.004751176     0.9548579   -0.1780753    -0.0017097   -0.0011852     0.0001188    0.0001407     0.0001151    0.0002789 
   0.004851201     0.9493958   -0.1453784     0.0003522    0.0006575    -0.0000243   -0.0002578     0.0001318    0.0009828 
   0.004951226     0.9580961   -0.1430314     0.0007421    0.0010480     0.0000424   -0.0000621     0.0003079   -0.0004725 
   0.005051251     0.9679323   -0.1801506    -0.0020142   -0.0003446    -0.0000754   -0.0000560     0.0004015   -0.0005574 
   0.005151276     0.9364843   -0.1534713    -0.0008007   -0.0007993    -0.0002048    0.0003130     0.0006199   -0.0002344 
   0.005251301     0.9567162   -0.1495590    -0.0003500    0.0006534     0.0001552   -0.0000939     0.0002249    0.0011413 
   0.005351326     0.9535928   -0.1762044    -0.0002152    0.0001641     0.0001610    0.0003679     0.0011904    0.0001543 
   0.005451351     0.9430869   -0.1950394    -0.0012835    0.0007643     0.0002306    0.0002257     0.0006079    0.0005630 
   0.005551376     0.9528652   -0.1880562     0.0000791    0.0013055    -0.0002636    0.0005404     0.0006725   -0.0000341 
   0.005651401     0.9641941   -0.1602798    -0.0014797   -0.0017604     0.0000581    0.0000183     0.0000439   -0.0004139 
   0.005751426     0.9112055   -0.1696447     0.0003857    0.0002094    -0.0002770   -0.0003070     0.0002977    0.0001403 
   0.005851451     0.9403521   -0.2067042    -0.0018160    0.0021563     0.0001778   -0.0003497    -0.0005196    0.0002057 
   0.005951476     0.9252381   -0.1720012    -0.0004379   -0.0002209    -0.0003526    0.0000210     0.0004600    0.0003830 
   0.006051501     0.9637100   -0.1913902     0.0002222    0.0006927    -0.0002973   -0.0000181     0.0000440    0.0000857 
   0.006151526     0.9421321   -0.1919929     0.0010445    0.0004099     0.0001002    0.0000188     0.0005096   -0.0008094 
   0.006251551     0.9374901   -0.1807713     0.0018342    0.0019871    -0.0001964    0.0001791     0.0007889    0.0003554 
   0.006351576     0.9419469   -0.2309345    -0.0001606    0.0005629     0.0003155   -0.0002644    -0.0001583   -0.0002488 
   0.006451601     0.9473649   -0.2081835    -0.0002232    0.0001394    -0.0002264    0.0000667     0.0001677    0.0007362 
   0.006551626     0.9309025   -0.2222339     0.0001826    0.0004465     0.0002598   -0.0000057    -0.0006655    0.0000323 
   0.006651651     0.9388084   -0.2186013     0.0002997    0.0011899    -0.0002159   -0.0002718     0.0002793   -0.0004422 
   0.006751676     0.9233551   -0.2175146    -0.0016708    0.0012842     0.0000405    0.0000047     0.0005259    0.0001147 
   0.006851701     0.9404991   -0.2399823     0.0005298    0.0000563     0.0005653    0.0000664     0.0000622    0.0002949 
   0.006951726     0.9123158   -0.2362975    -0.0002775    0.0003894     0.0002094    0.0001946     0.0006918    0.0008477 
   0.007051751     0.9402043   -0.2232325    -0.0000304   -0.0005336     0.0001897   -0.0002213     0.0008075   -0.0003181 
   0.007151776     0.9090027   -0.2268908     0.0005635   -0.0014610     0.0000662   -0.0002931     0.0008210    0.0002916 
   0.007251801     0.9633730   -0.2155859    -0.0001140   -0.0001081    -0.0000125    0.0001169     0.0000327    0.0000302 
   0.007351826     0.9202559   -0.2315767    -0.0021034    0.0011552    -0.0000306    0.0005987     0.0007120    0.0001664 
   0.007451851     0.9146997   -0.2398322    -0.0004444    0.0029467     0.0000083   -0.0002016     0.0007700   -0.0001169 
   0.007551876     0.9191343   -0.2412644     0.0005213   -0.0000661     0.0004872    0.0001278     0.0004207   -0.0003021 
   0.007651901     0.9198417   -0.2583473    -0.0004545    0.0019731     0.0000976    0.0001348     0.0002356    0.0001275 
   0.007751926     0.9258295   -0.2377099    -0.0010496    0.0003185     0.0002840   -0.0002660     0.0000439   -0.0001845 
   0.007851951     0.9071820   -0.2311022    -0.0016265   -0.0007521    -0.0000500   -0.0000898     0.0002307   -0.0001912 
   0.007951976     0.9228778   -0.2539217    -0.0002487    0.0006609    -0.0002836    0.0003531     0.0000690    0.0002394 
   0.008052001     0.9268125   -0.2712928    -0.0005014   -0.0001281     0.0000248   -0.0000223     0.0005512    0.0001648 
   0.008152026     0.9249561   -0.2490025    -0.0011248   -0.0000340    -0.0001120    0.0001185     0.0005338    0.0002214 
   0.008252051     0.8943653   -0.2397940     0.0003525   -0.0000551    -0.0000419    0.0001762     0.0002724    0.0002093 
   0.008352076     0.9130358   -0.2657754    -0.0001324    0.0007738     0.0000807    0.0001328     0.0006298   -0.0000043 
   0.008452101     0.9201252   -0.2471971     0.0003542   -0.0001703    -0.0000599   -0.0003353    -0.0001189   -0.0004225 
   0.008552126     0.9131572   -0.2721038    -0.0009846    0.0002031    -0.0001828   -0.0000884     0.0006580    0.0002729 
   0.008652151     0.9179947   -0.2672250    -0.0004450    0.0002182    -0.0002010    0.0000866     0.0006674    0.0004654 
   0.008752176     0.9170420   -0.2584591     0.0001188    0.0014651    -0.0000860    0.0004052    -0.0000745   -0.0005571 
   0.008852201     0.8837591   -0.2468449     0.0002266   -0.0000594    -0.0002152    0.0000634     0.0006326    0.0001750 
   0.008952226     0.9116051   -0.2821152     0.0002263    0.0008896     0.0001871    0.0000866     0.0006193   -0.0005168 
   0.009052251     0.9009339   -0.2696902     0.0002776   -0.0007457     0.0002377    0.0003378     0.0002306   -0.0001422 
   0.009152276     0.9106525   -0.2543430     0.0002232   -0.0005324    -0.0000366    0.0001639     0.0003999    0.0001865 
   0.009252301     0.9038907   -0.2674845     0.0001223    0.0001173    -0.0003082    0.0000606     0.0005487   -0.0003146 
   0.009352326     0.9068241   -0.2700821     0.0002713   -0.0003512    -0.0000391   -0.0000837     0.0000548   -0.0002000 
   0.009452351     0.9059102   -0.2910760    -0.0002291    0.0001525     0.0001680   -0.0000794     0.0005353   -0.0001349 
   0.009552376     0.9018425   -0.2797607    -0.0002957   -0.0004423     0.0000024   -0.0001782     0.0005284   -0.0000194 
   0.009652401     0.8773120   -0.2943361     0.0001236    0.0004552     0.0003009    0.0002100     0.0001122    0.0004110 
   0.009752426     0.8858150   -0.2980082    -0.0005339   -0.0004195    -0.0003593   -0.0000733     0.0003799    0.0001613 
   0.009852451     0.8889183   -0.2960939    -0.0012442    0.0000173     0.0001068    0.0001431     0.0000191   -0.0002129 
   0.009952476     0.8901785   -0.2996203     0.0000511   -0.0000269     0.0001586   -0.0001021     0.0002267   -0.0000555 
   0.010052501     0.8823611   -0.2946603     0.0001251    0.0019072    -0.0000282   -0.0003294     0.0002128   -0.0000801 
   0.010152526     0.8703277   -0.2810364     0.0001964   -0.0001465     0.0001152    0.0000160     0.0004479    0.0001237 
   0.010252551     0.8659246   -0.2926817    -0.0001535    0.0004208     0.0000938    0.0001502     0.0004506   -0.0001147 
   0.010352576     0.8903846   -0.3088087    -0.0000661   -0.0001878    -0.0000429    0.0003360     0.0005598    0.0003393 
   0.010452601     0.8875489   -0.3092438     0.0006793    0.0003081    -0.0001728   -0.0000518     0.0003618    0.0000101 
   0.010552626     0.8528512   -0.3044979     0.0004282   -0.0003679     0.0000182   -0.0000353     0.0003730    0.0002602 
   0.010652651     0.8726939   -0.3095446    -0.0002192    0.0002225     0.0000273   -0.0002170     0.0005353   -0.0000516 
   0.010752676     0.8738970   -0.3212384     0.0001438    0.0003249     0.0000655   -0.0002448     0.0002393   -0.0001003 
   0.010852701     0.8683362   -0.2933660    -0.0005778   -0.0000926     0.0000403   -0.0001419     0.0003443    0.0000302 
   0.010952726     0.8696280   -0.3176534     0.0003911   -0.0005230     0.0001840   -0.0005259     0.0000347   -0.0003482 
   0.011052751     0.8648314   -0.3231929    -0.0002110   -0.0001994     0.0001657    0.0001531     0.0006415    0.0001675 
   0.011152776     0.8656312   -0.3072149     0.0002330   -0.0007649    -0.0000033   -0.0001048     0.0003720   -0.0002186 
   0.011252801     0.8654132   -0.3237358     0.0000287   -0.0005627    -0.0003372    0.0000700     0.0001690    0.0002533 
   0.011352826     0.8597972   -0.3340409     0.0003170    0.0012009     0.0001335   -0.0000592     0.0005866   -0.0000582 
   0.011452851     0.8538265   -0.3286105     0.0004088    0.0001807     0.0000338    0.0000326     0.0004414    0.0002184 
   0.011552876     0.8449346   -0.3333254    -0.0005299    0.0010321     0.0003217   -0.0000252     0.0009073    0.0001055 
   0.011652901     0.8526006   -0.3485075    -0.0008100   -0.0004135    -0.0000939   -0.0001997     0.0001975    0.0005051 
   0.011752926     0.8361663   -0.3342060    -0.0005537    0.0000219     0.0000390    0.0002302     0.0002401    0.0000455 
   0.011852951     0.8428914   -0.3412860    -0.0003488   -0.0004183     0.0000853    0.0002214     0.0005147   -0.0001029 
   0.011952976     0.8544077   -0.3298522    -0.0004159    0.0005042     0.0001512   -0.0000286     0.0002770    0.0003562 
   0.012053002     0.8448709   -0.3540855     0.0002299    0.0003673     0.0000875   -0.0001220     0.0002730    0.0007409 
   0.012153027     0.8491775   -0.3482943     0.0005903   -0.0001253    -0.0001229   -0.0002669     0.0006996   -0.0001105 
   0.012253052     0.8294817   -0.3485349    -0.0002940    0.0017720     0.0000565    0.0000191     0.0005947    0.0001701 
   0.012353077     0.8251117   -0.3465092    -0.0008957    0.0009461     0.0002732    0.0001858     0.0004507   -0.0000847 
   0.012453102     0.8387285   -0.3409241    -0.0002368   -0.0005551    -0.0000391    0.0001520     0.0006448   -0.0003202 
   0.012553127     0.8204625   -0.3756686    -0.0006729    0.0000617     0.0001161    0.0000464     0.0001013   -0.0004205 
   0.012653152     0.8427073   -0.3518318     0.0002607   -0.0000819     0.0000696   -0.0001698     0.0001832   -0.0001480 
   0.012753177     0.8237584   -0.3503238    -0.0009941   -0.0004305    -0.0001697   -0.0000933    -0.0001381    0.0002980 
   0.012853202     0.8297005   -0.3407272     0.0002753   -0.0007316     0.0001086    0.0002465     0.0006335    0.0003296 
   0.012953227     0.8304021   -0.3512752    -0.0002909   -0.0007318    -0.0001047    0.0001335     0.0006116    0.0005447 
   0.013053252     0.8170040   -0.3697417    -0.0002418    0.0002866    -0.0000822   -0.0000462     0.0004138   -0.0000924 
   0.013153277     0.8196549   -0.3550830    -0.0004355    0.0009227    -0.0002375    0.0000871     0.0002799    0.0000101 
   0.013253302     0.8187895   -0.3585624    -0.0002623   -0.0008095     0.0001853    0.0002730     0.0002451   -0.0000070 
   0.013353327     0.8179846   -0.3614353    -0.0005015   -0.0007549     0.0000602   -0.0000094     0.0004638   -0.0000354 
   0.013453352     0.8244765   -0.3518325     0.0012763    0.0006504    -0.0000391    0.0000557     0.0004736    0.0001327 
   0.013553377     0.8027442   -0.3607953    -0.0000825   -0.0000748     0.0003729   -0.0000834     0.0002922    0.0000960 
   0.013653402     0.8095809   -0.3738029     0.0007974   -0.0002927     0.0001267    0.0000877     0.0005783   -0.0000042 
   0.013753427     0.8013616   -0.3828702     0.0000859   -0.0008433     0.0000432   -0.0001507     0.0000646    0.0001281 
   0.013853452     0.8029657   -0.3812152     0.0010964   -0.0006818    -0.0000862    0.0000614     0.0000911    0.0001192 
   0.013953477     0.7978365   -0.3567833     0.0000242    0.0007653     0.0000314   -0.0000835     0.0002298    0.0001391 
   0.014053502     0.8078024   -0.3878640     0.0002925   -0.0005988    -0.0000174   -0.0001181     0.0003472    0.0001159 
   0.014153527     0.8047734   -0.3772148    -0.0009885    0.0005152     0.0001138    0.0004723     0.0003768    0.0003449 
   0.014253552     0.8067855   -0.3804551     0.0002920   -0.0000120    -0.0000301   -0.0002765     0.0007777   -0.0005291 
   0.014353577     0.7934775   -0.3866207     0.0003075    0.0000541    -0.0000034   -0.0001288     0.0004642   -0.0001638 
   0.014453602     0.7886429   -0.3843988     0.0000420   -0.0001064    -0.0000030    0.0001796    -0.0000382    0.0004833 
   0.014553627     0.7874823   -0.3864155     0.0000997    0.0000669     0.0003411    0.0004031     0.0004204   -0.0000817 
   0.014653652     0.7961225   -0.3837088     0.0002740    0.0000726    -0.0000764   -0.0002757     0.0003200   -0.0001898 
   0.014753677     0.8013598   -0.3845570     0.0011147   -0.0003584    -0.0000893   -0.0000435     0.0001008    0.0002136 
   0.014853702     0.7898089   -0.3775649    -0.0004376   -0.0001430     0.0001398    0.0000693     0.0005275    0.0002213 
   0.014953727     0.7719054   -0.4020137    -0.0009029    0.0003998     0.0001034    0.0001389     0.0005837    0.0003965 
   0.015053752     0.7854567   -0.3983563    -0.0002808    0.0007110    -0.0002404   -0.0001450     0.0003183    0.0002951 
   0.015153777     0.7848607   -0.3978782     0.0002619   -0.0000545     0.0003110    0.0001026     0.0001939   -0.0001777 
   0.015253802     0.7709321   -0.3971542    -0.0002060    0.0010913     0.0002159   -0.0002165     0.0002688   -0.0003928 
   0.015353827     0.7691642   -0.3949376    -0.0002124    0.0008805    -0.0000668    0.0001487     0.0006647    0.0001719 
   0.015453852     0.7792605   -0.3920752    -0.0004730    0.0003030    -0.0002009    0.0002047     0.0007191    0.0001972 
   0.015553877     0.7712330   -0.3971107    -0.0003993   -0.0009005    -0.0000769   -0.0000420     0.0001436   -0.0000089 
   0.015653902     0.7622452   -0.3980694     0.0001733    0.0001501     0.0002353    0.0001517     0.0000206    0.0002052 
