! 26-Feb-26 1:50:34 PM
! E:\VNA_MEASUREMENTS\CAL_S11\CAL_LONGSHORT_T2T1E3_2.S2P
! CHANNEL.1
! TR.MEASUREMENT
! CORRECTED.DATA
# GHZ S RI R 50.0
! FREQ.GHZ         S11RE         S11IM         S21RE         S21IM         S12RE         S12IM         S22RE         S22IM         
!; PortSelection: Port_12
   0.000050000     0.9556049   -0.6275864    -0.3237241   -1.2672380     0.0028643    0.0047971    -0.0097191    0.0157700 
   0.000150025    -0.3034902    0.0025990     0.2444117   -0.0935928    -0.0006872    0.0008909     0.0038818   -0.0008315 
   0.000250050    -0.0327641    0.0972050     0.1674537    0.0014432     0.0003292    0.0001107     0.0006296   -0.0022793 
   0.000350075     0.9654563   -0.0403633     0.0046444   -0.0096946    -0.0016175   -0.0005699    -0.0011988    0.0000537 
   0.000450100     1.0013920   -0.0550988    -0.0018430   -0.0121362    -0.0006649   -0.0000726    -0.0009737   -0.0003578 
   0.000550125     0.9874662   -0.0698051    -0.0050490   -0.0143447     0.0001648   -0.0005478     0.0012984    0.0001615 
   0.000650150     0.9533322   -0.0211779    -0.0045832   -0.0108505     0.0008240   -0.0006360     0.0006436   -0.0007898 
   0.000750175     1.0476270   -0.0368069    -0.0038580   -0.0091156     0.0001629    0.0004885    -0.0004208   -0.0003903 
   0.000850200     1.0060830   -0.0644845    -0.0090482   -0.0088601     0.0000255   -0.0004658     0.0002596   -0.0004467 
   0.000950225     1.0342400   -0.0505187    -0.0088250   -0.0069788     0.0002802   -0.0004767    -0.0008588    0.0006736 
   0.001050250     1.0345680   -0.0156359    -0.0134020   -0.0021731     0.0004619    0.0007174     0.0005609   -0.0010963 
   0.001150275     1.0156740   -0.0941137    -0.0088621   -0.0036634     0.0003684   -0.0000268    -0.0004008    0.0002080 
   0.001250300     0.9476806   -0.0552008    -0.0142556   -0.0035276     0.0004852   -0.0014565     0.0002533    0.0006964 
   0.001350325     0.9943685   -0.0613113    -0.0112936   -0.0059911     0.0001227    0.0005035    -0.0005639    0.0008641 
   0.001450350     0.9948562   -0.0971478    -0.0061598   -0.0028120    -0.0003116    0.0002701     0.0005958    0.0014132 
   0.001550375     0.9612777   -0.0419689    -0.0071332   -0.0004831    -0.0005051   -0.0001740     0.0004247    0.0002004 
   0.001650400     1.0033780   -0.0888417    -0.0080432    0.0027892     0.0003700    0.0003062     0.0000048   -0.0008645 
   0.001750425     1.0163030   -0.0524949    -0.0075050    0.0037320     0.0003388   -0.0001248     0.0002325    0.0001256 
   0.001850450     0.9775091   -0.0726519    -0.0044022    0.0024906     0.0001394   -0.0000520    -0.0003568    0.0001741 
   0.001950475     0.9944333   -0.0377183    -0.0111308    0.0005179    -0.0000700   -0.0008201     0.0015466   -0.0008011 
   0.002050500     0.9732365   -0.0455721    -0.0101194    0.0055967    -0.0003512   -0.0005885     0.0006292   -0.0000874 
   0.002150525     1.0358290   -0.0559926    -0.0032194    0.0006710     0.0002956    0.0002817     0.0003288    0.0002999 
   0.002250550     1.0026020   -0.0325849    -0.0039083    0.0018489    -0.0006250    0.0000252     0.0004142   -0.0003360 
   0.002350575     0.9532164   -0.1093574    -0.0047767    0.0029863     0.0000654    0.0006563     0.0004134   -0.0001275 
   0.002450600     0.9788480   -0.1120288    -0.0063032    0.0013822     0.0000769   -0.0001582     0.0008739    0.0007981 
   0.002550625     1.0020140   -0.0783547    -0.0039357    0.0046580    -0.0006536    0.0010877     0.0009260    0.0004833 
   0.002650650     0.9955814   -0.0587850    -0.0021550    0.0001146     0.0011487   -0.0000026     0.0004001    0.0000998 
   0.002750675     0.9931352   -0.0569505    -0.0036839    0.0012508     0.0000184   -0.0006273     0.0001780   -0.0001250 
   0.002850700     1.0027940   -0.1021191    -0.0019468    0.0024492    -0.0002200    0.0007144    -0.0000164   -0.0007467 
   0.002950725     0.9779709   -0.0655463    -0.0035965    0.0037325     0.0002143    0.0005859     0.0003482    0.0004521 
   0.003050750     0.9721594   -0.0653646    -0.0023775    0.0049187     0.0002720   -0.0001369     0.0001023   -0.0003280 
   0.003150775     0.9573955   -0.1572860    -0.0032585    0.0019581     0.0003187   -0.0003879     0.0003998    0.0003324 
   0.003250800     1.0032140   -0.1194208    -0.0026958    0.0004812    -0.0002185   -0.0003141    -0.0002952    0.0003863 
   0.003350825     0.9714777   -0.1084673    -0.0010557    0.0026778    -0.0007237    0.0002604    -0.0008041    0.0007177 
   0.003450850     0.9437570   -0.1304266    -0.0058763    0.0010931    -0.0000591   -0.0000377     0.0000013   -0.0001144 
   0.003550875     0.9671476   -0.1332978    -0.0022559    0.0017284     0.0002108    0.0007336     0.0001664    0.0000113 
   0.003650900     0.9699397   -0.1092465    -0.0006157   -0.0008073     0.0000506    0.0000457     0.0011499   -0.0001879 
   0.003750925     0.9716267   -0.1020110     0.0018303    0.0011043    -0.0003124    0.0001815    -0.0001703   -0.0005625 
   0.003850950     0.9683852   -0.1217205    -0.0006360    0.0012445    -0.0001205   -0.0001067     0.0000219    0.0005350 
   0.003950975     1.0020400   -0.1206013     0.0006128    0.0020456    -0.0001090    0.0003661    -0.0002541   -0.0004409 
   0.004051001     0.9750203   -0.1650698     0.0016969    0.0008309     0.0001881    0.0001928     0.0005504    0.0000523 
   0.004151026     0.9888509   -0.1259732    -0.0015709    0.0017241    -0.0003165    0.0002273     0.0000145    0.0001064 
   0.004251051     1.0027960   -0.1079300     0.0002918    0.0040071     0.0001245   -0.0005492    -0.0001802    0.0001704 
   0.004351076     0.9909759   -0.1185718    -0.0030029    0.0013315     0.0009085    0.0004930     0.0005618    0.0010010 
   0.004451101     0.9775566   -0.1551069     0.0027548   -0.0009746     0.0005762   -0.0003198     0.0005398   -0.0002912 
   0.004551126     1.0194980   -0.1499916    -0.0010443    0.0030398     0.0003590   -0.0003229    -0.0002207    0.0006706 
   0.004651151     0.9713969   -0.1324270     0.0009512    0.0027338     0.0006231    0.0004528     0.0006534    0.0006659 
   0.004751176     0.9926232   -0.2010753    -0.0012180    0.0024309    -0.0002554   -0.0004247     0.0001118   -0.0006525 
   0.004851201     0.9574331   -0.1597472    -0.0006159    0.0013859     0.0001435    0.0001298     0.0002226    0.0003363 
   0.004951226     0.9639731   -0.1445988     0.0001544   -0.0000690     0.0006170   -0.0000799     0.0001394   -0.0001796 
   0.005051251     1.0000580   -0.1698902     0.0002798    0.0000021     0.0001752   -0.0000245     0.0011373   -0.0002613 
   0.005151276     0.9429697   -0.1690719    -0.0004536   -0.0004707     0.0000238    0.0005070     0.0004488   -0.0005777 
   0.005251301     0.9632375   -0.1652350    -0.0012888    0.0009703    -0.0002750   -0.0002699     0.0008122    0.0006194 
   0.005351326     0.9588248   -0.1337994    -0.0005993    0.0017050    -0.0004481    0.0004512     0.0006007   -0.0002725 
   0.005451351     0.9633148   -0.1643569    -0.0004795    0.0004688    -0.0000479   -0.0004743     0.0007084    0.0001917 
   0.005551376     0.9826500   -0.1970993    -0.0004293    0.0006734     0.0003976    0.0002922    -0.0001585   -0.0003118 
   0.005651401     0.9441429   -0.1458214    -0.0013371    0.0011807    -0.0003804   -0.0002667    -0.0000066   -0.0008321 
   0.005751426     0.9469742   -0.1846339     0.0001787    0.0005763     0.0001063   -0.0003042     0.0001722    0.0000169 
   0.005851451     0.9787855   -0.2063682    -0.0012331   -0.0009928     0.0004732    0.0002319    -0.0002600   -0.0003536 
   0.005951476     0.9674677   -0.1756077    -0.0016221    0.0011450    -0.0002765    0.0005637     0.0007636    0.0003630 
   0.006051501     0.9873517   -0.1976504     0.0007294    0.0005869    -0.0000539    0.0004123    -0.0003205    0.0000253 
   0.006151526     0.9453319   -0.1979299     0.0000873   -0.0006232     0.0003345    0.0005542     0.0007329   -0.0002220 
   0.006251551     0.9629447   -0.1921369    -0.0014274   -0.0006643    -0.0001193   -0.0003428     0.0006793    0.0001234 
   0.006351576     0.9681100   -0.2180536    -0.0000674    0.0008786    -0.0000274   -0.0000119     0.0003036    0.0005015 
   0.006451601     0.9650628   -0.1913170    -0.0016506    0.0012293    -0.0007484    0.0002048     0.0000504    0.0006459 
   0.006551626     0.9489151   -0.2027917     0.0003933   -0.0001657     0.0001892   -0.0005467    -0.0004057    0.0001483 
   0.006651651     0.9499969   -0.1913212     0.0011574    0.0004887    -0.0004846   -0.0002519     0.0001342   -0.0000178 
   0.006751676     0.9514418   -0.2075934    -0.0009539    0.0005165     0.0002007    0.0002951     0.0006779    0.0005286 
   0.006851701     0.9558921   -0.2215016    -0.0009211   -0.0003649     0.0004441    0.0000676     0.0001089    0.0000170 
   0.006951726     0.9448866   -0.2128744     0.0001521    0.0010291     0.0002667   -0.0000286     0.0005346    0.0008757 
   0.007051751     0.9451270   -0.2131610    -0.0009143   -0.0008791     0.0002965   -0.0000542     0.0003999    0.0002268 
   0.007151776     0.9414797   -0.2184454    -0.0004069    0.0008038    -0.0003079   -0.0000614     0.0004779    0.0004777 
   0.007251801     0.9796621   -0.2304265     0.0004454    0.0006877     0.0001777    0.0001012     0.0002026   -0.0001586 
   0.007351826     0.9601644   -0.2262712    -0.0006098    0.0001685    -0.0001967   -0.0003089     0.0010213    0.0004646 
   0.007451851     0.9463794   -0.2072896     0.0002125   -0.0003959    -0.0001299   -0.0002301     0.0006971   -0.0004246 
   0.007551876     0.9510260   -0.2366063    -0.0008273    0.0000060     0.0001069    0.0000415     0.0000533    0.0001307 
   0.007651901     0.9572905   -0.2595003     0.0000817    0.0019238     0.0004751    0.0000568     0.0001503    0.0002209 
   0.007751926     0.9545472   -0.2084440    -0.0000533    0.0007475     0.0002706    0.0001503    -0.0000417   -0.0006337 
   0.007851951     0.9658216   -0.2375310    -0.0003846   -0.0010448    -0.0000753   -0.0006251     0.0005568    0.0000346 
   0.007951976     0.9776995   -0.2613953    -0.0003307   -0.0001816    -0.0001036   -0.0000068     0.0003675    0.0003476 
   0.008052001     0.9514801   -0.2504602    -0.0011040    0.0003518    -0.0000022    0.0004265     0.0006072    0.0002683 
   0.008152026     0.9373389   -0.2676141    -0.0003544   -0.0004030    -0.0000469   -0.0000014     0.0003291    0.0001989 
   0.008252051     0.9381062   -0.2387635    -0.0003663   -0.0000479     0.0000812   -0.0002169     0.0008264    0.0003712 
   0.008352076     0.9545847   -0.2560583     0.0006808    0.0001956     0.0003479   -0.0001187     0.0004624    0.0000248 
   0.008452101     0.9510822   -0.2590216    -0.0000949    0.0003179     0.0001206   -0.0001418     0.0001840   -0.0006128 
   0.008552126     0.9595497   -0.2702611     0.0001018    0.0006017    -0.0003587   -0.0001959     0.0006167    0.0002158 
   0.008652151     0.9471269   -0.2807882    -0.0009965   -0.0006270     0.0004162    0.0002824     0.0002745    0.0000208 
   0.008752176     0.9666190   -0.2672282     0.0002128    0.0000317    -0.0000907    0.0000438     0.0000856   -0.0006150 
   0.008852201     0.9387726   -0.2583103    -0.0014828   -0.0001000    -0.0001040   -0.0002198     0.0005007    0.0002035 
   0.008952226     0.9601141   -0.2814839     0.0018636    0.0007063     0.0003085   -0.0003509     0.0005320   -0.0004962 
   0.009052251     0.9420894   -0.2873367     0.0006320   -0.0000489     0.0006440   -0.0000600     0.0007428   -0.0001768 
   0.009152276     0.9375430   -0.2746396     0.0010696   -0.0007127    -0.0001689   -0.0002818     0.0006521    0.0000680 
   0.009252301     0.9357828   -0.2729130    -0.0014660   -0.0004782     0.0000461   -0.0003888     0.0000466   -0.0000064 
   0.009352326     0.9358488   -0.2966575    -0.0003270    0.0005974    -0.0001920   -0.0002067     0.0000210    0.0002091 
   0.009452351     0.9470480   -0.2885545     0.0004782   -0.0014132     0.0000089   -0.0000277     0.0001329   -0.0000938 
   0.009552376     0.9413655   -0.3059692     0.0002270    0.0005949    -0.0004095   -0.0000271     0.0005521    0.0001506 
   0.009652401     0.9224625   -0.3008464     0.0012344   -0.0005355     0.0001162   -0.0004681     0.0001053    0.0002798 
   0.009752426     0.9389470   -0.3000572    -0.0011984   -0.0001054    -0.0000257    0.0004668     0.0002254    0.0002025 
   0.009852451     0.9271268   -0.3212219     0.0005599    0.0011606     0.0000617   -0.0001157     0.0001254    0.0002135 
   0.009952476     0.9241333   -0.3285416    -0.0000047    0.0000639    -0.0001402   -0.0000748    -0.0000972    0.0002991 
   0.010052501     0.9159560   -0.3140889     0.0002689    0.0009302    -0.0002292   -0.0002761    -0.0001212   -0.0000367 
   0.010152526     0.9167057   -0.3032883     0.0010747    0.0001970    -0.0002279   -0.0000137     0.0004307    0.0002083 
   0.010252551     0.9024386   -0.3168966     0.0014945   -0.0016311     0.0001471    0.0002485     0.0004335    0.0001579 
   0.010352576     0.9292447   -0.3464210    -0.0002494   -0.0000764    -0.0002461    0.0002585     0.0004890   -0.0000549 
   0.010452601     0.9306957   -0.3282719    -0.0008754    0.0008867    -0.0002686    0.0001561     0.0002900   -0.0001132 
   0.010552626     0.9070535   -0.3466352    -0.0007153    0.0001280     0.0000718   -0.0001476     0.0002978    0.0004679 
   0.010652651     0.9177697   -0.3401211    -0.0007045    0.0002892    -0.0000580    0.0003337     0.0009560   -0.0000529 
   0.010752676     0.9266231   -0.3578764     0.0004504   -0.0002035    -0.0000183   -0.0005749     0.0003311    0.0001728 
   0.010852701     0.9033744   -0.3385143     0.0000788   -0.0001127     0.0002294   -0.0000142     0.0001954    0.0001786 
   0.010952726     0.9093534   -0.3597074     0.0004945    0.0006155     0.0000164    0.0003895     0.0000239   -0.0001660 
   0.011052751     0.9059423   -0.3732359     0.0007918   -0.0003114    -0.0000118    0.0002843     0.0005532    0.0003025 
   0.011152776     0.9103450   -0.3719800    -0.0006249   -0.0006543    -0.0000410    0.0000133     0.0000370    0.0000255 
   0.011252801     0.8864655   -0.3716055     0.0003181   -0.0003288    -0.0001116   -0.0000644     0.0001133    0.0003098 
   0.011352826     0.9016035   -0.3933493    -0.0001669    0.0000838     0.0003071    0.0002266     0.0005113   -0.0001379 
   0.011452851     0.8941028   -0.3886331     0.0003439   -0.0001879    -0.0001132   -0.0004354     0.0004570    0.0000435 
   0.011552876     0.8904618   -0.3880460    -0.0002088    0.0005588    -0.0000828   -0.0002066     0.0004242    0.0001824 
   0.011652901     0.8873309   -0.4077885     0.0002405    0.0014670     0.0003607    0.0002205     0.0001576    0.0003085 
   0.011752926     0.8736294   -0.3924913    -0.0005375   -0.0000940     0.0001350    0.0001446     0.0004988    0.0001299 
   0.011852951     0.8801375   -0.4139951     0.0008159   -0.0013751    -0.0001827    0.0002081     0.0002238   -0.0000582 
   0.011952976     0.8798157   -0.3971369    -0.0005945   -0.0000268    -0.0000839    0.0002568     0.0002826    0.0008740 
   0.012053002     0.8782043   -0.4327975     0.0012001    0.0009665    -0.0001721   -0.0001101     0.0006654    0.0002799 
   0.012153027     0.8782199   -0.4335069     0.0004632    0.0000510     0.0000858    0.0000530     0.0007711   -0.0001309 
   0.012253052     0.8679138   -0.4334634    -0.0006166   -0.0000980     0.0002051    0.0001753     0.0005508   -0.0001282 
   0.012353077     0.8788319   -0.4205866    -0.0012915    0.0006307     0.0001316   -0.0002558     0.0004859    0.0000762 
   0.012453102     0.8667137   -0.4319187    -0.0002296    0.0003098    -0.0001210    0.0001860     0.0007661    0.0001696 
   0.012553127     0.8521134   -0.4548655    -0.0008395   -0.0003532    -0.0001069    0.0002110     0.0002967   -0.0002491 
   0.012653152     0.8729615   -0.4434505    -0.0012456   -0.0007453    -0.0001418   -0.0001393    -0.0000006   -0.0000993 
   0.012753177     0.8537780   -0.4489984     0.0001377    0.0003095    -0.0002206   -0.0002422     0.0002225   -0.0002504 
   0.012853202     0.8622951   -0.4327439    -0.0001803    0.0002253    -0.0000263    0.0001401     0.0003953    0.0004690 
   0.012953227     0.8481762   -0.4503418     0.0012017   -0.0004300    -0.0003596   -0.0000099     0.0006918    0.0002179 
   0.013053252     0.8337864   -0.4764600    -0.0013259   -0.0003646    -0.0000488    0.0000164     0.0003980    0.0000144 
   0.013153277     0.8492329   -0.4736450    -0.0000367   -0.0001075     0.0000453   -0.0001055     0.0003587    0.0002076 
   0.013253302     0.8401157   -0.4748462     0.0011433    0.0001665     0.0001332    0.0001229     0.0004980   -0.0001557 
   0.013353327     0.8270509   -0.4907706     0.0005073    0.0004037     0.0002095   -0.0000496     0.0004659   -0.0002982 
   0.013453352     0.8263459   -0.4851278     0.0001500    0.0000928    -0.0001382   -0.0001388     0.0004840   -0.0001364 
   0.013553377     0.8135957   -0.4912557    -0.0002150   -0.0003149     0.0000148   -0.0002544     0.0004577   -0.0001934 
   0.013653402     0.8091426   -0.5076623    -0.0006685   -0.0001203    -0.0001626    0.0000380     0.0001477    0.0000080 
   0.013753427     0.8078839   -0.5163316    -0.0001336    0.0003673    -0.0002257   -0.0002287     0.0003340    0.0003736 
   0.013853452     0.7894220   -0.5405698    -0.0005087   -0.0002069     0.0002274   -0.0002562     0.0003447   -0.0000742 
   0.013953477     0.7844974   -0.5093022     0.0002031    0.0003264     0.0001764   -0.0000661     0.0001761    0.0001163 
   0.014053502     0.7864395   -0.5575028     0.0008634   -0.0011398     0.0001582   -0.0001004     0.0001115   -0.0003222 
   0.014153527     0.7749967   -0.5530689     0.0002575    0.0010288     0.0001043    0.0001070     0.0007301    0.0003775 
   0.014253552     0.7783455   -0.5536051     0.0003256    0.0005305    -0.0001130   -0.0001165     0.0006060   -0.0005194 
   0.014353577     0.7419199   -0.5562086    -0.0004421   -0.0001950    -0.0001741   -0.0000562     0.0008164    0.0002466 
   0.014453602     0.7332246   -0.5707262    -0.0003861   -0.0000613     0.0002752    0.0001672     0.0003075   -0.0001193 
   0.014553627     0.7225754   -0.5786261     0.0001074    0.0010506     0.0000777   -0.0001029     0.0001155    0.0005266 
   0.014653652     0.7228448   -0.5931990     0.0002335   -0.0005432    -0.0002359   -0.0000737     0.0002166   -0.0001123 
   0.014753677     0.7025094   -0.6081733     0.0004963    0.0015766    -0.0001569   -0.0000534     0.0005854   -0.0000632 
   0.014853702     0.7033737   -0.6074218    -0.0004501   -0.0001133     0.0000873   -0.0000601     0.0004287    0.0001734 
   0.014953727     0.6626632   -0.6319746     0.0000902    0.0002142    -0.0000675   -0.0001415     0.0003633    0.0001096 
   0.015053752     0.6531250   -0.6388673     0.0005657    0.0002128     0.0000621   -0.0000279     0.0004107    0.0003039 
   0.015153777     0.6326419   -0.6501405    -0.0001884   -0.0001212     0.0000767    0.0000445     0.0003389    0.0000531 
   0.015253802     0.6017140   -0.6508263    -0.0007588   -0.0003200    -0.0001101   -0.0000058     0.0003294   -0.0004014 
   0.015353827     0.5776586   -0.6691322     0.0000136    0.0001067     0.0000816    0.0000904     0.0009395   -0.0000122 
   0.015453852     0.5525321   -0.6778151     0.0004584    0.0000617    -0.0000860    0.0001340     0.0005626    0.0002663 
   0.015553877     0.5166476   -0.6797286     0.0005211   -0.0003027     0.0000942   -0.0000290     0.0002939   -0.0001757 
   0.015653902     0.4829795   -0.6916623    -0.0003029    0.0000129     0.0000547   -0.0001101     0.0000520    0.0002068 
