! 26-Feb-26 1:47:03 PM
! E:\VNA_MEASUREMENTS\CAL_S11\CAL_OPEN_T1T1E8_1.S2P
! CHANNEL.1
! TR.MEASUREMENT
! CORRECTED.DATA
# GHZ S RI R 50.0
! FREQ.GHZ         S11RE         S11IM         S21RE         S21IM         S12RE         S12IM         S22RE         S22IM         
!; PortSelection: Port_12
   0.000050000     0.1997985    0.2374321     0.4623594   -0.1105431     0.0038640    0.0074570     0.0162605    0.0335038 
   0.000150025    -0.3803751   -0.2012961    -1.1742700   -0.3648574    -0.0008058   -0.0003951     0.0032971   -0.0047319 
   0.000250050    -0.5592171    0.1174080    -0.2806234   -0.1573776    -0.0002429   -0.0001201     0.0020951   -0.0013262 
   0.000350075     0.9743688   -0.0751001     0.0018063   -0.0098136    -0.0011105    0.0005190    -0.0027819   -0.0009555 
   0.000450100     0.9823081   -0.0397592    -0.0026670   -0.0092173     0.0003904   -0.0000920    -0.0000277   -0.0007538 
   0.000550125     0.9695213   -0.0106835    -0.0030075   -0.0093715    -0.0008990   -0.0010182     0.0003026   -0.0003212 
   0.000650150     0.9666526   -0.0613682    -0.0031560   -0.0079277    -0.0001561    0.0002582     0.0012691   -0.0013690 
   0.000750175     0.9541156   -0.0428865    -0.0047029   -0.0107996    -0.0000753    0.0004094     0.0004636   -0.0000366 
   0.000850200     1.0183430   -0.0564769    -0.0068614   -0.0080722     0.0008162   -0.0000634    -0.0006882   -0.0003207 
   0.000950225     0.9842307   -0.0840623    -0.0078185   -0.0070436    -0.0000873   -0.0002048     0.0002799    0.0013186 
   0.001050250     1.0024480   -0.0806989    -0.0120369   -0.0056598     0.0000181    0.0004802     0.0006605   -0.0004900 
   0.001150275     0.9788197    0.0198327    -0.0107627   -0.0062550    -0.0006395    0.0001176     0.0001109    0.0007622 
   0.001250300     0.9774469   -0.0137195    -0.0072592   -0.0033584     0.0001557    0.0003945     0.0010071   -0.0005977 
   0.001350325     1.0041850   -0.0606808    -0.0058427   -0.0044455     0.0010045   -0.0001004    -0.0007576   -0.0001339 
   0.001450350     1.0199520   -0.0531549    -0.0107912   -0.0029076    -0.0004253    0.0008396     0.0003307    0.0003774 
   0.001550375     0.9654517   -0.0505253    -0.0086042   -0.0019995     0.0003649    0.0012620     0.0004106    0.0003195 
   0.001650400     0.9992668   -0.0550589    -0.0076586    0.0024986    -0.0001428    0.0000637     0.0003713   -0.0000152 
   0.001750425     0.9742445   -0.0411902    -0.0110742    0.0003170     0.0007600   -0.0009225     0.0005308   -0.0001356 
   0.001850450     0.9515985   -0.0050443    -0.0108238    0.0026321     0.0001573    0.0004755     0.0003374    0.0002963 
   0.001950475     1.0328510   -0.0200325    -0.0087928   -0.0003790    -0.0002245    0.0003390     0.0009460   -0.0004513 
   0.002050500     0.9523613   -0.0009046    -0.0062987   -0.0020381     0.0005197    0.0003684     0.0015981   -0.0006288 
   0.002150525     1.0220220   -0.0075534    -0.0050886    0.0017590    -0.0012862    0.0002447     0.0006954    0.0005234 
   0.002250550     0.9590098   -0.0173730    -0.0049935    0.0048313     0.0004935    0.0004184    -0.0000517   -0.0000854 
   0.002350575     0.9616612   -0.0394480    -0.0082156    0.0067015     0.0001885    0.0004908     0.0004092   -0.0006819 
   0.002450600     0.9422843   -0.0373701    -0.0055878    0.0041400    -0.0002630    0.0002287     0.0002792   -0.0002727 
   0.002550625     0.9933888   -0.0150911    -0.0040238    0.0035655     0.0003942   -0.0000879    -0.0005764    0.0005136 
   0.002650650     0.9950619    0.0237293    -0.0049060    0.0014861     0.0000588    0.0002961     0.0004517    0.0004359 
   0.002750675     0.9763813    0.0301297    -0.0034293    0.0020607     0.0007160    0.0006409     0.0003052    0.0006177 
   0.002850700     1.0149900   -0.0409631    -0.0038993    0.0021296    -0.0001047   -0.0002388    -0.0001355   -0.0005439 
   0.002950725     0.9629784   -0.0077025    -0.0019078    0.0022550    -0.0006036   -0.0005631     0.0011974   -0.0004400 
   0.003050750     0.9688544   -0.0227200    -0.0023316    0.0023452     0.0002676    0.0000506     0.0002202   -0.0005810 
   0.003150775     0.9824929   -0.0550047    -0.0005770   -0.0019547     0.0000289    0.0005157     0.0000217    0.0003525 
   0.003250800     0.9517846   -0.0320154    -0.0011699    0.0011367    -0.0000543   -0.0005916     0.0002732    0.0003419 
   0.003350825     0.9658974   -0.0244604    -0.0022697    0.0003914     0.0003926   -0.0001121    -0.0002257    0.0005235 
   0.003450850     0.9553547   -0.0665142    -0.0040589    0.0039086     0.0002092   -0.0000688     0.0008157   -0.0009538 
   0.003550875     0.9429324   -0.0474437    -0.0021741    0.0032824     0.0005068    0.0003671     0.0007563   -0.0002422 
   0.003650900     0.9647709   -0.0096005    -0.0018624    0.0018514     0.0006899    0.0004534     0.0004637   -0.0001363 
   0.003750925     0.9355649   -0.0370935    -0.0002240    0.0023475     0.0004365    0.0004379     0.0003663    0.0004059 
   0.003850950     0.9613940   -0.0137672    -0.0001333    0.0042616    -0.0000622    0.0000036     0.0003176    0.0004823 
   0.003950975     0.9525241   -0.0280430    -0.0009893   -0.0010128     0.0013873   -0.0002661     0.0006105   -0.0006431 
   0.004051001     0.9691995   -0.0537932    -0.0013886    0.0022764    -0.0007334   -0.0009469     0.0008266    0.0001911 
   0.004151026     0.9741724   -0.0399160    -0.0023684    0.0008559     0.0003913    0.0002279    -0.0001679    0.0005394 
   0.004251051     0.9568180   -0.0113306    -0.0045172    0.0022137     0.0002200   -0.0003588    -0.0004041   -0.0003281 
   0.004351076     0.9712313    0.0155378    -0.0013381    0.0008749    -0.0003721   -0.0001043     0.0011178    0.0000614 
   0.004451101     0.9668978   -0.0289695     0.0001105   -0.0011481     0.0000855    0.0004919     0.0002500    0.0001874 
   0.004551126     0.9869752   -0.0310916     0.0000440    0.0011907    -0.0002909    0.0002706    -0.0002664    0.0006001 
   0.004651151     0.9700258   -0.0316609     0.0012114    0.0016846     0.0005980    0.0004564    -0.0001088    0.0004071 
   0.004751176     0.9861329   -0.0588467     0.0013882    0.0000311     0.0000231    0.0002422     0.0000366   -0.0002802 
   0.004851201     0.9393808   -0.0273882     0.0028596    0.0013690    -0.0000019    0.0001751    -0.0000107    0.0002644 
   0.004951226     0.9646946   -0.0233854    -0.0013843    0.0010898    -0.0004142   -0.0001672     0.0003659   -0.0002812 
   0.005051251     0.9836709   -0.0320234    -0.0000002    0.0007197     0.0000119    0.0001935    -0.0000524   -0.0008244 
   0.005151276     0.9515705   -0.0203898    -0.0010414    0.0010861     0.0004196    0.0003383     0.0003355   -0.0003627 
   0.005251301     0.9713746   -0.0159827     0.0009044    0.0010985    -0.0001575    0.0007649     0.0005330    0.0006695 
   0.005351326     0.9440011   -0.0151534    -0.0007866    0.0017053     0.0002702   -0.0000437     0.0011136   -0.0001601 
   0.005451351     0.9556514   -0.0293423     0.0003334    0.0010231    -0.0002523    0.0000172     0.0011687   -0.0003158 
   0.005551376     0.9895410   -0.0566615     0.0002643    0.0002622    -0.0001068    0.0004645     0.0009866   -0.0001731 
   0.005651401     0.9401248   -0.0460392     0.0001338   -0.0006334     0.0002332    0.0003054     0.0003416   -0.0000837 
   0.005751426     0.9416275   -0.0193136    -0.0000039    0.0005089     0.0000981    0.0006883     0.0006420   -0.0005657 
   0.005851451     0.9813730   -0.0499730     0.0009224    0.0020097    -0.0004014   -0.0000321    -0.0001908   -0.0001243 
   0.005951476     0.9628850   -0.0356560     0.0004278   -0.0023551    -0.0003021    0.0000989     0.0005200    0.0002320 
   0.006051501     0.9690689   -0.0382394    -0.0003819    0.0013999    -0.0003546   -0.0002665    -0.0002452    0.0006272 
   0.006151526     0.9554916   -0.0503377    -0.0012780    0.0023844     0.0002433    0.0003541     0.0006476   -0.0001145 
   0.006251551     0.9533216   -0.0159530    -0.0002064    0.0011171    -0.0000328   -0.0005101     0.0002792    0.0003402 
   0.006351576     0.9632539   -0.0499067    -0.0007921    0.0006793     0.0004645   -0.0001605     0.0002246   -0.0004869 
   0.006451601     0.9575447   -0.0241773    -0.0002276    0.0013488    -0.0005133    0.0002561    -0.0003130    0.0001779 
   0.006551626     0.9609846   -0.0446073     0.0001687   -0.0004378     0.0002398    0.0000416    -0.0009814   -0.0002296 
   0.006651651     0.9484940   -0.0438202    -0.0018113   -0.0006900    -0.0002103    0.0003167    -0.0000037    0.0001008 
   0.006751676     0.9478410   -0.0535125    -0.0005323   -0.0000004     0.0002814    0.0006334     0.0005758    0.0000665 
   0.006851701     0.9678953   -0.0488855    -0.0018278    0.0026696    -0.0001037   -0.0007017    -0.0002451    0.0003954 
   0.006951726     0.9485936   -0.0437140     0.0002587   -0.0004589     0.0001453   -0.0003218     0.0008020    0.0010706 
   0.007051751     0.9712279   -0.0256800    -0.0010990   -0.0010206     0.0001602    0.0001509     0.0006931   -0.0002975 
   0.007151776     0.9466687   -0.0205651    -0.0001132   -0.0025197     0.0003019    0.0000493     0.0004008    0.0000724 
   0.007251801     0.9713874   -0.0011177     0.0001942   -0.0010553     0.0008470    0.0002826     0.0001000   -0.0005844 
   0.007351826     0.9585242   -0.0462981     0.0003380   -0.0003093    -0.0001638   -0.0004850     0.0009357    0.0001674 
   0.007451851     0.9708045   -0.0314920     0.0001221   -0.0000348    -0.0000130    0.0002664     0.0006996   -0.0005723 
   0.007551876     0.9532414   -0.0246105     0.0019010   -0.0004855     0.0002692   -0.0002302     0.0004472   -0.0004004 
   0.007651901     0.9789172   -0.0776438     0.0010548   -0.0002646     0.0001757   -0.0001355     0.0000769    0.0003322 
   0.007751926     0.9444112   -0.0363771    -0.0000116   -0.0011710    -0.0001896   -0.0001440     0.0001221   -0.0005696 
   0.007851951     0.9661717   -0.0358871     0.0006345   -0.0001960    -0.0000397   -0.0001473     0.0003366   -0.0004068 
   0.007951976     0.9655826   -0.0449504     0.0000532    0.0024368     0.0000597   -0.0002168     0.0003311   -0.0001075 
   0.008052001     0.9628217   -0.0386213    -0.0001730    0.0014626    -0.0003752   -0.0002954     0.0003251   -0.0000045 
   0.008152026     0.9570917   -0.0302498    -0.0014834    0.0013290    -0.0003228   -0.0000297     0.0002303    0.0000874 
   0.008252051     0.9357595   -0.0302640     0.0013822    0.0017184     0.0004863    0.0001715     0.0004017    0.0007475 
   0.008352076     0.9575716   -0.0483891    -0.0000198   -0.0003309     0.0002729    0.0000431     0.0005351   -0.0001705 
   0.008452101     0.9487512   -0.0297994     0.0005982    0.0012480     0.0002626    0.0001747     0.0004588   -0.0001410 
   0.008552126     0.9549258   -0.0336032    -0.0013071    0.0004490    -0.0001333   -0.0000763     0.0001223    0.0007396 
   0.008652151     0.9614621   -0.0300932     0.0000085   -0.0001154    -0.0003683   -0.0003326     0.0001009    0.0001054 
   0.008752176     0.9649804   -0.0243427     0.0006496    0.0022629     0.0000366   -0.0004017    -0.0002928   -0.0004001 
   0.008852201     0.9531647   -0.0179601     0.0004041    0.0005567    -0.0003082    0.0001685     0.0003921    0.0000261 
   0.008952226     0.9645607   -0.0323481    -0.0002043   -0.0001520     0.0001131   -0.0005565     0.0003460   -0.0004708 
   0.009052251     0.9660139   -0.0378859     0.0003846    0.0010251    -0.0001987   -0.0002846     0.0007433    0.0000667 
   0.009152276     0.9506063   -0.0303707    -0.0004065   -0.0008157     0.0000747    0.0001318     0.0004170   -0.0000574 
   0.009252301     0.9418172   -0.0400602    -0.0002226   -0.0001688     0.0002382    0.0004260     0.0001997   -0.0001725 
   0.009352326     0.9673251   -0.0316018    -0.0001477   -0.0007086     0.0004611    0.0000228     0.0005257   -0.0002197 
   0.009452351     0.9684222   -0.0372674    -0.0003892   -0.0004361     0.0000813   -0.0002450     0.0004152    0.0004580 
   0.009552376     0.9699632   -0.0339924     0.0002975   -0.0016474    -0.0001218   -0.0000240     0.0002976    0.0000579 
   0.009652401     0.9468048   -0.0444466    -0.0004144    0.0008554     0.0003415   -0.0001641     0.0003172    0.0000063 
   0.009752426     0.9487227   -0.0343782    -0.0004564   -0.0000497     0.0001950   -0.0003638     0.0003895    0.0004825 
   0.009852451     0.9640743   -0.0321266     0.0004178    0.0003155    -0.0001030   -0.0003843     0.0003876   -0.0000692 
   0.009952476     0.9544859   -0.0506985    -0.0008045    0.0004159     0.0000429    0.0001532     0.0002360    0.0000901 
   0.010052501     0.9420701   -0.0515867    -0.0014235   -0.0007931     0.0003835    0.0003591     0.0000922   -0.0001140 
   0.010152526     0.9521250   -0.0264351     0.0006468    0.0003646    -0.0000411    0.0001961     0.0003950   -0.0000490 
   0.010252551     0.9546841   -0.0312173     0.0003699   -0.0005492    -0.0000186    0.0001116     0.0001195   -0.0001218 
   0.010352576     0.9662731   -0.0393054    -0.0008476    0.0007220     0.0003308    0.0001095     0.0002833    0.0002989 
   0.010452601     0.9578650   -0.0196936     0.0014805   -0.0008593    -0.0001114   -0.0004866     0.0006684   -0.0001302 
   0.010552626     0.9493286   -0.0375008     0.0002255   -0.0005443     0.0001572   -0.0003030     0.0001408    0.0002133 
   0.010652651     0.9614089   -0.0481203     0.0001527   -0.0015819     0.0002646    0.0001753     0.0003545   -0.0000631 
   0.010752676     0.9681504   -0.0464915     0.0007279   -0.0002906    -0.0000784    0.0000185     0.0004219   -0.0003629 
   0.010852701     0.9739110   -0.0338112     0.0000215    0.0003432     0.0001516    0.0001383     0.0001945    0.0003909 
   0.010952726     0.9586698   -0.0319487    -0.0002468    0.0008548    -0.0000300   -0.0001529    -0.0002977   -0.0006532 
   0.011052751     0.9721901   -0.0592626    -0.0010433   -0.0008932    -0.0001232    0.0002462     0.0005502    0.0002578 
   0.011152776     0.9643422   -0.0450884     0.0008749    0.0000196    -0.0004758    0.0000476    -0.0000665    0.0002679 
   0.011252801     0.9462503   -0.0407482     0.0006567   -0.0000622     0.0001086    0.0002559     0.0002440    0.0002145 
   0.011352826     0.9735864   -0.0556415     0.0000893   -0.0002970     0.0003911   -0.0002214     0.0006868    0.0002181 
   0.011452851     0.9481888   -0.0464302     0.0003958   -0.0004858     0.0003348    0.0000316     0.0003118    0.0000713 
   0.011552876     0.9391967   -0.0505293     0.0004847   -0.0005148     0.0001300    0.0002393     0.0005197   -0.0001182 
   0.011652901     0.9689549   -0.0461301     0.0012512   -0.0005306    -0.0000176   -0.0001228     0.0001591    0.0007028 
   0.011752926     0.9387586   -0.0415677     0.0001270   -0.0009640     0.0001712   -0.0002334     0.0002087   -0.0001251 
   0.011852951     0.9542438   -0.0571251    -0.0010627   -0.0010565    -0.0001570   -0.0002229    -0.0000398   -0.0001324 
   0.011952976     0.9474056   -0.0479515     0.0000511    0.0007952    -0.0002714   -0.0001647     0.0000181    0.0002544 
   0.012053002     0.9533712   -0.0674240     0.0005371    0.0002860     0.0002253    0.0000254     0.0001394    0.0001836 
   0.012153027     0.9509479   -0.0690085     0.0001581    0.0001157    -0.0001370    0.0001033     0.0006154   -0.0002872 
   0.012253052     0.9419609   -0.0581845    -0.0000039   -0.0006740     0.0001905   -0.0001403     0.0006268    0.0001666 
   0.012353077     0.9612601   -0.0442676     0.0002377   -0.0003596    -0.0002970    0.0001579     0.0006271    0.0003379 
   0.012453102     0.9628143   -0.0373664     0.0000561   -0.0005130     0.0000395   -0.0002340     0.0007106    0.0001778 
   0.012553127     0.9673883   -0.0544345     0.0000566   -0.0001797     0.0001361    0.0002276     0.0004540   -0.0004902 
   0.012653152     0.9613037   -0.0297631    -0.0007399    0.0013434     0.0002401    0.0001048     0.0003723    0.0001126 
   0.012753177     0.9553106   -0.0391848     0.0001664   -0.0015324    -0.0001377   -0.0004223     0.0001867    0.0002239 
   0.012853202     0.9561681   -0.0282811    -0.0008400   -0.0001241     0.0000118    0.0003016     0.0002770    0.0002500 
   0.012953227     0.9552547   -0.0454510    -0.0006756   -0.0001637     0.0000975   -0.0001360     0.0005544    0.0003216 
   0.013053252     0.9624702   -0.0658998     0.0001608    0.0004899    -0.0000967   -0.0000181     0.0005063   -0.0001222 
   0.013153277     0.9611894   -0.0418708    -0.0015542    0.0009152    -0.0001010   -0.0000051     0.0002593   -0.0000285 
   0.013253302     0.9546349   -0.0386903    -0.0000548   -0.0010639     0.0000514    0.0001796     0.0003394   -0.0003221 
   0.013353327     0.9558098   -0.0478509    -0.0001432    0.0000933     0.0001379    0.0001374     0.0004452   -0.0001816 
   0.013453352     0.9583098   -0.0327082     0.0003758    0.0002533    -0.0000296    0.0003352     0.0005483   -0.0003271 
   0.013553377     0.9444363   -0.0404570    -0.0002288   -0.0013111     0.0000949   -0.0000868     0.0000916   -0.0003154 
   0.013653402     0.9553881   -0.0478630    -0.0000490    0.0012301     0.0002413    0.0000291     0.0005195   -0.0000288 
   0.013753427     0.9600432   -0.0525920     0.0001084   -0.0001157     0.0001587    0.0000188     0.0002721    0.0005316 
   0.013853452     0.9659847   -0.0676236     0.0009728    0.0000583     0.0000630   -0.0001996     0.0003433   -0.0000188 
   0.013953477     0.9512578   -0.0492056    -0.0001249    0.0004370     0.0000011    0.0003082     0.0005009    0.0003954 
   0.014053502     0.9618120   -0.0551003    -0.0004860   -0.0010251    -0.0001645    0.0000435    -0.0001642   -0.0001354 
   0.014153527     0.9596193   -0.0367657    -0.0003048   -0.0008076    -0.0001877   -0.0000132     0.0004212   -0.0000773 
   0.014253552     0.9594261   -0.0432127     0.0008289   -0.0005093     0.0004444    0.0001153     0.0006655   -0.0003328 
   0.014353577     0.9431993   -0.0531072     0.0001972    0.0000473    -0.0002208    0.0002865     0.0006543    0.0002118 
   0.014453602     0.9433078   -0.0570357    -0.0002059    0.0004917    -0.0000384    0.0005244     0.0000644   -0.0000923 
   0.014553627     0.9556150   -0.0544074    -0.0013418    0.0007527    -0.0002185   -0.0000515     0.0005245    0.0000787 
   0.014653652     0.9648958   -0.0490565    -0.0004240   -0.0001493    -0.0000077    0.0000852     0.0002598   -0.0004035 
   0.014753677     0.9405671   -0.0539060    -0.0000430   -0.0001503     0.0000136   -0.0000335     0.0001062   -0.0002563 
   0.014853702     0.9564025   -0.0500766     0.0003969   -0.0004672    -0.0004775    0.0003675     0.0005370   -0.0000319 
   0.014953727     0.9574509   -0.0637517    -0.0001932   -0.0004658    -0.0003128   -0.0003789     0.0005860   -0.0001073 
   0.015053752     0.9473619   -0.0510806    -0.0009075    0.0015411    -0.0000718    0.0002090     0.0004477    0.0001294 
   0.015153777     0.9538206   -0.0434948    -0.0010171   -0.0001268     0.0000617   -0.0002273     0.0005291   -0.0002877 
   0.015253802     0.9524211   -0.0435420     0.0000353    0.0003944    -0.0002841   -0.0003268     0.0003288    0.0001031 
   0.015353827     0.9601800   -0.0454702     0.0009233   -0.0007679     0.0002757    0.0003035     0.0005236   -0.0002396 
   0.015453852     0.9624828   -0.0585656     0.0000109   -0.0004525    -0.0001505    0.0000820    -0.0001342    0.0000449 
   0.015553877     0.9585071   -0.0543429     0.0001709    0.0005153     0.0001000   -0.0001026     0.0003431   -0.0000956 
   0.015653902     0.9564733   -0.0531259     0.0004632   -0.0004153     0.0001866    0.0001973     0.0006161    0.0000904 
