! 26-Feb-26 1:44:24 PM
! E:\VNA_MEASUREMENTS\CAL_S11\CAL_HEATEDLOAD_T1T1E4_1.S2P
! CHANNEL.1
! TR.MEASUREMENT
! CORRECTED.DATA
# GHZ S RI R 50.0
! FREQ.GHZ         S11RE         S11IM         S21RE         S21IM         S12RE         S12IM         S22RE         S22IM         
!; PortSelection: Port_12
   0.000050000     0.2171983    0.3248889     0.2304814   -0.2864198     0.0047515    0.0034206     0.0008264    0.0025391 
   0.000150025     0.3447660    0.3009273    -1.0088780    1.2754630     0.0007509    0.0004735     0.0018983    0.0028662 
   0.000250050    -0.4029071    0.5808449    -0.0186951   -0.0383106    -0.0001514    0.0000974     0.0007807   -0.0018036 
   0.000350075     1.0228570   -0.0358244     0.0025443   -0.0034922    -0.0007208    0.0000891    -0.0010656   -0.0035807 
   0.000450100     1.0149770   -0.0161102    -0.0020856   -0.0113713    -0.0005561    0.0032902    -0.0000739   -0.0015564 
   0.000550125     0.9788924   -0.0618329    -0.0040765   -0.0117876     0.0000286   -0.0000308     0.0005958   -0.0000156 
   0.000650150     0.9988249   -0.0238677    -0.0071025   -0.0116031     0.0009107    0.0006805     0.0006345   -0.0012964 
   0.000750175     1.0272840   -0.0770981    -0.0066755   -0.0059780     0.0002639   -0.0001847     0.0002033    0.0007878 
   0.000850200     1.0069190   -0.0474896    -0.0085158   -0.0081270     0.0007201    0.0006144    -0.0009218    0.0004685 
   0.000950225     1.0055280   -0.0623280    -0.0101483   -0.0051640     0.0007603   -0.0001000     0.0002287    0.0015061 
   0.001050250     0.9887161   -0.0887513    -0.0113588   -0.0061170    -0.0000648   -0.0000149    -0.0004727   -0.0006016 
   0.001150275     0.9940224   -0.0630013    -0.0086441   -0.0010574    -0.0003725   -0.0004462     0.0010335    0.0014093 
   0.001250300     0.9621207   -0.0424371    -0.0100739   -0.0052568     0.0006469   -0.0003646    -0.0007187    0.0004425 
   0.001350325     1.0180270   -0.0673984    -0.0032137   -0.0047083     0.0006551    0.0008466    -0.0008524    0.0003186 
   0.001450350     0.9755014   -0.0634579    -0.0085876   -0.0035855    -0.0006901   -0.0006753     0.0004684    0.0006483 
   0.001550375     0.9575442   -0.0796918    -0.0128147   -0.0030265     0.0000586    0.0002529     0.0007438    0.0012869 
   0.001650400     0.9869556   -0.0220320    -0.0094488    0.0001333     0.0009481   -0.0005991    -0.0005366   -0.0007570 
   0.001750425     0.9759513   -0.0708228    -0.0081810    0.0010317    -0.0000359   -0.0002955     0.0001348    0.0001967 
   0.001850450     1.0052230   -0.0571383    -0.0042087    0.0018728     0.0000466   -0.0002873     0.0006070    0.0009350 
   0.001950475     0.9749987    0.0137815    -0.0064794   -0.0002938     0.0000018    0.0000557     0.0007811   -0.0006194 
   0.002050500     0.9575232   -0.0610931    -0.0081286    0.0013457     0.0002208   -0.0000983     0.0014198   -0.0003870 
   0.002150525     0.9822451   -0.0908035    -0.0053278    0.0028552    -0.0008698    0.0004423     0.0004188   -0.0001783 
   0.002250550     0.9777928   -0.0680674    -0.0043946    0.0040336     0.0005258    0.0000347     0.0000048   -0.0004846 
   0.002350575     0.9806183   -0.0875552    -0.0064580    0.0035398     0.0008456   -0.0000624     0.0010718    0.0000787 
   0.002450600     0.9728410   -0.0863682    -0.0039258   -0.0008949    -0.0001944    0.0001480     0.0000100    0.0001468 
   0.002550625     0.9799833   -0.0700564    -0.0044999    0.0045982    -0.0000552    0.0001642    -0.0001255    0.0008015 
   0.002650650     0.9885658   -0.0801158    -0.0046525    0.0001398     0.0001030   -0.0004781     0.0001301    0.0007233 
   0.002750675     0.9968439   -0.0948059    -0.0042164    0.0052370     0.0003102    0.0003375    -0.0001996    0.0002446 
   0.002850700     1.0195670   -0.1214272    -0.0025792    0.0077515    -0.0000742   -0.0001922    -0.0004285   -0.0002044 
   0.002950725     0.9615861   -0.0976737    -0.0027896    0.0012855    -0.0005116    0.0005661     0.0003536    0.0004857 
   0.003050750     0.9600530   -0.1057794    -0.0035680    0.0008671    -0.0003305   -0.0001473     0.0001386   -0.0001761 
   0.003150775     0.9691517   -0.1530720    -0.0013465    0.0014144     0.0001422    0.0000666    -0.0002592    0.0003034 
   0.003250800     0.9808763   -0.1219513    -0.0010514    0.0015469    -0.0000788    0.0001019     0.0003082   -0.0002705 
   0.003350825     0.9866788   -0.1023046    -0.0008848    0.0035329     0.0001286    0.0001853     0.0001772    0.0001218 
   0.003450850     0.9368737   -0.1479411    -0.0027488    0.0031845    -0.0004538    0.0001400     0.0000748   -0.0010713 
   0.003550875     0.9632806   -0.1459962    -0.0009743    0.0011952     0.0007002   -0.0006307     0.0000992   -0.0001248 
   0.003650900     0.9717438   -0.1087139    -0.0014948    0.0006057    -0.0000518    0.0001045     0.0005705   -0.0001798 
   0.003750925     0.9634317   -0.1542703    -0.0009489    0.0000825    -0.0001443    0.0002135     0.0003308   -0.0004566 
   0.003850950     0.9499207   -0.1550770    -0.0010979    0.0028351    -0.0004100    0.0002627    -0.0004045   -0.0002566 
   0.003950975     0.9752167   -0.1152830    -0.0003537    0.0019940     0.0002330    0.0000657     0.0003202   -0.0006882 
   0.004051001     0.9471485   -0.1507202    -0.0024311    0.0004330     0.0003267    0.0005874     0.0002305    0.0003297 
   0.004151026     1.0001710   -0.1395404    -0.0001020    0.0013980    -0.0000761    0.0004199     0.0003319    0.0000740 
   0.004251051     0.9634780   -0.1209517    -0.0003373    0.0008021    -0.0001911    0.0000434    -0.0002441   -0.0000181 
   0.004351076     0.9918285   -0.1113067    -0.0005456    0.0006714    -0.0000173   -0.0000521     0.0013357    0.0002475 
   0.004451101     0.9636123   -0.1771162    -0.0006964    0.0007989    -0.0004200    0.0002362     0.0002451   -0.0003509 
   0.004551126     0.9896630   -0.1444253    -0.0010267   -0.0009120    -0.0003510    0.0002381    -0.0001190    0.0005542 
   0.004651151     0.9349000   -0.1708139     0.0009010    0.0013585    -0.0006716    0.0008236     0.0003832    0.0007193 
   0.004751176     0.9626975   -0.1802596     0.0003518    0.0014101     0.0000472   -0.0001372     0.0002478   -0.0002762 
   0.004851201     0.9359065   -0.1605493    -0.0014195    0.0024450     0.0001366    0.0000069     0.0008026    0.0007852 
   0.004951226     0.9646876   -0.1446289    -0.0014414    0.0016866     0.0003579    0.0003680     0.0000799   -0.0000230 
   0.005051251     0.9821135   -0.1743533     0.0010111   -0.0005143     0.0005214   -0.0000826     0.0009464   -0.0002880 
   0.005151276     0.9537769   -0.1405188    -0.0007450    0.0014405     0.0004386   -0.0000973     0.0000136    0.0003965 
   0.005251301     0.9399817   -0.1661220    -0.0006511   -0.0014026     0.0006067   -0.0000819     0.0006670    0.0013044 
   0.005351326     0.9533331   -0.1488009     0.0013800    0.0038329     0.0000499    0.0005391     0.0005147    0.0002783 
   0.005451351     0.9494075   -0.1783231    -0.0000280    0.0006542     0.0001003   -0.0003777     0.0005875    0.0001140 
   0.005551376     0.9666455   -0.1946504    -0.0009852    0.0014882     0.0002957    0.0001880     0.0004623   -0.0002345 
   0.005651401     0.9630681   -0.1559555     0.0010214    0.0012202     0.0000536   -0.0003699    -0.0003649   -0.0003276 
   0.005751426     0.9404277   -0.1861302    -0.0004079   -0.0003776    -0.0000583   -0.0002137     0.0004041   -0.0000161 
   0.005851451     0.9474298   -0.2216539    -0.0006982    0.0012505    -0.0003169    0.0002231    -0.0001057   -0.0001192 
   0.005951476     0.9428080   -0.1880825    -0.0001780    0.0013901     0.0003371   -0.0000043     0.0005606    0.0002069 
   0.006051501     0.9378438   -0.1807795     0.0007312    0.0020637    -0.0003073    0.0000729    -0.0003685   -0.0003731 
   0.006151526     0.9286170   -0.2144027     0.0022288   -0.0002919     0.0003989    0.0000337     0.0010783   -0.0000678 
   0.006251551     0.9553816   -0.1762796     0.0024154    0.0006489     0.0000597   -0.0002036     0.0001873    0.0007080 
   0.006351576     0.9475741   -0.2123105    -0.0003520    0.0000350     0.0000807    0.0001630     0.0001425   -0.0001056 
   0.006451601     0.9512876   -0.2153215    -0.0000540   -0.0005647     0.0002770    0.0002457     0.0001765    0.0005150 
   0.006551626     0.9291371   -0.2040299    -0.0022817    0.0004948     0.0006788    0.0004062    -0.0003789   -0.0002088 
   0.006651651     0.9258868   -0.2230923     0.0002528    0.0008401     0.0001677   -0.0001408     0.0001928   -0.0001203 
   0.006751676     0.9256936   -0.2247074     0.0014477    0.0003085    -0.0001024    0.0002817     0.0010627    0.0003045 
   0.006851701     0.9343745   -0.2277908    -0.0003595    0.0011825     0.0001477    0.0003279    -0.0000031    0.0001280 
   0.006951726     0.9133802   -0.2390554     0.0001077    0.0014822    -0.0003890    0.0000788     0.0010254    0.0007635 
   0.007051751     0.9130453   -0.2271459     0.0003349    0.0008928    -0.0003050    0.0002918     0.0007944   -0.0001826 
   0.007151776     0.9142854   -0.2214304     0.0003169    0.0019587     0.0000303   -0.0000416     0.0006042   -0.0002697 
   0.007251801     0.9467275   -0.2116734     0.0007070    0.0013038    -0.0002355    0.0000945    -0.0002526   -0.0000159 
   0.007351826     0.9344195   -0.2408596    -0.0015100    0.0003350     0.0001217   -0.0002333     0.0009729    0.0000073 
   0.007451851     0.9133095   -0.2255249    -0.0000854    0.0014882    -0.0003505    0.0001034     0.0006801   -0.0001393 
   0.007551876     0.9121081   -0.2501000     0.0003030   -0.0000824     0.0001046    0.0003100     0.0001941   -0.0000043 
   0.007651901     0.9222656   -0.2509980     0.0011392    0.0012631     0.0002192   -0.0001648     0.0002671   -0.0000804 
   0.007751926     0.9206599   -0.2575496    -0.0008482   -0.0001247    -0.0002262    0.0000100    -0.0002458   -0.0005171 
   0.007851951     0.9171233   -0.2470278     0.0002909    0.0002888    -0.0002094    0.0000082     0.0002962    0.0001928 
   0.007951976     0.9311224   -0.2594096     0.0000289    0.0025547     0.0002062   -0.0001040     0.0003931    0.0003228 
   0.008052001     0.9151134   -0.2519002    -0.0001246    0.0001721     0.0000091    0.0004065     0.0008756    0.0001670 
   0.008152026     0.8994041   -0.2642942    -0.0003416    0.0017712     0.0003128   -0.0000089     0.0001937    0.0000749 
   0.008252051     0.9133998   -0.2331963    -0.0000914   -0.0009133     0.0003260   -0.0001650     0.0008781    0.0003454 
   0.008352076     0.9045204   -0.2639745     0.0003840   -0.0012793    -0.0001272   -0.0004289     0.0006232   -0.0003614 
   0.008452101     0.9218297   -0.2725272     0.0011208   -0.0007652    -0.0000620    0.0003027     0.0004062   -0.0003585 
   0.008552126     0.9161291   -0.2742271     0.0015186   -0.0010600    -0.0004402    0.0001541     0.0000363    0.0006965 
   0.008652151     0.9051004   -0.2554721    -0.0015186    0.0006208    -0.0002388   -0.0001693     0.0006378    0.0001704 
   0.008752176     0.9013743   -0.2704385    -0.0006350   -0.0013823    -0.0004058   -0.0004416     0.0001732   -0.0002870 
   0.008852201     0.8909044   -0.2524076    -0.0014420   -0.0007864     0.0004081    0.0002215     0.0005948    0.0005842 
   0.008952226     0.9109244   -0.2735474    -0.0004241    0.0005046     0.0000459    0.0000542     0.0006184   -0.0001168 
   0.009052251     0.9112783   -0.2770199    -0.0001914   -0.0000066    -0.0001817   -0.0001404     0.0000201   -0.0001115 
   0.009152276     0.9129243   -0.2777678     0.0003414   -0.0009659    -0.0000584    0.0000854     0.0006958   -0.0003383 
   0.009252301     0.9061183   -0.2806755     0.0001335    0.0010141     0.0004068   -0.0000291    -0.0000558   -0.0003718 
   0.009352326     0.9096133   -0.2748230     0.0002345    0.0002459    -0.0004214    0.0000716     0.0002386   -0.0003479 
   0.009452351     0.9065292   -0.2761211    -0.0006873   -0.0001195    -0.0000512   -0.0003330     0.0002342    0.0000989 
   0.009552376     0.8989848   -0.2866997    -0.0012544   -0.0002936    -0.0000389   -0.0000614     0.0007305    0.0002846 
   0.009652401     0.8841317   -0.2783872    -0.0006035    0.0001914     0.0000191   -0.0001662     0.0002672    0.0002369 
   0.009752426     0.8898787   -0.2914834     0.0007323    0.0003490     0.0002990   -0.0000596     0.0004582    0.0001503 
   0.009852451     0.8892998   -0.2918396    -0.0000612   -0.0004927     0.0001622   -0.0000574     0.0002978    0.0001600 
   0.009952476     0.8925217   -0.3040789    -0.0007808    0.0000988     0.0002072   -0.0001161     0.0000906    0.0002357 
   0.010052501     0.8851250   -0.2896462     0.0004358   -0.0002711     0.0003115    0.0001192    -0.0000479   -0.0003473 
   0.010152526     0.8798960   -0.2777840    -0.0003682   -0.0005064     0.0000033    0.0001707     0.0001280   -0.0001150 
   0.010252551     0.8750796   -0.2943002     0.0008943   -0.0006767     0.0002397    0.0000934     0.0005709    0.0000548 
   0.010352576     0.8828788   -0.3054976    -0.0008062    0.0005084    -0.0000834    0.0000086     0.0001396    0.0001169 
   0.010452601     0.8694882   -0.2993287     0.0009446   -0.0000356     0.0003546   -0.0000643     0.0005695   -0.0004172 
   0.010552626     0.8596655   -0.3125935     0.0000262   -0.0002825     0.0000287    0.0000234     0.0002338    0.0001410 
   0.010652651     0.8783280   -0.3122844    -0.0011182    0.0004884    -0.0003166    0.0002643     0.0005607   -0.0003185 
   0.010752676     0.8761359   -0.3179622     0.0000412    0.0002107     0.0000493   -0.0004334     0.0004953    0.0000492 
   0.010852701     0.8865534   -0.2997337    -0.0005023    0.0002681     0.0000833    0.0000991     0.0004022    0.0003271 
   0.010952726     0.8674465   -0.3134512    -0.0006919    0.0003914     0.0001150    0.0000506     0.0001660   -0.0000586 
   0.011052751     0.8664324   -0.3169067    -0.0004954    0.0001647    -0.0004243    0.0000600     0.0006723    0.0001161 
   0.011152776     0.8594788   -0.3280397     0.0005178    0.0002587     0.0001252    0.0000974     0.0001863    0.0002029 
   0.011252801     0.8560377   -0.3283848    -0.0001228   -0.0007731    -0.0001854   -0.0001518    -0.0001902    0.0004645 
   0.011352826     0.8731394   -0.3300679    -0.0010565   -0.0004294    -0.0002151   -0.0001173     0.0001938   -0.0002837 
   0.011452851     0.8591728   -0.3393426    -0.0009951   -0.0001777    -0.0001311   -0.0001782     0.0003342    0.0001168 
   0.011552876     0.8589084   -0.3352916     0.0000370    0.0005697     0.0000623    0.0001160     0.0004560   -0.0000465 
   0.011652901     0.8525996   -0.3247544     0.0002049   -0.0000972    -0.0002223   -0.0001322     0.0003200    0.0006543 
   0.011752926     0.8463303   -0.3316948    -0.0000183    0.0003157    -0.0004065    0.0001371     0.0001512    0.0000251 
   0.011852951     0.8483208   -0.3484987    -0.0003432    0.0007533    -0.0002006   -0.0002062     0.0002973    0.0003534 
   0.011952976     0.8450963   -0.3356939     0.0000726   -0.0005967     0.0001349    0.0002303     0.0000501    0.0000928 
   0.012053002     0.8407322   -0.3470304    -0.0006313   -0.0003909     0.0002977    0.0000636     0.0004120    0.0003828 
   0.012153027     0.8318974   -0.3579349     0.0007741   -0.0000335    -0.0001200    0.0001345     0.0005395   -0.0001991 
   0.012253052     0.8275814   -0.3479295    -0.0002114   -0.0002848     0.0002112   -0.0000557     0.0007701    0.0000298 
   0.012353077     0.8549495   -0.3441593    -0.0002273    0.0004106     0.0000958   -0.0001226     0.0002195    0.0000419 
   0.012453102     0.8352513   -0.3546872    -0.0002989   -0.0002782    -0.0000741   -0.0000237     0.0005379   -0.0000059 
   0.012553127     0.8266051   -0.3548567    -0.0002462   -0.0000657    -0.0001111   -0.0002210     0.0007674   -0.0003647 
   0.012653152     0.8322704   -0.3537758    -0.0005621   -0.0000600     0.0001025    0.0001673     0.0000952   -0.0001133 
   0.012753177     0.8213779   -0.3458864     0.0003305   -0.0005756     0.0001768   -0.0000748    -0.0000342    0.0001804 
   0.012853202     0.8343499   -0.3374807    -0.0000667    0.0002773    -0.0000943    0.0000103     0.0003506    0.0002457 
   0.012953227     0.8226861   -0.3509979     0.0000796   -0.0003263     0.0002682    0.0001948     0.0005439    0.0004100 
   0.013053252     0.8147141   -0.3749814     0.0007595   -0.0001812     0.0001378   -0.0001569     0.0002079    0.0000273 
   0.013153277     0.8310670   -0.3622241    -0.0004566   -0.0002634    -0.0001432    0.0000230     0.0001688    0.0001656 
   0.013253302     0.8176660   -0.3624902    -0.0004884    0.0004082    -0.0001344    0.0000027    -0.0000140   -0.0000269 
   0.013353327     0.8115536   -0.3600162    -0.0001204    0.0002252     0.0000224   -0.0000660     0.0003542    0.0002815 
   0.013453352     0.8177947   -0.3542819     0.0002202    0.0004066     0.0003047   -0.0002255     0.0005769    0.0002023 
   0.013553377     0.8008922   -0.3644997     0.0006227   -0.0005761     0.0001168    0.0000365     0.0004931   -0.0001138 
   0.013653402     0.8078979   -0.3577079     0.0007417    0.0008438     0.0001357    0.0001719     0.0002779    0.0003988 
   0.013753427     0.8053482   -0.3736011     0.0001998    0.0012550     0.0001525    0.0000850     0.0002175    0.0003849 
   0.013853452     0.8127249   -0.3802108     0.0001854    0.0006204    -0.0003677    0.0004148     0.0002661    0.0000307 
   0.013953477     0.7944369   -0.3617795     0.0000151    0.0003479    -0.0000047    0.0000055     0.0002158    0.0002453 
   0.014053502     0.8046446   -0.3766527    -0.0001891    0.0004903    -0.0001962   -0.0004002    -0.0000344    0.0002088 
   0.014153527     0.7994841   -0.3842199    -0.0000316    0.0000424    -0.0000718    0.0000454     0.0002547    0.0004446 
   0.014253552     0.7983559   -0.3729393    -0.0003512    0.0002784     0.0001121    0.0000262     0.0007660   -0.0003102 
   0.014353577     0.7844715   -0.3805334    -0.0002706   -0.0008211     0.0001035   -0.0001424     0.0009123   -0.0001481 
   0.014453602     0.7870209   -0.3829123    -0.0003132   -0.0011119    -0.0000603   -0.0004169     0.0002059   -0.0000218 
   0.014553627     0.7871761   -0.3866330    -0.0001720   -0.0004989     0.0002899   -0.0000185     0.0006495    0.0003966 
   0.014653652     0.7887365   -0.3877636     0.0004988   -0.0008786    -0.0000201   -0.0001904     0.0001866   -0.0000830 
   0.014753677     0.7791528   -0.3853646     0.0001243    0.0002714     0.0000134    0.0000758     0.0005736    0.0002140 
   0.014853702     0.8015853   -0.3831842     0.0008035   -0.0000124     0.0000537   -0.0001046     0.0004014    0.0000457 
   0.014953727     0.7798482   -0.4040346    -0.0001112   -0.0009683    -0.0001931    0.0000114     0.0004217    0.0005100 
   0.015053752     0.7825230   -0.3903757     0.0000551   -0.0000115     0.0000677    0.0001402    -0.0000293    0.0004428 
   0.015153777     0.7808691   -0.3968253    -0.0004100    0.0001629     0.0000007   -0.0001023     0.0001553   -0.0001330 
   0.015253802     0.7703182   -0.3930860     0.0008949    0.0001447    -0.0000233   -0.0001237     0.0000947   -0.0001990 
   0.015353827     0.7677966   -0.3886699     0.0003804    0.0007440     0.0000834   -0.0000519     0.0011877    0.0000556 
   0.015453852     0.7733034   -0.4011731    -0.0004832    0.0000152     0.0000353   -0.0002685     0.0002772    0.0001756 
   0.015553877     0.7634822   -0.4091437    -0.0009490   -0.0006101    -0.0000449    0.0000036     0.0002430    0.0003392 
   0.015653902     0.7696441   -0.4047132     0.0008798   -0.0000319    -0.0000263    0.0002141     0.0001894    0.0001508 
