! 26-Feb-26 1:37:10 PM
! E:\VNA_MEASUREMENTS\CAL_S11\CAL_TESTSRC_T1T1E5_0.S2P
! CHANNEL.1
! TR.MEASUREMENT
! CORRECTED.DATA
# GHZ S RI R 50.0
! FREQ.GHZ         S11RE         S11IM         S21RE         S21IM         S12RE         S12IM         S22RE         S22IM         
!; PortSelection: Port_12
   0.000050000     0.2908631    0.1576904     0.3233821   -0.0394583    -0.0050751   -0.0008981    -0.0083677    0.0097400 
   0.000150025    -0.7344168   -0.5534657     1.7645030    0.5318169     0.0002195    0.0003365     0.0022674    0.0004212 
   0.000250050    -0.8699997    0.1848371     0.0326632   -0.0798471    -0.0001881   -0.0000762    -0.0007803   -0.0030625 
   0.000350075     0.9664810   -0.0163853     0.0018199   -0.0052737    -0.0000224   -0.0001150    -0.0038930    0.0003281 
   0.000450100     0.9744843   -0.0610511    -0.0002769   -0.0086947     0.0009598   -0.0001647    -0.0002487   -0.0019017 
   0.000550125     1.0219100   -0.0065674    -0.0035884   -0.0110765     0.0005815    0.0000725    -0.0002959    0.0005190 
   0.000650150     0.9889448   -0.0187604    -0.0044295   -0.0090156     0.0002554   -0.0008231     0.0001731   -0.0018430 
   0.000750175     0.9831583   -0.0556743    -0.0034263   -0.0100423    -0.0005651    0.0010604    -0.0006156   -0.0000501 
   0.000850200     0.9756359   -0.0945332    -0.0121867   -0.0100211    -0.0006064   -0.0002989     0.0001169   -0.0002386 
   0.000950225     1.0434490   -0.0404731    -0.0119133   -0.0073584    -0.0002451   -0.0004795    -0.0001391    0.0013437 
   0.001050250     0.9892924   -0.0426697    -0.0074391   -0.0066718     0.0000073    0.0002426     0.0004525   -0.0001883 
   0.001150275     1.0011300   -0.0437767    -0.0105162   -0.0018099    -0.0011115   -0.0004673    -0.0007082    0.0009433 
   0.001250300     0.9579385   -0.0533879    -0.0096276   -0.0040067    -0.0009802   -0.0007912     0.0000712    0.0008806 
   0.001350325     1.0214890   -0.0793401    -0.0119752   -0.0023257    -0.0001415   -0.0003104    -0.0002596   -0.0004468 
   0.001450350     0.9727693   -0.0469905    -0.0079647   -0.0029477    -0.0001609    0.0001358     0.0002858   -0.0001153 
   0.001550375     1.0055900   -0.0524556    -0.0090638    0.0023334    -0.0000384   -0.0004335     0.0008336    0.0005874 
   0.001650400     0.9981478   -0.0754506    -0.0100659   -0.0001206    -0.0000535    0.0005620    -0.0002618    0.0002189 
   0.001750425     0.9854268   -0.0458520    -0.0053450   -0.0006684     0.0004632    0.0000087    -0.0002270   -0.0007851 
   0.001850450     0.9748397   -0.0237258    -0.0085108   -0.0004997    -0.0000310    0.0003811     0.0006778    0.0003792 
   0.001950475     1.0356880   -0.0199124    -0.0062264    0.0000293     0.0003202   -0.0008279     0.0009518   -0.0001759 
   0.002050500     0.9942280   -0.0429712    -0.0086632    0.0010948     0.0010071   -0.0000672     0.0015048   -0.0006243 
   0.002150525     1.0154810   -0.0750275    -0.0055535    0.0013582     0.0001870   -0.0007052     0.0014685   -0.0001319 
   0.002250550     0.9818155   -0.0863038    -0.0046378    0.0017061     0.0002185    0.0001249    -0.0004462   -0.0003866 
   0.002350575     0.9748936   -0.1227512    -0.0035267    0.0030212     0.0007147   -0.0000281     0.0006191   -0.0000948 
   0.002450600     0.9683768   -0.0940704    -0.0015446   -0.0000060    -0.0003375    0.0006069    -0.0005151    0.0002052 
   0.002550625     0.9977816   -0.0959263    -0.0021263    0.0032530    -0.0005678    0.0001126    -0.0002647    0.0006841 
   0.002650650     1.0064680   -0.0527799    -0.0049025    0.0044151    -0.0005376    0.0006047    -0.0001250    0.0005889 
   0.002750675     0.9695504   -0.0090569    -0.0026622    0.0021801    -0.0008685    0.0000726    -0.0004191   -0.0004543 
   0.002850700     1.0078310   -0.0924667    -0.0044499    0.0033256    -0.0001074    0.0003530     0.0000082    0.0001932 
   0.002950725     0.9210439   -0.0773230    -0.0024864    0.0048999    -0.0002343   -0.0004057     0.0007708    0.0002649 
   0.003050750     1.0227220   -0.1175542    -0.0031498    0.0015018     0.0003031   -0.0004593    -0.0003375   -0.0006801 
   0.003150775     0.9702598   -0.1438727    -0.0031764    0.0020812    -0.0008922   -0.0004845     0.0006794    0.0003885 
   0.003250800     0.9516007   -0.1048134    -0.0036078    0.0044855    -0.0003010   -0.0002181     0.0000598    0.0002839 
   0.003350825     0.9902109   -0.1286372    -0.0034869    0.0032500     0.0000683   -0.0006043    -0.0001987    0.0004930 
   0.003450850     0.9638604   -0.1488257    -0.0025923    0.0035638    -0.0000048   -0.0001708     0.0003442   -0.0001700 
   0.003550875     0.9255698   -0.1195842    -0.0008179    0.0010181     0.0001772    0.0001259    -0.0003040   -0.0000967 
   0.003650900     0.9498357   -0.1099483    -0.0020444    0.0015039     0.0000533    0.0003796     0.0005395   -0.0007039 
   0.003750925     0.9545192   -0.1330511    -0.0004744    0.0016206    -0.0002040   -0.0004605     0.0007514    0.0000203 
   0.003850950     0.9388916   -0.1426150    -0.0012060    0.0021891    -0.0003504    0.0003987    -0.0006825    0.0004239 
   0.003950975     0.9852000   -0.1200763    -0.0018325    0.0028231     0.0004622    0.0001082     0.0001450   -0.0003315 
   0.004051001     0.9582138   -0.1531416    -0.0011465    0.0017719     0.0004268   -0.0009796     0.0002710    0.0001168 
   0.004151026     0.9883222   -0.1536883    -0.0026331    0.0021614     0.0000910    0.0004380    -0.0001063    0.0003261 
   0.004251051     0.9662159   -0.1448508    -0.0004062    0.0014885    -0.0001513   -0.0000971     0.0005073   -0.0000860 
   0.004351076     1.0001210   -0.1269132     0.0016763    0.0033403     0.0002206   -0.0002396     0.0010862    0.0005851 
   0.004451101     1.0020090   -0.2002182     0.0000325    0.0021173    -0.0004249    0.0005039     0.0006670   -0.0003174 
   0.004551126     0.9770171   -0.1694866     0.0000324   -0.0003956    -0.0002477   -0.0002521    -0.0004061    0.0001189 
   0.004651151     0.9596360   -0.1484431    -0.0032738    0.0004933     0.0000313    0.0005138     0.0003132   -0.0000606 
   0.004751176     0.9584847   -0.1798782    -0.0019954    0.0012111     0.0002472    0.0001684     0.0006045   -0.0004714 
   0.004851201     0.9440814   -0.1537305    -0.0003866    0.0023059    -0.0002515   -0.0000447     0.0011336    0.0007321 
   0.004951226     0.9462082   -0.1496584     0.0009338    0.0002748     0.0006870    0.0001010     0.0006865    0.0003127 
   0.005051251     0.9728367   -0.1675512    -0.0023696   -0.0021878    -0.0002497   -0.0000625     0.0004199   -0.0002993 
   0.005151276     0.9279251   -0.1448662    -0.0000115    0.0002504     0.0004040    0.0001001     0.0003144   -0.0001472 
   0.005251301     0.9574380   -0.1685810     0.0012569   -0.0003448    -0.0002380   -0.0004264     0.0006383    0.0003958 
   0.005351326     0.9408562   -0.1497195    -0.0005148    0.0020591    -0.0000731   -0.0003195     0.0006716    0.0006825 
   0.005451351     0.9527904   -0.1867598    -0.0022876   -0.0014358     0.0001281    0.0005046     0.0004409    0.0002921 
   0.005551376     0.9587536   -0.1879645    -0.0005187    0.0006465     0.0001525    0.0003156     0.0006731   -0.0002995 
   0.005651401     0.9624441   -0.1810656    -0.0002228   -0.0004588     0.0002880   -0.0005414    -0.0000020   -0.0006607 
   0.005751426     0.9247074   -0.1850561    -0.0003425   -0.0005817     0.0000121    0.0006050     0.0010938   -0.0002951 
   0.005851451     0.9459349   -0.1992823     0.0019378    0.0008063    -0.0003942    0.0000381    -0.0001660   -0.0003782 
   0.005951476     0.9271111   -0.1721105     0.0002121    0.0013372     0.0000906    0.0000783     0.0001784    0.0001501 
   0.006051501     0.9547046   -0.1894022    -0.0002227   -0.0004212     0.0003360   -0.0001940    -0.0004450    0.0002293 
   0.006151526     0.9220450   -0.2132824    -0.0009955    0.0004521     0.0002905    0.0002748     0.0007767   -0.0004338 
   0.006251551     0.9487659   -0.1792514    -0.0005029   -0.0004670    -0.0000150   -0.0002957     0.0005619    0.0000516 
   0.006351576     0.9412600   -0.1994562     0.0004061    0.0003317     0.0002547    0.0004062     0.0002809    0.0004987 
   0.006451601     0.9429031   -0.2134252    -0.0001494    0.0012301     0.0000907    0.0001038     0.0000795    0.0002966 
   0.006551626     0.9288045   -0.2097221     0.0008436    0.0003815    -0.0000213   -0.0000211    -0.0002684    0.0001406 
   0.006651651     0.9287297   -0.2080661    -0.0006973    0.0004954    -0.0003846   -0.0002202     0.0002080    0.0002432 
   0.006751676     0.9225988   -0.2228422    -0.0001526    0.0002526    -0.0007259   -0.0003660     0.0003813    0.0004370 
   0.006851701     0.9170606   -0.2424336     0.0000714    0.0000993     0.0000348    0.0000971    -0.0001932    0.0000887 
   0.006951726     0.9210390   -0.2343991    -0.0002697    0.0012942    -0.0007094    0.0007924     0.0010944    0.0008777 
   0.007051751     0.9377823   -0.2365922    -0.0000772    0.0006790    -0.0000770    0.0005495     0.0006647   -0.0000974 
   0.007151776     0.9201604   -0.2452212    -0.0004089    0.0013455     0.0002691   -0.0003535     0.0007722    0.0000250 
   0.007251801     0.9323937   -0.2135787    -0.0000303   -0.0014601     0.0000780    0.0000663    -0.0001790   -0.0002019 
   0.007351826     0.9387141   -0.2481305     0.0017717    0.0004261     0.0001437   -0.0000980     0.0002773   -0.0003429 
   0.007451851     0.8990156   -0.2406152    -0.0005210   -0.0004900    -0.0004455   -0.0002705     0.0004172   -0.0006719 
   0.007551876     0.9147767   -0.2301217    -0.0003726   -0.0000262     0.0004491   -0.0001541     0.0001497   -0.0002689 
   0.007651901     0.9207259   -0.2628828     0.0003398    0.0004546     0.0001059   -0.0002164    -0.0001636   -0.0001766 
   0.007751926     0.9216776   -0.2529788    -0.0014970    0.0007374    -0.0002034   -0.0000409     0.0000576   -0.0007507 
   0.007851951     0.9170413   -0.2512345    -0.0016400    0.0003288     0.0001414   -0.0000298     0.0003442   -0.0001096 
   0.007951976     0.9240504   -0.2739288    -0.0012482    0.0006718     0.0001643   -0.0000106     0.0003351    0.0006442 
   0.008052001     0.9218542   -0.2562663    -0.0005778   -0.0003191    -0.0000246    0.0004481     0.0003446    0.0001788 
   0.008152026     0.9139028   -0.2673068    -0.0016380    0.0003864     0.0001441   -0.0003031     0.0001266   -0.0000489 
   0.008252051     0.8870808   -0.2496244     0.0004272    0.0003018     0.0001971    0.0001163     0.0005292    0.0000755 
   0.008352076     0.9213231   -0.2735022    -0.0002774    0.0002451    -0.0003706   -0.0000778     0.0009329   -0.0005571 
   0.008452101     0.9124215   -0.2579836    -0.0009084   -0.0001630     0.0002344   -0.0005201     0.0000817   -0.0004698 
   0.008552126     0.9192373   -0.2593830     0.0003576   -0.0007678     0.0000243    0.0003122    -0.0000683    0.0001011 
   0.008652151     0.9180878   -0.2563066    -0.0003176   -0.0004810     0.0005451    0.0003652     0.0003066   -0.0000390 
   0.008752176     0.9094922   -0.2544269    -0.0011126    0.0008291     0.0002356    0.0002547    -0.0002310   -0.0004209 
   0.008852201     0.8911504   -0.2534809     0.0001533   -0.0004117    -0.0002336    0.0001210     0.0001613   -0.0001391 
   0.008952226     0.9102905   -0.2725433     0.0001847   -0.0002893    -0.0000578   -0.0000630     0.0004303   -0.0003371 
   0.009052251     0.9182103   -0.2807168    -0.0005833    0.0003834     0.0001202   -0.0001241     0.0002774   -0.0004356 
   0.009152276     0.8992608   -0.2928105    -0.0012247    0.0016879     0.0003011    0.0003289     0.0006188    0.0002448 
   0.009252301     0.8912278   -0.2828285    -0.0002722   -0.0007806    -0.0000612    0.0000599     0.0002920   -0.0004537 
   0.009352326     0.8884144   -0.2713081     0.0010376   -0.0007526    -0.0001564    0.0001216    -0.0002545   -0.0001092 
   0.009452351     0.8974989   -0.2989905    -0.0006806    0.0001830     0.0001691   -0.0000456     0.0004133   -0.0000057 
   0.009552376     0.8830308   -0.2911361    -0.0005120    0.0004526    -0.0004434   -0.0000492     0.0004197    0.0005549 
   0.009652401     0.8755219   -0.2925588    -0.0002520   -0.0006459    -0.0002843    0.0000162    -0.0000906    0.0001086 
   0.009752426     0.8848512   -0.2944974    -0.0006490    0.0000375     0.0000474    0.0000603     0.0004726    0.0003021 
   0.009852451     0.8731320   -0.3132961    -0.0002699   -0.0005220     0.0000849    0.0000695     0.0002026   -0.0004237 
   0.009952476     0.8811156   -0.3052247     0.0005880    0.0004882     0.0001290   -0.0002594     0.0008104    0.0002193 
   0.010052501     0.8847317   -0.2987009    -0.0003195    0.0009366     0.0002459    0.0002966     0.0001647   -0.0002560 
   0.010152526     0.8812079   -0.2845574     0.0002358    0.0004133     0.0002333   -0.0001528     0.0001892    0.0000613 
   0.010252551     0.8712515   -0.3083088    -0.0002662    0.0003893    -0.0000768    0.0002572    -0.0000674   -0.0000516 
   0.010352576     0.8940811   -0.3133556    -0.0005215   -0.0000083    -0.0002515    0.0001336     0.0002836   -0.0001443 
   0.010452601     0.8804436   -0.2948017     0.0005798   -0.0008684    -0.0001348    0.0001941     0.0003225   -0.0000854 
   0.010552626     0.8710559   -0.3167457    -0.0006820   -0.0002392    -0.0000754   -0.0000958     0.0001184    0.0000926 
   0.010652651     0.8730286   -0.3160299    -0.0006681   -0.0003534     0.0000433    0.0001603     0.0006365    0.0000604 
   0.010752676     0.8586677   -0.3216145     0.0010475    0.0001060     0.0001232   -0.0003389     0.0001928    0.0002837 
   0.010852701     0.8694329   -0.3141941     0.0004742   -0.0000261     0.0001403   -0.0001785     0.0001841   -0.0000826 
   0.010952726     0.8626757   -0.3223554    -0.0005946   -0.0001973     0.0002350    0.0001299     0.0002933   -0.0002955 
   0.011052751     0.8650533   -0.3363884    -0.0002014    0.0003461    -0.0004237    0.0002734     0.0004640    0.0000297 
   0.011152776     0.8574297   -0.3182587    -0.0003761    0.0015176     0.0002009    0.0002125    -0.0003397   -0.0000120 
   0.011252801     0.8574488   -0.3403381     0.0000991    0.0003647     0.0001057    0.0000343     0.0001483    0.0003800 
   0.011352826     0.8619564   -0.3343177    -0.0012148   -0.0003066     0.0001107    0.0001582     0.0002134    0.0001164 
   0.011452851     0.8582914   -0.3272166    -0.0001838   -0.0010197    -0.0002797    0.0000693     0.0002716   -0.0000568 
   0.011552876     0.8351897   -0.3410938     0.0003325   -0.0000034    -0.0003931    0.0001060     0.0003333   -0.0003904 
   0.011652901     0.8348737   -0.3441619     0.0001539   -0.0003437     0.0004679    0.0000967     0.0005592    0.0002157 
   0.011752926     0.8327130   -0.3400369     0.0007475   -0.0010500     0.0001995    0.0000716     0.0003912    0.0004920 
   0.011852951     0.8467471   -0.3457387     0.0005291   -0.0009989    -0.0000374    0.0000795     0.0004434    0.0000029 
   0.011952976     0.8534630   -0.3369794    -0.0005552   -0.0012045     0.0001938    0.0002517     0.0004617    0.0002288 
   0.012053002     0.8463414   -0.3502684    -0.0008501   -0.0002369    -0.0002890    0.0001020     0.0001597    0.0000035 
   0.012153027     0.8276530   -0.3499644    -0.0008153    0.0008543    -0.0000334   -0.0001081     0.0008660   -0.0003156 
   0.012253052     0.8153272   -0.3432959    -0.0004733   -0.0004324    -0.0001146    0.0000297     0.0010666    0.0003143 
   0.012353077     0.8364090   -0.3493939    -0.0012804    0.0004394     0.0000194    0.0001677     0.0003549    0.0002147 
   0.012453102     0.8310014   -0.3430598     0.0002404   -0.0002423    -0.0001183    0.0003094     0.0002437   -0.0001250 
   0.012553127     0.8197117   -0.3657297    -0.0006726   -0.0000650    -0.0004260   -0.0001136     0.0003084   -0.0003514 
   0.012653152     0.8401380   -0.3506610     0.0005754   -0.0002728    -0.0002575    0.0000229     0.0005799    0.0000580 
   0.012753177     0.8216774   -0.3607064     0.0002434    0.0012763    -0.0001363   -0.0000188     0.0000571    0.0002076 
   0.012853202     0.8353935   -0.3516652     0.0003167   -0.0000250    -0.0000128   -0.0000342     0.0005065    0.0001702 
   0.012953227     0.8321381   -0.3577349    -0.0006028    0.0003218     0.0002025    0.0000483     0.0005165    0.0002251 
   0.013053252     0.8108879   -0.3697416    -0.0002133    0.0001686    -0.0000749   -0.0003141     0.0004150   -0.0000817 
   0.013153277     0.8092715   -0.3686871    -0.0008276    0.0002936    -0.0000602    0.0000262     0.0001072   -0.0000218 
   0.013253302     0.8087813   -0.3675522    -0.0001659   -0.0012431     0.0000240    0.0002199     0.0003104    0.0001089 
   0.013353327     0.8102736   -0.3644837     0.0006854   -0.0004458    -0.0000384   -0.0001095     0.0005076   -0.0002112 
   0.013453352     0.8205248   -0.3578428    -0.0005188    0.0004598    -0.0001057    0.0000762     0.0005139   -0.0001296 
   0.013553377     0.7963933   -0.3613848    -0.0002830    0.0002786    -0.0002643    0.0001428     0.0003456   -0.0002929 
   0.013653402     0.8018821   -0.3724224    -0.0002034   -0.0009453     0.0002854   -0.0000115     0.0003333    0.0001245 
   0.013753427     0.8126413   -0.3708771    -0.0003289   -0.0005167    -0.0003614   -0.0000379     0.0001670    0.0002990 
   0.013853452     0.8056692   -0.3807358     0.0002978   -0.0006212    -0.0001299    0.0002041     0.0004725    0.0000367 
   0.013953477     0.8027449   -0.3630594     0.0004742   -0.0004828     0.0000413   -0.0003411     0.0005028    0.0000410 
   0.014053502     0.7950241   -0.3806258     0.0004046    0.0001923    -0.0000431   -0.0003778    -0.0002183   -0.0002217 
   0.014153527     0.7929747   -0.3842928    -0.0000782   -0.0002112     0.0000697   -0.0002797     0.0003468    0.0000803 
   0.014253552     0.7944411   -0.3778346     0.0005313    0.0002702    -0.0002765    0.0001486     0.0005883   -0.0004209 
   0.014353577     0.7895488   -0.3872041    -0.0005094    0.0003128    -0.0001137    0.0001186     0.0002932   -0.0000703 
   0.014453602     0.7786068   -0.3805660     0.0002977    0.0008779    -0.0000223    0.0003449     0.0000799   -0.0000025 
   0.014553627     0.7834534   -0.3865500     0.0007348   -0.0000397     0.0000206    0.0001921     0.0005848    0.0002300 
   0.014653652     0.7896641   -0.3889843     0.0009800    0.0002827    -0.0001405    0.0001211     0.0003173    0.0000775 
   0.014753677     0.7788069   -0.3913285     0.0001598   -0.0003006    -0.0002321   -0.0001474     0.0004667   -0.0003301 
   0.014853702     0.7854493   -0.3866004    -0.0010031    0.0009029     0.0000926    0.0000851     0.0002576    0.0002739 
   0.014953727     0.7729099   -0.3995730     0.0002179    0.0004167     0.0000807   -0.0002876     0.0005535    0.0001483 
   0.015053752     0.7796648   -0.3988533     0.0002534    0.0002804    -0.0001097   -0.0001136     0.0004741    0.0005444 
   0.015153777     0.7746270   -0.4034445    -0.0001072   -0.0005678     0.0000768    0.0001709     0.0001813   -0.0003239 
   0.015253802     0.7679820   -0.3988457     0.0003132   -0.0008905     0.0002355    0.0000292     0.0005569   -0.0001701 
   0.015353827     0.7681358   -0.4046622     0.0004762    0.0003600     0.0001912   -0.0001078     0.0005587   -0.0001408 
   0.015453852     0.7727432   -0.3973549     0.0011016    0.0000594    -0.0000600    0.0001515     0.0003091    0.0003529 
   0.015553877     0.7651047   -0.4088454     0.0007382   -0.0002350    -0.0002993    0.0000310     0.0001767   -0.0000527 
   0.015653902     0.7628692   -0.4033863     0.0001261    0.0004276    -0.0000892   -0.0000798    -0.0001154   -0.0002340 
