! 26-Feb-26 1:32:48 PM
! E:\VNA_MEASUREMENTS\CAL_S11\CAL_NOISEDIODE_T1T1E2_0.S2P
! CHANNEL.1
! TR.MEASUREMENT
! CORRECTED.DATA
# GHZ S RI R 50.0
! FREQ.GHZ         S11RE         S11IM         S21RE         S21IM         S12RE         S12IM         S22RE         S22IM         
!; PortSelection: Port_12
   0.000050000     0.2277951    0.6197961     0.1652959   -0.4512009    -0.0034648   -0.0018852     0.0015427    0.0246588 
   0.000150025    -0.0240398    0.0473578     0.4294512    0.1532311     0.0007427    0.0004284    -0.0008503   -0.0003477 
   0.000250050    -2.0532460   -0.0642920     0.1996891   -0.3045740    -0.0001895    0.0007577    -0.0020193   -0.0024998 
   0.000350075     0.9745225   -0.0785628     0.0002682   -0.0074044     0.0005301    0.0015888    -0.0003623   -0.0021340 
   0.000450100     0.9726918   -0.0681485    -0.0031232   -0.0087603     0.0011460   -0.0005624    -0.0015951   -0.0014921 
   0.000550125     1.0434310   -0.0455962    -0.0071926   -0.0094470     0.0002154    0.0002400     0.0009138    0.0005462 
   0.000650150     0.9932435   -0.0281453    -0.0085302   -0.0110837     0.0006317   -0.0007818    -0.0003431   -0.0012186 
   0.000750175     0.9902775   -0.0526725    -0.0046014   -0.0065833     0.0005828    0.0003830    -0.0001145    0.0009638 
   0.000850200     0.9855565   -0.0586172    -0.0057236   -0.0084037    -0.0001379    0.0000528    -0.0001594   -0.0006912 
   0.000950225     1.0484320   -0.0422814    -0.0080994   -0.0059401    -0.0004705   -0.0000973     0.0007390    0.0012228 
   0.001050250     1.0187010   -0.0765666    -0.0079355   -0.0062303     0.0003549    0.0002088     0.0001529   -0.0001028 
   0.001150275     0.9946483   -0.0416965    -0.0075521   -0.0068909    -0.0003583    0.0008880     0.0003542    0.0003007 
   0.001250300     0.9478062   -0.0498240    -0.0067845   -0.0024134    -0.0004874    0.0008351     0.0004080    0.0003819 
   0.001350325     0.9724290   -0.0858154    -0.0111887   -0.0040229    -0.0005378   -0.0010151    -0.0004660   -0.0006450 
   0.001450350     0.9832894   -0.0557799    -0.0094585   -0.0013684    -0.0009712   -0.0007588    -0.0004936    0.0010095 
   0.001550375     1.0410230   -0.0911211    -0.0090164   -0.0006162    -0.0003418   -0.0001788     0.0000320   -0.0002596 
   0.001650400     1.0141190   -0.0210413    -0.0084938    0.0008173     0.0003999   -0.0006836    -0.0005403   -0.0002624 
   0.001750425     0.9903178   -0.0850955    -0.0096525   -0.0010593     0.0006022    0.0010713     0.0006560   -0.0004920 
   0.001850450     0.9682111   -0.0779656    -0.0066570    0.0012277     0.0002419    0.0007010    -0.0000069    0.0006570 
   0.001950475     0.9940620    0.0020644    -0.0065782    0.0007825    -0.0003540   -0.0002685     0.0009912    0.0000481 
   0.002050500     0.9678205   -0.0610803    -0.0051500   -0.0010431     0.0010282   -0.0003045     0.0006625   -0.0004992 
   0.002150525     1.0136090   -0.0667726    -0.0071934    0.0008927     0.0002272    0.0000458     0.0016545    0.0004145 
   0.002250550     0.9807647   -0.0253645    -0.0039164    0.0027227    -0.0005071   -0.0004594     0.0001335   -0.0000526 
   0.002350575     0.9131756   -0.1331098    -0.0057149    0.0029928    -0.0001418    0.0004885     0.0002070   -0.0009289 
   0.002450600     0.9692742   -0.1134768    -0.0068358    0.0005101     0.0002536   -0.0007059    -0.0001829   -0.0000119 
   0.002550625     1.0081430   -0.1023982    -0.0049486    0.0040066    -0.0003479    0.0001134    -0.0004286    0.0003521 
   0.002650650     1.0114150   -0.0081917    -0.0038085    0.0025092     0.0000483   -0.0002015    -0.0003189    0.0004810 
   0.002750675     0.9890202   -0.0515022    -0.0055078    0.0046314    -0.0005772    0.0000300    -0.0001441    0.0009083 
   0.002850700     0.9862955   -0.0943308    -0.0040950    0.0039227     0.0004204    0.0001434    -0.0001280    0.0000468 
   0.002950725     0.9718550   -0.0916967    -0.0002947    0.0004838    -0.0002452   -0.0003309     0.0009669    0.0003728 
   0.003050750     0.9695432   -0.0830204    -0.0024269    0.0020724    -0.0007247   -0.0001716    -0.0000634   -0.0002246 
   0.003150775     0.9648846   -0.1662509    -0.0026325    0.0040801     0.0000608   -0.0004173     0.0001414    0.0004611 
   0.003250800     0.9622183   -0.1239480    -0.0025415    0.0019072     0.0000378    0.0000071     0.0007316    0.0003720 
   0.003350825     0.9904887   -0.0566671    -0.0030671    0.0041434    -0.0004375   -0.0002529     0.0003408   -0.0002001 
   0.003450850     0.9605666   -0.1429050    -0.0015617    0.0014916     0.0003739    0.0003991     0.0003750   -0.0003830 
   0.003550875     0.9670064   -0.1155907    -0.0006148    0.0029789     0.0001663    0.0000277     0.0001053   -0.0005682 
   0.003650900     0.9939149   -0.1184366     0.0015397    0.0048787     0.0002078    0.0001466     0.0006196    0.0000652 
   0.003750925     0.9527064   -0.1310910    -0.0021290    0.0024201     0.0005527   -0.0001158     0.0004480    0.0000593 
   0.003850950     0.9963831   -0.1249680    -0.0011921   -0.0001953    -0.0011113   -0.0003493    -0.0001009    0.0004234 
   0.003950975     0.9885534   -0.1436988     0.0001383    0.0005293    -0.0001077   -0.0004032     0.0000294   -0.0006585 
   0.004051001     0.9370677   -0.1404002    -0.0009080    0.0025710     0.0004173    0.0000247     0.0004090   -0.0002275 
   0.004151026     0.9766227   -0.1213646    -0.0014366    0.0031202    -0.0002217    0.0000507    -0.0000355    0.0000974 
   0.004251051     0.9890200   -0.1288229    -0.0001193    0.0016956    -0.0000516    0.0004069    -0.0006137    0.0000727 
   0.004351076     0.9521671   -0.1061556     0.0002674    0.0015048     0.0002135    0.0000068     0.0004582    0.0001083 
   0.004451101     0.9884099   -0.1607667     0.0014894    0.0019276     0.0003746   -0.0003344     0.0004337   -0.0004668 
   0.004551126     0.9927166   -0.1572816    -0.0026071    0.0025530     0.0002733    0.0004725    -0.0001165    0.0003246 
   0.004651151     0.9844278   -0.1368382     0.0004793    0.0013177    -0.0000042    0.0004189     0.0006428    0.0000518 
   0.004751176     0.9553872   -0.1816630    -0.0002634   -0.0010662     0.0005978   -0.0002718     0.0002602   -0.0002721 
   0.004851201     0.9128717   -0.1715608    -0.0004618    0.0012055    -0.0002785    0.0003034     0.0005933    0.0004929 
   0.004951226     0.9382546   -0.1320534     0.0005751    0.0024099    -0.0009088   -0.0002843     0.0005069   -0.0003699 
   0.005051251     0.9817293   -0.1794210    -0.0019856    0.0005446     0.0004636    0.0002694     0.0001013   -0.0002141 
   0.005151276     0.9283072   -0.1592297    -0.0010343    0.0025802     0.0000817   -0.0000147     0.0003827   -0.0004780 
   0.005251301     0.9347062   -0.1698731     0.0020901    0.0003755    -0.0001698   -0.0003462     0.0001198    0.0007815 
   0.005351326     0.9373105   -0.1406895    -0.0020438    0.0013580     0.0000468   -0.0001131     0.0010034    0.0004948 
   0.005451351     0.9591606   -0.1517083     0.0016482    0.0011043     0.0001913    0.0002804     0.0001113    0.0003900 
   0.005551376     0.9649251   -0.1920328     0.0003396    0.0019050     0.0006471    0.0004278     0.0002536   -0.0003059 
   0.005651401     0.9373517   -0.1765172     0.0007144    0.0028868    -0.0002475    0.0001416    -0.0002804   -0.0004611 
   0.005751426     0.9245120   -0.1782435    -0.0006506    0.0000511     0.0000819   -0.0005660     0.0005695   -0.0005719 
   0.005851451     0.9350117   -0.2101231    -0.0016287    0.0021369     0.0002573   -0.0001562    -0.0001034    0.0000442 
   0.005951476     0.9321303   -0.1831296     0.0006017    0.0008603    -0.0000805   -0.0002331     0.0000235    0.0000779 
   0.006051501     0.9360347   -0.1807482     0.0001706   -0.0001640    -0.0000998    0.0000901    -0.0002660    0.0002404 
   0.006151526     0.9521050   -0.2044751    -0.0003630    0.0009855    -0.0001360   -0.0001242     0.0002168   -0.0004769 
   0.006251551     0.9535913   -0.1642323    -0.0006390   -0.0001252    -0.0002767    0.0000227     0.0004454    0.0003539 
   0.006351576     0.9486874   -0.2027302    -0.0015218   -0.0002306     0.0001604   -0.0001995     0.0000717    0.0002470 
   0.006451601     0.9475489   -0.2055676    -0.0013565   -0.0003147     0.0000788    0.0000344     0.0005090    0.0001977 
   0.006551626     0.9233396   -0.2125888     0.0003565    0.0013987    -0.0000965   -0.0001743    -0.0004290   -0.0001131 
   0.006651651     0.9236732   -0.2168194    -0.0005011    0.0011177    -0.0001782    0.0003685    -0.0000264   -0.0002366 
   0.006751676     0.9166526   -0.2086763    -0.0017560    0.0009323    -0.0000235    0.0005163     0.0007303    0.0005195 
   0.006851701     0.9310557   -0.2470302     0.0004472   -0.0005043    -0.0004396    0.0002229    -0.0000913   -0.0001499 
   0.006951726     0.9165180   -0.2183363     0.0002868    0.0006058     0.0001755    0.0001058     0.0005717    0.0009999 
   0.007051751     0.9328043   -0.2172647     0.0000758    0.0005015    -0.0000127   -0.0001407     0.0005239    0.0001862 
   0.007151776     0.9320657   -0.2314668     0.0001606    0.0011631    -0.0003402   -0.0002546     0.0006026   -0.0001057 
   0.007251801     0.9504173   -0.2021827     0.0018600    0.0010188    -0.0000159   -0.0000298     0.0004519    0.0000185 
   0.007351826     0.9285261   -0.2459401    -0.0012776   -0.0004429    -0.0004214   -0.0002235     0.0006881    0.0001757 
   0.007451851     0.9038830   -0.2382104     0.0011972   -0.0010460    -0.0002169    0.0000839     0.0001768   -0.0002439 
   0.007551876     0.9216298   -0.2348702    -0.0001134   -0.0002406    -0.0002214    0.0001613    -0.0000096   -0.0001346 
   0.007651901     0.9133614   -0.2600682    -0.0008018   -0.0001810     0.0000755   -0.0001536     0.0003935    0.0002232 
   0.007751926     0.9294691   -0.2392824    -0.0005730   -0.0006340     0.0000063   -0.0001209     0.0001085   -0.0000264 
   0.007851951     0.9207442   -0.2648921     0.0005833    0.0003164    -0.0002729    0.0003831     0.0000508   -0.0000911 
   0.007951976     0.9297251   -0.2623373     0.0007443    0.0008472    -0.0002242   -0.0006158     0.0003382    0.0001913 
   0.008052001     0.9095392   -0.2580976    -0.0011253   -0.0001457     0.0000181   -0.0000878     0.0003503    0.0000645 
   0.008152026     0.9236853   -0.2687444    -0.0007926    0.0004089     0.0001566   -0.0003518     0.0001079    0.0004767 
   0.008252051     0.8883979   -0.2350575    -0.0005332    0.0007670    -0.0003702   -0.0000029     0.0007887    0.0000515 
   0.008352076     0.9013817   -0.2773724     0.0003475   -0.0001318     0.0000693    0.0001057     0.0011419    0.0001272 
   0.008452101     0.8999819   -0.2611334    -0.0004027   -0.0000272     0.0000280    0.0002371     0.0002682   -0.0005091 
   0.008552126     0.9239567   -0.2674288     0.0014291   -0.0002577    -0.0001330   -0.0004936     0.0005909    0.0002446 
   0.008652151     0.9183005   -0.2600120    -0.0007186    0.0002764     0.0001454   -0.0001373     0.0002734    0.0001788 
   0.008752176     0.9155858   -0.2505732     0.0012482    0.0007463     0.0000603    0.0001576    -0.0001555   -0.0003251 
   0.008852201     0.8977568   -0.2528715    -0.0006355   -0.0005339     0.0001055    0.0000679     0.0004035    0.0002413 
   0.008952226     0.9045588   -0.2759306    -0.0001011   -0.0019281    -0.0000659   -0.0000523     0.0003685   -0.0003264 
   0.009052251     0.9108343   -0.2658289     0.0005602    0.0009474     0.0004502   -0.0000612     0.0004834    0.0001975 
   0.009152276     0.9044580   -0.2737369    -0.0014815   -0.0000606    -0.0000991    0.0001275     0.0005860   -0.0002805 
   0.009252301     0.8924516   -0.2724994     0.0000639   -0.0013128     0.0001615   -0.0001375     0.0000878    0.0000208 
   0.009352326     0.8970788   -0.2799937    -0.0006700    0.0011337    -0.0000888    0.0000499     0.0003013   -0.0004833 
   0.009452351     0.9097322   -0.2727205    -0.0006014    0.0003473    -0.0002189    0.0002378     0.0002381    0.0000672 
   0.009552376     0.8943427   -0.2856306     0.0001703   -0.0006464     0.0000280    0.0000274     0.0000726    0.0002369 
   0.009652401     0.8822220   -0.2678388    -0.0007376   -0.0003928    -0.0003183   -0.0000995     0.0000650    0.0003801 
   0.009752426     0.8806501   -0.2817794     0.0000130    0.0001830    -0.0001791   -0.0000748     0.0003939    0.0003033 
   0.009852451     0.8819364   -0.2902406     0.0005399   -0.0005345    -0.0000427   -0.0001449     0.0001864    0.0001912 
   0.009952476     0.8875974   -0.2928454    -0.0002201   -0.0006496     0.0001430    0.0000079     0.0002054    0.0000574 
   0.010052501     0.8749580   -0.2999341     0.0001300   -0.0000282    -0.0000377   -0.0002750    -0.0000945   -0.0001113 
   0.010152526     0.8834453   -0.2884598    -0.0009934    0.0002279    -0.0000724    0.0000420     0.0001288    0.0001566 
   0.010252551     0.8674425   -0.2830768    -0.0004967    0.0002885    -0.0001389    0.0002303     0.0002403   -0.0000913 
   0.010352576     0.9017347   -0.2984673    -0.0000659    0.0007126     0.0003108   -0.0000383     0.0003085    0.0003767 
   0.010452601     0.8870303   -0.2943919     0.0012759    0.0002077    -0.0002298   -0.0000112     0.0002448   -0.0004911 
   0.010552626     0.8522484   -0.3062381    -0.0001703   -0.0002407     0.0001809   -0.0002199     0.0002954    0.0002591 
   0.010652651     0.8732164   -0.3102044     0.0000409    0.0006723     0.0000924    0.0004129     0.0003917   -0.0000683 
   0.010752676     0.8823548   -0.3172451    -0.0007538    0.0002963    -0.0000428    0.0000623     0.0005236   -0.0001862 
   0.010852701     0.8676494   -0.2995099     0.0001453   -0.0013380    -0.0001179    0.0002053     0.0003274    0.0004798 
   0.010952726     0.8610982   -0.3062126     0.0009673    0.0001362     0.0000711    0.0003615     0.0000867    0.0003465 
   0.011052751     0.8710929   -0.3330932     0.0002019    0.0002623     0.0001415   -0.0002724     0.0004269   -0.0000117 
   0.011152776     0.8734143   -0.3221187     0.0011087   -0.0004427     0.0000655   -0.0001981    -0.0000082    0.0004130 
   0.011252801     0.8593090   -0.3189314     0.0008454   -0.0001567    -0.0000980    0.0003881     0.0002084    0.0002691 
   0.011352826     0.8679252   -0.3431047     0.0002949    0.0000753    -0.0001802    0.0000126     0.0005615   -0.0002788 
   0.011452851     0.8464838   -0.3108242     0.0011299   -0.0004032    -0.0000335   -0.0000489     0.0000269    0.0002256 
   0.011552876     0.8434120   -0.3213619    -0.0002111    0.0003662     0.0000828   -0.0000528     0.0003658    0.0000818 
   0.011652901     0.8537369   -0.3407888     0.0001708   -0.0002580     0.0000249   -0.0000717    -0.0000479    0.0000915 
   0.011752926     0.8370789   -0.3429416     0.0003689    0.0004216    -0.0000877    0.0000861     0.0000862   -0.0001110 
   0.011852951     0.8557163   -0.3358989    -0.0002002    0.0001955     0.0000122    0.0000941     0.0002019   -0.0000852 
   0.011952976     0.8407164   -0.3299464    -0.0007718   -0.0005112    -0.0001110    0.0000380     0.0004313   -0.0001128 
   0.012053002     0.8333453   -0.3505657     0.0006373   -0.0004476    -0.0000103    0.0002442     0.0003915    0.0003878 
   0.012153027     0.8459450   -0.3490567     0.0001313   -0.0006982    -0.0000467   -0.0000295     0.0001115   -0.0000588 
   0.012253052     0.8402048   -0.3466077     0.0001898   -0.0008419    -0.0002452   -0.0000840     0.0006665    0.0005367 
   0.012353077     0.8335686   -0.3407286     0.0013962    0.0010044     0.0002063   -0.0000486     0.0002417    0.0003087 
   0.012453102     0.8367829   -0.3439535     0.0003092    0.0010810    -0.0001153   -0.0000843     0.0006709   -0.0001288 
   0.012553127     0.8288777   -0.3673180     0.0004821    0.0000944    -0.0000606    0.0004350     0.0002319   -0.0001787 
   0.012653152     0.8452250   -0.3346508     0.0010479   -0.0008256    -0.0000725   -0.0001843    -0.0000982    0.0001053 
   0.012753177     0.8258156   -0.3500330    -0.0004905   -0.0000967    -0.0001705   -0.0002311    -0.0000004   -0.0002528 
   0.012853202     0.8295327   -0.3370707     0.0003980   -0.0002043    -0.0001763   -0.0002690     0.0002090    0.0002079 
   0.012953227     0.8203604   -0.3470846    -0.0000434    0.0000671    -0.0002466    0.0001006     0.0005852   -0.0000310 
   0.013053252     0.8182567   -0.3676655    -0.0002696    0.0000797     0.0003594    0.0002076     0.0001825   -0.0000439 
   0.013153277     0.8223678   -0.3585068    -0.0004853    0.0003104     0.0004600    0.0001397     0.0001318    0.0000269 
   0.013253302     0.8181562   -0.3577169     0.0010934   -0.0004368    -0.0001103   -0.0000693     0.0006504   -0.0003329 
   0.013353327     0.8133453   -0.3611199    -0.0003237   -0.0003936     0.0000257    0.0002901     0.0003578   -0.0002135 
   0.013453352     0.8219594   -0.3516395    -0.0002646    0.0000850     0.0001890   -0.0001890     0.0004790    0.0000604 
   0.013553377     0.8025095   -0.3558407    -0.0002576   -0.0002832     0.0001400    0.0002260     0.0004120   -0.0003534 
   0.013653402     0.8003086   -0.3630770    -0.0004618    0.0000618     0.0001074   -0.0001555     0.0007947   -0.0000650 
   0.013753427     0.8086042   -0.3761120     0.0001508    0.0001010     0.0000679    0.0000270     0.0002388    0.0000116 
   0.013853452     0.8134356   -0.3793859     0.0017543   -0.0002362     0.0003769   -0.0001365     0.0003642    0.0001114 
   0.013953477     0.7929375   -0.3505312     0.0011007   -0.0007222     0.0001515    0.0000180     0.0004783    0.0001285 
   0.014053502     0.8066067   -0.3754963    -0.0001894   -0.0000848    -0.0001336   -0.0000557    -0.0000416    0.0002018 
   0.014153527     0.7960054   -0.3664928     0.0007789   -0.0005372    -0.0000548    0.0002222     0.0008802    0.0003932 
   0.014253552     0.7978309   -0.3628379    -0.0006627   -0.0000157    -0.0001991   -0.0000334     0.0002712   -0.0001159 
   0.014353577     0.7903160   -0.3706480    -0.0003998    0.0002426     0.0001156    0.0004242     0.0002078    0.0000996 
   0.014453602     0.7813958   -0.3781414     0.0005977    0.0003924     0.0000434   -0.0001703    -0.0003794    0.0001134 
   0.014553627     0.7864016   -0.3772739     0.0005824    0.0005634     0.0000400    0.0001328     0.0002179   -0.0000837 
   0.014653652     0.7910434   -0.3773346    -0.0007991   -0.0004648    -0.0000312   -0.0001032     0.0004242   -0.0005806 
   0.014753677     0.7867934   -0.3818208    -0.0004322    0.0000497     0.0000453   -0.0000562     0.0003867   -0.0000398 
   0.014853702     0.7845173   -0.3826421     0.0007556   -0.0000154    -0.0001275   -0.0001284     0.0004322    0.0000703 
   0.014953727     0.7825663   -0.3973786     0.0006370   -0.0000556    -0.0003440    0.0000279     0.0005348    0.0002234 
   0.015053752     0.7834077   -0.3837230     0.0004098   -0.0000461     0.0000546   -0.0000324     0.0003983    0.0002479 
   0.015153777     0.7797414   -0.3802131     0.0005865    0.0005650     0.0000992    0.0000379     0.0006544   -0.0004575 
   0.015253802     0.7799294   -0.3878103    -0.0003179    0.0007698    -0.0001163   -0.0000213     0.0004361   -0.0000924 
   0.015353827     0.7780895   -0.3858339    -0.0003222   -0.0000951    -0.0000683   -0.0000719     0.0003699   -0.0002562 
   0.015453852     0.7706605   -0.3895201    -0.0004305   -0.0007974     0.0000244    0.0001072     0.0005870    0.0004130 
   0.015553877     0.7674941   -0.3924858    -0.0006198   -0.0004608    -0.0000720    0.0002291     0.0001637   -0.0003694 
   0.015653902     0.7754381   -0.3959120    -0.0006127    0.0000870    -0.0000424    0.0000037     0.0004280    0.0001491 
