! 26-Feb-26 1:45:19 PM
! E:\VNA_MEASUREMENTS\CAL_S11\CAL_TESTSRC_T1T1E5_1.S2P
! CHANNEL.1
! TR.MEASUREMENT
! CORRECTED.DATA
# GHZ S RI R 50.0
! FREQ.GHZ         S11RE         S11IM         S21RE         S21IM         S12RE         S12IM         S22RE         S22IM         
!; PortSelection: Port_12
   0.000050000     0.5482067   -0.9428096     0.2620056   -0.4198996     0.0018585   -0.0050492     0.0053312    0.0058636 
   0.000150025    -0.5090930    0.2948765     1.1654150   -0.5856947     0.0000603   -0.0003660     0.0019799   -0.0054765 
   0.000250050    -0.2559237    0.0104082     0.1766267   -0.3922508     0.0009793   -0.0003487     0.0003074   -0.0024527 
   0.000350075     0.9811565   -0.0075079     0.0014125   -0.0033176    -0.0002017    0.0002557    -0.0001219   -0.0007116 
   0.000450100     0.9408710   -0.0643146     0.0013891   -0.0108210    -0.0001501   -0.0007581    -0.0006037   -0.0020818 
   0.000550125     0.9719126   -0.0607916    -0.0022523   -0.0106912     0.0000240    0.0006970     0.0012695    0.0009264 
   0.000650150     0.9798127   -0.0187325     0.0000754   -0.0036371     0.0002911    0.0000439     0.0003202   -0.0015301 
   0.000750175     1.0400570   -0.0663463    -0.0073654   -0.0105632     0.0002151    0.0006160    -0.0009058    0.0009141 
   0.000850200     1.0056260   -0.0706000    -0.0048380   -0.0068985    -0.0002382   -0.0005312    -0.0014418    0.0001808 
   0.000950225     1.0399930   -0.0437077    -0.0031214   -0.0100263     0.0005807    0.0001467    -0.0000516    0.0009076 
   0.001050250     1.0222430   -0.0974239    -0.0137929   -0.0034517     0.0003955   -0.0002263    -0.0002689   -0.0001807 
   0.001150275     0.9647611   -0.0595641    -0.0120048   -0.0024356    -0.0008539    0.0000852     0.0008718    0.0007490 
   0.001250300     0.9831272   -0.0709326    -0.0093947   -0.0047128    -0.0004521   -0.0001772     0.0008226    0.0010806 
   0.001350325     1.0080730   -0.0646495    -0.0140319   -0.0027192    -0.0006107   -0.0005842    -0.0007785    0.0002127 
   0.001450350     1.0322910   -0.0677781    -0.0114628    0.0003318     0.0001201    0.0001541     0.0007040   -0.0002940 
   0.001550375     0.9700184   -0.0539997    -0.0094451   -0.0026517    -0.0009422    0.0001476    -0.0007693    0.0008635 
   0.001650400     0.9843962   -0.0050042    -0.0091503   -0.0015609     0.0005657    0.0006853    -0.0000232   -0.0007031 
   0.001750425     0.9654878   -0.0860193    -0.0086115   -0.0018794    -0.0012153   -0.0001174     0.0004368   -0.0007684 
   0.001850450     0.9832169   -0.0736908    -0.0071348    0.0022082    -0.0004067    0.0001614    -0.0005765    0.0006237 
   0.001950475     1.0259900   -0.0059311    -0.0072567    0.0015756    -0.0002801   -0.0003250     0.0010772   -0.0010465 
   0.002050500     0.9752318   -0.0585724    -0.0064762    0.0003494     0.0001053    0.0008331    -0.0000975   -0.0004403 
   0.002150525     1.0104310   -0.0608984    -0.0068661    0.0012455     0.0004462    0.0002654     0.0005042    0.0003483 
   0.002250550     1.0043270   -0.0537211    -0.0071150    0.0003883     0.0003522    0.0004774    -0.0000631   -0.0000852 
   0.002350575     0.9696636   -0.1143202    -0.0040950    0.0010172     0.0000035    0.0000706    -0.0000824   -0.0003421 
   0.002450600     0.9921167   -0.0765765    -0.0062698    0.0004006     0.0001207    0.0002926     0.0011087    0.0000666 
   0.002550625     1.0043770   -0.0811149    -0.0035913    0.0059032    -0.0007013    0.0003589     0.0002458    0.0010932 
   0.002650650     1.0044280   -0.0776653    -0.0048839    0.0038247    -0.0003643    0.0005968    -0.0002421    0.0001362 
   0.002750675     0.9922581   -0.0848321    -0.0035591    0.0032803    -0.0006750   -0.0002502    -0.0000523    0.0003245 
   0.002850700     0.9927126   -0.1059949    -0.0012243    0.0029356    -0.0002864   -0.0004863     0.0001074    0.0001216 
   0.002950725     0.9610888   -0.0684912     0.0001284    0.0006379     0.0004752    0.0003956     0.0014086   -0.0000532 
   0.003050750     0.9793088   -0.1184323    -0.0077322    0.0030497    -0.0002396   -0.0008830     0.0007096   -0.0002989 
   0.003150775     1.0093890   -0.1155981     0.0011493    0.0002985     0.0004310   -0.0002370    -0.0000022    0.0007763 
   0.003250800     0.9766496   -0.1013906    -0.0002653    0.0005243     0.0005318    0.0007397     0.0006666    0.0001880 
   0.003350825     0.9630420   -0.0995858    -0.0044076    0.0012173    -0.0008326    0.0003586    -0.0000070    0.0004279 
   0.003450850     0.9608870   -0.1394395    -0.0034827    0.0034406    -0.0004980    0.0005645     0.0002786   -0.0008955 
   0.003550875     0.9382036   -0.1211171    -0.0016759    0.0020940    -0.0000583   -0.0002180     0.0000507   -0.0004447 
   0.003650900     0.9977815   -0.0976038    -0.0017510    0.0036163    -0.0002010   -0.0004104     0.0005736   -0.0000703 
   0.003750925     0.9738916   -0.1557252     0.0008321    0.0009466    -0.0001060    0.0004596    -0.0001981   -0.0004199 
   0.003850950     0.9541924   -0.1098227    -0.0035441    0.0023520     0.0002275    0.0002490     0.0005555    0.0006094 
   0.003950975     0.9868101   -0.1049354    -0.0015395    0.0003206    -0.0000135    0.0002030    -0.0000418    0.0001821 
   0.004051001     0.9563793   -0.1682706    -0.0003169    0.0017162    -0.0005121    0.0004212    -0.0003884    0.0001662 
   0.004151026     0.9671775   -0.1332276     0.0002378    0.0019087     0.0000273    0.0002102     0.0000531   -0.0004332 
   0.004251051     0.9772787   -0.1207080     0.0018143    0.0034284     0.0003415   -0.0002333     0.0004406   -0.0006825 
   0.004351076     0.9898357   -0.1237514    -0.0008770    0.0028973     0.0000784   -0.0005944     0.0011650    0.0005444 
   0.004451101     0.9553633   -0.1606317    -0.0015383    0.0002289     0.0001264   -0.0002092     0.0009498   -0.0007038 
   0.004551126     0.9861199   -0.1538254    -0.0004123    0.0029335     0.0001275   -0.0001229    -0.0001745    0.0003707 
   0.004651151     0.9752417   -0.1468727    -0.0013720    0.0013381    -0.0006038    0.0003498     0.0004304   -0.0001424 
   0.004751176     0.9582607   -0.1925127    -0.0005979    0.0010474    -0.0000075    0.0004319     0.0000730   -0.0001370 
   0.004851201     0.9604615   -0.1539439    -0.0021996    0.0015186     0.0002395   -0.0004032     0.0002508    0.0008955 
   0.004951226     0.9650905   -0.1466190     0.0002287    0.0009133    -0.0003364    0.0002355    -0.0003802   -0.0004905 
   0.005051251     0.9742522   -0.1841611    -0.0012196    0.0009482     0.0001232   -0.0001687     0.0003382    0.0001279 
   0.005151276     0.9164293   -0.1540727    -0.0006433    0.0003937     0.0000318   -0.0004688     0.0005809   -0.0001698 
   0.005251301     0.9255089   -0.1835849    -0.0008273    0.0003365    -0.0001744    0.0001204     0.0001850    0.0009065 
   0.005351326     0.9386040   -0.1698319    -0.0015749    0.0004370     0.0003878    0.0000163     0.0006267    0.0004327 
   0.005451351     0.9434994   -0.1709723     0.0003159    0.0012996    -0.0002869   -0.0001254     0.0005075   -0.0000305 
   0.005551376     0.9559708   -0.1836080    -0.0001309    0.0003884    -0.0001866    0.0002382     0.0007196   -0.0004923 
   0.005651401     0.9539028   -0.1630834    -0.0000777    0.0002239     0.0003771   -0.0001188    -0.0001601   -0.0004354 
   0.005751426     0.9356614   -0.1813699    -0.0014340    0.0029595    -0.0003570   -0.0000847     0.0003829   -0.0001749 
   0.005851451     0.9642989   -0.2068680    -0.0008955    0.0004211    -0.0000316    0.0004179     0.0002086   -0.0003539 
   0.005951476     0.9506904   -0.1955430     0.0002969   -0.0001929     0.0003686    0.0003164     0.0004678    0.0002843 
   0.006051501     0.9454423   -0.1680230     0.0003678    0.0032719     0.0001243   -0.0000470     0.0003452   -0.0000480 
   0.006151526     0.9573601   -0.2210039    -0.0007218   -0.0005943    -0.0004835    0.0003273     0.0008263   -0.0003601 
   0.006251551     0.9397463   -0.1997383     0.0009416   -0.0001603     0.0002100    0.0002175     0.0000559    0.0006034 
   0.006351576     0.9306162   -0.2129728    -0.0001150    0.0010850    -0.0004509   -0.0000224     0.0006736   -0.0003743 
   0.006451601     0.9425873   -0.2118825    -0.0003946    0.0008308    -0.0000918    0.0004387    -0.0001869    0.0006352 
   0.006551626     0.9283907   -0.2174630     0.0006225   -0.0005126    -0.0001543   -0.0001583    -0.0005426    0.0001464 
   0.006651651     0.9299068   -0.2146616    -0.0009501    0.0001819    -0.0000595   -0.0001902     0.0001010   -0.0002604 
   0.006751676     0.9286540   -0.2218682     0.0002138    0.0009482    -0.0001633    0.0002420     0.0012344    0.0001491 
   0.006851701     0.9373353   -0.2350872     0.0004969   -0.0009629     0.0003093   -0.0000778     0.0001356    0.0001267 
   0.006951726     0.8962454   -0.2321796    -0.0010286    0.0001944    -0.0001703   -0.0004795     0.0009264    0.0011399 
   0.007051751     0.9439046   -0.2389355    -0.0008811    0.0015207    -0.0002241    0.0005055     0.0004947   -0.0001722 
   0.007151776     0.9020479   -0.2505784    -0.0007248    0.0010762    -0.0003018    0.0000066     0.0005559    0.0004587 
   0.007251801     0.9457999   -0.2220938    -0.0008184    0.0003595     0.0000111   -0.0004408     0.0001445   -0.0007948 
   0.007351826     0.9226429   -0.2602207     0.0005688    0.0001659     0.0000786   -0.0000904     0.0005375    0.0003465 
   0.007451851     0.8986027   -0.2244852    -0.0005528    0.0018897     0.0000411    0.0003653     0.0006316   -0.0001503 
   0.007551876     0.9119867   -0.2448604     0.0007775    0.0012922    -0.0000525    0.0001962    -0.0000825   -0.0004079 
   0.007651901     0.9100949   -0.2677276     0.0006477   -0.0008708    -0.0003335   -0.0001619    -0.0002069   -0.0000947 
   0.007751926     0.9128214   -0.2380913    -0.0003954   -0.0016963    -0.0000634   -0.0002230    -0.0001100   -0.0003572 
   0.007851951     0.9174714   -0.2295300    -0.0006720    0.0004747    -0.0001339   -0.0002055     0.0008391    0.0001907 
   0.007951976     0.9246807   -0.2630169    -0.0011146   -0.0005079    -0.0002116    0.0002247     0.0002619    0.0003682 
   0.008052001     0.9139264   -0.2490400     0.0003483   -0.0007200     0.0002572    0.0000830     0.0001881    0.0001693 
   0.008152026     0.9207065   -0.2556064    -0.0008970    0.0010745     0.0004384   -0.0003134     0.0003685    0.0000560 
   0.008252051     0.8892010   -0.2318788    -0.0013034   -0.0007448     0.0001194    0.0001888     0.0005067    0.0004875 
   0.008352076     0.9183502   -0.2771401    -0.0000109    0.0008947     0.0003764    0.0000637     0.0004924    0.0001183 
   0.008452101     0.9125911   -0.2380050    -0.0022235    0.0003312    -0.0002058   -0.0000913     0.0001180   -0.0000054 
   0.008552126     0.9293671   -0.2674304    -0.0000663    0.0015909     0.0002528   -0.0001448     0.0002987    0.0005528 
   0.008652151     0.9128778   -0.2509815     0.0007971   -0.0008117     0.0000739   -0.0003169     0.0004316    0.0002782 
   0.008752176     0.9050623   -0.2501322    -0.0006505   -0.0001275     0.0001397    0.0000405     0.0000436   -0.0003629 
   0.008852201     0.9069820   -0.2717926    -0.0005339    0.0001633     0.0005381    0.0002224     0.0002402    0.0002360 
   0.008952226     0.9124609   -0.2768483    -0.0012009    0.0007281     0.0000000    0.0001616     0.0000970   -0.0006244 
   0.009052251     0.9167731   -0.2667145    -0.0003556   -0.0002278    -0.0003110   -0.0000905     0.0007751   -0.0001853 
   0.009152276     0.8999151   -0.2725123     0.0007232    0.0003585     0.0001691    0.0002914     0.0007013   -0.0000783 
   0.009252301     0.8930213   -0.2740820    -0.0004897   -0.0009708    -0.0003855   -0.0003194     0.0003684   -0.0002401 
   0.009352326     0.9054154   -0.2790855    -0.0013336   -0.0007556     0.0002494    0.0001705     0.0001755    0.0002623 
   0.009452351     0.8904769   -0.2865961     0.0000069    0.0012555     0.0003888    0.0001576     0.0007087   -0.0000668 
   0.009552376     0.9077973   -0.2923833     0.0012448   -0.0001615     0.0000843   -0.0000673     0.0003685    0.0004640 
   0.009652401     0.8738739   -0.2926541     0.0004549    0.0006780     0.0002279    0.0002805    -0.0000781   -0.0001572 
   0.009752426     0.8898010   -0.2823937    -0.0002883    0.0004499     0.0003932    0.0002200     0.0001912    0.0004901 
   0.009852451     0.8837115   -0.3008684    -0.0000928    0.0002818     0.0000153    0.0002346     0.0002198    0.0000917 
   0.009952476     0.8849202   -0.3042464    -0.0002940   -0.0003984     0.0001918    0.0001126     0.0004416   -0.0000566 
   0.010052501     0.8779490   -0.3048805     0.0001676   -0.0002980     0.0000661   -0.0002288     0.0003900   -0.0000064 
   0.010152526     0.8729464   -0.3021826     0.0007882    0.0004987    -0.0002036    0.0000546     0.0002443    0.0004503 
   0.010252551     0.8639809   -0.3020989     0.0012847    0.0003200    -0.0000867   -0.0001669     0.0005783    0.0004334 
   0.010352576     0.8852044   -0.3317264    -0.0004045    0.0009363    -0.0002746   -0.0001647     0.0000684    0.0000119 
   0.010452601     0.8745896   -0.2944672    -0.0001356   -0.0009843    -0.0000829    0.0001134     0.0005097   -0.0004548 
   0.010552626     0.8569837   -0.3099062    -0.0008082   -0.0002378    -0.0000152   -0.0000348    -0.0000452    0.0001698 
   0.010652651     0.8752128   -0.3074432    -0.0003528    0.0009026     0.0000859    0.0001076     0.0004898    0.0000336 
   0.010752676     0.8700743   -0.3239397    -0.0000448    0.0003518    -0.0000248   -0.0000803     0.0000213   -0.0001265 
   0.010852701     0.8692712   -0.3045858    -0.0001833   -0.0000421    -0.0001629    0.0000924     0.0003479   -0.0000411 
   0.010952726     0.8615129   -0.3117429     0.0002260   -0.0003627     0.0002061   -0.0003568    -0.0000148   -0.0001504 
   0.011052751     0.8671568   -0.3263899     0.0004738    0.0005394     0.0002504    0.0001328     0.0001800   -0.0000155 
   0.011152776     0.8565370   -0.3278487     0.0001531    0.0000784    -0.0002621   -0.0000739     0.0002146   -0.0002949 
   0.011252801     0.8636343   -0.3378586    -0.0004319   -0.0001172     0.0000173    0.0003910    -0.0000413    0.0002310 
   0.011352826     0.8592429   -0.3425491    -0.0000473   -0.0002370    -0.0000687    0.0001814     0.0005519   -0.0003911 
   0.011452851     0.8466633   -0.3278296     0.0002455    0.0001882    -0.0000577    0.0002817     0.0001153   -0.0000416 
   0.011552876     0.8526279   -0.3310605    -0.0010255   -0.0001861    -0.0001819   -0.0001843    -0.0000598   -0.0000816 
   0.011652901     0.8435427   -0.3499872    -0.0011486   -0.0002887    -0.0002693    0.0001876    -0.0000736    0.0005084 
   0.011752926     0.8322335   -0.3284249     0.0003685    0.0005940     0.0002697   -0.0003010     0.0002713    0.0000019 
   0.011852951     0.8487054   -0.3390352    -0.0005173   -0.0001033     0.0003515    0.0000918     0.0003418    0.0001612 
   0.011952976     0.8411033   -0.3350335    -0.0005617   -0.0005504     0.0001981   -0.0000511     0.0001956    0.0000549 
   0.012053002     0.8254494   -0.3455230    -0.0007522    0.0005920    -0.0005331    0.0001486     0.0004006    0.0002935 
   0.012153027     0.8295144   -0.3537131    -0.0003363   -0.0003878     0.0000546   -0.0002126     0.0005858   -0.0001768 
   0.012253052     0.8214600   -0.3472002     0.0005197   -0.0011447     0.0002737   -0.0002709     0.0007203    0.0002395 
   0.012353077     0.8526396   -0.3519869    -0.0000381    0.0009931     0.0002282   -0.0001655     0.0001792   -0.0001302 
   0.012453102     0.8292283   -0.3479211     0.0000855    0.0006429    -0.0000686   -0.0000588     0.0002688   -0.0004092 
   0.012553127     0.8202612   -0.3709472    -0.0001692   -0.0000002     0.0002071   -0.0001818     0.0003925   -0.0004185 
   0.012653152     0.8398376   -0.3528732    -0.0004072    0.0004251    -0.0001648   -0.0000605     0.0003698    0.0003022 
   0.012753177     0.8235068   -0.3591127    -0.0001684   -0.0003579     0.0001561   -0.0001094     0.0000202    0.0002614 
   0.012853202     0.8190343   -0.3518675    -0.0004031   -0.0000510    -0.0000061    0.0002384     0.0002395    0.0006955 
   0.012953227     0.8161828   -0.3601637     0.0010166    0.0002583     0.0000884   -0.0000160     0.0007599    0.0003992 
   0.013053252     0.8106835   -0.3786998    -0.0004582   -0.0000203    -0.0000772   -0.0001221     0.0003504    0.0001642 
   0.013153277     0.8172725   -0.3616557     0.0001409   -0.0009447    -0.0001775    0.0002819     0.0001589    0.0000694 
   0.013253302     0.8132226   -0.3652647     0.0001590    0.0006716    -0.0001282    0.0001529     0.0003894   -0.0004624 
   0.013353327     0.8097394   -0.3621167    -0.0005863    0.0002479     0.0001016    0.0002301     0.0003974    0.0001767 
   0.013453352     0.8147092   -0.3630116     0.0007088   -0.0000613     0.0003192    0.0000934     0.0002971   -0.0001092 
   0.013553377     0.8037022   -0.3634155     0.0006432    0.0005743     0.0002366    0.0000713     0.0003335   -0.0003061 
   0.013653402     0.7962634   -0.3696384    -0.0001236    0.0004854    -0.0001084   -0.0004425     0.0008174   -0.0000673 
   0.013753427     0.7991874   -0.3813344     0.0000830    0.0001699    -0.0000329   -0.0000252     0.0001536    0.0002432 
   0.013853452     0.8000757   -0.3857316     0.0008608    0.0002624    -0.0001519    0.0001520     0.0002868    0.0001451 
   0.013953477     0.7892517   -0.3630873     0.0001151   -0.0004443    -0.0000020    0.0001300     0.0005178    0.0003894 
   0.014053502     0.8054419   -0.3834364     0.0009264    0.0002575     0.0001112   -0.0001854    -0.0001059    0.0000129 
   0.014153527     0.8021719   -0.3777523    -0.0009117    0.0005111     0.0000639   -0.0002663     0.0002929    0.0003860 
   0.014253552     0.8009896   -0.3821225    -0.0009108   -0.0000660     0.0002031    0.0000057     0.0004443   -0.0002139 
   0.014353577     0.7897062   -0.3712208     0.0007052   -0.0006457    -0.0001354   -0.0000850     0.0006685    0.0000788 
   0.014453602     0.7774890   -0.3903197     0.0000999    0.0003880    -0.0001197    0.0001152    -0.0000159   -0.0000164 
   0.014553627     0.7878529   -0.3882306     0.0006388   -0.0010743     0.0000666   -0.0002060     0.0005215    0.0000387 
   0.014653652     0.7870437   -0.3975624     0.0002701   -0.0005852     0.0000398    0.0001071     0.0004494   -0.0001811 
   0.014753677     0.7712273   -0.3868517     0.0000033    0.0006242    -0.0000028   -0.0000235     0.0002591   -0.0001783 
   0.014853702     0.7895271   -0.3840862     0.0003746   -0.0002185    -0.0001378    0.0002053     0.0002120    0.0000748 
   0.014953727     0.7802181   -0.4012731    -0.0000537   -0.0005891    -0.0002347    0.0000386     0.0006751    0.0003569 
   0.015053752     0.7795001   -0.4040734    -0.0001692   -0.0003151     0.0001778    0.0001798     0.0002380    0.0004730 
   0.015153777     0.7808047   -0.3979078    -0.0002309    0.0002585    -0.0000401    0.0000084     0.0003314   -0.0004449 
   0.015253802     0.7696400   -0.3990759     0.0001153    0.0000413     0.0002487   -0.0001887     0.0002654   -0.0004053 
   0.015353827     0.7689531   -0.4069394     0.0008056    0.0007655     0.0001997   -0.0000816     0.0010311    0.0001770 
   0.015453852     0.7698048   -0.4027387    -0.0006658   -0.0003889     0.0000532    0.0001537     0.0009674    0.0002012 
   0.015553877     0.7638441   -0.4075630     0.0008668    0.0001687    -0.0001794    0.0001894     0.0004537    0.0000516 
   0.015653902     0.7648197   -0.4078279     0.0003687   -0.0002577     0.0000183    0.0000619    -0.0000902    0.0003110 
