! 23-Mar-26 12:05:32 PM
! E:\UPDATEDVNAMEASUREMENTS\VALIDATION_SRC_S11.S2P
! CHANNEL.1
! TR.MEASUREMENT
! CORRECTED.DATA
# GHZ S RI R 50.0
! FREQ.GHZ         S11RE         S11IM         S21RE         S21IM         S12RE         S12IM         S22RE         S22IM         
!; PortSelection: Port_12
   0.000050000     0.1885671   -0.0689789     0.3033242   -0.0390694     0.0027633   -0.0017063    -0.0089908    0.0121493 
   0.000150025    -0.1194716    0.0630048    -0.1414502    0.2192626     0.0012233   -0.0004827    -0.0001715   -0.0022588 
   0.000250050     0.1575819   -0.0132741     0.0810138   -0.0502680     0.0004438    0.0005230    -0.0009489   -0.0046327 
   0.000350075     0.2649401   -0.0088542    -0.0014736   -0.0073187    -0.0011106   -0.0003258     0.0002096   -0.0017098 
   0.000450100     0.2513790   -0.0088735    -0.0022366   -0.0051009     0.0001483    0.0006668    -0.0000170   -0.0013042 
   0.000550125     0.2492211   -0.0111005    -0.0020521   -0.0066641     0.0012422   -0.0003984     0.0013808    0.0014925 
   0.000650150     0.2597862   -0.0251715    -0.0071473   -0.0080191    -0.0000048   -0.0004253     0.0003908   -0.0009283 
   0.000750175     0.2493757   -0.0142571    -0.0048017   -0.0070757    -0.0002123    0.0000762    -0.0002703   -0.0001005 
   0.000850200     0.2428634   -0.0302844    -0.0045063   -0.0053948    -0.0001008    0.0005126    -0.0002078   -0.0003703 
   0.000950225     0.2582983   -0.0128562    -0.0038917   -0.0062778     0.0005172    0.0001614     0.0009683    0.0012331 
   0.001050250     0.2449505   -0.0171860    -0.0041100   -0.0047752     0.0000235    0.0002998     0.0008007    0.0010146 
   0.001150275     0.2565094   -0.0263918    -0.0039360   -0.0023441    -0.0001424   -0.0001019     0.0012817    0.0003355 
   0.001250300     0.2470494   -0.0260536    -0.0065954   -0.0061044     0.0003208    0.0007438     0.0002445    0.0006084 
   0.001350325     0.2484471   -0.0422221    -0.0082275    0.0000544     0.0004927    0.0001884    -0.0005581   -0.0002456 
   0.001450350     0.2488440   -0.0199034    -0.0042616   -0.0005714    -0.0000129    0.0001028     0.0008736    0.0010605 
   0.001550375     0.2446593   -0.0377622    -0.0046667   -0.0004720    -0.0001706    0.0000721     0.0006170    0.0009870 
   0.001650400     0.2579224   -0.0371652    -0.0098119   -0.0012257    -0.0004883    0.0008793    -0.0005524    0.0000588 
   0.001750425     0.2449388   -0.0433053    -0.0060856    0.0001385     0.0001921   -0.0000198     0.0004034   -0.0000997 
   0.001850450     0.2543691   -0.0352162    -0.0061263    0.0006362     0.0000979   -0.0000300    -0.0003137    0.0022793 
   0.001950475     0.2572114   -0.0423108    -0.0023548    0.0004079    -0.0000426    0.0000857     0.0019728    0.0004986 
   0.002050500     0.2525785   -0.0441899    -0.0070115    0.0008653    -0.0003797   -0.0000542     0.0017019   -0.0003096 
   0.002150525     0.2545125   -0.0449969    -0.0040580   -0.0003168     0.0001356    0.0005598     0.0005508   -0.0000232 
   0.002250550     0.2403418   -0.0516943    -0.0049404    0.0030704     0.0001201    0.0001617     0.0005230    0.0000724 
   0.002350575     0.2371038   -0.0548589    -0.0035861    0.0018824     0.0000086   -0.0000627     0.0015834   -0.0000315 
   0.002450600     0.2502416   -0.0645870    -0.0038202    0.0024147     0.0000052   -0.0000955     0.0006718   -0.0000244 
   0.002550625     0.2464135   -0.0616142    -0.0036703    0.0003738    -0.0006113   -0.0000218     0.0007454    0.0003880 
   0.002650650     0.2518240   -0.0606257    -0.0024490   -0.0001374     0.0001100   -0.0001438     0.0006203   -0.0001809 
   0.002750675     0.2466031   -0.0609059    -0.0037063    0.0029697    -0.0008915    0.0002393    -0.0002712    0.0002773 
   0.002850700     0.2529675   -0.0652174    -0.0024468    0.0012496     0.0000325   -0.0003570    -0.0000663    0.0002883 
   0.002950725     0.2392409   -0.0663164    -0.0035745    0.0003252    -0.0001186    0.0001591     0.0006489    0.0004023 
   0.003050750     0.2451559   -0.0687182     0.0015910    0.0015962    -0.0005055    0.0005472     0.0006991   -0.0004446 
   0.003150775     0.2464544   -0.0767163    -0.0006460    0.0002289    -0.0001708    0.0000899     0.0005355    0.0003769 
   0.003250800     0.2410813   -0.0722227    -0.0032200    0.0027246     0.0004841    0.0003229     0.0003048    0.0003295 
   0.003350825     0.2407739   -0.0762355    -0.0026676    0.0017755    -0.0000552    0.0002254     0.0003007   -0.0000160 
   0.003450850     0.2375581   -0.0789158    -0.0002970    0.0027930     0.0000734    0.0001797     0.0005771    0.0000165 
   0.003550875     0.2415710   -0.0823937    -0.0013335    0.0030807    -0.0003142    0.0000788     0.0001175   -0.0002459 
   0.003650900     0.2385006   -0.0774880    -0.0022636    0.0007208    -0.0000752   -0.0000911     0.0007553   -0.0006060 
   0.003750925     0.2363962   -0.0902172    -0.0009444    0.0017273    -0.0003030   -0.0001885     0.0004299   -0.0000938 
   0.003850950     0.2438513   -0.0889356     0.0018907    0.0014533     0.0000224   -0.0000902     0.0002359    0.0002572 
   0.003950975     0.2410734   -0.0910490    -0.0000013   -0.0000126    -0.0000590    0.0005917     0.0003979   -0.0002581 
   0.004051001     0.2374932   -0.0977530     0.0008520    0.0011589    -0.0000724    0.0001183     0.0006377    0.0004086 
   0.004151026     0.2423512   -0.0915847    -0.0015298    0.0030335    -0.0001681   -0.0001622     0.0000799   -0.0003761 
   0.004251051     0.2285722   -0.0973392     0.0000391    0.0007853    -0.0002773    0.0001587     0.0004500    0.0000583 
   0.004351076     0.2373785   -0.0994576    -0.0007424    0.0003649    -0.0000612    0.0002569     0.0010737    0.0004841 
   0.004451101     0.2394333   -0.1021564    -0.0001588    0.0014311    -0.0002511   -0.0000993     0.0001411   -0.0008600 
   0.004551126     0.2293051   -0.1144229     0.0007910    0.0010958     0.0003818   -0.0000345    -0.0002556    0.0009669 
   0.004651151     0.2383583   -0.1082179     0.0012796   -0.0004624     0.0000767   -0.0001815     0.0014105    0.0005075 
   0.004751176     0.2344805   -0.1130581     0.0007162    0.0014768    -0.0002037   -0.0001476     0.0004109   -0.0000447 
   0.004851201     0.2265572   -0.1166732    -0.0002141    0.0006172     0.0001204    0.0001888     0.0008730    0.0005786 
   0.004951226     0.2256597   -0.1128258    -0.0002215    0.0012561     0.0000120    0.0005896     0.0002685   -0.0001568 
   0.005051251     0.2314080   -0.1180826     0.0014849   -0.0006817     0.0002568   -0.0000028     0.0003276   -0.0000761 
   0.005151276     0.2233510   -0.1158021    -0.0009872    0.0018511     0.0000071   -0.0001346     0.0009857    0.0000219 
   0.005251301     0.2253429   -0.1146497     0.0011509    0.0002335    -0.0000629    0.0001827     0.0013326    0.0002968 
   0.005351326     0.2201533   -0.1197133    -0.0011321    0.0004186    -0.0000713    0.0000137     0.0006589    0.0008018 
   0.005451351     0.2324015   -0.1186522    -0.0009896    0.0018514     0.0002319    0.0003875     0.0010993    0.0001374 
   0.005551376     0.2262451   -0.1298466     0.0003269   -0.0006687    -0.0001062   -0.0000160     0.0003044   -0.0007450 
   0.005651401     0.2315582   -0.1312127     0.0005530    0.0005258    -0.0000934    0.0000745    -0.0000068    0.0000820 
   0.005751426     0.2135150   -0.1248332    -0.0014100    0.0006319    -0.0001193    0.0000237     0.0005947   -0.0000570 
   0.005851451     0.2201606   -0.1311076    -0.0007572    0.0008961    -0.0000599   -0.0000342     0.0002368    0.0001323 
   0.005951476     0.2168302   -0.1349625     0.0006903    0.0014170     0.0001944   -0.0002821     0.0008118    0.0000710 
   0.006051501     0.2179956   -0.1382414     0.0007982    0.0000624    -0.0002498   -0.0002131    -0.0004465   -0.0002028 
   0.006151526     0.2131283   -0.1414869     0.0002447   -0.0003958    -0.0004358   -0.0000887     0.0005005    0.0003411 
   0.006251551     0.2162429   -0.1332704    -0.0013053   -0.0001665     0.0004086   -0.0001652     0.0005261    0.0004161 
   0.006351576     0.2120380   -0.1446549    -0.0003059    0.0002900     0.0001217   -0.0000594     0.0001462    0.0000883 
   0.006451601     0.2068008   -0.1433839     0.0005361    0.0009715    -0.0001862    0.0000133     0.0005277    0.0002284 
   0.006551626     0.2069856   -0.1449123    -0.0000891    0.0000898     0.0000738   -0.0001981    -0.0002720    0.0000040 
   0.006651651     0.2074856   -0.1506385     0.0011822    0.0003826    -0.0000728    0.0000577     0.0000665    0.0000417 
   0.006751676     0.2017525   -0.1515737    -0.0000307   -0.0001415     0.0002640   -0.0001341     0.0012035    0.0003304 
   0.006851701     0.2069795   -0.1560431    -0.0011091    0.0001343    -0.0001146   -0.0001447     0.0001303    0.0003376 
   0.006951726     0.2006690   -0.1589302     0.0005834   -0.0008818    -0.0003272    0.0001360     0.0012362    0.0010664 
   0.007051751     0.2014144   -0.1604588    -0.0001767   -0.0001305     0.0006582    0.0000295     0.0007036    0.0000712 
   0.007151776     0.1972557   -0.1600470     0.0007499    0.0004994    -0.0000244   -0.0002058     0.0006413    0.0002346 
   0.007251801     0.1973058   -0.1607208    -0.0004638   -0.0002734    -0.0001960   -0.0002311     0.0003812    0.0004593 
   0.007351826     0.1974272   -0.1606446     0.0005751   -0.0008019    -0.0000381    0.0000923     0.0010865    0.0005078 
   0.007451851     0.1944940   -0.1623917    -0.0007501   -0.0002316     0.0000189   -0.0000938     0.0010221    0.0000267 
   0.007551876     0.1994566   -0.1697765     0.0008517    0.0016644    -0.0002996   -0.0002189     0.0004687   -0.0002744 
   0.007651901     0.1935304   -0.1693945    -0.0001876    0.0005898    -0.0005667   -0.0000071     0.0000538    0.0002736 
   0.007751926     0.1897197   -0.1723350    -0.0007895    0.0000483    -0.0001813   -0.0001647     0.0006144   -0.0005067 
   0.007851951     0.1935799   -0.1678674     0.0000979    0.0011447     0.0001677    0.0001864     0.0007394   -0.0002809 
   0.007951976     0.1910134   -0.1749778    -0.0001430    0.0003861    -0.0001207   -0.0004486     0.0007352    0.0004489 
   0.008052001     0.1861869   -0.1733842    -0.0007198    0.0009756    -0.0001857   -0.0000044     0.0006111    0.0001855 
   0.008152026     0.1854934   -0.1790440    -0.0002922   -0.0001178    -0.0000565    0.0001514     0.0006789    0.0004559 
   0.008252051     0.1782791   -0.1805417    -0.0000470    0.0004578    -0.0000604   -0.0001264     0.0009739    0.0002697 
   0.008352076     0.1791084   -0.1832866     0.0010345   -0.0002517     0.0000748    0.0001111     0.0006416    0.0003471 
   0.008452101     0.1783607   -0.1802741     0.0002178   -0.0001293     0.0002683    0.0000200     0.0004901   -0.0003170 
   0.008552126     0.1798447   -0.1875358    -0.0010903    0.0010799     0.0000918   -0.0002067     0.0005717    0.0005657 
   0.008652151     0.1761444   -0.1819934     0.0002371   -0.0008842    -0.0001216    0.0000972     0.0004555    0.0003485 
   0.008752176     0.1785298   -0.1842664     0.0007434    0.0007708     0.0000071   -0.0000523    -0.0000536   -0.0000859 
   0.008852201     0.1740233   -0.1887739     0.0011600    0.0000651     0.0002571   -0.0002680     0.0006825    0.0001192 
   0.008952226     0.1757823   -0.1915256    -0.0004927    0.0012009    -0.0000935    0.0001260     0.0004844   -0.0005829 
   0.009052251     0.1694402   -0.1906606     0.0009508   -0.0002437    -0.0001211   -0.0001830     0.0003859   -0.0003323 
   0.009152276     0.1687413   -0.1949100     0.0008305   -0.0001393     0.0001184    0.0001677     0.0013510    0.0004212 
   0.009252301     0.1635343   -0.1962182    -0.0007945    0.0001790    -0.0000072    0.0002051     0.0002116   -0.0000659 
   0.009352326     0.1632324   -0.1983113     0.0002275   -0.0000714     0.0003074   -0.0000913     0.0004011   -0.0000156 
   0.009452351     0.1637077   -0.1968532    -0.0000295    0.0008128    -0.0002179    0.0001992     0.0000911    0.0000814 
   0.009552376     0.1619691   -0.2014179     0.0006395   -0.0003759     0.0000852    0.0000035     0.0005824    0.0003988 
   0.009652401     0.1580226   -0.1981637    -0.0000723   -0.0004539     0.0001286   -0.0000954     0.0007174    0.0003006 
   0.009752426     0.1574626   -0.1983342     0.0001267   -0.0003983    -0.0000155   -0.0000977     0.0007162    0.0004704 
   0.009852451     0.1536670   -0.2054840    -0.0000427   -0.0002198     0.0001268    0.0001676     0.0003132    0.0003111 
   0.009952476     0.1509854   -0.2060075    -0.0006466   -0.0003430    -0.0000737   -0.0000390     0.0002311    0.0002156 
   0.010052501     0.1483108   -0.2109281    -0.0002445   -0.0000279     0.0000115   -0.0000875     0.0004426    0.0000083 
   0.010152526     0.1477186   -0.2050926     0.0003259   -0.0003131     0.0002783    0.0000676     0.0004510    0.0002817 
   0.010252551     0.1472622   -0.2079099    -0.0009602    0.0004596    -0.0001407    0.0001440     0.0003035    0.0002894 
   0.010352576     0.1436876   -0.2168046    -0.0002032    0.0004803    -0.0000691    0.0000563     0.0004740    0.0003646 
   0.010452601     0.1414933   -0.2090746    -0.0000130    0.0001109     0.0001836   -0.0000581     0.0005156   -0.0001114 
   0.010552626     0.1370832   -0.2148146    -0.0006040   -0.0001555     0.0000468   -0.0001416     0.0000250    0.0001265 
   0.010652651     0.1376972   -0.2187834    -0.0000488   -0.0005913     0.0001194   -0.0000148     0.0006969    0.0000811 
   0.010752676     0.1356787   -0.2190032     0.0001221   -0.0000929    -0.0000089   -0.0000229     0.0003945    0.0004798 
   0.010852701     0.1334435   -0.2153418    -0.0003208    0.0000739    -0.0000793    0.0000436     0.0004178    0.0004887 
   0.010952726     0.1277538   -0.2184035     0.0005893   -0.0004423    -0.0001292   -0.0000194     0.0000083    0.0000911 
   0.011052751     0.1284534   -0.2197289    -0.0009600    0.0000660    -0.0001770   -0.0000649     0.0006899    0.0004971 
   0.011152776     0.1270743   -0.2197199     0.0003086   -0.0009008     0.0002620   -0.0001829     0.0004319    0.0002399 
   0.011252801     0.1250642   -0.2228502    -0.0002677   -0.0002162     0.0000282    0.0000567     0.0001508    0.0003898 
   0.011352826     0.1204962   -0.2238990    -0.0003323    0.0000230     0.0001342   -0.0000784     0.0002225    0.0000337 
   0.011452851     0.1208118   -0.2230979    -0.0007988    0.0000254     0.0002018    0.0000134     0.0005540    0.0004199 
   0.011552876     0.1169520   -0.2233086    -0.0008938    0.0005399     0.0001908    0.0000700     0.0006064    0.0003711 
   0.011652901     0.1131974   -0.2285274    -0.0001843   -0.0000757    -0.0001802    0.0000448     0.0003788    0.0004181 
   0.011752926     0.1124174   -0.2263374    -0.0005626    0.0000558    -0.0000993    0.0002244     0.0002705    0.0001708 
   0.011852951     0.1091435   -0.2294588     0.0006132   -0.0000474     0.0001220   -0.0001113    -0.0000253    0.0002150 
   0.011952976     0.1090826   -0.2291103     0.0002618   -0.0002459    -0.0000951   -0.0000382     0.0000563    0.0005782 
   0.012053002     0.1024559   -0.2324075     0.0004753    0.0002438    -0.0002508   -0.0000850     0.0006315    0.0004264 
   0.012153027     0.1023521   -0.2337204    -0.0002778   -0.0002912    -0.0000120    0.0002268     0.0006339    0.0000247 
   0.012253052     0.1007390   -0.2305507     0.0005809   -0.0000930    -0.0000215   -0.0001527     0.0008522    0.0003068 
   0.012353077     0.0999911   -0.2348965     0.0001106   -0.0004884    -0.0002557   -0.0001225     0.0006430    0.0006527 
   0.012453102     0.0977714   -0.2367466     0.0002219    0.0007248     0.0003089    0.0000692     0.0007984    0.0004172 
   0.012553127     0.0947009   -0.2361940     0.0000312   -0.0003938     0.0000857    0.0000728     0.0005104    0.0001518 
   0.012653152     0.0948174   -0.2358156     0.0006137   -0.0000596    -0.0000697   -0.0000400     0.0001875    0.0002380 
   0.012753177     0.0892798   -0.2368331    -0.0003742    0.0000876     0.0003874    0.0001060     0.0001402    0.0003493 
   0.012853202     0.0872933   -0.2372123     0.0001826    0.0001625    -0.0000978    0.0000418     0.0000288    0.0004684 
   0.012953227     0.0878788   -0.2386728     0.0003671    0.0006419     0.0000888    0.0000849     0.0006698    0.0001831 
   0.013053252     0.0818044   -0.2383198    -0.0002308    0.0004815    -0.0002610    0.0000314     0.0008088    0.0000673 
   0.013153277     0.0834311   -0.2371617     0.0000021   -0.0005050    -0.0000193   -0.0002323     0.0003219    0.0005502 
   0.013253302     0.0805126   -0.2385814     0.0001091    0.0010621    -0.0000822    0.0001363     0.0005509   -0.0000769 
   0.013353327     0.0773030   -0.2399132    -0.0001465    0.0002696    -0.0000752    0.0000554     0.0004565    0.0004038 
   0.013453352     0.0784720   -0.2408480    -0.0003655    0.0002109     0.0001581   -0.0002366     0.0007769    0.0005717 
   0.013553377     0.0715162   -0.2391910     0.0004056   -0.0001555    -0.0001609   -0.0000424     0.0002972    0.0002049 
   0.013653402     0.0704393   -0.2426692     0.0003108    0.0002926     0.0000324    0.0001124     0.0005096    0.0005011 
   0.013753427     0.0687545   -0.2452022    -0.0003971    0.0004022    -0.0001199   -0.0000529     0.0001279    0.0002519 
   0.013853452     0.0652239   -0.2459185     0.0003422   -0.0000457     0.0001599   -0.0000112     0.0008914    0.0003757 
   0.013953477     0.0660773   -0.2423265     0.0006450    0.0000342     0.0001462   -0.0000692     0.0003536    0.0003103 
   0.014053502     0.0605987   -0.2478557    -0.0006450   -0.0001989     0.0000707   -0.0000153    -0.0000335    0.0000026 
   0.014153527     0.0582100   -0.2448187    -0.0004304   -0.0002447    -0.0002371   -0.0000620     0.0003192    0.0000932 
   0.014253552     0.0566749   -0.2472338     0.0005641    0.0002216     0.0000103   -0.0000368     0.0007225    0.0000326 
   0.014353577     0.0548512   -0.2447038    -0.0004859    0.0000066    -0.0000200    0.0000392     0.0007241    0.0003138 
   0.014453602     0.0498357   -0.2464038     0.0000243    0.0007049     0.0000235   -0.0000923     0.0003430    0.0003239 
   0.014553627     0.0477622   -0.2466234    -0.0003285   -0.0000729    -0.0001040    0.0000606     0.0005351    0.0000332 
   0.014653652     0.0497597   -0.2496866     0.0002130   -0.0001470    -0.0000120   -0.0000251     0.0004001   -0.0000812 
   0.014753677     0.0424166   -0.2491244     0.0005722    0.0006574    -0.0000378   -0.0000913     0.0005433    0.0001040 
   0.014853702     0.0475214   -0.2492302    -0.0004378   -0.0000354    -0.0000578    0.0000056     0.0006383    0.0004744 
   0.014953727     0.0372748   -0.2482484     0.0001169   -0.0005900    -0.0000963    0.0000356     0.0006492    0.0006037 
   0.015053752     0.0376284   -0.2507496    -0.0000034   -0.0001628     0.0000299    0.0001240     0.0003533    0.0005007 
   0.015153777     0.0345238   -0.2494182    -0.0000709   -0.0001838     0.0000883    0.0000521     0.0008674    0.0003079 
   0.015253802     0.0312248   -0.2501911    -0.0002296   -0.0003158    -0.0000633    0.0001889     0.0003283    0.0003283 
   0.015353827     0.0298160   -0.2490476     0.0000487   -0.0002038    -0.0000407   -0.0000444     0.0010492    0.0000920 
   0.015453852     0.0281359   -0.2506291    -0.0000325   -0.0000025    -0.0003052   -0.0000552     0.0005732    0.0006032 
   0.015553877     0.0238140   -0.2508828     0.0005127   -0.0003786    -0.0000180    0.0002187     0.0007257    0.0003857 
   0.015653902     0.0232325   -0.2506684    -0.0005644    0.0008416     0.0000016    0.0001852     0.0003014    0.0005615 
