! 23-Mar-26 11:47:15 AM
! E:\UPDATEDVNAMEASUREMENTS\CAL_S11S\AMBIENT_LOAD.S2P
! CHANNEL.1
! TR.MEASUREMENT
! CORRECTED.DATA
# GHZ S RI R 50.0
! FREQ.GHZ         S11RE         S11IM         S21RE         S21IM         S12RE         S12IM         S22RE         S22IM         
!; PortSelection: Port_12
   0.000050000     0.5354847   -0.3355582    -0.5290750   -0.1671588    -0.0080894   -0.0050234    -0.0231869    0.0283937 
   0.000150025     0.0053119    0.2250452    -0.1204790   -0.0412378     0.0004084    0.0014072     0.0009820   -0.0023815 
   0.000250050    -0.3010150   -0.1931895     0.0515312   -0.0697479    -0.0003446   -0.0002244     0.0010468   -0.0029430 
   0.000350075     1.0296650   -0.0582366    -0.0021415   -0.0106261     0.0008698    0.0013841    -0.0004962   -0.0003875 
   0.000450100     0.9713851   -0.0523527    -0.0046778   -0.0084675    -0.0007785   -0.0001147    -0.0011903   -0.0006881 
   0.000550125     0.9740589   -0.0120659    -0.0013967   -0.0065727     0.0002574    0.0005242     0.0007703    0.0001697 
   0.000650150     0.9943531   -0.0361964    -0.0054895   -0.0116584    -0.0005474   -0.0002374     0.0002785   -0.0014694 
   0.000750175     0.9729901   -0.0702632    -0.0078082   -0.0123806     0.0014599   -0.0001640    -0.0001388    0.0003077 
   0.000850200     1.0625600   -0.1151233    -0.0038289   -0.0116226    -0.0004598   -0.0002271    -0.0007440   -0.0009719 
   0.000950225     1.0073380   -0.0143588    -0.0069605   -0.0031419    -0.0000752    0.0005420     0.0010952    0.0010169 
   0.001050250     1.0135610   -0.0471303    -0.0082551   -0.0052358     0.0011691   -0.0004711     0.0010415    0.0002492 
   0.001150275     0.9887005   -0.0139615    -0.0052473   -0.0040462    -0.0003271    0.0005690     0.0018031    0.0005658 
   0.001250300     0.9687736   -0.0445567    -0.0086586   -0.0038722    -0.0001977   -0.0003705     0.0000850    0.0001952 
   0.001350325     0.9907462   -0.0793889    -0.0076103   -0.0036459     0.0003430   -0.0006495     0.0001681   -0.0002566 
   0.001450350     0.9754319   -0.0757583    -0.0057136   -0.0022704     0.0004421    0.0000252     0.0006855   -0.0001461 
   0.001550375     0.9454207   -0.0345744    -0.0090393    0.0006904    -0.0000838    0.0000104     0.0015600    0.0008948 
   0.001650400     1.0237660   -0.0107005    -0.0066734   -0.0052176     0.0001905   -0.0005610    -0.0000532   -0.0002414 
   0.001750425     0.9798071   -0.0260226    -0.0079312   -0.0010963    -0.0002012   -0.0003275    -0.0001008    0.0003306 
   0.001850450     0.9625733   -0.0986156    -0.0091010   -0.0020193     0.0003043    0.0007176     0.0008096    0.0006357 
   0.001950475     1.0217930   -0.0402443    -0.0033978   -0.0006194    -0.0001545    0.0015417     0.0013459   -0.0005159 
   0.002050500     0.9815234   -0.0609469    -0.0071781    0.0051948     0.0007095   -0.0001191     0.0013709    0.0002039 
   0.002150525     1.0254830   -0.0481127    -0.0037787    0.0037478     0.0002215    0.0005863     0.0003545   -0.0000215 
   0.002250550     0.9802871   -0.1147124    -0.0064527    0.0005931     0.0002505    0.0005673     0.0005978   -0.0001968 
   0.002350575     0.9950936   -0.1349510    -0.0048803    0.0009427     0.0003758   -0.0008025     0.0006252   -0.0004857 
   0.002450600     0.9778926   -0.1151600    -0.0069687    0.0014444     0.0004192    0.0003068     0.0002963   -0.0001578 
   0.002550625     0.9837855   -0.0657259    -0.0043154    0.0016354     0.0001936    0.0000813     0.0002416    0.0012789 
   0.002650650     0.9786021   -0.0568056    -0.0045549    0.0010462     0.0000918    0.0000502     0.0001771    0.0004037 
   0.002750675     0.9850435   -0.0543748    -0.0033026   -0.0016399    -0.0008995    0.0000681     0.0006480    0.0000967 
   0.002850700     0.9951774   -0.0775218    -0.0020130    0.0064501    -0.0006949    0.0001313     0.0002803   -0.0002736 
   0.002950725     0.9422763   -0.0777508    -0.0019644    0.0028217     0.0001745   -0.0001632     0.0017457    0.0004608 
   0.003050750     1.0045250   -0.1215236    -0.0048338    0.0034924    -0.0002748    0.0001476     0.0006086    0.0008865 
   0.003150775     0.9818018   -0.1209098    -0.0028764    0.0020174     0.0003274    0.0003790     0.0003614    0.0006574 
   0.003250800     0.9507325   -0.0884742    -0.0033481    0.0023980     0.0001211   -0.0003676     0.0005933    0.0002629 
   0.003350825     0.9775012   -0.0553492    -0.0002282    0.0024943    -0.0003357   -0.0001137     0.0002403    0.0005029 
   0.003450850     0.9711495   -0.1210819    -0.0027426    0.0026610    -0.0001687   -0.0001677     0.0006104   -0.0005895 
   0.003550875     0.9792604   -0.1042707     0.0006847    0.0017176     0.0001443   -0.0005196     0.0010606   -0.0000888 
   0.003650900     0.9736450   -0.1022497    -0.0021432    0.0022428     0.0002146    0.0002317     0.0010589   -0.0001604 
   0.003750925     0.9752286   -0.1428159    -0.0010632    0.0014717    -0.0001159   -0.0001863     0.0004496    0.0000102 
   0.003850950     0.9778990   -0.1524158    -0.0032553    0.0013779     0.0001409    0.0001050     0.0004670    0.0003309 
   0.003950975     0.9875692   -0.1219653    -0.0003953    0.0035553     0.0005649    0.0000213     0.0007033   -0.0005658 
   0.004051001     0.9489473   -0.1580655     0.0000167    0.0018801    -0.0000014    0.0005223     0.0006529    0.0008604 
   0.004151026     0.9836021   -0.1654266     0.0001873    0.0022910    -0.0008530    0.0001274     0.0005093    0.0000054 
   0.004251051     0.9939640   -0.1267439    -0.0005489    0.0010708    -0.0002600   -0.0000313    -0.0002231    0.0002932 
   0.004351076     0.9767554   -0.0960288    -0.0005018    0.0005064    -0.0000468   -0.0001324     0.0007104    0.0009513 
   0.004451101     1.0014770   -0.1480294    -0.0002820    0.0017999    -0.0002083   -0.0006062     0.0008532   -0.0004884 
   0.004551126     0.9754686   -0.1476077     0.0013985    0.0027319     0.0001295    0.0006396    -0.0000166    0.0003206 
   0.004651151     0.9378306   -0.1552799    -0.0024528    0.0013809    -0.0000869    0.0000797     0.0006290    0.0002785 
   0.004751176     0.9794949   -0.1809220    -0.0008301    0.0020879    -0.0000135    0.0001161     0.0007389    0.0002720 
   0.004851201     0.9433426   -0.1514212    -0.0001539    0.0030545     0.0003673   -0.0001872     0.0008447    0.0007305 
   0.004951226     0.9628077   -0.1657420    -0.0014296   -0.0002142     0.0001891   -0.0001793     0.0008809   -0.0000542 
   0.005051251     1.0077850   -0.1878107    -0.0002118    0.0013918     0.0000603   -0.0001298     0.0006549   -0.0002356 
   0.005151276     0.9392564   -0.1327962     0.0019805    0.0007406     0.0001015    0.0003287     0.0011879   -0.0001354 
   0.005251301     0.9306609   -0.1971353     0.0003428    0.0035388     0.0005112    0.0001795     0.0012220    0.0014188 
   0.005351326     0.9428903   -0.1606574     0.0000310    0.0000501     0.0004549    0.0006383     0.0012185    0.0007364 
   0.005451351     0.9616828   -0.1707343    -0.0014777   -0.0006912     0.0000900   -0.0000029     0.0010504    0.0003877 
   0.005551376     0.9734027   -0.1780164     0.0007311    0.0000218    -0.0005512   -0.0002805     0.0002466   -0.0003795 
   0.005651401     0.9585397   -0.1813354    -0.0005949    0.0007553     0.0003894   -0.0001466     0.0001816   -0.0000531 
   0.005751426     0.9154416   -0.1776535     0.0006895    0.0022837    -0.0000450    0.0000111     0.0006489   -0.0000568 
   0.005851451     0.9509895   -0.2141858     0.0003526    0.0005399     0.0001086    0.0001349     0.0000803   -0.0002011 
   0.005951476     0.9374421   -0.1739718    -0.0002522   -0.0014768     0.0003509   -0.0002543     0.0008183    0.0003589 
   0.006051501     0.9317362   -0.1941945     0.0014254    0.0012646     0.0002944   -0.0001019     0.0003280   -0.0002883 
   0.006151526     0.9475617   -0.2149936     0.0011314    0.0000834    -0.0003683   -0.0000461     0.0006372    0.0000423 
   0.006251551     0.9641289   -0.1804522     0.0008525    0.0002584     0.0001765   -0.0001561     0.0008006    0.0003735 
   0.006351576     0.9404463   -0.1973957    -0.0002126    0.0010618    -0.0002109   -0.0004639     0.0006396    0.0001196 
   0.006451601     0.9387770   -0.2226036    -0.0009441    0.0003487    -0.0002524   -0.0001284     0.0005046    0.0007372 
   0.006551626     0.9295847   -0.1952742    -0.0007996    0.0005527    -0.0002566   -0.0006827    -0.0001839   -0.0001922 
   0.006651651     0.9489295   -0.2198538     0.0006274   -0.0008744     0.0000459   -0.0000724     0.0002351    0.0002419 
   0.006751676     0.9397776   -0.2275944     0.0014403    0.0005643     0.0000111   -0.0001723     0.0009403    0.0002961 
   0.006851701     0.9613319   -0.2369570    -0.0018315    0.0007951     0.0005964   -0.0002511     0.0002712   -0.0001147 
   0.006951726     0.9222443   -0.2170965    -0.0010740    0.0008344    -0.0003888    0.0001297     0.0009227    0.0013954 
   0.007051751     0.9520407   -0.2026250     0.0019541   -0.0001666    -0.0002396    0.0003483     0.0006957    0.0000327 
   0.007151776     0.9261760   -0.2138651     0.0007029    0.0020945    -0.0002063    0.0001037     0.0010077    0.0005530 
   0.007251801     0.9422608   -0.2158515    -0.0007410    0.0008842    -0.0001730   -0.0000446     0.0002311    0.0003886 
   0.007351826     0.9442480   -0.2436512     0.0002383    0.0004136    -0.0002811   -0.0003699     0.0014947    0.0006309 
   0.007451851     0.9302310   -0.2260751     0.0002386   -0.0010590     0.0008890   -0.0000834     0.0005346    0.0000830 
   0.007551876     0.9289510   -0.2459921     0.0018081   -0.0008452     0.0006603    0.0001300     0.0006071    0.0001800 
   0.007651901     0.9297459   -0.2456216    -0.0004977    0.0011357     0.0001892   -0.0002112     0.0008165    0.0005746 
   0.007751926     0.9271618   -0.2382745    -0.0008928    0.0019109    -0.0000819    0.0001333     0.0005503   -0.0001733 
   0.007851951     0.9133192   -0.2232725    -0.0008288    0.0006649     0.0002378    0.0003738     0.0003822   -0.0005421 
   0.007951976     0.9267884   -0.2657322     0.0005681    0.0000348     0.0000606    0.0002829     0.0005753    0.0003866 
   0.008052001     0.9369287   -0.2384553     0.0016537   -0.0011860     0.0002664    0.0002124     0.0006578    0.0000750 
   0.008152026     0.9305876   -0.2408987    -0.0013788   -0.0005230     0.0002707    0.0002523     0.0010769   -0.0002064 
   0.008252051     0.9229766   -0.2468225    -0.0000450    0.0004185    -0.0005609   -0.0003385     0.0011176    0.0000572 
   0.008352076     0.9102437   -0.2539576     0.0007641   -0.0001163    -0.0000520   -0.0002562     0.0007816    0.0000179 
   0.008452101     0.9223012   -0.2446295    -0.0006376   -0.0003424    -0.0000148   -0.0002083     0.0004180   -0.0001021 
   0.008552126     0.9136130   -0.2632017     0.0009689    0.0012496    -0.0002091   -0.0000795     0.0000977    0.0007093 
   0.008652151     0.9062302   -0.2564082    -0.0011685   -0.0001233    -0.0000321    0.0004564     0.0006055    0.0001722 
   0.008752176     0.9152059   -0.2527140    -0.0003731    0.0007716    -0.0002016   -0.0002254     0.0005634   -0.0002527 
   0.008852201     0.9080954   -0.2475175    -0.0005661    0.0005666    -0.0001500    0.0000925     0.0006208   -0.0000577 
   0.008952226     0.8987417   -0.2670267    -0.0002881    0.0007662    -0.0000597    0.0001058     0.0009402    0.0000695 
   0.009052251     0.9227332   -0.2647841    -0.0001542    0.0006692    -0.0001210   -0.0000931     0.0008739    0.0000647 
   0.009152276     0.9212227   -0.2669979    -0.0012207    0.0002413    -0.0002767   -0.0000153     0.0009899    0.0000998 
   0.009252301     0.9127799   -0.2535769    -0.0012152    0.0001907     0.0002243    0.0003509     0.0007185    0.0004506 
   0.009352326     0.8949195   -0.2757754    -0.0011466   -0.0010898     0.0000090   -0.0001419     0.0002749   -0.0000394 
   0.009452351     0.9038208   -0.2906871     0.0006945    0.0007384     0.0001438   -0.0000506     0.0006122    0.0003373 
   0.009552376     0.9168555   -0.2923085    -0.0000418    0.0003522     0.0001920    0.0000343     0.0005870    0.0000335 
   0.009652401     0.8844005   -0.2844157    -0.0000172    0.0009179     0.0000894   -0.0000041     0.0001956    0.0006991 
   0.009752426     0.8882008   -0.2908887    -0.0001215   -0.0000691    -0.0001510    0.0001241     0.0003808    0.0004012 
   0.009852451     0.8846906   -0.3017475    -0.0003356    0.0005123    -0.0003204   -0.0003428     0.0006499    0.0004635 
   0.009952476     0.9020228   -0.2918957     0.0001859   -0.0006141     0.0000983    0.0000257     0.0003571    0.0004232 
   0.010052501     0.8859160   -0.2941587    -0.0012822    0.0002340     0.0002053    0.0000659     0.0002782    0.0005301 
   0.010152526     0.8906754   -0.2937001     0.0007425    0.0012932     0.0001259   -0.0001031     0.0006217    0.0000504 
   0.010252551     0.8708634   -0.3042581    -0.0010660    0.0008597     0.0002509   -0.0002012     0.0002233    0.0005330 
   0.010352576     0.9025496   -0.3143338     0.0005063    0.0004149    -0.0000747   -0.0002826     0.0006924    0.0005828 
   0.010452601     0.8910541   -0.2962390    -0.0016901    0.0003293     0.0000669    0.0000043     0.0004904   -0.0001332 
   0.010552626     0.8741940   -0.3076128     0.0007322   -0.0017043     0.0000583   -0.0004294     0.0003343    0.0000963 
   0.010652651     0.8858324   -0.3202985    -0.0000471   -0.0009535    -0.0001086    0.0000265     0.0004941    0.0000619 
   0.010752676     0.8893705   -0.3279104    -0.0008000    0.0005085     0.0002138    0.0000665     0.0004667    0.0002349 
   0.010852701     0.8838862   -0.3025286     0.0005366    0.0006506     0.0001802    0.0004101     0.0006044    0.0006283 
   0.010952726     0.8739034   -0.3172150    -0.0002855   -0.0002277     0.0002391    0.0000956     0.0002416   -0.0000078 
   0.011052751     0.8725048   -0.3244978    -0.0003868   -0.0012469     0.0001134    0.0000220     0.0005131    0.0005233 
   0.011152776     0.8801340   -0.3183997    -0.0000647   -0.0009618    -0.0000172    0.0001501     0.0004238    0.0001926 
   0.011252801     0.8770192   -0.3231091    -0.0005618   -0.0004998    -0.0003684   -0.0000393     0.0002050    0.0007362 
   0.011352826     0.8781697   -0.3446756     0.0004088   -0.0001906    -0.0002098   -0.0001188     0.0006632    0.0003888 
   0.011452851     0.8556068   -0.3280172     0.0002380    0.0003400     0.0001136    0.0001183     0.0005085    0.0000051 
   0.011552876     0.8630778   -0.3395914    -0.0000611    0.0000238    -0.0000184   -0.0001015     0.0005222   -0.0000175 
   0.011652901     0.8681856   -0.3267114    -0.0006732   -0.0003046    -0.0001294   -0.0003160     0.0000511    0.0006398 
   0.011752926     0.8480957   -0.3298768     0.0007825    0.0003069    -0.0001861    0.0000190     0.0007349    0.0002945 
   0.011852951     0.8539184   -0.3461528     0.0010211    0.0002458     0.0001118    0.0002810     0.0001054    0.0000607 
   0.011952976     0.8466128   -0.3339804     0.0000898    0.0007715     0.0001074    0.0002527     0.0002083    0.0005388 
   0.012053002     0.8460066   -0.3646361    -0.0003427    0.0000360    -0.0001824    0.0001303     0.0003015    0.0004807 
   0.012153027     0.8479766   -0.3422274    -0.0000908    0.0000375    -0.0001958    0.0000562     0.0009777   -0.0001334 
   0.012253052     0.8253963   -0.3495099     0.0007178   -0.0001201     0.0001865   -0.0002560     0.0010747    0.0005784 
   0.012353077     0.8501603   -0.3387641    -0.0010759    0.0003621     0.0000830    0.0003998     0.0003867    0.0007717 
   0.012453102     0.8544884   -0.3498456    -0.0009239    0.0012067     0.0000410   -0.0000899     0.0004802   -0.0001578 
   0.012553127     0.8250491   -0.3637466     0.0004368    0.0000905     0.0001739   -0.0003085     0.0006399   -0.0000614 
   0.012653152     0.8458783   -0.3672243     0.0005661   -0.0007800    -0.0000012    0.0000836     0.0004794    0.0005705 
   0.012753177     0.8378367   -0.3508798    -0.0002026    0.0002723    -0.0001758   -0.0001208     0.0001294    0.0005605 
   0.012853202     0.8388430   -0.3401348     0.0006071   -0.0007759     0.0002537    0.0004522     0.0007228    0.0006759 
   0.012953227     0.8400686   -0.3519171     0.0005814   -0.0000985     0.0000231    0.0002648     0.0005220    0.0005324 
   0.013053252     0.8138491   -0.3712233    -0.0008805    0.0003296    -0.0002162   -0.0000406     0.0007849    0.0003120 
   0.013153277     0.8334118   -0.3655170    -0.0006621   -0.0000251     0.0002080    0.0000181     0.0005242    0.0001478 
   0.013253302     0.8337795   -0.3566372    -0.0001061    0.0004074     0.0000176    0.0001886     0.0006920   -0.0000550 
   0.013353327     0.8237372   -0.3716807    -0.0016420   -0.0000011     0.0003353   -0.0000282     0.0003600    0.0000671 
   0.013453352     0.8222040   -0.3546093     0.0002212    0.0006968     0.0000883   -0.0002140     0.0006774    0.0004107 
   0.013553377     0.8103307   -0.3662659     0.0010971   -0.0004737     0.0000462   -0.0001398     0.0005965    0.0005567 
   0.013653402     0.8122875   -0.3776585     0.0000504   -0.0001564     0.0002704    0.0000795     0.0009134    0.0002951 
   0.013753427     0.8308647   -0.3739370     0.0006135   -0.0001159     0.0002624    0.0000527     0.0004985    0.0003878 
   0.013853452     0.8226811   -0.3856081     0.0000322    0.0011507    -0.0001901    0.0001669     0.0001549    0.0003808 
   0.013953477     0.8064092   -0.3704940     0.0007107    0.0001166    -0.0002704    0.0000127     0.0007313    0.0003915 
   0.014053502     0.8187518   -0.3816569    -0.0003917   -0.0009445     0.0003805    0.0000428     0.0004410    0.0004608 
   0.014153527     0.8185493   -0.3867928     0.0012024    0.0000993    -0.0002190   -0.0000383     0.0006026    0.0001844 
   0.014253552     0.8128906   -0.3727887    -0.0004891   -0.0012169     0.0000671   -0.0003375     0.0009227    0.0001133 
   0.014353577     0.7919798   -0.3775945     0.0003669   -0.0001801     0.0000940    0.0001356     0.0006204    0.0002463 
   0.014453602     0.7984716   -0.3843214    -0.0002302    0.0000273    -0.0001591   -0.0002731     0.0005156    0.0002632 
   0.014553627     0.7982812   -0.3880929    -0.0002701    0.0006745     0.0000416   -0.0000010     0.0006916    0.0002401 
   0.014653652     0.8057833   -0.3887610     0.0002271   -0.0012438     0.0003592   -0.0000323     0.0005863    0.0001790 
   0.014753677     0.7936888   -0.3840661     0.0003580   -0.0005600    -0.0002836    0.0001332     0.0005257    0.0003215 
   0.014853702     0.7965406   -0.3824514    -0.0005635   -0.0006376     0.0000173   -0.0001726     0.0007478    0.0007040 
   0.014953727     0.7806578   -0.3980237    -0.0003837   -0.0003699    -0.0001606    0.0000632     0.0006633    0.0003726 
   0.015053752     0.7915754   -0.3908849    -0.0001848    0.0008338     0.0001947    0.0001816     0.0005488    0.0005762 
   0.015153777     0.8038124   -0.3988857     0.0000009    0.0002751     0.0000144   -0.0001026     0.0006100    0.0001674 
   0.015253802     0.7879438   -0.4042378    -0.0003287    0.0001598     0.0000369    0.0000516     0.0006847    0.0002217 
   0.015353827     0.7858825   -0.3985861     0.0003153    0.0001566    -0.0000736   -0.0000417     0.0007987   -0.0000370 
   0.015453852     0.7796926   -0.4013820    -0.0011814    0.0003004     0.0000753   -0.0000019     0.0004186    0.0003035 
   0.015553877     0.7854057   -0.4111646    -0.0002906    0.0008712     0.0001626    0.0002582     0.0004002    0.0002638 
   0.015653902     0.7763176   -0.4009512     0.0000449   -0.0003868    -0.0001967    0.0000443     0.0001612    0.0005050 
