! 23-Mar-26 11:52:02 AM
! E:\UPDATEDVNAMEASUREMENTS\CAL_S11S\HEATED_LOAD.S2P
! CHANNEL.1
! TR.MEASUREMENT
! CORRECTED.DATA
# GHZ S RI R 50.0
! FREQ.GHZ         S11RE         S11IM         S21RE         S21IM         S12RE         S12IM         S22RE         S22IM         
!; PortSelection: Port_12
   0.000050000     0.3204404   -0.0555794     0.0841188   -0.2104919    -0.0073074   -0.0003352    -0.0288275    0.0294157 
   0.000150025    -0.6966676    0.4961705     0.5366302   -0.9427086     0.0000766    0.0000550     0.0013041   -0.0035154 
   0.000250050    -0.2974236   -0.2330804     0.0035376   -0.0072694     0.0006263    0.0005183     0.0038239   -0.0037970 
   0.000350075     1.0315240   -0.0292179    -0.0013652   -0.0075328    -0.0007276   -0.0002501     0.0011650   -0.0002125 
   0.000450100     0.9674170   -0.0130585    -0.0018858   -0.0070963    -0.0002404   -0.0005530     0.0002785   -0.0011201 
   0.000550125     0.9777792    0.0090943    -0.0068017   -0.0089714    -0.0009048   -0.0003071     0.0022853    0.0012833 
   0.000650150     0.9657157   -0.0131059    -0.0029783   -0.0093247    -0.0001480   -0.0002767     0.0003272   -0.0009280 
   0.000750175     0.9781648   -0.0799036    -0.0085907   -0.0097932    -0.0003040   -0.0004946    -0.0000432    0.0006915 
   0.000850200     0.9776959   -0.0475043    -0.0055044   -0.0078896    -0.0001078    0.0008219    -0.0001990   -0.0001723 
   0.000950225     0.9885001   -0.0483578    -0.0056800   -0.0061938     0.0003575    0.0016723     0.0009099    0.0011046 
   0.001050250     1.0167770   -0.0482456    -0.0140364   -0.0057567    -0.0000893   -0.0009261     0.0009260   -0.0000948 
   0.001150275     1.0058300   -0.0627149    -0.0108526   -0.0056682    -0.0003787   -0.0002560     0.0019944    0.0013020 
   0.001250300     0.9837059   -0.0362529    -0.0074872   -0.0006088    -0.0007365    0.0006257     0.0018279    0.0008806 
   0.001350325     0.9916946   -0.0393996    -0.0066909   -0.0039631    -0.0010017   -0.0004792     0.0000787    0.0002171 
   0.001450350     1.0560810   -0.0092118    -0.0105419   -0.0018978     0.0002401    0.0005642    -0.0000261   -0.0001739 
   0.001550375     0.9415174   -0.0983297    -0.0077092   -0.0021699    -0.0009297    0.0000858     0.0012578   -0.0000323 
   0.001650400     0.9915892   -0.0144607    -0.0056584    0.0023499    -0.0003224    0.0000681    -0.0000757   -0.0016734 
   0.001750425     0.9189423   -0.0741201    -0.0083775   -0.0012322    -0.0002458    0.0003060     0.0000843   -0.0006687 
   0.001850450     0.9569401   -0.0455147    -0.0081835    0.0031346    -0.0009261    0.0002274     0.0011530    0.0008041 
   0.001950475     1.0295730   -0.0273358    -0.0064082    0.0010574     0.0006393   -0.0001168     0.0021874   -0.0003553 
   0.002050500     0.9599112   -0.0745198    -0.0054760   -0.0024794     0.0006007    0.0001282     0.0015619    0.0006087 
   0.002150525     0.9740494   -0.0659370    -0.0061324    0.0021659     0.0000974   -0.0002065     0.0007004    0.0000280 
   0.002250550     1.0096070   -0.0212041    -0.0079681    0.0022500     0.0000780   -0.0000872     0.0002389   -0.0006460 
   0.002350575     0.9701794   -0.0999312    -0.0055696    0.0020097     0.0003920   -0.0000415     0.0011591    0.0004339 
   0.002450600     0.9809566   -0.0885832    -0.0028857    0.0002885    -0.0006895   -0.0003099     0.0003583    0.0000142 
   0.002550625     0.9818604   -0.0479821    -0.0078034    0.0018286    -0.0003083    0.0001640     0.0002937    0.0003364 
   0.002650650     1.0213200   -0.0704791    -0.0054401    0.0020200     0.0001019   -0.0005699     0.0003802    0.0001304 
   0.002750675     1.0074660   -0.0256533    -0.0052100    0.0009176    -0.0003638    0.0000166     0.0005845    0.0004354 
   0.002850700     1.0035180   -0.0798511    -0.0034112    0.0029779     0.0001859    0.0000059     0.0006353    0.0000869 
   0.002950725     0.9775060   -0.0509307    -0.0039305   -0.0017305    -0.0003890    0.0000334     0.0013048    0.0005753 
   0.003050750     0.9822047   -0.0999698    -0.0020735    0.0037870     0.0003636    0.0004494     0.0010365   -0.0004354 
   0.003150775     0.9562635   -0.1386869    -0.0026834    0.0022989     0.0005051   -0.0001567     0.0002492   -0.0001701 
   0.003250800     0.9790687   -0.0904664    -0.0015679    0.0010344     0.0000542   -0.0000079     0.0013130    0.0006701 
   0.003350825     0.9759490   -0.0918318    -0.0000332    0.0020703    -0.0000872   -0.0003115     0.0003780    0.0004808 
   0.003450850     0.9576098   -0.1510367    -0.0028218    0.0011368     0.0000942    0.0001144     0.0004903   -0.0004587 
   0.003550875     0.9613781   -0.1361482    -0.0026319   -0.0000309    -0.0005508    0.0002668     0.0005036   -0.0001892 
   0.003650900     0.9771138   -0.1017606    -0.0014920    0.0008374     0.0000823   -0.0001267     0.0011915   -0.0002636 
   0.003750925     0.9712758   -0.1442196    -0.0007932    0.0023011     0.0004812   -0.0000646     0.0012303    0.0007316 
   0.003850950     0.9796764   -0.1618712    -0.0019263    0.0020340     0.0004702    0.0001951     0.0000810    0.0010071 
   0.003950975     1.0111490   -0.1106706     0.0002955   -0.0006472    -0.0001045    0.0006824    -0.0001532   -0.0001267 
   0.004051001     0.9669372   -0.1538588    -0.0000981    0.0009058     0.0001926   -0.0001270     0.0005404   -0.0003078 
   0.004151026     0.9911825   -0.1425664     0.0016369    0.0031298    -0.0007831    0.0000887     0.0000537   -0.0000702 
   0.004251051     0.9556494   -0.1458106    -0.0007230    0.0001777     0.0006958   -0.0000335    -0.0000983   -0.0001679 
   0.004351076     0.9819326   -0.1095020     0.0005792    0.0025477     0.0008039    0.0004232     0.0014568    0.0009812 
   0.004451101     0.9788684   -0.1497380     0.0013378    0.0017743    -0.0001422   -0.0005486     0.0010847   -0.0008654 
   0.004551126     0.9932807   -0.1609442     0.0000475    0.0019085    -0.0001045   -0.0005702    -0.0000668    0.0003587 
   0.004651151     0.9695814   -0.1371796    -0.0002028    0.0006655     0.0003761   -0.0001219     0.0014071    0.0001711 
   0.004751176     0.9866965   -0.1432821     0.0019972    0.0008794    -0.0004982   -0.0001263     0.0000607   -0.0001039 
   0.004851201     0.9261665   -0.1418194     0.0004721    0.0001877    -0.0003893   -0.0004560     0.0008244    0.0003625 
   0.004951226     0.9455523   -0.1396756    -0.0013087    0.0002338    -0.0000300    0.0004460     0.0002528   -0.0001407 
   0.005051251     0.9954026   -0.1661851    -0.0016394    0.0006876    -0.0005067    0.0000486     0.0001344   -0.0006011 
   0.005151276     0.9644816   -0.1405757     0.0005034    0.0005315     0.0001387    0.0000377     0.0007492   -0.0004006 
   0.005251301     0.9374073   -0.1538685     0.0001753    0.0003623     0.0001031   -0.0000698     0.0009575    0.0010481 
   0.005351326     0.9633873   -0.1585698     0.0005648   -0.0000610     0.0004158   -0.0001871     0.0010090    0.0000606 
   0.005451351     0.9412273   -0.1535400    -0.0013833   -0.0000933    -0.0006342   -0.0007603     0.0005397    0.0000245 
   0.005551376     0.9870669   -0.1928769    -0.0003878    0.0021577     0.0001458   -0.0001009     0.0009090   -0.0003711 
   0.005651401     0.9526414   -0.1717290    -0.0008703    0.0013105    -0.0001037   -0.0006074    -0.0002354   -0.0003493 
   0.005751426     0.9294996   -0.1925768    -0.0006409    0.0000452     0.0003697    0.0002285     0.0003640   -0.0002612 
   0.005851451     0.9427277   -0.2405842    -0.0012878    0.0014519    -0.0002659   -0.0004836    -0.0001658   -0.0001230 
   0.005951476     0.9325731   -0.1743089    -0.0006975   -0.0005272    -0.0000091    0.0000819     0.0006487    0.0007163 
   0.006051501     0.9516968   -0.2027236     0.0016056    0.0004873     0.0003496    0.0003202    -0.0002479    0.0002740 
   0.006151526     0.9392673   -0.2064240    -0.0019836    0.0004239    -0.0000232   -0.0004266     0.0011348   -0.0001694 
   0.006251551     0.9482895   -0.1753163    -0.0030724   -0.0002254     0.0004513   -0.0001525     0.0007637    0.0003206 
   0.006351576     0.9475397   -0.2177055     0.0008483   -0.0006657    -0.0001000   -0.0002414     0.0004145    0.0005900 
   0.006451601     0.9391618   -0.1929222    -0.0021116    0.0006029     0.0000080   -0.0001366    -0.0001871    0.0003712 
   0.006551626     0.9304919   -0.1984002    -0.0007967    0.0008247    -0.0006142   -0.0005802     0.0001772    0.0000442 
   0.006651651     0.9300096   -0.2082204     0.0007425   -0.0000989     0.0002680    0.0000371     0.0004188    0.0003337 
   0.006751676     0.9507605   -0.2327692     0.0007985    0.0011499     0.0001149   -0.0003465     0.0011018    0.0007346 
   0.006851701     0.9529078   -0.2349897     0.0023708    0.0003102    -0.0002037   -0.0000500     0.0001052    0.0000705 
   0.006951726     0.9184229   -0.2190707     0.0009673   -0.0001117     0.0001979   -0.0001977     0.0008658    0.0012304 
   0.007051751     0.9260768   -0.2316713    -0.0002108   -0.0009833    -0.0000347   -0.0000883     0.0008653    0.0003044 
   0.007151776     0.9003235   -0.2253500    -0.0000481    0.0003308     0.0007336    0.0000673     0.0011699    0.0003609 
   0.007251801     0.9400634   -0.2279227     0.0011781    0.0000849     0.0002433   -0.0000659     0.0004431    0.0001458 
   0.007351826     0.9532674   -0.2396192     0.0010720   -0.0000763     0.0005431    0.0000101     0.0013011    0.0003514 
   0.007451851     0.9123185   -0.2312106     0.0003567    0.0003051     0.0002607   -0.0004913     0.0007480   -0.0005145 
   0.007551876     0.9223402   -0.2414290     0.0006204   -0.0002427     0.0001789   -0.0000560     0.0007793   -0.0001303 
   0.007651901     0.9338015   -0.2413911    -0.0004571    0.0010171     0.0001613   -0.0001197     0.0004363    0.0003979 
   0.007751926     0.9288064   -0.2541852     0.0005845    0.0001978    -0.0000091   -0.0007145     0.0004417    0.0000308 
   0.007851951     0.9188253   -0.2393780    -0.0016987    0.0009645    -0.0002024    0.0001697     0.0005853   -0.0002767 
   0.007951976     0.9327092   -0.2752781     0.0004094    0.0007783    -0.0004650   -0.0001053     0.0005396    0.0003599 
   0.008052001     0.9286810   -0.2514853    -0.0001489   -0.0002134     0.0002105   -0.0000209     0.0010839    0.0006063 
   0.008152026     0.9007107   -0.2556737    -0.0013475    0.0002690     0.0000971    0.0002784     0.0012236    0.0003095 
   0.008252051     0.9057822   -0.2431195    -0.0004683   -0.0009518    -0.0004165    0.0000829     0.0005127    0.0002869 
   0.008352076     0.9326075   -0.2652596    -0.0001664   -0.0001188     0.0001904    0.0001945     0.0009571    0.0003254 
   0.008452101     0.9194046   -0.2481977    -0.0008405    0.0014066    -0.0000884   -0.0001589     0.0005931    0.0000676 
   0.008552126     0.9261636   -0.2623904     0.0011126   -0.0001381     0.0000020    0.0004907     0.0007881    0.0004606 
   0.008652151     0.9228539   -0.2597720     0.0004240    0.0002465    -0.0000505   -0.0001927     0.0001636    0.0006015 
   0.008752176     0.9168965   -0.2398366     0.0011571    0.0002446    -0.0001207   -0.0000590     0.0003318   -0.0004832 
   0.008852201     0.8936179   -0.2610224     0.0010857   -0.0010001    -0.0000235   -0.0003134     0.0012038    0.0002567 
   0.008952226     0.9125570   -0.2929417    -0.0004124   -0.0008090     0.0001883    0.0001901     0.0005597   -0.0003668 
   0.009052251     0.9320713   -0.2689040    -0.0006914   -0.0008259     0.0002606    0.0001630     0.0007531   -0.0000880 
   0.009152276     0.9201584   -0.2732442    -0.0011622   -0.0007473     0.0004627   -0.0000813     0.0008385    0.0002136 
   0.009252301     0.9023433   -0.2724705     0.0008256    0.0016768    -0.0006750   -0.0001040     0.0006372   -0.0000822 
   0.009352326     0.9075984   -0.2812128    -0.0008031    0.0000822     0.0004151   -0.0000087    -0.0001859   -0.0002777 
   0.009452351     0.9073310   -0.2855521     0.0000661    0.0006428     0.0000898    0.0001310     0.0007249    0.0003795 
   0.009552376     0.9116634   -0.2958737    -0.0012744   -0.0000371    -0.0003954    0.0001796     0.0008438    0.0003767 
   0.009652401     0.8955674   -0.2863405    -0.0003877   -0.0004989     0.0001327   -0.0001237     0.0003182    0.0004171 
   0.009752426     0.8933101   -0.2902609     0.0006089    0.0013775    -0.0002026   -0.0002272     0.0007449    0.0002433 
   0.009852451     0.8921940   -0.2914990     0.0001271    0.0003095    -0.0000020    0.0000804     0.0001335    0.0001425 
   0.009952476     0.8895639   -0.3010818     0.0000659   -0.0003455    -0.0002327   -0.0000311     0.0002676    0.0001382 
   0.010052501     0.8982872   -0.2954121    -0.0001396   -0.0004436     0.0003016   -0.0001999     0.0003882    0.0001547 
   0.010152526     0.8821040   -0.2945638     0.0002743    0.0000840    -0.0002714   -0.0002415     0.0003442    0.0005150 
   0.010252551     0.8751267   -0.2991990     0.0002497    0.0012072     0.0002331   -0.0004163     0.0002822    0.0000489 
   0.010352576     0.8830009   -0.3117545    -0.0008526    0.0014541     0.0002079    0.0000994     0.0002800    0.0004240 
   0.010452601     0.8913778   -0.3026926     0.0005126   -0.0004355     0.0000901    0.0000470     0.0008443    0.0001970 
   0.010552626     0.8865142   -0.3208344    -0.0012547    0.0001514    -0.0002213   -0.0001018     0.0003484    0.0001787 
   0.010652651     0.8771257   -0.3077067    -0.0002004    0.0022784    -0.0000078   -0.0003281     0.0005546   -0.0001795 
   0.010752676     0.8935665   -0.3180518     0.0000012    0.0004170    -0.0005381    0.0001116     0.0004715    0.0002063 
   0.010852701     0.8853311   -0.3077354     0.0008955   -0.0011640    -0.0003057    0.0000414     0.0004702    0.0002501 
   0.010952726     0.8733457   -0.3161305     0.0002380   -0.0005797     0.0000096   -0.0000396     0.0005502    0.0001718 
   0.011052751     0.8669910   -0.3325005     0.0007672    0.0004320    -0.0000174    0.0004090     0.0004755    0.0004192 
   0.011152776     0.8831358   -0.3331085     0.0011610    0.0002149    -0.0005615   -0.0001535     0.0005308    0.0002986 
   0.011252801     0.8662249   -0.3326448    -0.0008469   -0.0003560     0.0000034    0.0001008     0.0004162    0.0009111 
   0.011352826     0.8611529   -0.3475978     0.0002619    0.0002679    -0.0000467    0.0001007     0.0004607    0.0001208 
   0.011452851     0.8541440   -0.3385643    -0.0002053    0.0002744    -0.0001111   -0.0000921     0.0004909    0.0002044 
   0.011552876     0.8678961   -0.3390567     0.0001398    0.0002224    -0.0001355   -0.0002364     0.0008449   -0.0001975 
   0.011652901     0.8481513   -0.3461342     0.0002316   -0.0000577     0.0000386    0.0002106     0.0006352    0.0005180 
   0.011752926     0.8432443   -0.3406464     0.0003022   -0.0001120    -0.0001795    0.0001104     0.0008250   -0.0000085 
   0.011852951     0.8642616   -0.3568217     0.0001623    0.0006089    -0.0001784    0.0000087     0.0003765    0.0003059 
   0.011952976     0.8537322   -0.3466758     0.0005014    0.0000115    -0.0000261    0.0002357     0.0004412    0.0000914 
   0.012053002     0.8529893   -0.3546733     0.0002109    0.0007670    -0.0000158    0.0000917     0.0006233    0.0004374 
   0.012153027     0.8505734   -0.3629685     0.0003693    0.0003749    -0.0000665    0.0000196     0.0007235   -0.0000960 
   0.012253052     0.8356511   -0.3526124     0.0001792   -0.0001955    -0.0000759    0.0000623     0.0006506    0.0004850 
   0.012353077     0.8386613   -0.3372247    -0.0005398    0.0008579    -0.0002519   -0.0000274     0.0000408    0.0005043 
   0.012453102     0.8486052   -0.3391622     0.0004062   -0.0007208     0.0000714   -0.0000024     0.0006918    0.0001994 
   0.012553127     0.8344273   -0.3674747    -0.0004125   -0.0001744    -0.0002155    0.0001071     0.0004359    0.0002805 
   0.012653152     0.8378985   -0.3453546    -0.0010382   -0.0002441    -0.0003025    0.0000779     0.0004984    0.0002900 
   0.012753177     0.8423001   -0.3459916    -0.0004511   -0.0001571    -0.0000006   -0.0001516     0.0003667    0.0000026 
   0.012853202     0.8314104   -0.3492774    -0.0001612    0.0005538    -0.0001337    0.0003566     0.0005524    0.0006771 
   0.012953227     0.8329139   -0.3531014     0.0006566   -0.0018573     0.0003292    0.0000914     0.0008196    0.0004701 
   0.013053252     0.8202343   -0.3595381    -0.0006392   -0.0010772    -0.0000202   -0.0001160     0.0006218    0.0000377 
   0.013153277     0.8227989   -0.3644830     0.0005744    0.0000122     0.0003422    0.0003459     0.0005046    0.0006925 
   0.013253302     0.8168907   -0.3596286     0.0003754    0.0002261    -0.0000583    0.0001573     0.0004728   -0.0001223 
   0.013353327     0.8110495   -0.3637726     0.0000381   -0.0002103    -0.0000907    0.0000374     0.0007686    0.0002121 
   0.013453352     0.8303938   -0.3592833     0.0001889   -0.0002718     0.0000350    0.0001523     0.0006746    0.0003790 
   0.013553377     0.8052743   -0.3595526    -0.0000636   -0.0005269     0.0000611    0.0001246     0.0003143   -0.0001302 
   0.013653402     0.8119761   -0.3607111     0.0011523   -0.0004250     0.0000558    0.0000891     0.0005150    0.0004109 
   0.013753427     0.8119699   -0.3714789     0.0003180   -0.0004410     0.0000527   -0.0000539     0.0006383    0.0002581 
   0.013853452     0.8096014   -0.3843402     0.0000107    0.0001844    -0.0001662    0.0003981     0.0006449    0.0000685 
   0.013953477     0.7909845   -0.3624727     0.0000644    0.0000669     0.0000793    0.0000611     0.0003646    0.0003427 
   0.014053502     0.8159422   -0.3909256     0.0002059    0.0006909    -0.0001412   -0.0000783     0.0001690    0.0002764 
   0.014153527     0.8093899   -0.3853608     0.0001316   -0.0002339     0.0001130   -0.0000585     0.0004583    0.0002881 
   0.014253552     0.8059983   -0.3808371     0.0007544   -0.0008434     0.0001301   -0.0001500     0.0004203   -0.0000450 
   0.014353577     0.7922718   -0.3877151     0.0005421    0.0010463    -0.0000301    0.0001859     0.0005576    0.0003234 
   0.014453602     0.7789460   -0.3828938     0.0003611    0.0002583    -0.0000583   -0.0000569     0.0004800    0.0003611 
   0.014553627     0.7976465   -0.3833610    -0.0005958    0.0002288     0.0000884   -0.0000633     0.0005660    0.0001427 
   0.014653652     0.7924937   -0.3896115     0.0008266    0.0000255    -0.0000774   -0.0000767     0.0002601    0.0000725 
   0.014753677     0.7896461   -0.3803142    -0.0001828    0.0006758    -0.0000112    0.0001972     0.0000786    0.0003486 
   0.014853702     0.7963794   -0.3815810     0.0008492    0.0004511    -0.0002540   -0.0000311     0.0007702    0.0002513 
   0.014953727     0.7737467   -0.4018479    -0.0002838   -0.0002036    -0.0001214    0.0001943     0.0009715    0.0005873 
   0.015053752     0.7844653   -0.3932922     0.0000097    0.0003158    -0.0000522    0.0000183     0.0006214    0.0005868 
   0.015153777     0.7765220   -0.3989720     0.0007165   -0.0000331     0.0002270   -0.0000113     0.0004938   -0.0001244 
   0.015253802     0.7819284   -0.3976840     0.0002862   -0.0004610    -0.0002317   -0.0000960     0.0004534    0.0001765 
   0.015353827     0.7643547   -0.3986656    -0.0001116    0.0003829     0.0000635   -0.0000541     0.0008191   -0.0000472 
   0.015453852     0.7714891   -0.4042503     0.0003797    0.0002941     0.0001046   -0.0001406     0.0007583    0.0006922 
   0.015553877     0.7740225   -0.4111423    -0.0000011    0.0002368     0.0000186   -0.0003128     0.0006070   -0.0001542 
   0.015653902     0.7734242   -0.4128012     0.0001927   -0.0001374     0.0001290    0.0001268     0.0002761    0.0001831 
