! 23-Mar-26 11:55:56 AM
! E:\UPDATEDVNAMEASUREMENTS\CAL_S11S\LONG_SHORT.S2P
! CHANNEL.1
! TR.MEASUREMENT
! CORRECTED.DATA
# GHZ S RI R 50.0
! FREQ.GHZ         S11RE         S11IM         S21RE         S21IM         S12RE         S12IM         S22RE         S22IM         
!; PortSelection: Port_12
   0.000050000     0.5938556   -0.5953217    -0.1531102   -0.3284411     0.0017029   -0.0048048     0.0030367    0.0244859 
   0.000150025    -0.8235339    0.3794763     0.3041973   -0.5376860    -0.0000816    0.0003408     0.0052008   -0.0008335 
   0.000250050    -0.2906206   -0.2733922     0.0025157    0.1922071     0.0001878    0.0002483     0.0017923   -0.0023245 
   0.000350075     0.9762071    0.0012938    -0.0049796   -0.0119961     0.0005473   -0.0011826    -0.0001809    0.0000529 
   0.000450100     0.9708322   -0.0527166    -0.0034977   -0.0063848    -0.0000063    0.0005813     0.0001564   -0.0010784 
   0.000550125     0.9527615   -0.0455935    -0.0088326   -0.0073039    -0.0007529   -0.0005327     0.0011662    0.0007864 
   0.000650150     0.9645438   -0.0671427    -0.0067718   -0.0099730     0.0003667   -0.0010048     0.0009538   -0.0015735 
   0.000750175     0.9908718   -0.0710679    -0.0015507   -0.0061038     0.0001927   -0.0002586    -0.0000846    0.0018009 
   0.000850200     0.9750777   -0.0887721    -0.0036497   -0.0097148     0.0002519    0.0004339     0.0002605    0.0000241 
   0.000950225     0.9431022   -0.0557301    -0.0071867   -0.0051976     0.0009107   -0.0003855     0.0010471    0.0003981 
   0.001050250     1.0457370   -0.0263712    -0.0054722   -0.0068485     0.0005487   -0.0001287     0.0003351    0.0001129 
   0.001150275     0.9846074   -0.0561546    -0.0119504   -0.0038078     0.0007187    0.0002300     0.0010683    0.0005234 
   0.001250300     0.9387846   -0.0556154    -0.0095992   -0.0003773     0.0000959    0.0001253     0.0016441    0.0009070 
   0.001350325     1.0307710   -0.0895073    -0.0077608   -0.0029733    -0.0000508   -0.0006728    -0.0001553   -0.0000622 
   0.001450350     0.9964507   -0.0938401    -0.0082327    0.0010202    -0.0001122   -0.0002780    -0.0003229    0.0000112 
   0.001550375     0.9863771   -0.0487131    -0.0069815    0.0010798    -0.0000129   -0.0001313     0.0015372    0.0001354 
   0.001650400     1.0111900   -0.0733297    -0.0079022   -0.0020149    -0.0000838    0.0008867     0.0008624    0.0009148 
   0.001750425     0.9865101   -0.0519506    -0.0088906    0.0034811     0.0001383   -0.0000463     0.0012270   -0.0009366 
   0.001850450     1.0063480   -0.0736127    -0.0030903   -0.0014367     0.0003504   -0.0002192     0.0001321    0.0004775 
   0.001950475     1.0348920   -0.0805888    -0.0072981   -0.0019069     0.0001719   -0.0006447     0.0018422   -0.0011846 
   0.002050500     0.9259251   -0.0577486    -0.0081004    0.0000790    -0.0001488   -0.0004363     0.0013862    0.0000180 
   0.002150525     0.9984543   -0.0724808    -0.0070159    0.0025236     0.0004859    0.0005342     0.0006926   -0.0000421 
   0.002250550     1.0006510   -0.0529856    -0.0036481    0.0044159     0.0000310   -0.0000952    -0.0003407   -0.0008849 
   0.002350575     0.9626328   -0.1049933    -0.0072258    0.0078331    -0.0000491   -0.0000690     0.0014454    0.0000564 
   0.002450600     1.0241690   -0.0906367    -0.0065815    0.0034347     0.0011270   -0.0001138     0.0010923   -0.0001513 
   0.002550625     0.9908055   -0.1295292    -0.0038043    0.0030932     0.0006190   -0.0005202     0.0012209    0.0011012 
   0.002650650     1.0264280   -0.0344565    -0.0058991    0.0033501     0.0003385    0.0005243     0.0008328    0.0004116 
   0.002750675     0.9854220   -0.0101378    -0.0010364    0.0026215     0.0002378    0.0001636    -0.0004833    0.0002039 
   0.002850700     0.9881991   -0.1140959    -0.0001308    0.0026842     0.0011169    0.0001891     0.0000132   -0.0000420 
   0.002950725     0.9552483   -0.0891330    -0.0025981    0.0054677    -0.0001463    0.0001411     0.0009143   -0.0009023 
   0.003050750     0.9738740   -0.1038119    -0.0026741    0.0015537     0.0008901    0.0000885     0.0001471   -0.0001324 
   0.003150775     0.9778733   -0.1195134    -0.0021791    0.0069715    -0.0003810   -0.0007317    -0.0002084    0.0001981 
   0.003250800     0.9623863   -0.0794006    -0.0029456    0.0005702     0.0007191    0.0000516     0.0008767    0.0004812 
   0.003350825     1.0020260   -0.0831441    -0.0029926    0.0017477    -0.0004131    0.0013120     0.0003876    0.0005618 
   0.003450850     0.9529809   -0.1298575     0.0001637    0.0032428     0.0000079   -0.0002961     0.0013930   -0.0006048 
   0.003550875     0.9320961   -0.0913503    -0.0010896    0.0028198     0.0001357    0.0005972     0.0000829    0.0000785 
   0.003650900     1.0200820   -0.0983410    -0.0003856    0.0014396     0.0001286   -0.0000714     0.0010227    0.0000148 
   0.003750925     0.9588992   -0.1392450    -0.0008263    0.0003547    -0.0004130   -0.0000114     0.0008937   -0.0007135 
   0.003850950     0.9975366   -0.1380117    -0.0004602    0.0004053    -0.0002375   -0.0004759    -0.0000872    0.0002536 
   0.003950975     1.0064990   -0.1008918    -0.0021645    0.0023614     0.0000507   -0.0004532     0.0006830   -0.0005095 
   0.004051001     0.9726555   -0.1654013     0.0012179    0.0013385     0.0008966   -0.0000713     0.0009312    0.0005576 
   0.004151026     0.9993425   -0.1384428     0.0002221    0.0002882    -0.0005378   -0.0006024     0.0003675   -0.0004003 
   0.004251051     0.9752885   -0.1161293     0.0000654    0.0020732    -0.0001553    0.0000128    -0.0001005   -0.0003304 
   0.004351076     0.9939216   -0.1087561    -0.0044118    0.0007985     0.0006059   -0.0000616     0.0014338    0.0008802 
   0.004451101     1.0242510   -0.1686830    -0.0003883    0.0012184    -0.0001535    0.0000842     0.0007982   -0.0006136 
   0.004551126     0.9718164   -0.1777598     0.0002808   -0.0006022    -0.0002441    0.0004405    -0.0001876    0.0010336 
   0.004651151     0.9557378   -0.1285590    -0.0006382    0.0025582    -0.0004164   -0.0002441     0.0002372    0.0003305 
   0.004751176     0.9750140   -0.1742647    -0.0008771    0.0015332    -0.0000276    0.0001476     0.0011059    0.0001263 
   0.004851201     0.9648371   -0.1506630    -0.0009139    0.0018881     0.0002298   -0.0003069     0.0012166    0.0009837 
   0.004951226     0.9615762   -0.1538338    -0.0004859    0.0012678     0.0002407   -0.0000304     0.0005713   -0.0005393 
   0.005051251     0.9889476   -0.1813637    -0.0009462   -0.0006179    -0.0002259    0.0005989     0.0006589   -0.0002177 
   0.005151276     0.9401711   -0.1513032    -0.0022850    0.0010829    -0.0005281   -0.0009488     0.0009385   -0.0006484 
   0.005251301     0.9685159   -0.1848856    -0.0006357    0.0002689     0.0002771    0.0001078     0.0012849    0.0003620 
   0.005351326     0.9600844   -0.1617699    -0.0001275    0.0020452     0.0004530   -0.0003298     0.0007836    0.0006669 
   0.005451351     0.9747253   -0.1758045     0.0006998    0.0017233     0.0001180   -0.0006336     0.0006655    0.0004447 
   0.005551376     0.9802231   -0.1849139    -0.0016196    0.0001247     0.0000904   -0.0000580     0.0007808    0.0001432 
   0.005651401     0.9640121   -0.1797636     0.0003908    0.0006832    -0.0001080    0.0000649     0.0006057    0.0000543 
   0.005751426     0.9388644   -0.1977141     0.0002136    0.0027797     0.0000090   -0.0001509     0.0011995    0.0007069 
   0.005851451     1.0001410   -0.2010958    -0.0010727    0.0015919    -0.0000482    0.0000188     0.0000505   -0.0000557 
   0.005951476     0.9472794   -0.1706813     0.0008598    0.0005383     0.0000497    0.0002477     0.0013821    0.0005465 
   0.006051501     0.9755061   -0.1730655     0.0005378    0.0019310     0.0002838    0.0000946    -0.0000283    0.0004198 
   0.006151526     0.9700188   -0.2313322    -0.0023980    0.0008078     0.0003399   -0.0000226     0.0008487   -0.0002359 
   0.006251551     0.9725104   -0.1638516    -0.0001549    0.0005333    -0.0002811   -0.0002684     0.0003627    0.0006861 
   0.006351576     0.9490492   -0.2209050    -0.0003974    0.0006069     0.0000109    0.0000351    -0.0000907    0.0001726 
   0.006451601     0.9577481   -0.1865565    -0.0004314   -0.0000010     0.0003771   -0.0001765     0.0004894    0.0008234 
   0.006551626     0.9463567   -0.2079920    -0.0006374    0.0013861     0.0003496   -0.0003891    -0.0003290   -0.0002517 
   0.006651651     0.9780172   -0.2210798     0.0002803    0.0007402    -0.0000479    0.0002893     0.0003044    0.0001387 
   0.006751676     0.9544920   -0.2264593    -0.0006748    0.0008045    -0.0002046   -0.0002447     0.0012604    0.0003783 
   0.006851701     0.9670627   -0.2426662    -0.0020436    0.0003658     0.0002513    0.0000014     0.0002357    0.0002890 
   0.006951726     0.9363755   -0.2409658     0.0003646    0.0008494     0.0001021   -0.0002319     0.0013261    0.0010330 
   0.007051751     0.9577798   -0.2091326     0.0004919    0.0010556     0.0001734   -0.0001082     0.0008303    0.0000204 
   0.007151776     0.9528690   -0.2232656     0.0011185    0.0018228    -0.0000754    0.0001135     0.0008232   -0.0000560 
   0.007251801     0.9792863   -0.2308725    -0.0018953   -0.0005279     0.0001249    0.0000010     0.0008252    0.0002549 
   0.007351826     0.9522318   -0.2474656    -0.0032045    0.0010217     0.0002563    0.0000584     0.0008445    0.0004826 
   0.007451851     0.9456519   -0.2464707    -0.0002796    0.0003324     0.0001891   -0.0005395     0.0003629   -0.0000664 
   0.007551876     0.9644446   -0.2561472    -0.0008387    0.0004933    -0.0002340    0.0000840     0.0006387    0.0000541 
   0.007651901     0.9518508   -0.2584501    -0.0010251    0.0006928    -0.0000152   -0.0001323     0.0004624    0.0000930 
   0.007751926     0.9287389   -0.2690165     0.0004941   -0.0004148     0.0000802   -0.0001597     0.0003003   -0.0007383 
   0.007851951     0.9556340   -0.2736809    -0.0012852    0.0002722    -0.0000392    0.0001119     0.0004808    0.0000238 
   0.007951976     0.9422151   -0.2776987    -0.0012344   -0.0001557     0.0001544   -0.0007638     0.0006541    0.0000561 
   0.008052001     0.9515025   -0.2720213     0.0002313   -0.0010800     0.0002642   -0.0002984     0.0001486    0.0007128 
   0.008152026     0.9337114   -0.2886799    -0.0003207    0.0005631     0.0000372   -0.0001689     0.0007844    0.0003726 
   0.008252051     0.9260768   -0.2455940    -0.0001379    0.0004180     0.0004210    0.0003086     0.0007005    0.0002554 
   0.008352076     0.9309635   -0.2919503    -0.0003573    0.0000806    -0.0000458   -0.0000265     0.0005296    0.0004570 
   0.008452101     0.9411528   -0.2790084    -0.0020043    0.0008475     0.0001213   -0.0001645     0.0002284   -0.0001506 
   0.008552126     0.9535704   -0.2968547    -0.0006100    0.0002480     0.0001803    0.0001219     0.0005199    0.0006427 
   0.008652151     0.9406191   -0.2968637     0.0004568   -0.0004949    -0.0000013   -0.0001208     0.0003242   -0.0000578 
   0.008752176     0.9472051   -0.2928416    -0.0002442    0.0017170     0.0001936   -0.0002609     0.0005599   -0.0001373 
   0.008852201     0.9183483   -0.2831778    -0.0003272    0.0005493     0.0001802   -0.0002713     0.0007241    0.0003568 
   0.008952226     0.9512195   -0.3186709     0.0010374    0.0007405     0.0003095    0.0001244     0.0005488   -0.0000097 
   0.009052251     0.9424455   -0.3138438     0.0012812   -0.0002675    -0.0001434    0.0001015     0.0003330    0.0000664 
   0.009152276     0.9417736   -0.3188107     0.0009723   -0.0003776     0.0001566    0.0001662     0.0007795    0.0000705 
   0.009252301     0.9218495   -0.3250280    -0.0013406    0.0005585    -0.0000233   -0.0000317     0.0005412    0.0000136 
   0.009352326     0.9270719   -0.3192421    -0.0005121    0.0002509    -0.0003927   -0.0000639     0.0003138    0.0000465 
   0.009452351     0.9345769   -0.3333029     0.0011960   -0.0004554    -0.0001060   -0.0002325     0.0003869    0.0002642 
   0.009552376     0.9213570   -0.3578716     0.0008758    0.0005054     0.0003813    0.0004278     0.0005717    0.0001926 
   0.009652401     0.9111478   -0.3431654     0.0000813   -0.0004018    -0.0002895   -0.0000182     0.0002543    0.0002859 
   0.009752426     0.9012315   -0.3431179    -0.0001605   -0.0003687    -0.0002611   -0.0002788     0.0005520    0.0005492 
   0.009852451     0.9151149   -0.3593812     0.0003315    0.0000301    -0.0000453    0.0000257     0.0002105   -0.0001590 
   0.009952476     0.8987197   -0.3824814    -0.0004920    0.0001918    -0.0002196   -0.0002784     0.0009376   -0.0000321 
   0.010052501     0.9029172   -0.3775584    -0.0001431    0.0006281     0.0003227    0.0002078     0.0006642   -0.0001980 
   0.010152526     0.8819348   -0.3794024     0.0013046   -0.0007112     0.0003270   -0.0002587     0.0007728    0.0002858 
   0.010252551     0.8713878   -0.3659189     0.0006513    0.0005800     0.0000332   -0.0002278     0.0004611    0.0000058 
   0.010352576     0.8862054   -0.4017506     0.0018831    0.0011415     0.0004035    0.0001196     0.0004472    0.0003838 
   0.010452601     0.8972228   -0.4021747    -0.0011060    0.0007974     0.0000532    0.0000412     0.0005043   -0.0001862 
   0.010552626     0.8644370   -0.4094999     0.0000223   -0.0007944    -0.0000821   -0.0002881     0.0001538    0.0003748 
   0.010652651     0.8738109   -0.4229972     0.0005791   -0.0001502    -0.0001185   -0.0002489     0.0010144    0.0002504 
   0.010752676     0.8511055   -0.4454089     0.0003690    0.0008782    -0.0000679    0.0002364     0.0006716    0.0004298 
   0.010852701     0.8670619   -0.4351958     0.0006540    0.0004899     0.0000863    0.0000642     0.0005183    0.0002742 
   0.010952726     0.8257161   -0.4597847    -0.0005915   -0.0003690    -0.0000996   -0.0000868     0.0001074   -0.0000440 
   0.011052751     0.8184643   -0.4836098     0.0009752    0.0000435     0.0000428   -0.0000319     0.0004478    0.0000183 
   0.011152776     0.8079858   -0.4948060    -0.0008974    0.0002765    -0.0000759    0.0004030     0.0005266    0.0002090 
   0.011252801     0.7868971   -0.4913380    -0.0000805    0.0002814    -0.0001388   -0.0001934     0.0003308    0.0003883 
   0.011352826     0.7445322   -0.5225546    -0.0003568    0.0005786     0.0000848   -0.0001290     0.0004509    0.0000044 
   0.011452851     0.7237657   -0.5263273    -0.0006900   -0.0006350    -0.0000268   -0.0000822     0.0004880    0.0002584 
   0.011552876     0.6763265   -0.5342516     0.0001919   -0.0005058     0.0000546   -0.0001366     0.0005337    0.0005021 
   0.011652901     0.6263470   -0.5424319     0.0000634   -0.0009959    -0.0000470   -0.0001452     0.0005934    0.0006035 
   0.011752926     0.5711957   -0.5362770    -0.0003520   -0.0003429    -0.0000088    0.0000560     0.0006209   -0.0000155 
   0.011852951     0.4867595   -0.5281001     0.0002516   -0.0004885     0.0000079   -0.0000020     0.0003293    0.0002115 
   0.011952976     0.3961053   -0.4655960    -0.0004839   -0.0004050     0.0000861    0.0000092     0.0005332    0.0006779 
   0.012053002     0.3261559   -0.3701145    -0.0008116    0.0000807     0.0001770    0.0002719     0.0005877    0.0004250 
   0.012153027     0.2933044   -0.2284255    -0.0004499    0.0010650     0.0001656    0.0000491     0.0009001    0.0001518 
   0.012253052     0.3301400   -0.0802327    -0.0006748   -0.0001317     0.0001641    0.0002539     0.0010757    0.0001271 
   0.012353077     0.4361884    0.0362848    -0.0002785    0.0004326     0.0002281    0.0001250     0.0002696    0.0001909 
   0.012453102     0.5549875    0.0820996    -0.0000053   -0.0002361     0.0001241    0.0000711     0.0008155    0.0000773 
   0.012553127     0.6650189    0.0664695    -0.0002674   -0.0003642     0.0000467   -0.0001277     0.0006803   -0.0003045 
   0.012653152     0.7439120    0.0617855    -0.0003101    0.0007113     0.0000409    0.0000331     0.0005672    0.0002836 
   0.012753177     0.7891608    0.0072850     0.0009382   -0.0002819     0.0004065    0.0002216     0.0004271    0.0003135 
   0.012853202     0.8328599   -0.0018965     0.0007733   -0.0004997    -0.0002747   -0.0001009     0.0005943    0.0006198 
   0.012953227     0.8624939   -0.0447896     0.0002565    0.0005072    -0.0002728   -0.0000496     0.0007068    0.0000522 
   0.013053252     0.8908491   -0.0938106    -0.0002997   -0.0001484    -0.0001498   -0.0001776     0.0005331    0.0002596 
   0.013153277     0.8845597   -0.1122290    -0.0007094    0.0006139    -0.0000633    0.0004662     0.0002599    0.0005031 
   0.013253302     0.8974896   -0.1208539     0.0003496   -0.0004382    -0.0001679    0.0002864     0.0006772    0.0002232 
   0.013353327     0.9112561   -0.1428852    -0.0000098   -0.0005023     0.0002004   -0.0001563     0.0002563    0.0002675 
   0.013453352     0.9126252   -0.1619329    -0.0011755   -0.0008975    -0.0005090    0.0000785     0.0002948    0.0003862 
   0.013553377     0.9052461   -0.1826522     0.0012969   -0.0007279    -0.0001276   -0.0002244     0.0002155   -0.0000463 
   0.013653402     0.9227932   -0.2062674    -0.0001583    0.0000053     0.0000832    0.0001926     0.0004168    0.0003218 
   0.013753427     0.9269356   -0.2144338    -0.0007109    0.0003463     0.0003745   -0.0001717     0.0001717    0.0003726 
   0.013853452     0.9293599   -0.2265757     0.0000486    0.0007577     0.0001866   -0.0001091     0.0008999    0.0003809 
   0.013953477     0.9027380   -0.2316898     0.0007171    0.0009861     0.0000223    0.0001550     0.0003619    0.0002852 
   0.014053502     0.9228655   -0.2555076     0.0000378    0.0005984     0.0002199   -0.0002303     0.0002990    0.0000273 
   0.014153527     0.9211705   -0.2591760    -0.0005186    0.0001473    -0.0001929   -0.0001612     0.0008169    0.0003131 
   0.014253552     0.9209716   -0.2580129    -0.0007201    0.0000159     0.0000020   -0.0002358     0.0009392   -0.0003200 
   0.014353577     0.9061570   -0.2815016     0.0006461   -0.0004486    -0.0000101    0.0003666     0.0010046    0.0005187 
   0.014453602     0.8916783   -0.2831516    -0.0004390   -0.0002623    -0.0001001    0.0000175     0.0001114   -0.0000081 
   0.014553627     0.9054096   -0.2959138     0.0002945   -0.0006337     0.0002923    0.0000796     0.0004469    0.0004200 
   0.014653652     0.9065083   -0.3052181     0.0008433    0.0001519     0.0002744   -0.0002354     0.0005530   -0.0002227 
   0.014753677     0.9060527   -0.3075176     0.0002673    0.0004580     0.0000386    0.0001160     0.0005334    0.0001665 
   0.014853702     0.9216538   -0.2943835    -0.0006511    0.0004098     0.0000119    0.0003645     0.0005347    0.0007355 
   0.014953727     0.9070129   -0.3303850     0.0003243   -0.0008092     0.0000286   -0.0001471     0.0000261    0.0000400 
   0.015053752     0.9099541   -0.3271669     0.0002324    0.0008032    -0.0001149    0.0000974     0.0007267    0.0004718 
   0.015153777     0.9235398   -0.3303648    -0.0002055    0.0001946     0.0000148    0.0002231     0.0007335   -0.0000359 
   0.015253802     0.9028984   -0.3380889    -0.0004611   -0.0001389     0.0000735   -0.0001730     0.0003121   -0.0000204 
   0.015353827     0.8991144   -0.3385768    -0.0008252   -0.0000804     0.0000816    0.0001025     0.0008173    0.0004159 
   0.015453852     0.8926724   -0.3444781    -0.0008553    0.0007747     0.0002933    0.0001110     0.0007185    0.0005835 
   0.015553877     0.8979250   -0.3476367     0.0000623    0.0001668     0.0000907   -0.0000638     0.0006182    0.0004302 
   0.015653902     0.9005758   -0.3529795    -0.0003372   -0.0008761     0.0000166   -0.0001386     0.0003852    0.0001019 
