! 23-Mar-26 11:54:58 AM
! E:\UPDATEDVNAMEASUREMENTS\CAL_S11S\LONG_OPEN.S2P
! CHANNEL.1
! TR.MEASUREMENT
! CORRECTED.DATA
# GHZ S RI R 50.0
! FREQ.GHZ         S11RE         S11IM         S21RE         S21IM         S12RE         S12IM         S22RE         S22IM         
!; PortSelection: Port_12
   0.000050000     0.4342545    0.3546189    -0.3901052   -0.1171340    -0.0077866    0.0008277     0.0039907    0.0329483 
   0.000150025    -0.0510731    0.3356180     0.7582593   -0.3373923    -0.0009181   -0.0012356     0.0001103    0.0010296 
   0.000250050    -0.0115722   -0.1923812    -0.2323859   -0.1805130     0.0002607    0.0000515     0.0019022    0.0008913 
   0.000350075     0.9839019   -0.0680952    -0.0012284   -0.0022637     0.0010937    0.0000794    -0.0012269   -0.0012515 
   0.000450100     1.0309540   -0.0697143     0.0004990   -0.0084744    -0.0008130   -0.0000745    -0.0004756   -0.0011151 
   0.000550125     1.0166650   -0.0189176    -0.0037264   -0.0104459     0.0000394    0.0011459     0.0010544   -0.0005580 
   0.000650150     0.9529461   -0.0152738    -0.0050855   -0.0081368     0.0004597   -0.0003767     0.0014413   -0.0016685 
   0.000750175     0.9343644   -0.0692518    -0.0093567   -0.0105159     0.0009847    0.0007433    -0.0000499    0.0006742 
   0.000850200     0.9772984   -0.1120734    -0.0090309   -0.0098312     0.0002739   -0.0005040    -0.0015051    0.0001131 
   0.000950225     0.9939325   -0.0569801    -0.0123836   -0.0068444    -0.0001647    0.0003467     0.0009231    0.0012329 
   0.001050250     0.9999177   -0.0931532    -0.0130141   -0.0089140     0.0000141    0.0006980     0.0006499    0.0001082 
   0.001150275     0.9992404   -0.0367344    -0.0123494   -0.0065388    -0.0008149   -0.0010015     0.0016749    0.0007190 
   0.001250300     0.9650534   -0.0111852    -0.0110466   -0.0058306     0.0002975   -0.0002526     0.0015954    0.0003155 
   0.001350325     1.0142830   -0.0431638    -0.0061699   -0.0047360    -0.0000370    0.0003196     0.0008769   -0.0002896 
   0.001450350     1.0051660   -0.0672922    -0.0071086   -0.0011424     0.0000251    0.0010619     0.0002511    0.0003393 
   0.001550375     0.9441193   -0.0495046    -0.0059672   -0.0013820    -0.0001337   -0.0003793     0.0015413    0.0001483 
   0.001650400     0.9823149   -0.0069420    -0.0071412    0.0001901     0.0011678    0.0009193    -0.0005822    0.0002241 
   0.001750425     0.9671136   -0.0939544    -0.0134419    0.0010336     0.0002256    0.0001391     0.0009480    0.0004663 
   0.001850450     0.9895288   -0.0405718    -0.0090549    0.0026417     0.0004127    0.0001338     0.0000863    0.0006086 
   0.001950475     1.0580270   -0.0644389    -0.0080411   -0.0003613    -0.0002627   -0.0000433     0.0017254   -0.0003701 
   0.002050500     0.9784327   -0.0433497    -0.0083576   -0.0009818    -0.0005787   -0.0003181     0.0018014    0.0000749 
   0.002150525     1.0019280   -0.0403865    -0.0056010    0.0016508     0.0000561   -0.0003499     0.0003341    0.0003191 
   0.002250550     0.9681345   -0.0319142    -0.0043024    0.0003006    -0.0002336   -0.0001957     0.0004533   -0.0011773 
   0.002350575     0.9793721   -0.1478713    -0.0040299    0.0007023     0.0004369    0.0006576     0.0008643   -0.0000009 
   0.002450600     0.9802030   -0.1026744    -0.0043057    0.0010253     0.0002226   -0.0003829     0.0008081   -0.0005614 
   0.002550625     0.9931456   -0.1163504    -0.0041397    0.0036800     0.0004155   -0.0001030     0.0007209    0.0011575 
   0.002650650     0.9714784   -0.0592462    -0.0033213    0.0037462    -0.0004995    0.0007027    -0.0000842    0.0003397 
   0.002750675     0.9903429   -0.0470574    -0.0039933    0.0029596     0.0008064    0.0002615     0.0005157   -0.0003695 
   0.002850700     1.0425980   -0.1086962    -0.0012327    0.0038829     0.0002710   -0.0000953    -0.0002051   -0.0004070 
   0.002950725     0.9684874   -0.0778122    -0.0003139    0.0039889     0.0002116    0.0000621     0.0020458   -0.0000005 
   0.003050750     0.9979116   -0.1082006    -0.0036833    0.0034505    -0.0001159   -0.0002064     0.0002704   -0.0003418 
   0.003150775     0.9693375   -0.1232880    -0.0029043    0.0018598    -0.0000463    0.0000179    -0.0001149    0.0001295 
   0.003250800     0.9795081   -0.1098664    -0.0013823    0.0038583     0.0003042    0.0003869     0.0005111    0.0008661 
   0.003350825     0.9799670   -0.0828529    -0.0027798    0.0027741     0.0001558    0.0002954     0.0005500    0.0002114 
   0.003450850     0.9825091   -0.1424189    -0.0013408   -0.0007544     0.0003691   -0.0002686     0.0003069   -0.0009774 
   0.003550875     0.9382967   -0.1288403    -0.0018205    0.0051444     0.0004273   -0.0001376     0.0011240   -0.0000481 
   0.003650900     0.9790984   -0.0957374    -0.0008650    0.0007081    -0.0003624   -0.0002069     0.0007783   -0.0003651 
   0.003750925     0.9794028   -0.1449442    -0.0019721   -0.0001432    -0.0000360    0.0003884     0.0005732   -0.0006166 
   0.003850950     0.9781284   -0.1244444    -0.0021758    0.0014818    -0.0001760   -0.0000366    -0.0001109    0.0003228 
   0.003950975     1.0092770   -0.1276348    -0.0006912    0.0037539     0.0000719   -0.0000767    -0.0000025   -0.0002967 
   0.004051001     0.9804564   -0.1206484    -0.0003483    0.0015569    -0.0000654    0.0000215     0.0006354    0.0008063 
   0.004151026     0.9899589   -0.1378509     0.0013713    0.0004113     0.0002570   -0.0002583     0.0000580   -0.0001319 
   0.004251051     0.9747130   -0.1708646    -0.0007189    0.0006100    -0.0002414    0.0000922     0.0000722   -0.0001586 
   0.004351076     0.9842174   -0.1307466    -0.0042559    0.0020532     0.0000933   -0.0003379     0.0011722    0.0005337 
   0.004451101     0.9753444   -0.1725996     0.0017497    0.0019746    -0.0000784   -0.0000758     0.0009173   -0.0003181 
   0.004551126     1.0053810   -0.1378178     0.0013287    0.0010210     0.0001550    0.0003887     0.0002270    0.0009045 
   0.004651151     0.9595393   -0.1460542     0.0000853    0.0005698    -0.0005679    0.0000102     0.0006435    0.0003724 
   0.004751176     0.9818125   -0.1639781     0.0010076    0.0013078     0.0002184    0.0001135     0.0010923    0.0001492 
   0.004851201     0.9511726   -0.1389421    -0.0011061    0.0009053     0.0005526    0.0003696     0.0007567    0.0010754 
   0.004951226     0.9741474   -0.1281469     0.0003365    0.0024975    -0.0001134    0.0001144     0.0003868    0.0001000 
   0.005051251     0.9953873   -0.1844266    -0.0007520    0.0002724     0.0003396    0.0002503     0.0008082   -0.0006344 
   0.005151276     0.9790879   -0.1266771     0.0003644    0.0000849    -0.0000539   -0.0000326     0.0005157   -0.0001747 
   0.005251301     0.9724645   -0.1717754     0.0015852    0.0015625     0.0000463    0.0003449     0.0009564    0.0012564 
   0.005351326     0.9363387   -0.1654327    -0.0004010   -0.0014568    -0.0000660   -0.0000289     0.0012642    0.0005726 
   0.005451351     0.9762476   -0.1575292     0.0008279    0.0027960     0.0001049   -0.0003844     0.0005077    0.0008165 
   0.005551376     0.9835173   -0.1690278     0.0006805    0.0009118     0.0001412   -0.0002073     0.0008051   -0.0005084 
   0.005651401     0.9663626   -0.1801246    -0.0007279    0.0009277    -0.0000636    0.0000834     0.0003044   -0.0001722 
   0.005751426     0.9389319   -0.1863555     0.0015286    0.0003616     0.0000653    0.0004704     0.0007468   -0.0001102 
   0.005851451     0.9510366   -0.2288420    -0.0002454    0.0006202    -0.0000124    0.0000308     0.0000541    0.0000089 
   0.005951476     0.9646571   -0.1815266     0.0006736    0.0000967    -0.0000358    0.0002305     0.0001395   -0.0001386 
   0.006051501     0.9556437   -0.1909604     0.0007065    0.0005401    -0.0000975    0.0006715    -0.0001516    0.0005658 
   0.006151526     0.9682038   -0.2042462     0.0006027    0.0023252     0.0001575   -0.0001261     0.0008189    0.0000271 
   0.006251551     0.9568537   -0.1721185    -0.0012552    0.0002891    -0.0001956    0.0004175     0.0007375    0.0002275 
   0.006351576     0.9764879   -0.2101844    -0.0002466    0.0006708    -0.0003793    0.0002912    -0.0002967    0.0002150 
   0.006451601     0.9489890   -0.1980324    -0.0015433    0.0008793     0.0001285   -0.0006818     0.0003334    0.0005114 
   0.006551626     0.9569048   -0.1955352    -0.0007068   -0.0002080    -0.0002153   -0.0000481    -0.0004678    0.0001099 
   0.006651651     0.9567497   -0.2145025    -0.0013655   -0.0023529     0.0002174    0.0003389     0.0005118    0.0003240 
   0.006751676     0.9460655   -0.2265318    -0.0006657    0.0011166     0.0000291    0.0002003     0.0014520    0.0001634 
   0.006851701     0.9730749   -0.2277448     0.0000569   -0.0000455    -0.0002685   -0.0002025     0.0004628    0.0003783 
   0.006951726     0.9496506   -0.2133338     0.0005264    0.0009048     0.0003653    0.0000081     0.0007645    0.0009371 
   0.007051751     0.9646424   -0.2307105     0.0008455    0.0017997     0.0001951   -0.0000795     0.0007587   -0.0001192 
   0.007151776     0.9428895   -0.2367066    -0.0019228   -0.0002097    -0.0000438    0.0000999     0.0009935    0.0002474 
   0.007251801     0.9844232   -0.2133980    -0.0007128    0.0013618    -0.0002866    0.0000379     0.0007358    0.0006516 
   0.007351826     0.9522427   -0.2562208     0.0010446    0.0006564    -0.0002553   -0.0001412     0.0009914    0.0005896 
   0.007451851     0.9384136   -0.2196510    -0.0004673   -0.0015679     0.0001153   -0.0008230     0.0009363   -0.0002782 
   0.007551876     0.9448441   -0.2506764    -0.0002903    0.0007751    -0.0000521    0.0002844     0.0003455    0.0002167 
   0.007651901     0.9653562   -0.2762872     0.0006758   -0.0009773     0.0002407    0.0001298     0.0003292    0.0006456 
   0.007751926     0.9590473   -0.2455754    -0.0008041    0.0007552     0.0007825   -0.0003083     0.0002885   -0.0006131 
   0.007851951     0.9435222   -0.2515366    -0.0003539   -0.0004994     0.0002373    0.0001410     0.0009162    0.0002460 
   0.007951976     0.9519768   -0.2646389     0.0001863    0.0005625    -0.0006101   -0.0001456     0.0005551    0.0000879 
   0.008052001     0.9552953   -0.2538549    -0.0003382   -0.0010142     0.0003235   -0.0000141     0.0004551    0.0004892 
   0.008152026     0.9466339   -0.2803286    -0.0016886   -0.0013426    -0.0001650    0.0000592     0.0009707    0.0001047 
   0.008252051     0.9442353   -0.2493941     0.0005366   -0.0029675    -0.0000254    0.0000904     0.0006793    0.0005121 
   0.008352076     0.9530345   -0.2780814    -0.0007829    0.0003951    -0.0002302   -0.0000741     0.0012025    0.0000839 
   0.008452101     0.9391145   -0.2839318    -0.0004008   -0.0005063    -0.0005696    0.0001900     0.0001404   -0.0003026 
   0.008552126     0.9499663   -0.2795694    -0.0000629   -0.0004237     0.0004242    0.0005295     0.0007322    0.0004036 
   0.008652151     0.9444967   -0.2707804    -0.0011073    0.0017916     0.0000202   -0.0001312     0.0004565    0.0002255 
   0.008752176     0.9405870   -0.2929503    -0.0015086    0.0010125    -0.0000615    0.0002514     0.0000531   -0.0006990 
   0.008852201     0.9247079   -0.2853663     0.0009230    0.0008845     0.0006393    0.0003437     0.0006863    0.0004622 
   0.008952226     0.9561272   -0.2825717     0.0009993    0.0004406     0.0001957    0.0004439     0.0005049   -0.0002490 
   0.009052251     0.9351084   -0.2914148     0.0011337    0.0003986     0.0000586    0.0004773     0.0008599    0.0001817 
   0.009152276     0.9416216   -0.3117530    -0.0000060   -0.0001524     0.0000580    0.0000611     0.0008465    0.0003587 
   0.009252301     0.9159267   -0.3014597     0.0000659   -0.0013540    -0.0002790   -0.0000027     0.0003320    0.0004448 
   0.009352326     0.9450865   -0.3262051    -0.0002050   -0.0008936    -0.0000913   -0.0005507     0.0003231    0.0000382 
   0.009452351     0.9305395   -0.3196020     0.0011079    0.0011270     0.0001531   -0.0000199     0.0004060    0.0005121 
   0.009552376     0.9339184   -0.3334714    -0.0003954    0.0004360    -0.0000895    0.0003781     0.0007024    0.0001894 
   0.009652401     0.9113633   -0.3380924    -0.0000186   -0.0011621     0.0003220   -0.0000869     0.0001040    0.0003922 
   0.009752426     0.9142914   -0.3415778     0.0007022   -0.0001807    -0.0001147   -0.0003723     0.0004631    0.0003781 
   0.009852451     0.9087105   -0.3426159     0.0004925    0.0004394     0.0002051    0.0003726     0.0004687    0.0003583 
   0.009952476     0.9219976   -0.3612874     0.0004301   -0.0008484     0.0005485    0.0001255     0.0004833    0.0003320 
   0.010052501     0.9220252   -0.3640958     0.0000061    0.0008019     0.0000822   -0.0001223     0.0002799    0.0002673 
   0.010152526     0.9139469   -0.3559411     0.0006439    0.0005926     0.0000013   -0.0000495     0.0006020    0.0003042 
   0.010252551     0.8920267   -0.3597862    -0.0009272    0.0004025    -0.0001828    0.0000557     0.0005419    0.0000484 
   0.010352576     0.9033797   -0.3761969    -0.0018266   -0.0011394     0.0003378   -0.0000978     0.0008416    0.0004064 
   0.010452601     0.9152001   -0.3484041     0.0007819    0.0013446     0.0000127   -0.0007115     0.0003220    0.0000398 
   0.010552626     0.8890137   -0.3710746    -0.0003077    0.0003124    -0.0003386    0.0000975     0.0003833    0.0002427 
   0.010652651     0.8909399   -0.3911034     0.0001105    0.0002134     0.0002855   -0.0002642     0.0005512    0.0000410 
   0.010752676     0.8917387   -0.3927048    -0.0001811   -0.0004497    -0.0005175   -0.0001062     0.0006609   -0.0000646 
   0.010852701     0.8743725   -0.3822212    -0.0003168   -0.0006000     0.0000705   -0.0001583     0.0005301    0.0004308 
   0.010952726     0.9000545   -0.4143669    -0.0001809    0.0003024     0.0000677   -0.0000826     0.0000676    0.0000916 
   0.011052751     0.8807004   -0.4314937    -0.0004732   -0.0009418    -0.0000520   -0.0004345     0.0006815    0.0005646 
   0.011152776     0.8632814   -0.4256485     0.0003705   -0.0004886     0.0000330    0.0002243     0.0008471    0.0003772 
   0.011252801     0.8549441   -0.4179482    -0.0003153   -0.0001350     0.0002340    0.0002473     0.0000749    0.0004118 
   0.011352826     0.8506801   -0.4688323    -0.0004781   -0.0006698    -0.0002952    0.0000734     0.0003623   -0.0000797 
   0.011452851     0.8351877   -0.4557001    -0.0001936    0.0000770     0.0001664   -0.0000581     0.0002146    0.0003728 
   0.011552876     0.8230434   -0.4658079     0.0003773    0.0005460    -0.0002506   -0.0002098     0.0002076    0.0002312 
   0.011652901     0.8266342   -0.4874231     0.0013301   -0.0014763    -0.0003462    0.0001681     0.0007951    0.0003471 
   0.011752926     0.7983517   -0.4808323     0.0007447   -0.0004909    -0.0000145    0.0000198     0.0006707    0.0003543 
   0.011852951     0.7991478   -0.4970739    -0.0006684    0.0007931     0.0002429    0.0001178     0.0002003    0.0004635 
   0.011952976     0.7749706   -0.4955224     0.0003481   -0.0004197     0.0002456   -0.0000635     0.0003825    0.0004979 
   0.012053002     0.7415811   -0.5313515     0.0000996   -0.0009321    -0.0002564   -0.0003576     0.0006708    0.0004719 
   0.012153027     0.7239721   -0.5386125    -0.0003529   -0.0005887     0.0000137    0.0000745     0.0007200    0.0001084 
   0.012253052     0.6899257   -0.5460021    -0.0002478    0.0000615     0.0001245   -0.0001823     0.0008184    0.0003397 
   0.012353077     0.6637061   -0.5482150     0.0006567   -0.0001240     0.0001890   -0.0000943     0.0005599    0.0003477 
   0.012453102     0.6304182   -0.5589976    -0.0004738    0.0007892     0.0003357   -0.0002491     0.0006338   -0.0000448 
   0.012553127     0.5487491   -0.5689685     0.0000091   -0.0005371     0.0002632    0.0001399     0.0004575   -0.0001029 
   0.012653152     0.5102788   -0.5483836     0.0001517    0.0003527     0.0001752    0.0000008    -0.0002116    0.0002888 
   0.012753177     0.4276600   -0.5106492    -0.0005830    0.0001457    -0.0000486   -0.0002696     0.0002479    0.0002515 
   0.012853202     0.3520765   -0.4524843     0.0002187   -0.0001056     0.0001480   -0.0000987     0.0004280    0.0006702 
   0.012953227     0.2882496   -0.3573751    -0.0004397    0.0005670    -0.0001070    0.0000429     0.0005446   -0.0000229 
   0.013053252     0.2598720   -0.2321396     0.0002652   -0.0000273    -0.0000433    0.0000531     0.0006986    0.0007028 
   0.013153277     0.2969672   -0.0923693    -0.0000777   -0.0010454    -0.0000934    0.0001019     0.0004450    0.0001374 
   0.013253302     0.3779784    0.0184707     0.0000325   -0.0007839     0.0000446    0.0000757     0.0004980   -0.0000334 
   0.013353327     0.4855038    0.0840238     0.0004128    0.0006285    -0.0000068    0.0001738     0.0001882    0.0001350 
   0.013453352     0.5826429    0.0982563    -0.0006042    0.0003138     0.0000696   -0.0000879     0.0009117    0.0003153 
   0.013553377     0.6718997    0.0785932    -0.0006903    0.0004510    -0.0001741    0.0000274     0.0004159    0.0003785 
   0.013653402     0.7457416    0.0455382    -0.0009051   -0.0009916     0.0001768    0.0000080     0.0005694    0.0001543 
   0.013753427     0.7915846    0.0102374    -0.0002864   -0.0010796     0.0001529    0.0002037     0.0004012    0.0003137 
   0.013853452     0.8453731   -0.0161563    -0.0000217    0.0002815     0.0002554    0.0001202     0.0005808    0.0001421 
   0.013953477     0.8392227   -0.0589469    -0.0003120    0.0005437     0.0002125   -0.0000509     0.0004917    0.0006378 
   0.014053502     0.8822461   -0.0849580     0.0001807   -0.0011764     0.0000958    0.0001483     0.0003990    0.0001720 
   0.014153527     0.8882928   -0.1115660    -0.0010079   -0.0007019    -0.0000309    0.0001058     0.0004589    0.0003498 
   0.014253552     0.8966283   -0.1183578     0.0009550    0.0000453     0.0000448    0.0002207     0.0007690   -0.0003000 
   0.014353577     0.8968617   -0.1428601    -0.0000543   -0.0011056     0.0001293   -0.0001402     0.0006747    0.0001223 
   0.014453602     0.8945301   -0.1630856     0.0001521    0.0001478     0.0000881    0.0001463     0.0005130    0.0001760 
   0.014553627     0.9085739   -0.1852166    -0.0008126   -0.0001622     0.0000968   -0.0001063     0.0004145    0.0003110 
   0.014653652     0.9230440   -0.1912012    -0.0002677   -0.0001379     0.0001271   -0.0000409     0.0006887    0.0001542 
   0.014753677     0.8991816   -0.2183457     0.0004238   -0.0003005    -0.0000303   -0.0002501     0.0005955    0.0003138 
   0.014853702     0.9144964   -0.2179518     0.0003105    0.0002252     0.0001387   -0.0001961     0.0004539    0.0004141 
   0.014953727     0.9134846   -0.2501009     0.0000435   -0.0003640    -0.0001018    0.0001456     0.0008568    0.0004894 
   0.015053752     0.9035078   -0.2544657     0.0001739   -0.0003910     0.0000285    0.0000475     0.0006451    0.0002250 
   0.015153777     0.9198312   -0.2567389    -0.0012116   -0.0004589     0.0003446    0.0000493     0.0003250    0.0000195 
   0.015253802     0.9057962   -0.2661042    -0.0001014   -0.0004762     0.0001588   -0.0002832     0.0004505    0.0001570 
   0.015353827     0.9068947   -0.2791675    -0.0002682    0.0000297     0.0000040   -0.0000151     0.0007903    0.0003694 
   0.015453852     0.9188377   -0.2838222     0.0000796   -0.0002450    -0.0000428    0.0000518     0.0005961    0.0005148 
   0.015553877     0.9145470   -0.2900462    -0.0005811   -0.0005567     0.0002414   -0.0002191     0.0003545    0.0002674 
   0.015653902     0.9155490   -0.2951565    -0.0001385    0.0006792    -0.0000532    0.0000824     0.0003783    0.0001639 
