! 23-Mar-26 11:50:50 AM
! E:\UPDATEDVNAMEASUREMENTS\CAL_S11S\NOISE_DIODE.S2P
! CHANNEL.1
! TR.MEASUREMENT
! CORRECTED.DATA
# GHZ S RI R 50.0
! FREQ.GHZ         S11RE         S11IM         S21RE         S21IM         S12RE         S12IM         S22RE         S22IM         
!; PortSelection: Port_12
   0.000050000     0.0846525   -0.1791029    -0.1949031   -0.1322410     0.0064408    0.0061688     0.0196726    0.0324447 
   0.000150025    -0.2791227    0.2656453    -0.5992652   -0.0567749    -0.0003977   -0.0014865     0.0023825   -0.0046568 
   0.000250050    -0.5569618    0.4243447    -0.4825084   -0.4363288    -0.0000890   -0.0000256     0.0001077   -0.0014236 
   0.000350075     1.0176500   -0.0153967     0.0026907   -0.0113251    -0.0013040    0.0003387    -0.0013086    0.0004956 
   0.000450100     1.0465370   -0.0520711    -0.0032204   -0.0102475    -0.0008227    0.0001756    -0.0007066    0.0001330 
   0.000550125     1.0063130   -0.0435223     0.0013767   -0.0113616    -0.0013743   -0.0002812     0.0013081    0.0004893 
   0.000650150     0.9853710   -0.0592279    -0.0048785   -0.0081869     0.0007346    0.0007726     0.0010922   -0.0007995 
   0.000750175     1.0129420   -0.0913894    -0.0046440   -0.0056703    -0.0000181   -0.0001754     0.0007374    0.0005710 
   0.000850200     0.9584830   -0.1153817    -0.0082541   -0.0037420     0.0005141    0.0000610     0.0002814   -0.0008690 
   0.000950225     1.0142170   -0.0573660    -0.0080153   -0.0080806     0.0002906    0.0004669     0.0010600    0.0001518 
   0.001050250     0.9778090   -0.0567608    -0.0098748   -0.0056446     0.0001891    0.0001555     0.0007604    0.0010485 
   0.001150275     0.9895564   -0.0548541    -0.0129488   -0.0041639    -0.0002405   -0.0004659     0.0010887    0.0011151 
   0.001250300     0.9396867   -0.0362902    -0.0088123   -0.0017345     0.0007806    0.0000013     0.0015709    0.0004981 
   0.001350325     0.9795955   -0.1102919    -0.0115328   -0.0028680    -0.0006808    0.0000041     0.0005971   -0.0005502 
   0.001450350     0.9619511   -0.0381967    -0.0103658   -0.0008706    -0.0004999    0.0000461     0.0004695    0.0008480 
   0.001550375     0.9500241   -0.0440347    -0.0095294   -0.0001275     0.0008928    0.0004788     0.0014129    0.0011231 
   0.001650400     0.9843642   -0.0100906    -0.0112243   -0.0049178     0.0007620   -0.0003418     0.0000308   -0.0004029 
   0.001750425     0.9980543   -0.0829196    -0.0054013    0.0008768    -0.0009443    0.0000142     0.0009964    0.0007497 
   0.001850450     0.9651708   -0.0702459    -0.0065995    0.0008197     0.0005814    0.0000170     0.0001010    0.0014864 
   0.001950475     1.0126130   -0.0129388    -0.0046666   -0.0023387     0.0004389    0.0005319     0.0023587   -0.0002442 
   0.002050500     0.9619520   -0.0594709    -0.0060349    0.0025367     0.0007943   -0.0007403     0.0008036   -0.0001304 
   0.002150525     0.9777236   -0.0693337    -0.0045395    0.0022023     0.0001661    0.0006422     0.0010386   -0.0001289 
   0.002250550     0.9720061   -0.0839956    -0.0007009    0.0010258     0.0005510    0.0005948     0.0001762   -0.0005491 
   0.002350575     0.9879258   -0.0701431    -0.0050084    0.0027598    -0.0001750   -0.0005509     0.0008157   -0.0004011 
   0.002450600     0.9679112   -0.1144785    -0.0065638    0.0039894    -0.0000022   -0.0000649     0.0002633   -0.0009182 
   0.002550625     0.9941306   -0.1231636    -0.0049242    0.0030399     0.0006351   -0.0000006     0.0007699    0.0000525 
   0.002650650     1.0285420   -0.0574317    -0.0063325    0.0033851     0.0003941    0.0001779     0.0006780    0.0005727 
   0.002750675     0.9654842   -0.0397239    -0.0049887    0.0045668    -0.0007708    0.0003247    -0.0000603    0.0001280 
   0.002850700     0.9706537   -0.1031472    -0.0029508    0.0015051    -0.0003744   -0.0001708     0.0007491   -0.0001572 
   0.002950725     0.9356468   -0.1003946    -0.0033808   -0.0004440    -0.0001796   -0.0009442     0.0012640    0.0003999 
   0.003050750     0.9679111   -0.1244152    -0.0033261    0.0011996     0.0003328   -0.0003020     0.0003418   -0.0007739 
   0.003150775     0.9816782   -0.1204574    -0.0045869    0.0009979     0.0003688    0.0008564    -0.0003195    0.0010884 
   0.003250800     0.9638967   -0.0597781    -0.0018735    0.0005790    -0.0002138    0.0004091     0.0000947    0.0003361 
   0.003350825     0.9790726   -0.0933598    -0.0018986    0.0038270    -0.0001566    0.0005855    -0.0003377    0.0008251 
   0.003450850     0.9410633   -0.1321076     0.0001486    0.0038709     0.0005482    0.0001870     0.0005880   -0.0012617 
   0.003550875     0.9431792   -0.1083559    -0.0018430   -0.0010835    -0.0001979    0.0000940     0.0004071   -0.0000955 
   0.003650900     0.9877606   -0.1125974    -0.0030032    0.0018261     0.0000132   -0.0001554     0.0011885   -0.0006388 
   0.003750925     0.9551098   -0.1187940     0.0000574    0.0017382     0.0003174    0.0003229     0.0003621   -0.0001278 
   0.003850950     0.9908737   -0.1198221    -0.0009127    0.0032085    -0.0001304   -0.0001707     0.0005267    0.0007312 
   0.003950975     0.9974555   -0.1389058    -0.0011303   -0.0002572    -0.0001931    0.0003298     0.0004972   -0.0001249 
   0.004051001     0.9274879   -0.1560746     0.0028767   -0.0014416     0.0004074    0.0001264     0.0003301    0.0006095 
   0.004151026     0.9518383   -0.1134500    -0.0019881    0.0001134     0.0001256   -0.0000982     0.0006230    0.0000078 
   0.004251051     0.9904460   -0.1269549     0.0000303    0.0016219     0.0006302   -0.0000624     0.0002644   -0.0001479 
   0.004351076     0.9573452   -0.1134235     0.0000850    0.0017082    -0.0002132    0.0000806     0.0008623    0.0002397 
   0.004451101     1.0034100   -0.1762017    -0.0002525    0.0039785    -0.0000030   -0.0002613     0.0006823   -0.0003001 
   0.004551126     0.9855868   -0.1612121    -0.0027473   -0.0013223    -0.0002439   -0.0003379    -0.0002038    0.0004860 
   0.004651151     0.9648425   -0.1769690     0.0021581   -0.0002674     0.0001420    0.0001245     0.0002945    0.0004137 
   0.004751176     0.9683813   -0.1806182    -0.0009666    0.0008489     0.0002624   -0.0000590     0.0002980    0.0000204 
   0.004851201     0.9391098   -0.1536781     0.0001490    0.0031467    -0.0000566    0.0000535     0.0007058    0.0007771 
   0.004951226     0.9559278   -0.1433222    -0.0000511    0.0018320    -0.0006122   -0.0001980     0.0010630    0.0001788 
   0.005051251     0.9705873   -0.1925864     0.0012581    0.0012451     0.0001224    0.0003031     0.0010335    0.0001393 
   0.005151276     0.9312177   -0.1583574    -0.0007382    0.0023487     0.0001521    0.0004985     0.0011112    0.0000622 
   0.005251301     0.9434713   -0.1427623    -0.0005261    0.0020026    -0.0001240   -0.0001564     0.0016754    0.0008019 
   0.005351326     0.9328862   -0.1224657     0.0003017    0.0010622     0.0001904   -0.0001194     0.0007321    0.0003042 
   0.005451351     0.9600318   -0.1920312    -0.0003809   -0.0003801    -0.0002657    0.0003876     0.0007268   -0.0001685 
   0.005551376     0.9554831   -0.1978367     0.0003116    0.0002859    -0.0005234    0.0003183     0.0006085   -0.0000304 
   0.005651401     0.9531981   -0.1759244    -0.0018658    0.0006753    -0.0001087    0.0000338     0.0002037   -0.0001832 
   0.005751426     0.9481164   -0.1840075    -0.0000499   -0.0008035    -0.0003858    0.0001382    -0.0000152   -0.0000026 
   0.005851451     0.9309818   -0.2173628    -0.0014115    0.0029172    -0.0000930   -0.0004332     0.0003542    0.0000109 
   0.005951476     0.9606605   -0.1653696     0.0021627   -0.0005547    -0.0000235   -0.0002466     0.0002755    0.0004732 
   0.006051501     0.9444035   -0.2066332     0.0014887    0.0012988    -0.0005156   -0.0000282     0.0000933    0.0000103 
   0.006151526     0.9333294   -0.2139753     0.0002959    0.0001163    -0.0003957    0.0005511     0.0006093   -0.0005907 
   0.006251551     0.9407467   -0.1660589     0.0001716    0.0010610    -0.0000776    0.0002968     0.0007534    0.0008219 
   0.006351576     0.9509569   -0.2149670    -0.0001066    0.0000651    -0.0000236    0.0000676     0.0005657    0.0004268 
   0.006451601     0.9289925   -0.1991698     0.0014251   -0.0006426     0.0000603   -0.0000998     0.0007309    0.0004133 
   0.006551626     0.9325952   -0.2040684     0.0008953    0.0006887     0.0004310   -0.0002108     0.0000259    0.0003448 
   0.006651651     0.9244823   -0.2163281     0.0011185    0.0009628     0.0003493    0.0000246     0.0005308    0.0003134 
   0.006751676     0.9315263   -0.2091366    -0.0002034    0.0005962    -0.0003226    0.0002781     0.0007487    0.0011699 
   0.006851701     0.9466685   -0.2422235     0.0009242   -0.0008960     0.0006227   -0.0002791     0.0006815    0.0002236 
   0.006951726     0.9148946   -0.2271933    -0.0009222   -0.0000458     0.0000927   -0.0003211     0.0010751    0.0014081 
   0.007051751     0.9464670   -0.2216811    -0.0021086    0.0003618    -0.0003176    0.0002159     0.0006739   -0.0000468 
   0.007151776     0.9034653   -0.2307159     0.0004333   -0.0010154    -0.0005009    0.0001635     0.0008322    0.0002441 
   0.007251801     0.9407245   -0.2142425    -0.0016343   -0.0019939     0.0003644    0.0001898     0.0005174    0.0000551 
   0.007351826     0.9202347   -0.2371145     0.0001974    0.0004494     0.0003493    0.0007048     0.0006924    0.0008838 
   0.007451851     0.9176868   -0.2185609    -0.0021665    0.0002024     0.0004563   -0.0003206     0.0006203    0.0004051 
   0.007551876     0.9426969   -0.2223631    -0.0006587    0.0008352     0.0002034   -0.0003806     0.0006904   -0.0000762 
   0.007651901     0.9305852   -0.2526504    -0.0007747    0.0009118     0.0000222   -0.0003514     0.0002967    0.0007256 
   0.007751926     0.9055181   -0.2528396     0.0006156   -0.0008353     0.0000221   -0.0000256     0.0004192   -0.0007140 
   0.007851951     0.9027982   -0.2487880     0.0005640   -0.0001346    -0.0000653    0.0004426     0.0001178   -0.0001606 
   0.007951976     0.9314977   -0.2769022    -0.0000171   -0.0012659     0.0002343    0.0006580     0.0005004    0.0004348 
   0.008052001     0.9077114   -0.2426074     0.0002478    0.0013540    -0.0000064    0.0000927     0.0003980    0.0003082 
   0.008152026     0.9093041   -0.2556375     0.0002051   -0.0022104    -0.0001435   -0.0006720     0.0007311    0.0002295 
   0.008252051     0.9107805   -0.2447461    -0.0002048   -0.0001331     0.0002175    0.0003347     0.0006111    0.0008629 
   0.008352076     0.9239815   -0.2601441     0.0005294    0.0000485    -0.0002192    0.0007079     0.0011160    0.0001567 
   0.008452101     0.9072754   -0.2597600     0.0007329   -0.0003965     0.0002032   -0.0001873     0.0005030    0.0000784 
   0.008552126     0.9085405   -0.2579709     0.0001008    0.0002946    -0.0000666   -0.0001117     0.0007906    0.0002587 
   0.008652151     0.8992622   -0.2385652    -0.0010589   -0.0007614    -0.0000708    0.0001077     0.0003817    0.0000989 
   0.008752176     0.9160821   -0.2538891    -0.0005700    0.0012032     0.0001164   -0.0000313     0.0001367   -0.0000838 
   0.008852201     0.8916295   -0.2390383    -0.0005333   -0.0011325     0.0000466   -0.0001989     0.0007553    0.0008382 
   0.008952226     0.9190064   -0.2713806    -0.0008436   -0.0002224     0.0001145    0.0001381     0.0007946   -0.0000874 
   0.009052251     0.9096754   -0.2618123     0.0005031    0.0006487     0.0003692   -0.0003542     0.0008811    0.0000057 
   0.009152276     0.9024032   -0.2517560    -0.0015508   -0.0004804    -0.0005474    0.0002484     0.0007449    0.0000192 
   0.009252301     0.8954800   -0.2814146     0.0006382    0.0000644    -0.0001728    0.0003580     0.0007922    0.0002415 
   0.009352326     0.9208261   -0.2828328    -0.0004614   -0.0009794     0.0001354    0.0000241     0.0002505    0.0001504 
   0.009452351     0.9105422   -0.2792518    -0.0007220    0.0000825    -0.0000763    0.0000995     0.0004955   -0.0000265 
   0.009552376     0.9029191   -0.2963292    -0.0000277   -0.0006910    -0.0002557    0.0004045     0.0002768    0.0002015 
   0.009652401     0.8919727   -0.2854220     0.0000611    0.0007986     0.0000196    0.0001413     0.0001850    0.0005065 
   0.009752426     0.8801315   -0.2954533    -0.0003917    0.0000631    -0.0001824    0.0003805     0.0003396    0.0006034 
   0.009852451     0.8859589   -0.2970853    -0.0008466   -0.0006037     0.0002583    0.0000029     0.0003995    0.0000839 
   0.009952476     0.8902941   -0.2965768    -0.0012514    0.0011336     0.0000506   -0.0001623     0.0007707    0.0000020 
   0.010052501     0.8712702   -0.2989407     0.0013192   -0.0002404    -0.0001024   -0.0000223     0.0003899    0.0002355 
   0.010152526     0.8721429   -0.2877459    -0.0010693    0.0007840    -0.0001146    0.0000265     0.0006840    0.0002325 
   0.010252551     0.8571509   -0.2905840    -0.0003733   -0.0004902    -0.0001554   -0.0001671     0.0009314    0.0004290 
   0.010352576     0.8950565   -0.3141138     0.0005789    0.0006889     0.0001701   -0.0001457     0.0006658    0.0002075 
   0.010452601     0.8736447   -0.3004338    -0.0000425    0.0001346     0.0000231    0.0001016     0.0007238   -0.0000485 
   0.010552626     0.8706077   -0.3211851     0.0000658    0.0011125    -0.0000157    0.0000802     0.0005709    0.0007321 
   0.010652651     0.8626497   -0.3056710     0.0005664   -0.0006865    -0.0003300    0.0002624     0.0006063    0.0000745 
   0.010752676     0.8818170   -0.3243396     0.0008411    0.0001280    -0.0001720   -0.0000256     0.0005218    0.0004467 
   0.010852701     0.8682760   -0.3033825    -0.0007209   -0.0000705     0.0004039    0.0000346     0.0004707    0.0005466 
   0.010952726     0.8570203   -0.3211082    -0.0005677   -0.0006131     0.0001353   -0.0003264    -0.0000181   -0.0000827 
   0.011052751     0.8567368   -0.3221408     0.0001311   -0.0006513    -0.0001845   -0.0000767     0.0008767    0.0004421 
   0.011152776     0.8553592   -0.3119433    -0.0007128   -0.0003452    -0.0000093   -0.0001638     0.0002929    0.0001884 
   0.011252801     0.8593842   -0.3331354    -0.0000206    0.0004297    -0.0005429    0.0004296     0.0005136    0.0003232 
   0.011352826     0.8593627   -0.3309349     0.0003292   -0.0002616    -0.0000882    0.0002270     0.0006019    0.0001316 
   0.011452851     0.8438790   -0.3357387     0.0009667   -0.0000476    -0.0003012   -0.0002072     0.0003778    0.0003543 
   0.011552876     0.8424348   -0.3402444     0.0007929   -0.0006236    -0.0001015    0.0001064     0.0007253    0.0000598 
   0.011652901     0.8488840   -0.3442907     0.0012193    0.0000638    -0.0000290   -0.0002724     0.0001900    0.0005304 
   0.011752926     0.8344199   -0.3225813     0.0004179   -0.0006407     0.0003017    0.0000094     0.0008225    0.0002103 
   0.011852951     0.8430915   -0.3447202    -0.0003984    0.0003441    -0.0001902   -0.0001454     0.0003181   -0.0001876 
   0.011952976     0.8421915   -0.3413771     0.0003720   -0.0004616    -0.0003815   -0.0001699     0.0005414    0.0005312 
   0.012053002     0.8307312   -0.3451306     0.0005841   -0.0007403     0.0002828    0.0000575     0.0003936    0.0003700 
   0.012153027     0.8395371   -0.3479385     0.0002180   -0.0000116     0.0000046    0.0000132     0.0004520    0.0004021 
   0.012253052     0.8263283   -0.3470714    -0.0006743   -0.0003772     0.0001002   -0.0001398     0.0006328    0.0005200 
   0.012353077     0.8465315   -0.3441219    -0.0003401   -0.0000412    -0.0000401   -0.0001848     0.0006618    0.0002077 
   0.012453102     0.8380898   -0.3315291    -0.0001148   -0.0007605    -0.0001893   -0.0002601     0.0007644    0.0002686 
   0.012553127     0.8187640   -0.3668686    -0.0002364    0.0012345    -0.0000988   -0.0000272     0.0003761   -0.0005038 
   0.012653152     0.8462104   -0.3438865     0.0007544   -0.0003954     0.0001394   -0.0003457     0.0005200    0.0005075 
   0.012753177     0.8310556   -0.3503678     0.0000436   -0.0005375     0.0001404    0.0000162     0.0007423    0.0001832 
   0.012853202     0.8185749   -0.3302199     0.0005971   -0.0001420    -0.0001354   -0.0001559     0.0000850    0.0004553 
   0.012953227     0.8352528   -0.3481029     0.0002411    0.0000367     0.0001374    0.0002514     0.0007147    0.0003102 
   0.013053252     0.8072665   -0.3672062     0.0008471   -0.0006578     0.0000320   -0.0000929     0.0005152    0.0001117 
   0.013153277     0.8146004   -0.3495335    -0.0007391    0.0002256    -0.0002605   -0.0002459     0.0003955    0.0000690 
   0.013253302     0.8212834   -0.3546616    -0.0002518    0.0001727    -0.0000519    0.0001019     0.0004410    0.0001360 
   0.013353327     0.8078827   -0.3550762     0.0006964    0.0001992     0.0001188   -0.0000437     0.0006416    0.0000000 
   0.013453352     0.8044629   -0.3524271    -0.0010450   -0.0001189    -0.0000418   -0.0003022     0.0008053    0.0003045 
   0.013553377     0.7873197   -0.3572012     0.0005629   -0.0010824    -0.0000367   -0.0001258     0.0006141   -0.0000583 
   0.013653402     0.8051732   -0.3552261    -0.0005280   -0.0004706     0.0000379    0.0000587     0.0007610    0.0002452 
   0.013753427     0.7990459   -0.3697920    -0.0001395    0.0002413    -0.0000419    0.0001718     0.0004706    0.0004179 
   0.013853452     0.8080763   -0.3883218     0.0004783    0.0005535    -0.0001908    0.0002848     0.0005169    0.0002303 
   0.013953477     0.7804248   -0.3599603    -0.0010620   -0.0009231    -0.0000243    0.0003595     0.0004447    0.0003388 
   0.014053502     0.8039342   -0.3802598     0.0003384   -0.0000330     0.0004064    0.0000925     0.0002405    0.0001043 
   0.014153527     0.7942549   -0.3679788     0.0004218   -0.0002223     0.0002316   -0.0001663     0.0003745    0.0003183 
   0.014253552     0.7950356   -0.3602847     0.0005313   -0.0003107     0.0000056   -0.0000483     0.0008342   -0.0002207 
   0.014353577     0.7814586   -0.3673065    -0.0000117    0.0006034    -0.0000051    0.0001178     0.0007048    0.0006652 
   0.014453602     0.7778819   -0.3713766     0.0004074   -0.0000072     0.0000333    0.0001236     0.0006236    0.0002140 
   0.014553627     0.7814454   -0.3811854     0.0008465   -0.0010776    -0.0002121    0.0001719     0.0010570    0.0003738 
   0.014653652     0.7804714   -0.3803736     0.0002744   -0.0003645    -0.0002454    0.0003516     0.0005022    0.0000818 
   0.014753677     0.7832484   -0.3765761    -0.0004324    0.0001134     0.0000059   -0.0001415     0.0005730    0.0007794 
   0.014853702     0.7907623   -0.3742728    -0.0003034   -0.0005766    -0.0000181   -0.0001233     0.0005570    0.0005201 
   0.014953727     0.7691150   -0.3935646    -0.0001501   -0.0005042     0.0002073    0.0000550     0.0004660    0.0004948 
   0.015053752     0.7740296   -0.3840548     0.0006802   -0.0004336    -0.0001024   -0.0001163     0.0006394    0.0005343 
   0.015153777     0.7772196   -0.3798344    -0.0006613   -0.0006805    -0.0002900   -0.0002868     0.0007621    0.0005505 
   0.015253802     0.7664675   -0.3827766    -0.0008747    0.0008993     0.0001874    0.0002519     0.0005193    0.0004373 
   0.015353827     0.7694229   -0.3874404    -0.0002969   -0.0000846     0.0002123   -0.0002909     0.0008030    0.0003079 
   0.015453852     0.7703019   -0.3871682    -0.0002951   -0.0005129    -0.0000085    0.0001894     0.0006602    0.0005616 
   0.015553877     0.7662014   -0.3945529     0.0004112   -0.0012027    -0.0000389    0.0000201     0.0006756    0.0000506 
   0.015653902     0.7697869   -0.3946670    -0.0002935   -0.0004266     0.0001216    0.0002386     0.0002037    0.0004232 
