! 23-Mar-26 11:48:53 AM
! E:\UPDATEDVNAMEASUREMENTS\CAL_S11S\OPEN.S2P
! CHANNEL.1
! TR.MEASUREMENT
! CORRECTED.DATA
# GHZ S RI R 50.0
! FREQ.GHZ         S11RE         S11IM         S21RE         S21IM         S12RE         S12IM         S22RE         S22IM         
!; PortSelection: Port_12
   0.000050000     0.3587314    0.1709964    -0.2751502    0.0226874     0.0075232   -0.0037336     0.0098419    0.0162452 
   0.000150025    -0.2126456    0.2193336    -0.0701347    0.1724416     0.0000459   -0.0005300     0.0015859   -0.0055054 
   0.000250050    -0.2172823    0.2201633     0.2970749   -0.4305272     0.0006487    0.0003312     0.0009551   -0.0013422 
   0.000350075     1.0237720   -0.0944229    -0.0031285   -0.0085418     0.0000506    0.0011457    -0.0005108   -0.0013026 
   0.000450100     1.0011560   -0.0407415    -0.0063044   -0.0133516     0.0008513   -0.0004817     0.0012054   -0.0012822 
   0.000550125     0.9937689    0.0064631    -0.0012822   -0.0125813    -0.0002008    0.0000019     0.0017894   -0.0005417 
   0.000650150     1.0486530   -0.0495640    -0.0044341   -0.0134805    -0.0002598   -0.0004027     0.0005386   -0.0021831 
   0.000750175     1.0156270   -0.0496903    -0.0102311   -0.0070765     0.0002979    0.0003291    -0.0003534    0.0005578 
   0.000850200     0.9562651   -0.0918156    -0.0075637   -0.0097935     0.0008510    0.0005651     0.0002234   -0.0003031 
   0.000950225     1.0022420   -0.0373910    -0.0090641   -0.0025979    -0.0006775    0.0005446     0.0003069    0.0015171 
   0.001050250     1.0548520   -0.0266634    -0.0106984   -0.0068016     0.0013494   -0.0008043     0.0003661    0.0002773 
   0.001150275     0.9665749   -0.0397101    -0.0094275   -0.0055336    -0.0006509    0.0006985     0.0012866    0.0010842 
   0.001250300     0.9444937   -0.0222594    -0.0096501   -0.0036580     0.0003588    0.0015961     0.0017601    0.0002595 
   0.001350325     1.0285950   -0.0573953    -0.0049245    0.0011632     0.0004910    0.0004488     0.0001694   -0.0004428 
   0.001450350     0.9812422   -0.0315104    -0.0061041   -0.0009107    -0.0001997   -0.0001828     0.0008283    0.0000849 
   0.001550375     0.9547639   -0.0624468    -0.0089095   -0.0017983     0.0004585    0.0007238     0.0005193    0.0004312 
   0.001650400     0.9813775    0.0228101    -0.0093619    0.0007024     0.0001385    0.0003927    -0.0005069    0.0003954 
   0.001750425     0.9583960   -0.0273446    -0.0046195   -0.0005562     0.0010492    0.0001144     0.0009385   -0.0000839 
   0.001850450     0.9661458   -0.0418385    -0.0070521   -0.0015311     0.0005347    0.0001021    -0.0000568    0.0008188 
   0.001950475     0.9583876    0.0384840    -0.0078767    0.0035864    -0.0008580   -0.0003688     0.0014138   -0.0008177 
   0.002050500     0.9331289    0.0055378    -0.0081466    0.0027538     0.0006555   -0.0002182     0.0008057    0.0007175 
   0.002150525     1.0123490   -0.0255922    -0.0085332    0.0017082     0.0008391    0.0001398     0.0018760    0.0000423 
   0.002250550     0.9846472    0.0223679    -0.0073878    0.0014838     0.0004864    0.0007206     0.0008159    0.0000925 
   0.002350575     0.9271836   -0.0434134    -0.0042261    0.0012577    -0.0003446   -0.0002582     0.0009057    0.0001298 
   0.002450600     0.9672906   -0.0260056    -0.0042688    0.0051995    -0.0006174    0.0002364     0.0003357   -0.0001039 
   0.002550625     1.0079610   -0.0591624    -0.0064346    0.0016567    -0.0003491    0.0002042     0.0005610   -0.0000879 
   0.002650650     1.0020970   -0.0028173    -0.0073811    0.0000624     0.0000584   -0.0006624    -0.0001473    0.0011330 
   0.002750675     0.9798982    0.0049496    -0.0027574    0.0030845     0.0005733    0.0006881    -0.0002358    0.0000582 
   0.002850700     0.9644895   -0.0543698    -0.0035160    0.0034879     0.0002857    0.0000118     0.0011522    0.0003324 
   0.002950725     0.9255961   -0.0224783    -0.0043207    0.0012710    -0.0002280   -0.0002577     0.0011639    0.0002660 
   0.003050750     1.0078060    0.0160142    -0.0053174    0.0030496    -0.0002737   -0.0003256     0.0010745   -0.0007466 
   0.003150775     0.9807066   -0.0658562    -0.0038440    0.0035913     0.0005882   -0.0000089     0.0003418   -0.0001282 
   0.003250800     0.9784259   -0.0222441    -0.0016965    0.0032797     0.0007126   -0.0000319     0.0012163    0.0006369 
   0.003350825     0.9519327   -0.0291167    -0.0012439    0.0026820     0.0001308   -0.0000843     0.0004946    0.0006170 
   0.003450850     0.9483809   -0.0539335     0.0001753    0.0011706    -0.0002799   -0.0001484     0.0005476   -0.0005068 
   0.003550875     0.9587745   -0.0398382    -0.0018903    0.0032803    -0.0000416   -0.0006596     0.0012091    0.0000444 
   0.003650900     0.9879915   -0.0038142    -0.0002737   -0.0021085     0.0000331   -0.0002773     0.0008452    0.0000369 
   0.003750925     0.9715856   -0.0261612    -0.0027104    0.0026117     0.0002113    0.0001919     0.0004607   -0.0004713 
   0.003850950     0.9591293   -0.0626501     0.0005057    0.0033044     0.0002723   -0.0006549     0.0000450    0.0003510 
   0.003950975     0.9766379    0.0055208    -0.0005693    0.0000732     0.0004386   -0.0002110     0.0004160   -0.0001552 
   0.004051001     0.9619212   -0.0541220    -0.0016128   -0.0013514     0.0001198   -0.0003190     0.0008678   -0.0001251 
   0.004151026     0.9920152   -0.0159551     0.0006410    0.0025934    -0.0004453    0.0001280     0.0003454    0.0000294 
   0.004251051     0.9933559   -0.0503948    -0.0018212    0.0012615     0.0000507    0.0003383     0.0003057    0.0002060 
   0.004351076     0.9584596   -0.0119204     0.0017207    0.0025996    -0.0000013   -0.0004718     0.0009622    0.0004701 
   0.004451101     1.0006640   -0.0551609     0.0002795    0.0009679    -0.0000154    0.0000888     0.0001393   -0.0000726 
   0.004551126     0.9892896   -0.0257811    -0.0000607    0.0035102    -0.0006056   -0.0004363     0.0003567   -0.0000686 
   0.004651151     0.9514027   -0.0394077    -0.0003754   -0.0010418     0.0000812   -0.0004144     0.0004215    0.0005827 
   0.004751176     0.9672782   -0.0554038     0.0002045    0.0020399     0.0000960   -0.0007350     0.0008610    0.0001359 
   0.004851201     0.9473529   -0.0306326     0.0000947   -0.0002794    -0.0003633    0.0005086     0.0009910    0.0004762 
   0.004951226     0.9561280   -0.0164935    -0.0020594    0.0009777     0.0003311   -0.0000522     0.0007654   -0.0001279 
   0.005051251     0.9965292   -0.0289447     0.0000155   -0.0000905    -0.0003383    0.0005786     0.0005670   -0.0005259 
   0.005151276     0.9586827   -0.0268417    -0.0006502    0.0020097     0.0006149   -0.0002148     0.0009250    0.0001456 
   0.005251301     0.9824800   -0.0179015    -0.0002450   -0.0000800     0.0002314   -0.0002510     0.0010614    0.0009898 
   0.005351326     0.9755990    0.0042882     0.0018873    0.0025559     0.0006894    0.0005936     0.0006509    0.0003625 
   0.005451351     0.9748679   -0.0320758     0.0005837    0.0000572    -0.0000788   -0.0005941     0.0008458    0.0001795 
   0.005551376     1.0026450   -0.0443490    -0.0010696   -0.0010367    -0.0004902    0.0000910     0.0008097   -0.0008038 
   0.005651401     0.9473182   -0.0270468    -0.0014358    0.0019281     0.0000925   -0.0004129     0.0001707   -0.0000586 
   0.005751426     0.9649013   -0.0234334     0.0017484    0.0005780    -0.0006083    0.0003533     0.0007299    0.0003558 
   0.005851451     0.9676567   -0.0669437     0.0006711   -0.0000682     0.0002255    0.0006824     0.0001730   -0.0000444 
   0.005951476     0.9643645   -0.0122152    -0.0003931    0.0009389    -0.0004024    0.0001995     0.0010154    0.0003417 
   0.006051501     0.9584092   -0.0397708    -0.0002048    0.0002001    -0.0006142    0.0003435     0.0001492    0.0003915 
   0.006151526     0.9556513   -0.0340713    -0.0010860    0.0017387     0.0000856    0.0003017     0.0010605    0.0000176 
   0.006251551     0.9646491    0.0050275     0.0009730    0.0006245     0.0000957    0.0000047     0.0004752    0.0002018 
   0.006351576     0.9647750   -0.0386810    -0.0010756   -0.0008874    -0.0000164   -0.0000007     0.0005529    0.0000641 
   0.006451601     0.9654275   -0.0251599    -0.0003403   -0.0001774    -0.0001576   -0.0000413     0.0004953    0.0007448 
   0.006551626     0.9598629   -0.0473343    -0.0009597   -0.0001791    -0.0000985   -0.0002620     0.0002029    0.0002294 
   0.006651651     0.9434409   -0.0332375     0.0003217   -0.0005213    -0.0001034   -0.0003419     0.0003839    0.0002187 
   0.006751676     0.9523400   -0.0509275     0.0008308    0.0011736     0.0000061   -0.0003227     0.0012320    0.0006052 
   0.006851701     0.9611411   -0.0632244     0.0009791   -0.0005742     0.0001569   -0.0005407    -0.0000603    0.0006109 
   0.006951726     0.9341108   -0.0600600     0.0009135    0.0014591    -0.0000253   -0.0001880     0.0009703    0.0010177 
   0.007051751     0.9668549   -0.0199869    -0.0003002    0.0003977     0.0000869    0.0002904     0.0009856    0.0001166 
   0.007151776     0.9535636   -0.0335992     0.0016189    0.0010288     0.0001785    0.0002793     0.0003387   -0.0002361 
   0.007251801     0.9640782   -0.0268963    -0.0004731    0.0005774    -0.0000896   -0.0001922     0.0004502   -0.0001246 
   0.007351826     0.9659975   -0.0603182    -0.0007351   -0.0010787     0.0002509    0.0002933     0.0009986    0.0003392 
   0.007451851     0.9558044   -0.0418259    -0.0004794    0.0009411    -0.0000077    0.0003399     0.0011862    0.0000868 
   0.007551876     0.9657435   -0.0446759    -0.0001973    0.0000631    -0.0000369   -0.0001993     0.0005627    0.0002778 
   0.007651901     0.9834545   -0.0626079    -0.0016257   -0.0008752    -0.0000073    0.0005076     0.0006500    0.0003115 
   0.007751926     0.9647284   -0.0397198    -0.0002681   -0.0016124     0.0002505    0.0003439     0.0004314   -0.0005612 
   0.007851951     0.9659247   -0.0385955    -0.0012008    0.0004590    -0.0000721   -0.0003290     0.0005793    0.0000294 
   0.007951976     0.9621170   -0.0622858     0.0004302   -0.0011394     0.0004447   -0.0006537     0.0004339    0.0003973 
   0.008052001     0.9643785   -0.0406877    -0.0000550   -0.0006661     0.0000852    0.0003302     0.0002995    0.0008146 
   0.008152026     0.9550151   -0.0427703    -0.0019447   -0.0004554    -0.0000096    0.0002196     0.0008140    0.0001799 
   0.008252051     0.9304997   -0.0218987    -0.0007504   -0.0000968     0.0001997    0.0002553     0.0002446    0.0006201 
   0.008352076     0.9774908   -0.0313112    -0.0003176    0.0016389     0.0004814   -0.0001573     0.0007454   -0.0000861 
   0.008452101     0.9507617   -0.0389632    -0.0008309   -0.0011112     0.0003817   -0.0005148     0.0006606   -0.0000200 
   0.008552126     0.9622951   -0.0304300    -0.0001412    0.0001970     0.0003431   -0.0000319     0.0003907    0.0002527 
   0.008652151     0.9633093   -0.0341249     0.0002973   -0.0002048    -0.0000421    0.0000294     0.0006811    0.0003744 
   0.008752176     0.9774741   -0.0357068     0.0004701    0.0012351     0.0003782   -0.0001310     0.0005485   -0.0000779 
   0.008852201     0.9466301   -0.0255945     0.0002277    0.0009829    -0.0002650    0.0002742     0.0008935    0.0002178 
   0.008952226     0.9604976   -0.0397878    -0.0009928   -0.0000480    -0.0003613   -0.0001049     0.0004945   -0.0004401 
   0.009052251     0.9557686   -0.0325466     0.0010993    0.0000344    -0.0000598   -0.0000213     0.0003558    0.0000058 
   0.009152276     0.9568064   -0.0357313    -0.0008254   -0.0007866     0.0002815   -0.0005081     0.0009347    0.0002324 
   0.009252301     0.9626999   -0.0579926     0.0009724    0.0014893    -0.0000690    0.0001513     0.0001982   -0.0001233 
   0.009352326     0.9772653   -0.0341746    -0.0003827    0.0003529    -0.0002693   -0.0000330     0.0007606   -0.0003843 
   0.009452351     0.9638955   -0.0375727     0.0003903   -0.0004012     0.0001459   -0.0000083     0.0005385    0.0005156 
   0.009552376     0.9663210   -0.0368762    -0.0017433    0.0003164     0.0001224   -0.0003814     0.0006180    0.0002138 
   0.009652401     0.9412698   -0.0413941    -0.0014152   -0.0003857    -0.0001470   -0.0000754     0.0002812    0.0008823 
   0.009752426     0.9544989   -0.0412985     0.0000692    0.0002605     0.0001199    0.0001193     0.0005176    0.0004795 
   0.009852451     0.9591474   -0.0563318     0.0003849   -0.0003290    -0.0003149   -0.0001320     0.0004369   -0.0001987 
   0.009952476     0.9580675   -0.0431960    -0.0004895    0.0005093    -0.0001666    0.0003708     0.0003120    0.0005371 
   0.010052501     0.9463449   -0.0476011    -0.0008023    0.0010293    -0.0004993   -0.0003280     0.0003528    0.0003164 
   0.010152526     0.9425702   -0.0233152    -0.0001204    0.0002695     0.0000012   -0.0000399     0.0006902    0.0005655 
   0.010252551     0.9490387   -0.0382551     0.0005193    0.0006698     0.0000784    0.0003624     0.0004581    0.0001547 
   0.010352576     0.9713308   -0.0406624     0.0008440   -0.0000868     0.0000455    0.0002832     0.0004289    0.0004185 
   0.010452601     0.9543292   -0.0390204    -0.0006494    0.0015276     0.0002786    0.0000798     0.0005138   -0.0000136 
   0.010552626     0.9416795   -0.0478092     0.0017170    0.0000977     0.0002963   -0.0003303     0.0001883    0.0001444 
   0.010652651     0.9669950   -0.0380314    -0.0015500   -0.0009114     0.0002689   -0.0005285     0.0006412    0.0002654 
   0.010752676     0.9690611   -0.0696278    -0.0002179   -0.0001341     0.0001366   -0.0000002     0.0008180    0.0006418 
   0.010852701     0.9521078   -0.0311778    -0.0012542   -0.0004734     0.0001315   -0.0002012     0.0002027    0.0003736 
   0.010952726     0.9566106   -0.0522194     0.0009862   -0.0003816    -0.0001698   -0.0002709     0.0000598    0.0000418 
   0.011052751     0.9664147   -0.0554718     0.0000446   -0.0003015     0.0000978   -0.0001642     0.0008918    0.0003450 
   0.011152776     0.9746597   -0.0259667    -0.0000295    0.0005100     0.0002440    0.0000939     0.0003528    0.0008171 
   0.011252801     0.9665504   -0.0481474    -0.0003712   -0.0002816    -0.0000983   -0.0002348     0.0001312    0.0006719 
   0.011352826     0.9684691   -0.0580827    -0.0013539    0.0014175     0.0001466   -0.0000055     0.0006342    0.0002610 
   0.011452851     0.9516331   -0.0552897    -0.0000324    0.0007554     0.0000643   -0.0000841     0.0007508    0.0003216 
   0.011552876     0.9528582   -0.0587341     0.0002179   -0.0007610    -0.0002863   -0.0002437     0.0006545    0.0003520 
   0.011652901     0.9630901   -0.0563560    -0.0006715    0.0009023    -0.0000088   -0.0001599     0.0006264    0.0004482 
   0.011752926     0.9507748   -0.0472485     0.0011658   -0.0009835     0.0004019   -0.0001022     0.0003183    0.0001409 
   0.011852951     0.9744062   -0.0606449     0.0010828   -0.0017756    -0.0002462   -0.0003075     0.0004405    0.0001846 
   0.011952976     0.9547568   -0.0503310     0.0002101    0.0010157    -0.0002213   -0.0001582     0.0003565    0.0006089 
   0.012053002     0.9665453   -0.0687331    -0.0001759    0.0001748     0.0003119   -0.0001778     0.0005084    0.0006777 
   0.012153027     0.9604729   -0.0476588    -0.0007457    0.0002725    -0.0000598   -0.0000273     0.0008272    0.0004398 
   0.012253052     0.9618315   -0.0687600     0.0004620    0.0003983    -0.0000223   -0.0001066     0.0006385    0.0004719 
   0.012353077     0.9625522   -0.0481612    -0.0010646    0.0002402     0.0000341   -0.0000253     0.0002857    0.0006146 
   0.012453102     0.9561670   -0.0472261    -0.0005374    0.0004638    -0.0002066    0.0000950     0.0007861    0.0003020 
   0.012553127     0.9625092   -0.0731908     0.0004647    0.0003448     0.0004042    0.0003041     0.0006535   -0.0001064 
   0.012653152     0.9597428   -0.0301858     0.0001494    0.0007225     0.0002787   -0.0001595     0.0001644   -0.0000011 
   0.012753177     0.9606033   -0.0424919    -0.0007872   -0.0007473    -0.0002096   -0.0001658     0.0000544    0.0002218 
   0.012853202     0.9507235   -0.0405979     0.0003011    0.0013465     0.0000888    0.0000420     0.0006420    0.0005832 
   0.012953227     0.9635428   -0.0465820    -0.0007245    0.0001469     0.0003281   -0.0002329     0.0007491    0.0002253 
   0.013053252     0.9443473   -0.0613208     0.0002458    0.0000732    -0.0002670    0.0001544     0.0007013    0.0005659 
   0.013153277     0.9581370   -0.0450578     0.0003377   -0.0012806     0.0001333   -0.0002279     0.0007205    0.0003258 
   0.013253302     0.9479249   -0.0461911    -0.0009266   -0.0004990    -0.0001045   -0.0003415     0.0006200    0.0003644 
   0.013353327     0.9522306   -0.0513159    -0.0006130   -0.0006659    -0.0000682    0.0001366     0.0006826   -0.0000314 
   0.013453352     0.9516530   -0.0489484    -0.0008992   -0.0007141    -0.0000495    0.0002892     0.0008205    0.0000603 
   0.013553377     0.9529524   -0.0709592     0.0008045   -0.0005497     0.0000099   -0.0001022     0.0003202    0.0002159 
   0.013653402     0.9494383   -0.0551510     0.0008017   -0.0003567    -0.0003282   -0.0000297     0.0005823   -0.0000724 
   0.013753427     0.9717605   -0.0648896     0.0014997    0.0009257     0.0000670    0.0001713     0.0003380    0.0003923 
   0.013853452     0.9529815   -0.0650732    -0.0005535   -0.0001021    -0.0001384    0.0001003     0.0004914    0.0006319 
   0.013953477     0.9502530   -0.0539096    -0.0001811   -0.0010579    -0.0002869    0.0000632     0.0003343    0.0004329 
   0.014053502     0.9598318   -0.0592129    -0.0007673   -0.0015426     0.0001245   -0.0000814    -0.0000265    0.0003319 
   0.014153527     0.9579952   -0.0571226    -0.0003531    0.0016100    -0.0000461   -0.0001789     0.0006062    0.0007272 
   0.014253552     0.9626640   -0.0579501    -0.0009002    0.0006966    -0.0000155   -0.0001330     0.0008130   -0.0001721 
   0.014353577     0.9301208   -0.0593552     0.0008640    0.0008367    -0.0001185   -0.0005607     0.0005793    0.0006228 
   0.014453602     0.9478524   -0.0600144    -0.0010903    0.0002529     0.0000856    0.0001295     0.0000960    0.0002766 
   0.014553627     0.9595377   -0.0626969    -0.0003165   -0.0010325    -0.0000171   -0.0000382     0.0004343    0.0002352 
   0.014653652     0.9675638   -0.0576947    -0.0003840    0.0006251    -0.0001166   -0.0002344     0.0003568   -0.0001530 
   0.014753677     0.9494853   -0.0766470     0.0003879    0.0007065     0.0003403    0.0000237     0.0002691    0.0004381 
   0.014853702     0.9614646   -0.0526493     0.0005553   -0.0002939     0.0000217    0.0002445     0.0006679    0.0001616 
   0.014953727     0.9567797   -0.0689447     0.0005575   -0.0003192     0.0001829   -0.0001418     0.0007565    0.0001371 
   0.015053752     0.9588162   -0.0569985    -0.0010170    0.0004755     0.0003359    0.0000444     0.0002616    0.0006946 
   0.015153777     0.9562354   -0.0541211     0.0012195    0.0001603     0.0002134    0.0001787     0.0007135    0.0002466 
   0.015253802     0.9631143   -0.0698635    -0.0011014   -0.0007207    -0.0004792    0.0002749     0.0008366    0.0002069 
   0.015353827     0.9645341   -0.0580129    -0.0007388   -0.0002534     0.0003255   -0.0001914     0.0008066    0.0001425 
   0.015453852     0.9561011   -0.0585947    -0.0002797   -0.0003095    -0.0000831   -0.0001319     0.0007417    0.0006286 
   0.015553877     0.9572423   -0.0674184     0.0001329   -0.0001197     0.0003518   -0.0000234     0.0006050    0.0005377 
   0.015653902     0.9560042   -0.0709728    -0.0000782    0.0000974     0.0001010   -0.0003355     0.0002224    0.0003389 
