! 23-Mar-26 11:49:44 AM
! E:\UPDATEDVNAMEASUREMENTS\CAL_S11S\SHORT.S2P
! CHANNEL.1
! TR.MEASUREMENT
! CORRECTED.DATA
# GHZ S RI R 50.0
! FREQ.GHZ         S11RE         S11IM         S21RE         S21IM         S12RE         S12IM         S22RE         S22IM         
!; PortSelection: Port_12
   0.000050000     0.6862251   -0.1950796     0.4290408   -0.3541635    -0.0059996   -0.0059628    -0.0213956    0.0208580 
   0.000150025    -0.0539258    0.0352101     0.9298642   -0.8990278     0.0007671    0.0010549     0.0016541   -0.0019231 
   0.000250050    -0.2341907   -0.0234143     0.1155594    0.0151798    -0.0010479    0.0006931     0.0010887   -0.0021344 
   0.000350075     1.0179070   -0.0335536    -0.0069772   -0.0106106     0.0028279    0.0009859    -0.0008788   -0.0031308 
   0.000450100     1.0235810   -0.0484533    -0.0058347   -0.0114880    -0.0006957   -0.0009292     0.0000141   -0.0009794 
   0.000550125     1.0658660   -0.0028223    -0.0018917   -0.0124414     0.0006610   -0.0001118     0.0006192    0.0004900 
   0.000650150     0.9775881   -0.0572585    -0.0072062   -0.0110782    -0.0000950   -0.0006316     0.0017163    0.0003596 
   0.000750175     0.9940256   -0.0455380    -0.0067273   -0.0073801     0.0004839   -0.0003044     0.0007859   -0.0001359 
   0.000850200     0.9622456   -0.0890960    -0.0071983   -0.0099224     0.0012554   -0.0002026    -0.0004839    0.0000001 
   0.000950225     1.0175300   -0.0335286    -0.0083262   -0.0058316    -0.0000503    0.0001204     0.0017387    0.0014610 
   0.001050250     0.9918979   -0.0437515    -0.0105471   -0.0024360    -0.0006306   -0.0002886    -0.0001591   -0.0007040 
   0.001150275     0.9847150   -0.0434877    -0.0091532   -0.0022143     0.0006508   -0.0005767     0.0016503    0.0006402 
   0.001250300     0.9985388   -0.0467826    -0.0090624   -0.0013228    -0.0002976   -0.0001603     0.0004437    0.0008046 
   0.001350325     0.9860051   -0.1050973    -0.0112579   -0.0039347     0.0007789   -0.0006948     0.0001860    0.0001039 
   0.001450350     0.9925787   -0.0946630    -0.0090821   -0.0013849     0.0003569    0.0002747     0.0009007    0.0014365 
   0.001550375     0.9786996   -0.0696519    -0.0082480   -0.0021898    -0.0005106    0.0000135     0.0012097    0.0012609 
   0.001650400     1.0135840   -0.0132729    -0.0094937   -0.0025255    -0.0000767    0.0009714     0.0009114    0.0003725 
   0.001750425     0.9834056   -0.0562839    -0.0070841   -0.0039408    -0.0002426   -0.0002258    -0.0002742    0.0000444 
   0.001850450     0.9855829   -0.0476072    -0.0049069    0.0020740     0.0010126   -0.0000128     0.0007937    0.0011032 
   0.001950475     1.0443300   -0.0208093    -0.0096567   -0.0033630    -0.0005561    0.0004879     0.0020706    0.0001697 
   0.002050500     0.9588745   -0.0524598    -0.0070360   -0.0009767     0.0000688    0.0000746     0.0015496   -0.0002187 
   0.002150525     0.9894852   -0.0647093    -0.0098855    0.0061542     0.0002298    0.0004467     0.0010540    0.0006499 
   0.002250550     0.9634429   -0.1097314    -0.0048195    0.0021584     0.0005626    0.0004400    -0.0001621   -0.0001833 
   0.002350575     0.9473405   -0.0818911    -0.0053061    0.0029477     0.0000444   -0.0004741     0.0011954   -0.0004255 
   0.002450600     0.9657508   -0.0908644    -0.0076685    0.0019156    -0.0003268   -0.0004549     0.0005439    0.0002893 
   0.002550625     1.0163570   -0.0608570    -0.0024661    0.0001396     0.0003760    0.0003731     0.0009191    0.0002580 
   0.002650650     1.0239690   -0.0555204    -0.0025306    0.0035127     0.0000437    0.0007182     0.0006840    0.0002184 
   0.002750675     1.0015870   -0.0619542     0.0007193    0.0038555    -0.0000662   -0.0001412     0.0002975    0.0001030 
   0.002850700     1.0283500   -0.1170002    -0.0018343    0.0049045     0.0006750    0.0002555     0.0008482   -0.0002770 
   0.002950725     0.9659137   -0.0661315    -0.0021731    0.0014318     0.0007320    0.0005919     0.0010001   -0.0004827 
   0.003050750     0.9732538   -0.0756755    -0.0063656    0.0015009    -0.0001132   -0.0003987     0.0003001   -0.0008419 
   0.003150775     0.9972634   -0.1425633    -0.0026922    0.0019449    -0.0000084    0.0002479     0.0006862   -0.0000197 
   0.003250800     0.9796079   -0.0929674    -0.0004111    0.0014264     0.0002699   -0.0002214     0.0006528    0.0006959 
   0.003350825     0.9728806   -0.1110015    -0.0023593    0.0046851    -0.0006116    0.0001952     0.0000199    0.0007764 
   0.003450850     0.9519412   -0.1550360     0.0008863    0.0038343    -0.0006940    0.0002210     0.0008643   -0.0004106 
   0.003550875     0.9834850   -0.1041455    -0.0026032    0.0035454     0.0003675    0.0001040     0.0003334    0.0000251 
   0.003650900     0.9837266   -0.1106565    -0.0020255    0.0002812     0.0002422    0.0001346     0.0008678   -0.0002871 
   0.003750925     0.9725702   -0.1254024    -0.0015377    0.0039323    -0.0004384    0.0003850     0.0003851    0.0000204 
   0.003850950     0.9893958   -0.1619451    -0.0016912    0.0012383     0.0002713    0.0006723     0.0004241   -0.0000214 
   0.003950975     1.0020700   -0.1262014    -0.0015169    0.0036607    -0.0003224    0.0004973     0.0005051   -0.0005400 
   0.004051001     0.9592043   -0.1542541    -0.0002061    0.0016045    -0.0000080   -0.0007197     0.0006075   -0.0000170 
   0.004151026     1.0198800   -0.1333994    -0.0018543   -0.0003594     0.0002358   -0.0001021    -0.0000071   -0.0005373 
   0.004251051     0.9788644   -0.1455117    -0.0002525    0.0020813    -0.0000468   -0.0003202     0.0001094    0.0000502 
   0.004351076     0.9680301   -0.0935657    -0.0014164    0.0016699     0.0007469   -0.0007388     0.0010941    0.0009958 
   0.004451101     0.9799427   -0.1612154    -0.0025152    0.0016490    -0.0002162    0.0001435     0.0008389    0.0003951 
   0.004551126     0.9842842   -0.1563812    -0.0004406   -0.0014987    -0.0000136   -0.0001317    -0.0002646    0.0004533 
   0.004651151     0.9773737   -0.1357239     0.0012395    0.0009636     0.0002955    0.0003275     0.0007500    0.0003121 
   0.004751176     0.9911195   -0.1493460    -0.0008021    0.0037253     0.0002787    0.0006560     0.0005822    0.0004230 
   0.004851201     0.9358258   -0.1356335     0.0006858   -0.0011652    -0.0000551    0.0005211     0.0000952    0.0007816 
   0.004951226     0.9605636   -0.1627519     0.0003697    0.0017857    -0.0003407    0.0001590     0.0004632   -0.0001937 
   0.005051251     1.0050060   -0.1730871    -0.0002587    0.0025117     0.0005698   -0.0001588     0.0003321   -0.0003433 
   0.005151276     0.9565315   -0.1422102     0.0015125    0.0037145     0.0001407    0.0000537     0.0007912   -0.0002360 
   0.005251301     0.9639035   -0.1523938     0.0024008    0.0014103     0.0004144    0.0001229     0.0009786    0.0010109 
   0.005351326     0.9610336   -0.1357027    -0.0008618    0.0013828    -0.0002431    0.0002280     0.0003082    0.0005475 
   0.005451351     0.9938039   -0.1703515     0.0006263    0.0023340    -0.0001485   -0.0002810     0.0010764    0.0000038 
   0.005551376     0.9680631   -0.1757123     0.0001376   -0.0008112    -0.0000397   -0.0002094    -0.0000444   -0.0003518 
   0.005651401     0.9517038   -0.1608066    -0.0004086    0.0007393    -0.0002210   -0.0002575    -0.0002994   -0.0000374 
   0.005751426     0.9480494   -0.1611919    -0.0013376    0.0014800     0.0001889    0.0001333     0.0005717    0.0006187 
   0.005851451     0.9744192   -0.2251442    -0.0021837   -0.0020857    -0.0001304    0.0002439     0.0000860   -0.0003163 
   0.005951476     0.9459671   -0.1685774     0.0004502    0.0012891     0.0002095   -0.0001529     0.0007641    0.0003796 
   0.006051501     0.9601434   -0.1880900    -0.0003472   -0.0002890    -0.0002243   -0.0003378     0.0000033    0.0002719 
   0.006151526     0.9399404   -0.2223407    -0.0016912   -0.0001494     0.0004177    0.0002070     0.0007071   -0.0002788 
   0.006251551     0.9579790   -0.1784564    -0.0001253    0.0011354    -0.0002467   -0.0001298     0.0009778   -0.0001223 
   0.006351576     0.9666934   -0.2274565     0.0010681   -0.0002459    -0.0002504    0.0005979     0.0005142    0.0005273 
   0.006451601     0.9728085   -0.2055447    -0.0015030    0.0003335    -0.0000776   -0.0001168     0.0004755   -0.0000048 
   0.006551626     0.9463434   -0.2179068    -0.0002700    0.0009027     0.0002248   -0.0000475     0.0000063   -0.0002567 
   0.006651651     0.9510958   -0.2070875    -0.0017109    0.0010840    -0.0000857    0.0001612     0.0000348    0.0000232 
   0.006751676     0.9508426   -0.2210850     0.0000696   -0.0000081    -0.0000856   -0.0001907     0.0008869    0.0008948 
   0.006851701     0.9543502   -0.2348492     0.0007842   -0.0017264    -0.0000243   -0.0001928     0.0002352    0.0005140 
   0.006951726     0.9466174   -0.2252543    -0.0008447    0.0005754    -0.0000779   -0.0004532     0.0007682    0.0014114 
   0.007051751     0.9510244   -0.2532057    -0.0004077    0.0001345     0.0004557    0.0007191     0.0007938   -0.0000170 
   0.007151776     0.9215336   -0.2369521     0.0014253   -0.0003521     0.0002174    0.0005045     0.0007951    0.0004825 
   0.007251801     0.9673080   -0.2144373     0.0005062   -0.0015719    -0.0001173   -0.0002705     0.0004278    0.0004572 
   0.007351826     0.9637129   -0.2369602     0.0015709    0.0011549    -0.0001390   -0.0000723     0.0012142    0.0002861 
   0.007451851     0.9408783   -0.2460959     0.0004638   -0.0004714    -0.0005099   -0.0001005     0.0007464    0.0005663 
   0.007551876     0.9362465   -0.2422344    -0.0010479   -0.0001044     0.0002158   -0.0001377     0.0007477    0.0001133 
   0.007651901     0.9384363   -0.2451830    -0.0013625    0.0021695     0.0000717   -0.0002091     0.0008004    0.0002233 
   0.007751926     0.9546812   -0.2546705    -0.0003034    0.0006053     0.0002719    0.0003578     0.0003692   -0.0004419 
   0.007851951     0.9590975   -0.2588528     0.0001958    0.0000390    -0.0000358    0.0000936     0.0010605   -0.0002949 
   0.007951976     0.9600116   -0.2902238    -0.0008277   -0.0005879    -0.0001372    0.0001351     0.0007091    0.0006257 
   0.008052001     0.9510485   -0.2479309    -0.0014847   -0.0001531     0.0003060    0.0000483     0.0007415    0.0004010 
   0.008152026     0.9498749   -0.2490012    -0.0008964   -0.0010496     0.0000618    0.0004639     0.0008931    0.0001683 
   0.008252051     0.9309697   -0.2416044    -0.0002171    0.0007074    -0.0000345    0.0001986     0.0008431    0.0004163 
   0.008352076     0.9430829   -0.2776425     0.0001558    0.0003713     0.0003605    0.0002056     0.0009914   -0.0000979 
   0.008452101     0.9405707   -0.2462116     0.0000800    0.0003092     0.0003169   -0.0000897     0.0003551   -0.0002288 
   0.008552126     0.9546775   -0.2814870    -0.0010704    0.0004228    -0.0003997   -0.0001673     0.0004676    0.0006809 
   0.008652151     0.9546698   -0.2674583     0.0020014    0.0007177     0.0000504    0.0000532     0.0002676   -0.0001323 
   0.008752176     0.9547437   -0.2739371     0.0011144   -0.0002152    -0.0001684    0.0007344     0.0002946   -0.0003222 
   0.008852201     0.9188607   -0.2696663    -0.0000074   -0.0004573     0.0000255   -0.0004296     0.0009378    0.0004436 
   0.008952226     0.9422538   -0.2867765    -0.0012451   -0.0002883    -0.0002818    0.0000331     0.0004043   -0.0003416 
   0.009052251     0.9645804   -0.2883346    -0.0014343   -0.0005344     0.0003054    0.0001962     0.0005172   -0.0000397 
   0.009152276     0.9299130   -0.2818111     0.0010637   -0.0000716     0.0000796   -0.0002089     0.0012600    0.0007827 
   0.009252301     0.9544142   -0.2815853     0.0004672   -0.0010548     0.0002585    0.0001145     0.0005320    0.0000597 
   0.009352326     0.9314687   -0.3065496     0.0009066    0.0004618    -0.0000984   -0.0001622     0.0002051    0.0001135 
   0.009452351     0.9350182   -0.2950596    -0.0006495   -0.0003535    -0.0001572    0.0001328     0.0007536    0.0000300 
   0.009552376     0.9444866   -0.3067560     0.0003710   -0.0009609     0.0001968   -0.0000848     0.0005908    0.0005090 
   0.009652401     0.9280021   -0.3024420     0.0011382    0.0008070     0.0001298    0.0005348    -0.0001026    0.0006184 
   0.009752426     0.9397920   -0.2945556    -0.0009584    0.0000112     0.0001662    0.0000799     0.0007694    0.0003210 
   0.009852451     0.9406034   -0.3210868     0.0012226   -0.0003401    -0.0001442    0.0000153     0.0006416    0.0000935 
   0.009952476     0.9401718   -0.3288086     0.0005247    0.0007858    -0.0002381   -0.0001683     0.0008638    0.0001990 
   0.010052501     0.9258384   -0.3084272     0.0001267    0.0007412    -0.0000439   -0.0000419     0.0003520    0.0000336 
   0.010152526     0.9356151   -0.3207594     0.0000841   -0.0001473     0.0004560   -0.0001485     0.0007211    0.0003515 
   0.010252551     0.9268026   -0.3298016     0.0006293    0.0000948    -0.0002994    0.0002848     0.0007021    0.0003305 
   0.010352576     0.9456257   -0.3389950    -0.0004142   -0.0017290    -0.0000661   -0.0000351     0.0004357    0.0002252 
   0.010452601     0.9343475   -0.3137881    -0.0005690    0.0001875     0.0000758   -0.0001427     0.0005661   -0.0000117 
   0.010552626     0.9086581   -0.3248094    -0.0001498    0.0006620     0.0000531   -0.0000037     0.0004101    0.0001426 
   0.010652651     0.9201261   -0.3299368     0.0002920   -0.0000899    -0.0000591    0.0001048     0.0008889    0.0000353 
   0.010752676     0.9325141   -0.3530014    -0.0007675   -0.0002420     0.0002430    0.0000168     0.0004807    0.0004913 
   0.010852701     0.9346592   -0.3265927    -0.0005355    0.0002961     0.0001612    0.0003027     0.0007350    0.0003375 
   0.010952726     0.9151611   -0.3427743    -0.0007493    0.0002690     0.0002495    0.0001251     0.0002217    0.0002024 
   0.011052751     0.9174448   -0.3471051    -0.0011203    0.0003975    -0.0000493   -0.0003747     0.0008433    0.0003708 
   0.011152776     0.9298100   -0.3536805    -0.0005243   -0.0002499    -0.0002108    0.0001728     0.0003658    0.0001218 
   0.011252801     0.9300600   -0.3462544    -0.0007542    0.0003273    -0.0002217   -0.0000968     0.0004233    0.0001516 
   0.011352826     0.9131612   -0.3753999    -0.0008877    0.0009416    -0.0001835    0.0002396     0.0006306    0.0002085 
   0.011452851     0.9077155   -0.3539760     0.0005742   -0.0010787     0.0000333   -0.0005461     0.0004809    0.0001970 
   0.011552876     0.8948059   -0.3686170    -0.0009458   -0.0006892    -0.0001494    0.0001762     0.0008246    0.0000070 
   0.011652901     0.9050115   -0.3759265     0.0004735   -0.0005150    -0.0000774   -0.0001042     0.0002808    0.0008674 
   0.011752926     0.8996491   -0.3679156     0.0008552   -0.0005717    -0.0001144   -0.0002310     0.0004118    0.0005826 
   0.011852951     0.8955958   -0.3782521    -0.0002731    0.0000827     0.0000256    0.0000591     0.0008743   -0.0001006 
   0.011952976     0.9010425   -0.3706250    -0.0006471   -0.0008561     0.0001916    0.0000998     0.0006002    0.0004368 
   0.012053002     0.8952955   -0.4110273    -0.0001307   -0.0004163    -0.0001554    0.0000075     0.0004959    0.0004228 
   0.012153027     0.9034745   -0.3721908     0.0003971    0.0013452    -0.0002580    0.0003683     0.0011928    0.0001345 
   0.012253052     0.8834121   -0.3928894     0.0005092    0.0004633     0.0000861    0.0002480     0.0012522    0.0000929 
   0.012353077     0.9045965   -0.3798493    -0.0009975    0.0002204     0.0002351   -0.0002693     0.0004374    0.0004388 
   0.012453102     0.9073638   -0.3831297     0.0006556    0.0002794    -0.0000814    0.0000995     0.0007662    0.0002392 
   0.012553127     0.8846245   -0.4049702     0.0000079    0.0006513     0.0003105   -0.0003362     0.0003793   -0.0002654 
   0.012653152     0.9083471   -0.3876328    -0.0000494   -0.0001076    -0.0001137    0.0000615     0.0004780    0.0002300 
   0.012753177     0.8888422   -0.3923715     0.0000846    0.0001194     0.0002091   -0.0002863     0.0005663    0.0001919 
   0.012853202     0.8874238   -0.3885617    -0.0002723    0.0011423    -0.0000724    0.0002685     0.0004947    0.0009342 
   0.012953227     0.9011941   -0.4053872    -0.0012186    0.0001849    -0.0001654    0.0000639     0.0006567    0.0003318 
   0.013053252     0.8622301   -0.4209381     0.0007860   -0.0001447     0.0002729   -0.0001618     0.0007051    0.0002456 
   0.013153277     0.8922281   -0.3975209    -0.0000255   -0.0007879    -0.0000010    0.0005798     0.0006124    0.0004474 
   0.013253302     0.8848845   -0.3978463    -0.0013381    0.0013257     0.0000676    0.0003746     0.0006407    0.0001858 
   0.013353327     0.8833255   -0.4109432     0.0003496    0.0001892    -0.0001212   -0.0000112    -0.0000477    0.0005882 
   0.013453352     0.8949416   -0.4011243     0.0007119   -0.0001169    -0.0001538   -0.0002410     0.0006910    0.0005411 
   0.013553377     0.8697944   -0.4074420    -0.0000855   -0.0003174    -0.0000349   -0.0002720     0.0006884    0.0001865 
   0.013653402     0.8858601   -0.4205522     0.0000381   -0.0003873     0.0000652    0.0000247     0.0007591    0.0004348 
   0.013753427     0.8767120   -0.4251428     0.0000128   -0.0000250    -0.0000071   -0.0002254     0.0006928    0.0003643 
   0.013853452     0.8789494   -0.4274988     0.0003350    0.0008574     0.0000908   -0.0003660     0.0007667    0.0001947 
   0.013953477     0.8699865   -0.4121349    -0.0008670   -0.0002268     0.0001563    0.0001315     0.0003768    0.0006481 
   0.014053502     0.8797168   -0.4297896     0.0011544    0.0001663     0.0001312    0.0000036     0.0003343   -0.0000805 
   0.014153527     0.8749142   -0.4332251    -0.0006460    0.0003660     0.0000704    0.0000228     0.0001842    0.0006222 
   0.014253552     0.8762008   -0.4319157    -0.0010396    0.0002393    -0.0003088   -0.0002391     0.0006428   -0.0002402 
   0.014353577     0.8605031   -0.4310982    -0.0000202    0.0003465     0.0004848    0.0001203     0.0005701    0.0002332 
   0.014453602     0.8483244   -0.4355380    -0.0001777    0.0004411     0.0001823    0.0000908     0.0004069    0.0005035 
   0.014553627     0.8642961   -0.4428550     0.0001264    0.0004491     0.0000224   -0.0000387     0.0005260    0.0003434 
   0.014653652     0.8803264   -0.4421504    -0.0002959    0.0001852     0.0001133    0.0001659     0.0007076    0.0002794 
   0.014753677     0.8571852   -0.4416738    -0.0004217   -0.0004702     0.0000867   -0.0002155     0.0007632    0.0006149 
   0.014853702     0.8716219   -0.4455695     0.0002692    0.0002063    -0.0001061   -0.0001317     0.0008036    0.0002085 
   0.014953727     0.8568150   -0.4622743    -0.0002572   -0.0000317     0.0000824   -0.0002414     0.0004177    0.0004821 
   0.015053752     0.8663552   -0.4592267     0.0000775   -0.0005137     0.0000121   -0.0002248     0.0005408    0.0001215 
   0.015153777     0.8642582   -0.4665235    -0.0003156    0.0006935     0.0000847    0.0003123     0.0007570   -0.0002614 
   0.015253802     0.8547001   -0.4576643     0.0006503   -0.0008240     0.0000655    0.0003496     0.0005254    0.0001083 
   0.015353827     0.8609684   -0.4617656    -0.0001687   -0.0002176    -0.0002501    0.0001387     0.0014161    0.0003057 
   0.015453852     0.8587306   -0.4590407    -0.0003711   -0.0001017    -0.0000438   -0.0002824     0.0008222    0.0004149 
   0.015553877     0.8540111   -0.4733611    -0.0000466   -0.0004937     0.0000035   -0.0001784     0.0003031    0.0000475 
   0.015653902     0.8526004   -0.4666961     0.0000556   -0.0000938     0.0001031   -0.0000242     0.0000508    0.0003443 
