! 23-Mar-26 12:01:18 PM
! E:\UPDATEDVNAMEASUREMENTS\CAL_S11S\VALIDATION_SOURCE_T1T1E7.S2P
! CHANNEL.1
! TR.MEASUREMENT
! CORRECTED.DATA
# GHZ S RI R 50.0
! FREQ.GHZ         S11RE         S11IM         S21RE         S21IM         S12RE         S12IM         S22RE         S22IM         
!; PortSelection: Port_12
   0.000050000    -0.7555974   -0.3159691    -0.9055416    0.2787678    -0.0114765    0.0134430    -0.0018278    0.0412305 
   0.000150025    -0.1519648    0.1759055     0.7094325    0.1339064    -0.0007203    0.0000888     0.0002284   -0.0055386 
   0.000250050    -0.4563389    0.0843681     0.0824659   -0.1838042    -0.0000894    0.0000866     0.0004960   -0.0025337 
   0.000350075     0.9912214   -0.0951334    -0.0034896   -0.0116715    -0.0005894    0.0001468     0.0001386   -0.0009879 
   0.000450100     0.9913623   -0.0370923    -0.0041027   -0.0070430    -0.0000664   -0.0001900     0.0012893   -0.0022652 
   0.000550125     1.0313650   -0.0586886    -0.0037315   -0.0123024     0.0000267   -0.0011417     0.0002750    0.0009985 
   0.000650150     0.9778943    0.0160354    -0.0066019   -0.0124972    -0.0001219    0.0002105     0.0007337   -0.0002789 
   0.000750175     1.0006460   -0.0756630    -0.0093065   -0.0133396     0.0000574   -0.0005144    -0.0002007    0.0006295 
   0.000850200     0.9332553   -0.1027762    -0.0062877   -0.0104730    -0.0013427   -0.0005100    -0.0000102    0.0007043 
   0.000950225     1.0427220   -0.0231422    -0.0093018   -0.0077393     0.0006087   -0.0000990     0.0014553    0.0009256 
   0.001050250     0.9807425   -0.0737702    -0.0139594   -0.0065893    -0.0008232    0.0011506     0.0005633    0.0002812 
   0.001150275     1.0399000   -0.0667440    -0.0113876   -0.0052916     0.0004309   -0.0005692     0.0006343    0.0009849 
   0.001250300     0.9731448   -0.0391242    -0.0078309   -0.0067983    -0.0000515    0.0000603     0.0014491    0.0002749 
   0.001350325     1.0031040   -0.1038131    -0.0099586   -0.0031378    -0.0005405    0.0003023    -0.0003836   -0.0001897 
   0.001450350     1.0093680   -0.0414285    -0.0113272   -0.0020957     0.0006513   -0.0000658     0.0009677    0.0004420 
   0.001550375     0.9994689   -0.0954169    -0.0113018   -0.0009215    -0.0003036    0.0004534     0.0009298    0.0008946 
   0.001650400     0.9900569   -0.0875009    -0.0091222    0.0009145    -0.0007114   -0.0001184     0.0003551   -0.0003998 
   0.001750425     0.9859300   -0.0327533    -0.0054041   -0.0009303    -0.0000397    0.0005368     0.0000713    0.0003137 
   0.001850450     0.9637976   -0.0715815    -0.0116516   -0.0012972     0.0001172    0.0002421     0.0003669    0.0010110 
   0.001950475     1.0151960   -0.0195945    -0.0062001    0.0037978    -0.0000723   -0.0005392     0.0013253    0.0000663 
   0.002050500     0.9884948   -0.0593433    -0.0069766    0.0022824    -0.0003451   -0.0000707     0.0015197   -0.0004192 
   0.002150525     0.9929387   -0.0760554    -0.0108718    0.0036557    -0.0003174   -0.0003546     0.0011018    0.0000194 
   0.002250550     0.9839449   -0.0363971    -0.0047861    0.0053214    -0.0010187   -0.0003570     0.0003389   -0.0001638 
   0.002350575     0.9513155   -0.1046278    -0.0021959    0.0035505    -0.0002827    0.0001067     0.0009883    0.0006495 
   0.002450600     0.9959011   -0.0829603    -0.0061986    0.0016849     0.0004360   -0.0014990     0.0003675    0.0002519 
   0.002550625     0.9751031   -0.0447690    -0.0081693    0.0034164     0.0000164    0.0000310    -0.0005147    0.0006289 
   0.002650650     1.0254750   -0.0326170    -0.0051430    0.0017619    -0.0005611    0.0000482     0.0002772    0.0007208 
   0.002750675     1.0190780   -0.0367408    -0.0040591    0.0037112    -0.0000835    0.0005254     0.0002661    0.0001847 
   0.002850700     1.0087340   -0.0990738    -0.0040481    0.0040264     0.0003908   -0.0005674     0.0007029   -0.0000700 
   0.002950725     0.9710036   -0.0697691    -0.0033142    0.0022519    -0.0000330    0.0001682     0.0010768    0.0001961 
   0.003050750     0.9630327   -0.0882697    -0.0021025    0.0030832    -0.0001444    0.0001030     0.0004328   -0.0008829 
   0.003150775     0.9844225   -0.1682951    -0.0002246    0.0007949    -0.0004269   -0.0001703    -0.0000856    0.0002016 
   0.003250800     0.9607043   -0.0955251    -0.0032878    0.0028067     0.0002708   -0.0006101     0.0003169   -0.0000688 
   0.003350825     0.9744208   -0.1188053    -0.0034456    0.0018662    -0.0001208   -0.0003013     0.0006613    0.0003235 
   0.003450850     0.9707820   -0.1506785    -0.0023513    0.0009418     0.0010151    0.0001677     0.0004470   -0.0005801 
   0.003550875     0.9532241   -0.1274635    -0.0020289   -0.0000056     0.0003602   -0.0000803     0.0000758   -0.0004809 
   0.003650900     0.9799120   -0.0881640    -0.0026734    0.0025648     0.0001843    0.0001586     0.0017706    0.0000238 
   0.003750925     0.9454960   -0.1102180    -0.0023171    0.0037665     0.0001159   -0.0002106     0.0001075    0.0001027 
   0.003850950     1.0006870   -0.1250315     0.0016936    0.0036293    -0.0010440    0.0005412     0.0002333    0.0007645 
   0.003950975     0.9935618   -0.1103969    -0.0015414    0.0012578     0.0000451    0.0002535    -0.0002792   -0.0003414 
   0.004051001     0.9714708   -0.1759859     0.0001300    0.0008111     0.0001293   -0.0001673     0.0004514   -0.0002155 
   0.004151026     0.9905970   -0.1524774    -0.0004283    0.0017431     0.0000097    0.0004764     0.0002217    0.0000375 
   0.004251051     0.9572352   -0.1310502    -0.0015657    0.0016109    -0.0003901   -0.0004318    -0.0003494    0.0000835 
   0.004351076     0.9801665   -0.0946069    -0.0004853    0.0013164    -0.0000590    0.0001901     0.0008742    0.0010963 
   0.004451101     0.9969870   -0.1486530     0.0000312    0.0015768    -0.0004962   -0.0000588     0.0008012   -0.0005261 
   0.004551126     1.0091330   -0.1469843     0.0018062    0.0058451     0.0003552    0.0003626    -0.0000354    0.0006720 
   0.004651151     0.9736802   -0.1596543     0.0005624   -0.0001952     0.0005784    0.0001104     0.0007789    0.0002061 
   0.004751176     0.9632075   -0.1782460    -0.0019144    0.0001627     0.0000390   -0.0003866     0.0005188   -0.0000157 
   0.004851201     0.9529045   -0.1570165    -0.0017224    0.0012329     0.0000808   -0.0001967     0.0006776    0.0007241 
   0.004951226     0.9462271   -0.1340777    -0.0037042    0.0011775     0.0002540   -0.0003441     0.0007627    0.0000342 
   0.005051251     0.9760414   -0.1659501    -0.0002897    0.0005594    -0.0005682    0.0001805     0.0003204   -0.0003475 
   0.005151276     0.9477063   -0.1438551    -0.0009503    0.0003823     0.0004290   -0.0003548     0.0004041   -0.0001236 
   0.005251301     0.9327761   -0.1605288     0.0014994    0.0010667     0.0002881    0.0003963     0.0007478    0.0007602 
   0.005351326     0.9318193   -0.1470026     0.0011195    0.0012454    -0.0000427   -0.0001468     0.0013355    0.0010664 
   0.005451351     0.9490790   -0.1436644    -0.0002398   -0.0006377     0.0002807   -0.0001135     0.0010846   -0.0006133 
   0.005551376     0.9642608   -0.1757559    -0.0007216    0.0019795     0.0005535    0.0004320     0.0008612   -0.0003163 
   0.005651401     0.9438611   -0.1822212    -0.0005216    0.0008918     0.0001370    0.0000765     0.0001965   -0.0000117 
   0.005751426     0.9312358   -0.1542446    -0.0010431    0.0001104    -0.0002115    0.0000443     0.0009066    0.0000792 
   0.005851451     0.9378809   -0.2146584    -0.0017158   -0.0005406     0.0003486    0.0002731     0.0004988   -0.0004890 
   0.005951476     0.9055791   -0.1600803    -0.0005873    0.0016106    -0.0004308    0.0006132     0.0004885    0.0003498 
   0.006051501     0.9420222   -0.1827529    -0.0017015    0.0011397     0.0001295    0.0009210     0.0004591    0.0003978 
   0.006151526     0.9588307   -0.1983244     0.0011091    0.0003826     0.0000565   -0.0002592     0.0010733   -0.0003598 
   0.006251551     0.9422213   -0.1781713    -0.0004447    0.0018857    -0.0002272   -0.0004479     0.0006005    0.0000987 
   0.006351576     0.9369574   -0.1971257    -0.0004615   -0.0013795    -0.0002249   -0.0002563     0.0001327    0.0002565 
   0.006451601     0.9386856   -0.1844106    -0.0008333   -0.0004632     0.0001845   -0.0000328     0.0003175    0.0003293 
   0.006551626     0.9214292   -0.2155284     0.0001845    0.0004613    -0.0000427    0.0002357     0.0001397    0.0002920 
   0.006651651     0.9326250   -0.1906509    -0.0009009    0.0031392     0.0001957    0.0002740     0.0005049   -0.0000536 
   0.006751676     0.9325902   -0.2157355     0.0004503    0.0013709     0.0000445    0.0000598     0.0004904    0.0006586 
   0.006851701     0.9513562   -0.2322538    -0.0015666   -0.0009355    -0.0001284   -0.0001619     0.0002111    0.0006223 
   0.006951726     0.9256960   -0.2323387     0.0002015    0.0012691     0.0000858   -0.0004968     0.0012295    0.0008118 
   0.007051751     0.9473509   -0.2125662    -0.0014727   -0.0012601    -0.0004025    0.0003260     0.0007022   -0.0001117 
   0.007151776     0.9072194   -0.2064820    -0.0014668   -0.0005080    -0.0003119    0.0000157     0.0006649    0.0010061 
   0.007251801     0.9513526   -0.2029492     0.0012581    0.0005196    -0.0002777    0.0001678     0.0002526    0.0004771 
   0.007351826     0.9323615   -0.2340559     0.0000694    0.0000629    -0.0000856    0.0002731     0.0011567    0.0003946 
   0.007451851     0.9074945   -0.2175051    -0.0014860   -0.0006788     0.0001711    0.0001772     0.0009013    0.0001864 
   0.007551876     0.9179016   -0.2360643     0.0021799   -0.0002619    -0.0001001   -0.0001855     0.0006847    0.0004423 
   0.007651901     0.9219994   -0.2550192    -0.0005334    0.0006874     0.0003527    0.0002075     0.0001961    0.0004476 
   0.007751926     0.9286505   -0.2301742    -0.0017069    0.0008099    -0.0001793   -0.0001536     0.0004492   -0.0008909 
   0.007851951     0.9185818   -0.2304481    -0.0015959    0.0003311    -0.0003480   -0.0000848     0.0004981    0.0000489 
   0.007951976     0.9214005   -0.2387360    -0.0008374    0.0002880    -0.0004264   -0.0002807     0.0007162    0.0005076 
   0.008052001     0.9417446   -0.2445066     0.0000651   -0.0016216     0.0000153   -0.0000906     0.0004995    0.0006686 
   0.008152026     0.9123173   -0.2360703     0.0011886    0.0013475     0.0001122    0.0000727     0.0006400    0.0004499 
   0.008252051     0.8895835   -0.2182913    -0.0011301    0.0004781    -0.0001074   -0.0001082     0.0009418    0.0007633 
   0.008352076     0.9177302   -0.2558106    -0.0012016   -0.0015405    -0.0001374   -0.0002650     0.0007580    0.0004132 
   0.008452101     0.9238157   -0.2488420    -0.0016028    0.0012238    -0.0000190    0.0000764     0.0002726   -0.0000239 
   0.008552126     0.9279894   -0.2514543    -0.0001073   -0.0014695    -0.0000049    0.0000893     0.0003932    0.0007462 
   0.008652151     0.9261199   -0.2532438    -0.0005228   -0.0001875     0.0001058   -0.0000489     0.0005960    0.0002178 
   0.008752176     0.9393358   -0.2263508    -0.0013848   -0.0009666    -0.0001084    0.0001812     0.0002395   -0.0000412 
   0.008852201     0.8974892   -0.2357794    -0.0002505   -0.0009949    -0.0004630    0.0002416     0.0008236    0.0001834 
   0.008952226     0.9285702   -0.2559695    -0.0004941    0.0001191     0.0000435   -0.0001138     0.0007991   -0.0000225 
   0.009052251     0.9112142   -0.2536710    -0.0010273   -0.0001589    -0.0001322   -0.0000892     0.0007290   -0.0001700 
   0.009152276     0.9165201   -0.2546849    -0.0012337   -0.0003457     0.0002569   -0.0004508     0.0008817    0.0003486 
   0.009252301     0.9061780   -0.2596416    -0.0002951   -0.0001487     0.0005591    0.0001063     0.0006381    0.0000613 
   0.009352326     0.9205230   -0.2716704     0.0003303    0.0003800     0.0002310    0.0001392     0.0002221   -0.0000320 
   0.009452351     0.9095809   -0.2712710    -0.0002361    0.0003114    -0.0002157   -0.0001120     0.0003802    0.0002140 
   0.009552376     0.9043543   -0.2780063     0.0005723   -0.0001006    -0.0001362   -0.0001007     0.0008535   -0.0000822 
   0.009652401     0.8909391   -0.2766141     0.0001943   -0.0001563    -0.0000035    0.0003339     0.0001076    0.0006304 
   0.009752426     0.8969923   -0.2755436    -0.0006070   -0.0000125     0.0003037    0.0001918     0.0007464    0.0005999 
   0.009852451     0.9062259   -0.2992230    -0.0001360   -0.0007772     0.0000624    0.0002795     0.0005489    0.0002304 
   0.009952476     0.9093747   -0.2857979     0.0001325    0.0002236     0.0003168   -0.0003041     0.0004090    0.0002085 
   0.010052501     0.8934160   -0.2767595    -0.0009578    0.0002837    -0.0002116    0.0000446     0.0004984    0.0002088 
   0.010152526     0.8874720   -0.2758535     0.0012650    0.0005835    -0.0000317    0.0002483     0.0004524    0.0005499 
   0.010252551     0.8853059   -0.2769846     0.0002720   -0.0007885     0.0004170    0.0002145     0.0006235    0.0002759 
   0.010352576     0.8912086   -0.3002407     0.0014243    0.0016720     0.0000085    0.0001374     0.0004336    0.0003846 
   0.010452601     0.8954720   -0.2798733     0.0001214    0.0000328     0.0002484    0.0003737     0.0004460   -0.0000483 
   0.010552626     0.8803188   -0.2911202     0.0009823   -0.0000808     0.0001758    0.0001282     0.0005825    0.0004227 
   0.010652651     0.8802328   -0.2857443     0.0013082    0.0008586     0.0001969   -0.0001355     0.0010914    0.0004281 
   0.010752676     0.8897773   -0.3162575     0.0000893   -0.0011695     0.0000847    0.0001742     0.0005969    0.0003422 
   0.010852701     0.8944102   -0.2806368    -0.0015779    0.0003820    -0.0001286    0.0000236     0.0003158   -0.0001217 
   0.010952726     0.8741488   -0.2910672     0.0000570   -0.0005501    -0.0001053   -0.0001377     0.0001153    0.0001918 
   0.011052751     0.8815825   -0.2992441     0.0000355   -0.0006737    -0.0000329   -0.0005565     0.0004928    0.0003810 
   0.011152776     0.8828028   -0.3078436     0.0001963   -0.0010911    -0.0002245    0.0001396     0.0007085    0.0001635 
   0.011252801     0.8738837   -0.3151616    -0.0010450    0.0005083    -0.0000093   -0.0001675    -0.0000875    0.0005688 
   0.011352826     0.8752422   -0.3167550     0.0017440   -0.0000558    -0.0003186   -0.0000030     0.0005520   -0.0002768 
   0.011452851     0.8810876   -0.3217224    -0.0020450   -0.0010001    -0.0000364   -0.0002531     0.0003326    0.0003618 
   0.011552876     0.8593382   -0.3212449     0.0001012    0.0000078     0.0000144    0.0003461     0.0005709    0.0002338 
   0.011652901     0.8621176   -0.3187612    -0.0001148    0.0007084     0.0002106   -0.0002874     0.0003066    0.0005588 
   0.011752926     0.8623052   -0.3112431     0.0001587    0.0003561    -0.0000482    0.0002273     0.0003998    0.0003853 
   0.011852951     0.8664309   -0.3236634    -0.0008734   -0.0004455     0.0002528    0.0001152     0.0005727    0.0002907 
   0.011952976     0.8754895   -0.3203396    -0.0003495    0.0006659    -0.0001218   -0.0001771     0.0005569    0.0008514 
   0.012053002     0.8644873   -0.3415536    -0.0000372    0.0004758     0.0000977   -0.0000849     0.0003297    0.0006134 
   0.012153027     0.8581829   -0.3446696    -0.0005663   -0.0007145     0.0001614   -0.0000372     0.0006060    0.0001673 
   0.012253052     0.8447874   -0.3301347    -0.0005661    0.0001262     0.0001576    0.0000407     0.0004613    0.0005494 
   0.012353077     0.8636667   -0.3270056     0.0004701   -0.0000829    -0.0006768    0.0006806     0.0006782    0.0004322 
   0.012453102     0.8624915   -0.3309091     0.0003339   -0.0002324     0.0000384    0.0001836     0.0006729    0.0001657 
   0.012553127     0.8432930   -0.3435681    -0.0005168    0.0005357     0.0002089   -0.0002180     0.0004231   -0.0001756 
   0.012653152     0.8643001   -0.3274045    -0.0011745    0.0009045    -0.0000653    0.0000739     0.0004534    0.0002547 
   0.012753177     0.8487353   -0.3456262    -0.0002357    0.0002957    -0.0000133   -0.0000268     0.0004997    0.0003051 
   0.012853202     0.8567638   -0.3164891     0.0000675    0.0010295    -0.0000510   -0.0000375     0.0004968    0.0003601 
   0.012953227     0.8467201   -0.3307955    -0.0000873    0.0006143    -0.0000978   -0.0001220     0.0006525    0.0001724 
   0.013053252     0.8404188   -0.3543943     0.0000982    0.0004912    -0.0000454   -0.0001109     0.0004911    0.0002385 
   0.013153277     0.8537894   -0.3453094    -0.0004870   -0.0002952    -0.0000992   -0.0000952     0.0000754    0.0003037 
   0.013253302     0.8562598   -0.3424279     0.0013611   -0.0006379     0.0002680    0.0001194     0.0006144    0.0004180 
   0.013353327     0.8448658   -0.3535171     0.0009625    0.0009935    -0.0002449   -0.0000082     0.0004233    0.0005169 
   0.013453352     0.8554598   -0.3357310    -0.0007205   -0.0002178    -0.0000149   -0.0000574     0.0008383    0.0002455 
   0.013553377     0.8297614   -0.3477071    -0.0001166    0.0012794    -0.0001814   -0.0000139     0.0003755    0.0001687 
   0.013653402     0.8365799   -0.3582605    -0.0006413    0.0002359     0.0000200    0.0000998     0.0003610    0.0003390 
   0.013753427     0.8514317   -0.3691171    -0.0001600   -0.0002306     0.0000149   -0.0000247     0.0000194    0.0004157 
   0.013853452     0.8386894   -0.3703728     0.0016693   -0.0005579     0.0001118   -0.0001208     0.0006514    0.0005785 
   0.013953477     0.8273712   -0.3452358     0.0007729    0.0000853     0.0000746    0.0001754     0.0004137    0.0007623 
   0.014053502     0.8478065   -0.3687794    -0.0009394   -0.0008781    -0.0001028   -0.0000222     0.0000926    0.0003224 
   0.014153527     0.8355958   -0.3642673     0.0005945   -0.0009092     0.0003212    0.0001881     0.0004828    0.0005562 
   0.014253552     0.8381654   -0.3665955    -0.0006937    0.0000181     0.0000100    0.0001520     0.0002945    0.0000943 
   0.014353577     0.8258335   -0.3615811     0.0001729   -0.0004648     0.0001633    0.0000899     0.0008825    0.0007515 
   0.014453602     0.8191786   -0.3673984    -0.0005562   -0.0006230    -0.0000079    0.0000938     0.0004366   -0.0001156 
   0.014553627     0.8260058   -0.3679364     0.0002643   -0.0001353     0.0001496    0.0002908     0.0004111    0.0003826 
   0.014653652     0.8219215   -0.3754451    -0.0010826   -0.0003391     0.0001395   -0.0000538     0.0005250    0.0001715 
   0.014753677     0.8248327   -0.3713697     0.0001043    0.0011802     0.0001402    0.0000681     0.0006822    0.0005829 
   0.014853702     0.8299270   -0.3635864    -0.0008317   -0.0006952    -0.0002908    0.0000948     0.0004925    0.0006549 
   0.014953727     0.8188961   -0.3866505     0.0012578    0.0000230     0.0000002   -0.0002678     0.0006285    0.0003707 
   0.015053752     0.8286934   -0.3729665    -0.0000377   -0.0003767     0.0003609    0.0000470     0.0002084    0.0005590 
   0.015153777     0.8328027   -0.3883567     0.0000302   -0.0001402     0.0002493   -0.0000644     0.0001505    0.0004031 
   0.015253802     0.8171301   -0.3841544     0.0002659    0.0001625     0.0000110    0.0003405     0.0007756    0.0004788 
   0.015353827     0.8118628   -0.3944299     0.0004189   -0.0006822    -0.0000129    0.0000418     0.0007408    0.0003278 
   0.015453852     0.8177117   -0.3887663    -0.0010088   -0.0004863     0.0001774   -0.0000914     0.0008213    0.0004407 
   0.015553877     0.8118649   -0.3953839    -0.0008521   -0.0000053     0.0000591    0.0002949     0.0003568    0.0003197 
   0.015653902     0.8074942   -0.3942555     0.0001527   -0.0004486    -0.0002338    0.0002140     0.0001954    0.0001887 
