! 26-Feb-26 10:48:21 AM
! E:\VNA_MEASUREMENTS\SPDT1\SPDT1_T2_RF1_1.S2P
! CHANNEL.1
! TR.MEASUREMENT
! CORRECTED.DATA
# GHZ S RI R 50.0
! FREQ.GHZ         S11RE         S11IM         S21RE         S21IM         S12RE         S12IM         S22RE         S22IM         
!; PortSelection: Port_12
   0.000050000     0.2271167    0.2747948    -0.1286777   -0.0322218     0.0092279    0.0002366     0.9904460   -0.0392576 
   0.000150025     0.0137425    0.1901437    -0.6312764   -0.2470880    -0.0000380   -0.0001596     1.0008830    0.0024816 
   0.000250050     0.2883141   -1.0228850    -0.0019204   -0.0111885    -0.0000227    0.0014423     1.0116140   -0.0059892 
   0.000350075     1.0080300   -0.0547361     0.0001390   -0.0112848    -0.0000053    0.0000324     0.9895707   -0.0158343 
   0.000450100     1.0277880   -0.0836549    -0.0063851   -0.0112488     0.0004244   -0.0001616     0.9968594   -0.0007520 
   0.000550125     1.0434050   -0.0218897    -0.0017985   -0.0106685     0.0018718   -0.0001447     0.9890723   -0.0083661 
   0.000650150     0.9842576   -0.0387574    -0.0075800   -0.0123234    -0.0001683   -0.0000594     1.0034510   -0.0150585 
   0.000750175     0.9708253   -0.0990198    -0.0099812   -0.0095264    -0.0002276   -0.0003639     0.9920213   -0.0124253 
   0.000850200     0.9604627   -0.0704488    -0.0129732   -0.0091371     0.0009758   -0.0007025     1.0013390   -0.0086143 
   0.000950225     1.0015460   -0.0487942    -0.0054720   -0.0077880     0.0001349    0.0001349     0.9843770   -0.0242368 
   0.001050250     0.9688328   -0.0297580    -0.0115240   -0.0044980     0.0001143    0.0000915     0.9907363   -0.0118110 
   0.001150275     0.9995805   -0.0555656    -0.0074965   -0.0069891    -0.0009677    0.0000016     0.9867376   -0.0241600 
   0.001250300     1.0345520   -0.0580655    -0.0115135   -0.0066195     0.0011259    0.0008072     0.9996250   -0.0290622 
   0.001350325     0.9718868   -0.0903070    -0.0148259   -0.0002178     0.0000008    0.0001880     0.9885139   -0.0224805 
   0.001450350     1.0106320   -0.0666336    -0.0092684   -0.0020367     0.0001601    0.0010707     0.9949259   -0.0160477 
   0.001550375     0.9847626   -0.0297859    -0.0047945   -0.0020823    -0.0005501   -0.0012949     0.9997098   -0.0246438 
   0.001650400     0.9938726   -0.0444859    -0.0083265   -0.0033816    -0.0004466   -0.0002635     0.9970868   -0.0224330 
   0.001750425     1.0135840   -0.0407012    -0.0112285    0.0040881     0.0006726   -0.0000938     1.0023960   -0.0289177 
   0.001850450     0.9897832   -0.0387177    -0.0097645   -0.0020154    -0.0004780   -0.0014438     0.9913892   -0.0306240 
   0.001950475     1.0052080    0.0017325    -0.0080815    0.0026005    -0.0013907    0.0002598     0.9913803   -0.0282857 
   0.002050500     0.9619505   -0.0623183    -0.0060522    0.0007113    -0.0010981   -0.0002861     0.9984276   -0.0428509 
   0.002150525     1.0177240   -0.0670993    -0.0096669    0.0009129     0.0000676   -0.0000807     0.9897081   -0.0438229 
   0.002250550     0.9747770   -0.0490839    -0.0056980    0.0035048     0.0002896   -0.0002163     0.9961721   -0.0392075 
   0.002350575     0.9542096   -0.1155843    -0.0056845    0.0052322    -0.0003407    0.0003322     0.9908351   -0.0407814 
   0.002450600     0.9925057   -0.1042103    -0.0030991    0.0039110     0.0002856   -0.0000851     1.0001420   -0.0424130 
   0.002550625     0.9611673   -0.1129520     0.0011656    0.0024736     0.0003268    0.0008652     0.9943985   -0.0431554 
   0.002650650     0.9996417   -0.0554585    -0.0050013    0.0038312    -0.0000975    0.0001099     1.0016760   -0.0536412 
   0.002750675     1.0055760   -0.0681389    -0.0068544    0.0043258    -0.0007686    0.0004171     0.9922398   -0.0526112 
   0.002850700     1.0381680   -0.0808373    -0.0021249    0.0026557    -0.0001942    0.0002695     0.9977672   -0.0503282 
   0.002950725     0.9407015   -0.1017982    -0.0038907    0.0054736     0.0013821   -0.0001707     0.9972259   -0.0457746 
   0.003050750     0.9763004   -0.1108090    -0.0012301    0.0032595     0.0005820   -0.0003545     0.9931346   -0.0484420 
   0.003150775     0.9840506   -0.1163907    -0.0009681    0.0050292    -0.0000716    0.0005242     0.9864424   -0.0572490 
   0.003250800     0.9647565   -0.1058186    -0.0021434    0.0031824    -0.0006707    0.0000932     0.9950747   -0.0559128 
   0.003350825     0.9617091   -0.0770578    -0.0027129    0.0004616    -0.0001457    0.0001288     0.9913459   -0.0586498 
   0.003450850     0.9701810   -0.1476906    -0.0039076    0.0015617     0.0007832   -0.0000458     0.9910155   -0.0581738 
   0.003550875     0.9884507   -0.1160599    -0.0017560    0.0028105    -0.0002300   -0.0003150     0.9908395   -0.0591385 
   0.003650900     0.9811242   -0.1183763    -0.0020327    0.0042208     0.0003109   -0.0001759     0.9926051   -0.0622206 
   0.003750925     0.9708853   -0.1188274    -0.0004691    0.0011147     0.0004714    0.0001747     0.9894885   -0.0660968 
   0.003850950     0.9678932   -0.1593027    -0.0030821    0.0015351    -0.0003732    0.0002171     0.9912548   -0.0650237 
   0.003950975     0.9912195   -0.1326961     0.0009641    0.0040565     0.0001812   -0.0005881     0.9906418   -0.0646624 
   0.004051001     0.9334616   -0.1679489    -0.0023468    0.0016309    -0.0008399    0.0006242     0.9894261   -0.0595692 
   0.004151026     1.0010180   -0.1713004     0.0003217    0.0023557     0.0000971    0.0000726     0.9900780   -0.0685832 
   0.004251051     0.9534107   -0.1025033    -0.0001442    0.0002033    -0.0000033   -0.0002619     0.9913992   -0.0728614 
   0.004351076     0.9679061   -0.1004337     0.0010046    0.0007994    -0.0000370    0.0000164     0.9851537   -0.0695735 
   0.004451101     0.9880964   -0.1781870    -0.0005808    0.0028787    -0.0000671    0.0000735     0.9875293   -0.0718411 
   0.004551126     0.9934433   -0.1601209    -0.0011312    0.0042597    -0.0002740    0.0004781     0.9903097   -0.0696046 
   0.004651151     0.9624953   -0.1338996    -0.0019571    0.0014866     0.0004144   -0.0007720     0.9941968   -0.0804802 
   0.004751176     0.9642777   -0.1572037    -0.0011901   -0.0002204     0.0001123   -0.0000645     0.9937768   -0.0773771 
   0.004851201     0.9485916   -0.1604717     0.0019366    0.0006817    -0.0001492    0.0002649     0.9859597   -0.0827991 
   0.004951226     0.9537813   -0.1475267     0.0010200    0.0004077     0.0003287    0.0005209     0.9867824   -0.0752877 
   0.005051251     0.9977915   -0.1801547    -0.0002338    0.0003931     0.0002287    0.0003585     0.9820351   -0.0775632 
   0.005151276     0.9422186   -0.1544773    -0.0022012    0.0007176     0.0002111   -0.0008792     0.9877402   -0.0822345 
   0.005251301     0.9441258   -0.1795666     0.0002489    0.0008134    -0.0003285   -0.0002164     0.9878281   -0.0871584 
   0.005351326     0.9658878   -0.1464171     0.0017520    0.0004864    -0.0003963   -0.0001610     0.9883972   -0.0945747 
   0.005451351     0.9715891   -0.1444629     0.0014399    0.0012755    -0.0000726   -0.0002237     0.9865744   -0.0885486 
   0.005551376     0.9918392   -0.1673891     0.0000565   -0.0003834    -0.0002305   -0.0000661     0.9835079   -0.0865450 
   0.005651401     0.9690143   -0.1645088    -0.0008543    0.0022311    -0.0000750    0.0000020     0.9875380   -0.0959250 
   0.005751426     0.9411489   -0.1763725     0.0018422    0.0001906     0.0002727   -0.0001237     0.9805053   -0.0954921 
   0.005851451     0.9531348   -0.2094255    -0.0011896   -0.0002885    -0.0002262    0.0000463     0.9841632   -0.0963307 
   0.005951476     0.9415904   -0.1869260     0.0004299    0.0003846    -0.0003522    0.0005204     0.9886273   -0.0978891 
   0.006051501     0.9626341   -0.1881228    -0.0000403    0.0006921     0.0001735    0.0004325     0.9872542   -0.0989466 
   0.006151526     0.9541200   -0.1919501    -0.0019050    0.0006531    -0.0002674    0.0003061     0.9876050   -0.1009476 
   0.006251551     0.9623720   -0.1720039    -0.0018916    0.0013351     0.0005111    0.0002801     0.9869279   -0.1042311 
   0.006351576     0.9753209   -0.2105174     0.0021756    0.0007639     0.0002510   -0.0003211     0.9881851   -0.1054666 
   0.006451601     0.9672846   -0.1899521    -0.0008814    0.0020596     0.0000052    0.0002186     0.9842210   -0.1106378 
   0.006551626     0.9485825   -0.2029446    -0.0028411    0.0020451     0.0003331    0.0003226     0.9841002   -0.1066364 
   0.006651651     0.9558837   -0.1902218    -0.0004561    0.0004676     0.0005536    0.0000496     0.9831206   -0.1104682 
   0.006751676     0.9365888   -0.2500186     0.0001400   -0.0000335     0.0001550   -0.0003624     0.9869228   -0.1075611 
   0.006851701     0.9424366   -0.2081233    -0.0013488    0.0013237    -0.0001384    0.0001572     0.9813741   -0.1174133 
   0.006951726     0.9233662   -0.2392627    -0.0010240    0.0006873    -0.0005291    0.0000697     0.9863511   -0.1142298 
   0.007051751     0.9357628   -0.2370725    -0.0013852    0.0003517    -0.0005396    0.0002143     0.9786648   -0.1163147 
   0.007151776     0.9182181   -0.2401609    -0.0009679   -0.0002580    -0.0000815    0.0003150     0.9799948   -0.1265519 
   0.007251801     0.9564473   -0.2069189     0.0010752    0.0003838     0.0002442   -0.0000659     0.9823472   -0.1177322 
   0.007351826     0.9482710   -0.2410045    -0.0006324    0.0021501     0.0003917    0.0000363     0.9835594   -0.1218270 
   0.007451851     0.9242469   -0.2523629    -0.0009501    0.0009440    -0.0003750   -0.0002539     0.9771236   -0.1201207 
   0.007551876     0.9258425   -0.2420818     0.0000409   -0.0015409     0.0003123   -0.0000943     0.9857995   -0.1227542 
   0.007651901     0.9292821   -0.2551472    -0.0015127   -0.0007445     0.0002190   -0.0000975     0.9802631   -0.1250426 
   0.007751926     0.9272063   -0.2344885     0.0003300   -0.0006978     0.0002455   -0.0005038     0.9784085   -0.1255709 
   0.007851951     0.9407915   -0.2538906     0.0013309    0.0008232     0.0002014   -0.0002214     0.9766470   -0.1251119 
   0.007951976     0.9143806   -0.2669742    -0.0015141    0.0015820    -0.0000161    0.0001967     0.9792386   -0.1320118 
   0.008052001     0.9411712   -0.2398303    -0.0005961   -0.0009427     0.0000856    0.0001100     0.9754722   -0.1322839 
   0.008152026     0.9147477   -0.2613719    -0.0013049    0.0023496     0.0002493    0.0003350     0.9784675   -0.1306511 
   0.008252051     0.9096685   -0.2423825    -0.0018277    0.0012102    -0.0002330    0.0001491     0.9754304   -0.1384453 
   0.008352076     0.9196036   -0.2607679     0.0015332   -0.0004147    -0.0001271    0.0001829     0.9734231   -0.1373294 
   0.008452101     0.9184694   -0.2578069     0.0008291    0.0010214    -0.0001805    0.0001245     0.9786445   -0.1391737 
   0.008552126     0.9191562   -0.2839175    -0.0012531   -0.0006835     0.0001122   -0.0000070     0.9789045   -0.1400461 
   0.008652151     0.9291977   -0.2651223    -0.0005204   -0.0004371     0.0004003    0.0004193     0.9770540   -0.1442329 
   0.008752176     0.9277825   -0.2590058    -0.0000853   -0.0003517     0.0004345   -0.0004751     0.9794957   -0.1424486 
   0.008852201     0.9076063   -0.2506008    -0.0003440   -0.0006584    -0.0005026   -0.0000936     0.9713409   -0.1440826 
   0.008952226     0.9323276   -0.2733287     0.0017424    0.0004686     0.0004471    0.0003519     0.9747397   -0.1439616 
   0.009052251     0.9462363   -0.2759951     0.0007551    0.0018039    -0.0005419    0.0003965     0.9737139   -0.1484892 
   0.009152276     0.9111434   -0.2708730     0.0010924   -0.0009540     0.0002710   -0.0003740     0.9719829   -0.1540052 
   0.009252301     0.9091668   -0.2716606     0.0009825    0.0008890    -0.0000672    0.0000802     0.9743794   -0.1530202 
   0.009352326     0.9339654   -0.2777048    -0.0013938    0.0001500     0.0001807    0.0000137     0.9760141   -0.1487493 
   0.009452351     0.9124534   -0.2844441     0.0003974   -0.0003210     0.0003116   -0.0000872     0.9730594   -0.1533273 
   0.009552376     0.9125761   -0.2955212     0.0006959   -0.0009208     0.0002191    0.0000198     0.9691876   -0.1566616 
   0.009652401     0.8957326   -0.2827455     0.0000305   -0.0010210     0.0002661    0.0001915     0.9701640   -0.1585755 
   0.009752426     0.8951436   -0.2838477    -0.0008516    0.0020904    -0.0000107    0.0000293     0.9678397   -0.1546996 
   0.009852451     0.9062106   -0.2967109     0.0004277    0.0006068    -0.0000644   -0.0003021     0.9710420   -0.1597832 
   0.009952476     0.9008125   -0.3082105    -0.0013382   -0.0005221    -0.0001708    0.0000126     0.9695193   -0.1602503 
   0.010052501     0.9014246   -0.3102058     0.0007814    0.0007067    -0.0000803   -0.0001846     0.9708623   -0.1554192 
   0.010152526     0.8917458   -0.2970710     0.0010175   -0.0001373    -0.0004082   -0.0001063     0.9669527   -0.1604593 
   0.010252551     0.9000678   -0.2888105    -0.0005307    0.0010228    -0.0002074    0.0001900     0.9729833   -0.1659581 
   0.010352576     0.8845061   -0.3272022    -0.0004200   -0.0004182    -0.0000418    0.0001726     0.9663512   -0.1678822 
   0.010452601     0.8956373   -0.3015876    -0.0006565    0.0002700     0.0003157   -0.0002529     0.9691725   -0.1704334 
   0.010552626     0.8722159   -0.3163579     0.0003499   -0.0009722    -0.0000790    0.0001809     0.9667920   -0.1714878 
   0.010652651     0.8892711   -0.3120027     0.0010950    0.0008062    -0.0000010   -0.0006652     0.9682218   -0.1754989 
   0.010752676     0.8736358   -0.3268272     0.0002724   -0.0002894    -0.0002182   -0.0001371     0.9681622   -0.1729656 
   0.010852701     0.8799506   -0.2985240    -0.0009921   -0.0009404    -0.0001577   -0.0002118     0.9678744   -0.1720391 
   0.010952726     0.8875288   -0.3273256    -0.0004563    0.0002764    -0.0003578   -0.0000242     0.9624165   -0.1811389 
   0.011052751     0.8797424   -0.3284914     0.0001093    0.0011197     0.0001025    0.0001039     0.9665363   -0.1773412 
   0.011152776     0.8972379   -0.3253891     0.0007563    0.0001969    -0.0002032   -0.0000830     0.9638302   -0.1781992 
   0.011252801     0.8816744   -0.3364032    -0.0011864    0.0000082     0.0003332    0.0002319     0.9645717   -0.1809930 
   0.011352826     0.8795635   -0.3546011     0.0008014   -0.0000283     0.0003657   -0.0004497     0.9648796   -0.1829877 
   0.011452851     0.8635384   -0.3289278     0.0002094   -0.0005760    -0.0002669    0.0000150     0.9643907   -0.1855136 
   0.011552876     0.8614412   -0.3352017     0.0002050    0.0002540    -0.0001748   -0.0001236     0.9665505   -0.1877228 
   0.011652901     0.8571424   -0.3567314     0.0005548   -0.0004098     0.0000743   -0.0000962     0.9620497   -0.1866029 
   0.011752926     0.8544644   -0.3334865     0.0005607    0.0006957     0.0003108    0.0000375     0.9614938   -0.1862143 
   0.011852951     0.8567579   -0.3441983    -0.0001199    0.0012049    -0.0001304    0.0003946     0.9636188   -0.1885209 
   0.011952976     0.8520358   -0.3396794     0.0003009    0.0001283    -0.0001147    0.0002318     0.9611007   -0.1916221 
   0.012053002     0.8454725   -0.3543802     0.0003774   -0.0005916     0.0001124   -0.0000293     0.9587546   -0.1935902 
   0.012153027     0.8610452   -0.3619846    -0.0009551   -0.0000370     0.0000298    0.0000429     0.9588932   -0.1973493 
   0.012253052     0.8420717   -0.3516197    -0.0006825    0.0000226    -0.0000487    0.0000584     0.9621134   -0.1967483 
   0.012353077     0.8418781   -0.3517098     0.0006023    0.0002893     0.0004436   -0.0000717     0.9578162   -0.1965765 
   0.012453102     0.8607765   -0.3509924    -0.0001999   -0.0000849     0.0003702    0.0000197     0.9599618   -0.2025661 
   0.012553127     0.8362098   -0.3759847     0.0002847   -0.0002169    -0.0002151   -0.0002255     0.9558077   -0.2011237 
   0.012653152     0.8552461   -0.3512545    -0.0000757    0.0005009    -0.0000319    0.0003458     0.9567137   -0.2041904 
   0.012753177     0.8308098   -0.3598067    -0.0008433    0.0003875    -0.0000900    0.0000389     0.9538469   -0.2015156 
   0.012853202     0.8436186   -0.3469173     0.0000986   -0.0011888    -0.0001473    0.0002477     0.9517962   -0.2073356 
   0.012953227     0.8395011   -0.3489434    -0.0001198    0.0005657     0.0005697   -0.0001963     0.9574491   -0.2041041 
   0.013053252     0.8238342   -0.3766769     0.0007251   -0.0013683    -0.0002764    0.0002499     0.9535529   -0.2051861 
   0.013153277     0.8397271   -0.3699026    -0.0005981   -0.0001992    -0.0001522   -0.0000419     0.9524733   -0.2111396 
   0.013253302     0.8297642   -0.3573631    -0.0003480   -0.0001138    -0.0002904    0.0001018     0.9527556   -0.2049958 
   0.013353327     0.8238918   -0.3728781     0.0003927   -0.0001618    -0.0002237    0.0002024     0.9496410   -0.2129142 
   0.013453352     0.8414866   -0.3536875     0.0005887   -0.0004414     0.0001716    0.0001277     0.9526753   -0.2133823 
   0.013553377     0.8138891   -0.3761258    -0.0007413   -0.0005405     0.0000383    0.0002299     0.9511997   -0.2145953 
   0.013653402     0.8176326   -0.3704876    -0.0002433    0.0002411     0.0003607    0.0001728     0.9492658   -0.2170161 
   0.013753427     0.8251471   -0.3790750     0.0001177   -0.0006723     0.0000665   -0.0001167     0.9472614   -0.2184313 
   0.013853452     0.8140368   -0.3886430     0.0002358    0.0007863    -0.0000782   -0.0002634     0.9502011   -0.2142799 
   0.013953477     0.8120202   -0.3778001    -0.0007895    0.0010122    -0.0002621   -0.0001315     0.9521502   -0.2188967 
   0.014053502     0.8295062   -0.3907813     0.0004775   -0.0003742    -0.0002981   -0.0000408     0.9480610   -0.2195171 
   0.014153527     0.8207371   -0.3797039     0.0001664    0.0001405     0.0002216   -0.0000861     0.9504400   -0.2224466 
   0.014253552     0.8160765   -0.3848974    -0.0002471    0.0004048    -0.0001470   -0.0002458     0.9470190   -0.2232121 
   0.014353577     0.8080860   -0.3870862     0.0005404   -0.0000798     0.0001466    0.0002348     0.9441373   -0.2259105 
   0.014453602     0.7885714   -0.3906768     0.0000059    0.0001623     0.0000037   -0.0001295     0.9464164   -0.2254896 
   0.014553627     0.8061117   -0.3956640    -0.0001124    0.0004001    -0.0001849   -0.0000713     0.9476434   -0.2284152 
   0.014653652     0.8080390   -0.3915593     0.0004424    0.0003603     0.0000896   -0.0001752     0.9407050   -0.2290277 
   0.014753677     0.7927852   -0.3948626    -0.0001103    0.0002582     0.0000527   -0.0000262     0.9428310   -0.2286756 
   0.014853702     0.8036384   -0.3867449    -0.0003103   -0.0004011     0.0001122    0.0001525     0.9434522   -0.2294605 
   0.014953727     0.7877535   -0.4084126     0.0004129    0.0006695     0.0002184    0.0000658     0.9419832   -0.2323626 
   0.015053752     0.7895464   -0.3920560     0.0003216    0.0000380    -0.0002597   -0.0000821     0.9420477   -0.2358137 
   0.015153777     0.7941798   -0.4036333    -0.0002706    0.0003390    -0.0002044    0.0000960     0.9441417   -0.2347500 
   0.015253802     0.7783692   -0.4029253     0.0007232    0.0004684     0.0000021   -0.0001263     0.9431669   -0.2386181 
   0.015353827     0.7932220   -0.4065870     0.0004030   -0.0002092     0.0000075   -0.0002623     0.9406253   -0.2389958 
   0.015453852     0.7878365   -0.4073337    -0.0000526   -0.0002130     0.0004304    0.0001104     0.9404046   -0.2426349 
   0.015553877     0.7849778   -0.4101469     0.0003578   -0.0002602    -0.0000641   -0.0000058     0.9383988   -0.2443077 
   0.015653902     0.7741385   -0.4051758    -0.0007137    0.0003340     0.0002792   -0.0001370     0.9396603   -0.2442167 
