! 26-Feb-26 10:36:53 AM
! E:\VNA_MEASUREMENTS\SPDT1\SPDT1_T1_RF2_0.S2P
! CHANNEL.1
! TR.MEASUREMENT
! CORRECTED.DATA
# GHZ S RI R 50.0
! FREQ.GHZ         S11RE         S11IM         S21RE         S21IM         S12RE         S12IM         S22RE         S22IM         
!; PortSelection: Port_12
   0.000050000    -0.3082880   -1.1547120    -0.0045276    0.9205728     0.0073086   -0.0048797     0.9947820   -0.0417933 
   0.000150025     0.0210377    0.1193532    -1.3879570   -0.0414776    -0.0004502   -0.0015258     0.9993941    0.0002647 
   0.000250050    -0.5146571   -0.1713113    -0.0013929    0.0001313     0.0005062   -0.0002259     1.0003820   -0.0024842 
   0.000350075     0.9958253   -0.0737912     0.0021410   -0.0137552    -0.0004755   -0.0004550     0.9827480   -0.0141244 
   0.000450100     1.0204370   -0.0378412    -0.0057765   -0.0101920    -0.0013068   -0.0004167     0.9925327    0.0018659 
   0.000550125     0.9856313    0.0336054    -0.0018173   -0.0128543    -0.0016157   -0.0011805     0.9953955   -0.0101467 
   0.000650150     0.9797016   -0.0022561    -0.0084722   -0.0113800     0.0007451   -0.0005193     0.9989025   -0.0242769 
   0.000750175     1.0577720   -0.0870798    -0.0091467   -0.0113455     0.0012678   -0.0000831     0.9962258   -0.0151336 
   0.000850200     0.9866933   -0.0794932    -0.0057453   -0.0072918    -0.0008823   -0.0001491     0.9970727   -0.0115985 
   0.000950225     1.0000360   -0.0540916    -0.0075131   -0.0097481     0.0006000    0.0004865     0.9909106   -0.0171015 
   0.001050250     0.9700341   -0.0683475    -0.0091430   -0.0056538     0.0006188    0.0000859     0.9903666   -0.0135700 
   0.001150275     0.9975424   -0.0219106    -0.0119794   -0.0034010     0.0000023    0.0001057     0.9822696   -0.0180106 
   0.001250300     1.0228940   -0.0530555    -0.0119375   -0.0044446     0.0000458   -0.0004063     0.9945061   -0.0280699 
   0.001350325     1.0155560   -0.1023897    -0.0120692   -0.0042467    -0.0008982   -0.0004090     0.9867685   -0.0231554 
   0.001450350     1.0036480   -0.0680145    -0.0097756   -0.0038311     0.0000971    0.0000006     0.9930556   -0.0216566 
   0.001550375     0.9347647   -0.0997634    -0.0061372   -0.0009780     0.0000192   -0.0010075     0.9992567   -0.0249507 
   0.001650400     1.0208930    0.0062059    -0.0076525   -0.0003215     0.0002285   -0.0000396     0.9887301   -0.0258455 
   0.001750425     0.9963261   -0.0505032    -0.0077696    0.0009793    -0.0007796    0.0000495     0.9986103   -0.0255795 
   0.001850450     0.9356424   -0.0654038    -0.0094763    0.0011554     0.0001971    0.0004614     0.9914741   -0.0267126 
   0.001950475     1.0237180   -0.0389053    -0.0064838    0.0001516     0.0015268    0.0000795     0.9976990   -0.0360147 
   0.002050500     0.9554938   -0.0522377    -0.0068786   -0.0001931     0.0000998   -0.0002700     0.9935728   -0.0420386 
   0.002150525     0.9729261   -0.0657197    -0.0065315    0.0025100    -0.0004006    0.0000336     0.9921712   -0.0376617 
   0.002250550     0.9956532   -0.0799920    -0.0080773    0.0001339     0.0011435   -0.0006283     0.9919177   -0.0362894 
   0.002350575     0.9505889   -0.1173476    -0.0047886    0.0025008    -0.0001531   -0.0010469     0.9915611   -0.0390902 
   0.002450600     0.9879025   -0.0872827    -0.0048732    0.0034144    -0.0004759    0.0004229     0.9990962   -0.0445491 
   0.002550625     0.9601602   -0.0939560    -0.0022363    0.0030102     0.0004752    0.0001504     0.9978526   -0.0423421 
   0.002650650     1.0118530   -0.0932664    -0.0044354    0.0014774     0.0000925    0.0001396     0.9985498   -0.0505906 
   0.002750675     1.0156710   -0.0365384    -0.0021235    0.0047037    -0.0005854    0.0003580     0.9919934   -0.0450998 
   0.002850700     1.0085320   -0.0896472    -0.0054875    0.0017337     0.0005217   -0.0002919     0.9929558   -0.0480321 
   0.002950725     0.9540440   -0.0816931    -0.0022896    0.0048759    -0.0002529   -0.0005680     0.9963795   -0.0476617 
   0.003050750     0.9644520   -0.0921111     0.0005399    0.0039960     0.0000021    0.0005088     0.9979801   -0.0465009 
   0.003150775     0.9744706   -0.1408145    -0.0061861    0.0045404     0.0002353    0.0001952     0.9933274   -0.0522816 
   0.003250800     0.9864786   -0.1068826    -0.0025479    0.0013760    -0.0005380    0.0001303     0.9904519   -0.0497834 
   0.003350825     0.9707706   -0.1089733    -0.0054827    0.0021592     0.0003335   -0.0004953     0.9885474   -0.0524998 
   0.003450850     0.9871148   -0.1305468    -0.0037445    0.0040717    -0.0004566   -0.0004340     0.9903929   -0.0580746 
   0.003550875     0.9290344   -0.1350637    -0.0018748    0.0014544    -0.0000670   -0.0003185     0.9884454   -0.0598659 
   0.003650900     0.9982825   -0.1143932     0.0001362    0.0052887     0.0000559    0.0002241     0.9921036   -0.0653688 
   0.003750925     0.9713688   -0.1418865    -0.0010077    0.0003046    -0.0001566   -0.0008723     0.9882374   -0.0665128 
   0.003850950     0.9442443   -0.1431130    -0.0019195    0.0033648     0.0004230   -0.0003940     0.9916688   -0.0673491 
   0.003950975     0.9872686   -0.1266087    -0.0016445    0.0017310    -0.0003175    0.0000648     0.9882139   -0.0673460 
   0.004051001     0.9439818   -0.1618245    -0.0005405    0.0023371    -0.0001556    0.0003347     0.9846962   -0.0657783 
   0.004151026     1.0186140   -0.1541450    -0.0011853    0.0037006    -0.0001682    0.0001047     0.9916112   -0.0672928 
   0.004251051     0.9931321   -0.1157857    -0.0023917    0.0029146    -0.0000813    0.0002585     0.9920827   -0.0751643 
   0.004351076     0.9487904   -0.1131030    -0.0037912    0.0032073     0.0001497    0.0005970     0.9880378   -0.0732855 
   0.004451101     0.9752167   -0.1662918    -0.0021251   -0.0001885    -0.0005106    0.0004832     0.9837109   -0.0708643 
   0.004551126     0.9940784   -0.1331150    -0.0004623    0.0035336    -0.0002744    0.0013058     0.9884175   -0.0706007 
   0.004651151     0.9595398   -0.1284983     0.0001965   -0.0006940     0.0001869    0.0004277     0.9929069   -0.0780327 
   0.004751176     0.9529712   -0.1790693     0.0001532   -0.0009857     0.0002537    0.0004166     0.9883027   -0.0820768 
   0.004851201     0.9076778   -0.1437691    -0.0008743    0.0013048    -0.0008313    0.0003410     0.9862098   -0.0803548 
   0.004951226     0.9601047   -0.1522111     0.0011846    0.0011791    -0.0001014    0.0001805     0.9883493   -0.0772096 
   0.005051251     0.9701009   -0.1576192     0.0022676    0.0010642     0.0004500    0.0002573     0.9868453   -0.0814245 
   0.005151276     0.9773340   -0.1491795    -0.0013632    0.0002206    -0.0003865   -0.0006206     0.9867703   -0.0825977 
   0.005251301     0.9476694   -0.1514481    -0.0009965    0.0012461    -0.0000305   -0.0000154     0.9845982   -0.0844281 
   0.005351326     0.9541572   -0.1258354     0.0011714    0.0021514     0.0001800   -0.0000066     0.9924793   -0.0874026 
   0.005451351     0.9609873   -0.1629715    -0.0008034    0.0000468    -0.0002359   -0.0002406     0.9874715   -0.0937081 
   0.005551376     0.9817733   -0.1797151     0.0001546    0.0036393    -0.0009747    0.0003530     0.9859063   -0.0845619 
   0.005651401     0.9599223   -0.1774714     0.0004116   -0.0007615    -0.0001159    0.0001571     0.9916560   -0.0974451 
   0.005751426     0.9272718   -0.1745701    -0.0015632    0.0006086    -0.0005090   -0.0008259     0.9854306   -0.0946516 
   0.005851451     0.9662580   -0.2016229     0.0004412    0.0027129     0.0002562    0.0001202     0.9860055   -0.0954852 
   0.005951476     0.9339770   -0.1914401    -0.0024170    0.0001702    -0.0001546    0.0000028     0.9866413   -0.0966681 
   0.006051501     0.9304208   -0.1949831     0.0016791    0.0005951    -0.0002508   -0.0001769     0.9879452   -0.0971270 
   0.006151526     0.9408330   -0.2344063     0.0009647    0.0000338     0.0004763    0.0001793     0.9833340   -0.1014074 
   0.006251551     0.9621683   -0.1670866    -0.0000118   -0.0007736    -0.0004050    0.0007311     0.9884719   -0.1058328 
   0.006351576     0.9472267   -0.2247356    -0.0004160    0.0020162    -0.0001319   -0.0002241     0.9829785   -0.1058814 
   0.006451601     0.9537344   -0.1804017    -0.0013984   -0.0000017    -0.0000610   -0.0005375     0.9844897   -0.1122118 
   0.006551626     0.9309961   -0.2201487     0.0007375    0.0006585     0.0002245    0.0004692     0.9818819   -0.1017910 
   0.006651651     0.9340523   -0.2227304     0.0002757   -0.0005799     0.0000876   -0.0001791     0.9809288   -0.1114034 
   0.006751676     0.9303225   -0.2416309     0.0000838    0.0015238     0.0002907    0.0002454     0.9863580   -0.1065399 
   0.006851701     0.9622703   -0.2443527     0.0017553    0.0016258    -0.0000576   -0.0001019     0.9858181   -0.1170855 
   0.006951726     0.9285510   -0.2368028    -0.0015571   -0.0000357    -0.0000260   -0.0000299     0.9826745   -0.1098517 
   0.007051751     0.9328126   -0.2189040    -0.0000814   -0.0000647    -0.0000532    0.0004743     0.9794009   -0.1187663 
   0.007151776     0.9096089   -0.2252976    -0.0007852   -0.0009560     0.0002300   -0.0001100     0.9807361   -0.1197894 
   0.007251801     0.9449446   -0.2022511    -0.0009859    0.0008518    -0.0002440    0.0003917     0.9811918   -0.1232388 
   0.007351826     0.9312823   -0.2320058    -0.0005685   -0.0007191     0.0001349   -0.0002276     0.9791879   -0.1252285 
   0.007451851     0.9259146   -0.2469552     0.0012319    0.0003676    -0.0002965    0.0001700     0.9791877   -0.1262295 
   0.007551876     0.9322282   -0.2318839    -0.0000762    0.0007699     0.0001806   -0.0000723     0.9833541   -0.1186739 
   0.007651901     0.9442486   -0.2393477    -0.0003871    0.0011130    -0.0000697   -0.0000371     0.9797822   -0.1254919 
   0.007751926     0.9292097   -0.2407191     0.0004674   -0.0019199     0.0001698   -0.0002738     0.9779561   -0.1266015 
   0.007851951     0.9243761   -0.2471863     0.0009273    0.0006465     0.0003465    0.0004112     0.9796149   -0.1263193 
   0.007951976     0.9305803   -0.2675022     0.0006643   -0.0002642     0.0003752    0.0002820     0.9796017   -0.1314085 
   0.008052001     0.9188355   -0.2580693     0.0008249    0.0004741     0.0002965   -0.0001593     0.9759806   -0.1347405 
   0.008152026     0.9219046   -0.2636786     0.0004212   -0.0002089     0.0003758   -0.0005187     0.9828009   -0.1310612 
   0.008252051     0.9028218   -0.2466890    -0.0007094   -0.0001102     0.0003376    0.0000835     0.9744635   -0.1359408 
   0.008352076     0.9231802   -0.2665356     0.0010751   -0.0002764    -0.0001905    0.0001687     0.9794461   -0.1374417 
   0.008452101     0.9343624   -0.2373607    -0.0009113    0.0014328     0.0000737    0.0001751     0.9789073   -0.1369349 
   0.008552126     0.9226865   -0.2861292    -0.0004564    0.0017528    -0.0001590   -0.0002975     0.9744200   -0.1393006 
   0.008652151     0.9171671   -0.2575190    -0.0004143   -0.0001353    -0.0002958   -0.0000314     0.9775581   -0.1409565 
   0.008752176     0.9263164   -0.2533722     0.0004237   -0.0005160     0.0002775    0.0000463     0.9775995   -0.1442314 
   0.008852201     0.8992152   -0.2544346    -0.0014499    0.0008288     0.0003438    0.0003923     0.9767791   -0.1429100 
   0.008952226     0.9307108   -0.2635639    -0.0009056   -0.0003238    -0.0000816   -0.0002770     0.9744967   -0.1445218 
   0.009052251     0.9220193   -0.2683939     0.0009629    0.0007622     0.0000915   -0.0002005     0.9772356   -0.1492528 
   0.009152276     0.9155913   -0.2766117     0.0013567    0.0008134     0.0001087    0.0003127     0.9730986   -0.1527644 
   0.009252301     0.8990490   -0.2829803     0.0001238    0.0000706     0.0000167   -0.0001833     0.9753681   -0.1521645 
   0.009352326     0.9065478   -0.2879989     0.0007909   -0.0008524     0.0001068   -0.0001681     0.9699619   -0.1522324 
   0.009452351     0.9192853   -0.2900555    -0.0004338   -0.0008160     0.0000788   -0.0000553     0.9725768   -0.1531331 
   0.009552376     0.8934826   -0.2900264     0.0004139    0.0004629     0.0001681    0.0002572     0.9701620   -0.1536962 
   0.009652401     0.8923799   -0.2815849    -0.0017257    0.0014465     0.0002712    0.0003738     0.9709949   -0.1549987 
   0.009752426     0.8931502   -0.2925475    -0.0010044   -0.0002683    -0.0000626   -0.0001899     0.9718864   -0.1555801 
   0.009852451     0.8955888   -0.3092516    -0.0002321   -0.0009410    -0.0000211   -0.0001829     0.9717208   -0.1569938 
   0.009952476     0.8966665   -0.3020879    -0.0001209    0.0004921    -0.0001497    0.0001127     0.9679348   -0.1587291 
   0.010052501     0.8963391   -0.2970761     0.0006609   -0.0002407     0.0001127   -0.0002006     0.9677523   -0.1561995 
   0.010152526     0.8873484   -0.2782289    -0.0000271    0.0004910     0.0000301    0.0003573     0.9664317   -0.1613092 
   0.010252551     0.8891271   -0.3140826     0.0007814    0.0014940    -0.0003199    0.0000444     0.9741955   -0.1628644 
   0.010352576     0.9043671   -0.3244744     0.0009527    0.0004113     0.0001000    0.0002098     0.9686893   -0.1657111 
   0.010452601     0.8974618   -0.2883735    -0.0007104   -0.0006607    -0.0001217    0.0000474     0.9660167   -0.1689864 
   0.010552626     0.8656271   -0.3149332     0.0002760   -0.0011100     0.0003771   -0.0000540     0.9684603   -0.1711947 
   0.010652651     0.8799599   -0.3168913     0.0005989    0.0001778     0.0000985    0.0000589     0.9665018   -0.1739384 
   0.010752676     0.8677735   -0.3283817     0.0013526    0.0000861     0.0003206    0.0000020     0.9642361   -0.1704376 
   0.010852701     0.8893631   -0.3051963     0.0001415   -0.0005315     0.0005295   -0.0000091     0.9685934   -0.1724617 
   0.010952726     0.8860849   -0.3093661     0.0009534   -0.0002509     0.0002652   -0.0000785     0.9650268   -0.1808306 
   0.011052751     0.8871861   -0.3354710    -0.0001507    0.0000678     0.0002188   -0.0000460     0.9685372   -0.1776104 
   0.011152776     0.8737647   -0.3262648    -0.0006043    0.0007479     0.0000697    0.0001905     0.9650234   -0.1783443 
   0.011252801     0.8793864   -0.3436356    -0.0003551   -0.0003150     0.0002155    0.0001809     0.9613170   -0.1802834 
   0.011352826     0.8687815   -0.3513392     0.0012678   -0.0012108     0.0001887   -0.0000480     0.9656551   -0.1808036 
   0.011452851     0.8561421   -0.3394564    -0.0008729    0.0006830     0.0000731   -0.0001963     0.9601863   -0.1847566 
   0.011552876     0.8550527   -0.3481984    -0.0002544    0.0010112     0.0003910   -0.0002337     0.9672661   -0.1865911 
   0.011652901     0.8657570   -0.3452678    -0.0002839    0.0000982     0.0000179   -0.0003058     0.9651650   -0.1860630 
   0.011752926     0.8429118   -0.3350332    -0.0000622    0.0012470     0.0002421   -0.0000387     0.9628926   -0.1868413 
   0.011852951     0.8626401   -0.3472414    -0.0004616    0.0006357     0.0002001    0.0006479     0.9649762   -0.1858145 
   0.011952976     0.8528260   -0.3357217    -0.0007452   -0.0000283    -0.0000834   -0.0000841     0.9609129   -0.1913430 
   0.012053002     0.8552487   -0.3668775     0.0013442    0.0001663     0.0002914    0.0000159     0.9605019   -0.1904554 
   0.012153027     0.8473353   -0.3626791     0.0001145   -0.0006389    -0.0005144   -0.0000220     0.9565632   -0.1955346 
   0.012253052     0.8357294   -0.3470954     0.0000031    0.0007385     0.0001135    0.0000002     0.9635170   -0.1955800 
   0.012353077     0.8532740   -0.3560281     0.0003600    0.0001488     0.0000677    0.0003082     0.9594875   -0.1947289 
   0.012453102     0.8488303   -0.3578240     0.0002264    0.0012326     0.0003368    0.0001584     0.9599755   -0.2006781 
   0.012553127     0.8338898   -0.3681481     0.0002479   -0.0002858     0.0002881    0.0000347     0.9554483   -0.1961975 
   0.012653152     0.8495813   -0.3594772     0.0004298   -0.0000323    -0.0000497   -0.0001465     0.9578304   -0.2003360 
   0.012753177     0.8343723   -0.3564191     0.0002530   -0.0009800    -0.0000160    0.0001102     0.9564859   -0.2003172 
   0.012853202     0.8413891   -0.3451197     0.0004247    0.0000302     0.0001764   -0.0000256     0.9544151   -0.2070331 
   0.012953227     0.8370305   -0.3628555     0.0009808    0.0001609     0.0001097   -0.0001281     0.9580879   -0.2042932 
   0.013053252     0.8167955   -0.3693104     0.0015711    0.0004722    -0.0000809   -0.0000261     0.9580324   -0.2045543 
   0.013153277     0.8354847   -0.3605452     0.0004967    0.0004543    -0.0002804    0.0000099     0.9532291   -0.2087916 
   0.013253302     0.8183756   -0.3718576    -0.0001708    0.0005782    -0.0004207    0.0000574     0.9524491   -0.2087156 
   0.013353327     0.8184283   -0.3659497     0.0009373   -0.0012782     0.0000292    0.0000431     0.9531464   -0.2105131 
   0.013453352     0.8254342   -0.3633280    -0.0006637    0.0008170     0.0002952    0.0002934     0.9518444   -0.2116327 
   0.013553377     0.8168417   -0.3666534    -0.0000602   -0.0011682     0.0003656   -0.0000833     0.9501636   -0.2147221 
   0.013653402     0.8210029   -0.3851388     0.0005407    0.0011500    -0.0002026   -0.0001709     0.9495875   -0.2154885 
   0.013753427     0.8100082   -0.3838299    -0.0001652   -0.0000434    -0.0000692   -0.0003223     0.9503276   -0.2155484 
   0.013853452     0.8194375   -0.3934919     0.0003814   -0.0002491    -0.0002324   -0.0001206     0.9506471   -0.2129534 
   0.013953477     0.8037804   -0.3640217     0.0002596   -0.0001525    -0.0002237    0.0001907     0.9493755   -0.2191681 
   0.014053502     0.8160264   -0.3855710    -0.0002862   -0.0004595     0.0001078    0.0000156     0.9490307   -0.2192478 
   0.014153527     0.8104129   -0.3841629    -0.0004917    0.0003467     0.0000013    0.0000793     0.9484985   -0.2173297 
   0.014253552     0.8143063   -0.3844815    -0.0006549    0.0017214     0.0003044    0.0000846     0.9474263   -0.2221815 
   0.014353577     0.8039077   -0.3855771    -0.0003578    0.0007249     0.0000363   -0.0000509     0.9447731   -0.2250433 
   0.014453602     0.7895814   -0.3967368     0.0003424    0.0004716     0.0000570   -0.0001714     0.9476116   -0.2226674 
   0.014553627     0.7997196   -0.3875196    -0.0002401    0.0008937    -0.0002104   -0.0000249     0.9475876   -0.2276622 
   0.014653652     0.8017522   -0.3985250    -0.0017789    0.0006396     0.0000081   -0.0001657     0.9442934   -0.2288718 
   0.014753677     0.7939064   -0.3975806     0.0004329   -0.0004731     0.0000005    0.0001428     0.9420335   -0.2291017 
   0.014853702     0.8119211   -0.3864757    -0.0001855    0.0006877    -0.0000117    0.0001952     0.9446017   -0.2311872 
   0.014953727     0.7912979   -0.4074773     0.0000157   -0.0005861    -0.0000854   -0.0000860     0.9419318   -0.2332073 
   0.015053752     0.7912155   -0.3974165     0.0006396   -0.0007033     0.0000275    0.0000237     0.9416878   -0.2351852 
   0.015153777     0.7902610   -0.4071194     0.0001766    0.0000172     0.0001480    0.0003058     0.9426654   -0.2355900 
   0.015253802     0.7841641   -0.3975076    -0.0007262    0.0000172     0.0001247    0.0002200     0.9427274   -0.2369602 
   0.015353827     0.7807733   -0.4051369    -0.0001293    0.0001099     0.0003195   -0.0000438     0.9396592   -0.2402992 
   0.015453852     0.7905914   -0.4122486     0.0002648   -0.0002018    -0.0001414    0.0000677     0.9383278   -0.2419883 
   0.015553877     0.7730232   -0.4142575    -0.0001825   -0.0000478     0.0002000   -0.0001040     0.9387788   -0.2417126 
   0.015653902     0.7786003   -0.4116509    -0.0004023    0.0001151     0.0001579    0.0001786     0.9396878   -0.2433309 
