! 26-Feb-26 10:41:28 AM
! E:\VNA_MEASUREMENTS\SPDT1\SPDT1_T2_RF2_1.S2P
! CHANNEL.1
! TR.MEASUREMENT
! CORRECTED.DATA
# GHZ S RI R 50.0
! FREQ.GHZ         S11RE         S11IM         S21RE         S21IM         S12RE         S12IM         S22RE         S22IM         
!; PortSelection: Port_12
   0.000050000     0.1622963   -0.3796391    -0.3285270   -0.1263473     0.0053437    0.0022763     0.9665020    0.0225153 
   0.000150025    -0.3069564    0.1367283     0.4446869    0.6108385    -0.0007170    0.0030713     0.9902807    0.0012215 
   0.000250050    -0.5481223   -0.1478568    -0.0029566    0.0007627     0.0009677    0.0023126     1.0022090   -0.0104529 
   0.000350075     1.0326080   -0.0592705    -0.0009446   -0.0036927    -0.0013192    0.0080322     0.9871352   -0.0201304 
   0.000450100     0.9828878   -0.1123257    -0.0048206    0.0011805    -0.0005228    0.0131254     1.0007010   -0.0067904 
   0.000550125     0.9675475    0.0069456    -0.0079759    0.0059384    -0.0009305    0.0151651     0.9897009   -0.0224626 
   0.000650150     1.0145180   -0.0222092    -0.0064124    0.0111393    -0.0012657    0.0196952     1.0063480   -0.0326142 
   0.000750175     1.0059310   -0.0690281    -0.0111121    0.0133045    -0.0012351    0.0213629     0.9912350   -0.0395376 
   0.000850200     0.9989876   -0.0457371    -0.0083629    0.0149916    -0.0003186    0.0239685     0.9969851   -0.0295695 
   0.000950225     1.0243040   -0.0464905    -0.0086022    0.0247296    -0.0016125    0.0270456     0.9958643   -0.0381345 
   0.001050250     0.9719492   -0.0882977    -0.0077561    0.0254889     0.0003708    0.0291599     0.9972431   -0.0322912 
   0.001150275     0.9858662   -0.0173466    -0.0139930    0.0297173    -0.0016947    0.0330449     0.9873788   -0.0368867 
   0.001250300     0.9812760   -0.0411617    -0.0114922    0.0370624    -0.0009697    0.0363669     0.9954303   -0.0433873 
   0.001350325     0.9837789   -0.0745351    -0.0120031    0.0341179    -0.0001943    0.0398000     0.9858761   -0.0467661 
   0.001450350     0.9926687   -0.0813468    -0.0085386    0.0400407    -0.0007734    0.0423732     0.9934661   -0.0463707 
   0.001550375     0.9698172   -0.0749501    -0.0102977    0.0458728     0.0001150    0.0452971     0.9984942   -0.0482887 
   0.001650400     1.0099160   -0.0493612    -0.0117115    0.0509828    -0.0001013    0.0487537     0.9894727   -0.0506718 
   0.001750425     1.0519180   -0.0388720    -0.0065399    0.0522683    -0.0002615    0.0536572     0.9977522   -0.0574120 
   0.001850450     0.9732344   -0.0814740    -0.0051061    0.0543214    -0.0000583    0.0559010     0.9932578   -0.0643199 
   0.001950475     1.0155650   -0.0287156    -0.0074425    0.0616754    -0.0019297    0.0596036     0.9997599   -0.0544150 
   0.002050500     0.9929674   -0.0656991    -0.0043536    0.0625301     0.0010773    0.0619333     0.9980031   -0.0746219 
   0.002150525     1.0422840   -0.0221013    -0.0092938    0.0679153     0.0000243    0.0649699     0.9825493   -0.0719262 
   0.002250550     1.0242590   -0.0325947    -0.0032054    0.0701237     0.0000906    0.0693976     0.9877099   -0.0753928 
   0.002350575     0.9702354   -0.1387405     0.0011190    0.0733856     0.0040143    0.0695593     0.9903198   -0.0843566 
   0.002450600     0.9684419   -0.0813825    -0.0005530    0.0760643     0.0029100    0.0743001     0.9947563   -0.0868061 
   0.002550625     0.9614694   -0.0857718    -0.0009245    0.0771602     0.0019181    0.0756275     0.9876067   -0.0830503 
   0.002650650     1.0284600   -0.0825212    -0.0047563    0.0880963     0.0031927    0.0814143     0.9904012   -0.0932105 
   0.002750675     0.9614345   -0.0468730    -0.0012003    0.0832494     0.0025997    0.0822991     0.9873714   -0.0941330 
   0.002850700     0.9539543   -0.1258247     0.0015148    0.0856216     0.0056789    0.0853425     0.9828489   -0.0941242 
   0.002950725     0.9372208   -0.0993778     0.0021460    0.0883801     0.0041290    0.0876463     0.9910617   -0.0953191 
   0.003050750     0.9666125   -0.0994571     0.0012178    0.0954383     0.0059244    0.0912928     0.9866582   -0.1010715 
   0.003150775     0.9959918   -0.1181728     0.0045153    0.1007707     0.0061535    0.0956681     0.9791934   -0.1070290 
   0.003250800     0.9688755   -0.1256557     0.0058054    0.1003486     0.0071100    0.0968812     0.9811186   -0.1039073 
   0.003350825     0.9901301   -0.0873099     0.0046217    0.1096822     0.0074564    0.1028332     0.9882628   -0.1111169 
   0.003450850     0.9483647   -0.1327714     0.0064863    0.1061899     0.0089797    0.1021193     0.9750521   -0.1123272 
   0.003550875     0.9395148   -0.0910950     0.0037532    0.1077734     0.0080928    0.1057058     0.9788352   -0.1206815 
   0.003650900     0.9676997   -0.1001286     0.0078376    0.1127521     0.0090827    0.1102639     0.9802480   -0.1250266 
   0.003750925     0.9829215   -0.1287686     0.0100044    0.1161608     0.0105514    0.1127481     0.9774218   -0.1286779 
   0.003850950     0.9668435   -0.1305854     0.0114936    0.1140613     0.0112379    0.1148955     0.9797586   -0.1274648 
   0.003950975     0.9911749   -0.1113186     0.0091609    0.1203552     0.0118243    0.1209210     0.9779751   -0.1264491 
   0.004051001     0.9652847   -0.1494025     0.0115953    0.1219046     0.0129088    0.1205645     0.9745138   -0.1276303 
   0.004151026     1.0023720   -0.1367061     0.0113563    0.1267924     0.0147354    0.1273509     0.9820868   -0.1369647 
   0.004251051     1.0077460   -0.1476445     0.0151836    0.1348915     0.0163756    0.1306840     0.9788678   -0.1471772 
   0.004351076     0.9541313   -0.1089812     0.0124089    0.1307057     0.0145119    0.1297119     0.9689816   -0.1402557 
   0.004451101     0.9917163   -0.1643659     0.0174044    0.1364728     0.0176213    0.1344478     0.9719996   -0.1430019 
   0.004551126     0.9915209   -0.1589278     0.0198881    0.1427759     0.0183283    0.1370507     0.9699324   -0.1437191 
   0.004651151     0.9619693   -0.1488546     0.0223335    0.1417911     0.0176199    0.1396013     0.9736223   -0.1490069 
   0.004751176     0.9609684   -0.1476284     0.0170829    0.1439776     0.0182866    0.1425246     0.9708813   -0.1534241 
   0.004851201     0.9666404   -0.1699585     0.0203732    0.1470301     0.0212026    0.1443496     0.9664683   -0.1577655 
   0.004951226     0.9460232   -0.1566939     0.0233796    0.1473038     0.0208498    0.1479816     0.9702331   -0.1606704 
   0.005051251     1.0012180   -0.1725628     0.0256089    0.1538310     0.0222732    0.1533594     0.9660614   -0.1613895 
   0.005151276     0.9507843   -0.1377352     0.0173890    0.1561025     0.0217331    0.1539931     0.9657708   -0.1692439 
   0.005251301     0.9438110   -0.1659376     0.0247560    0.1560052     0.0229831    0.1551790     0.9612284   -0.1652631 
   0.005351326     0.9499357   -0.1509085     0.0240714    0.1635818     0.0242353    0.1590395     0.9634055   -0.1713736 
   0.005451351     0.9521155   -0.1480194     0.0212591    0.1584233     0.0258592    0.1625091     0.9647886   -0.1817050 
   0.005551376     0.9606968   -0.2012263     0.0327216    0.1635434     0.0281867    0.1655042     0.9612589   -0.1748398 
   0.005651401     0.9609424   -0.1863851     0.0300181    0.1684238     0.0296710    0.1679112     0.9621142   -0.1851324 
   0.005751426     0.9231678   -0.1666353     0.0300463    0.1643209     0.0289211    0.1698163     0.9598995   -0.1888087 
   0.005851451     0.9596937   -0.2059852     0.0323937    0.1745128     0.0325507    0.1745885     0.9613767   -0.1877860 
   0.005951476     0.9387019   -0.1794509     0.0316012    0.1734475     0.0315848    0.1764661     0.9590190   -0.1858933 
   0.006051501     0.9667691   -0.2003047     0.0409814    0.1856153     0.0352638    0.1806725     0.9589576   -0.1945927 
   0.006151526     0.9309311   -0.2143455     0.0378820    0.1768328     0.0370483    0.1806430     0.9578704   -0.1980813 
   0.006251551     0.9404080   -0.1784215     0.0334114    0.1795138     0.0346612    0.1851969     0.9567817   -0.2014281 
   0.006351576     0.9392166   -0.2075877     0.0374866    0.1843859     0.0371522    0.1861403     0.9498920   -0.2017092 
   0.006451601     0.9542142   -0.1946705     0.0343002    0.1901599     0.0401098    0.1912476     0.9496573   -0.2108625 
   0.006551626     0.9401262   -0.1942803     0.0366501    0.1919440     0.0385854    0.1939387     0.9510569   -0.2080721 
   0.006651651     0.9293200   -0.2042564     0.0378770    0.1895235     0.0411928    0.1948285     0.9486692   -0.2152864 
   0.006751676     0.9318002   -0.2406494     0.0458987    0.1987744     0.0452464    0.1967772     0.9497897   -0.2116159 
   0.006851701     0.9398829   -0.2286535     0.0447677    0.1987268     0.0448566    0.2007316     0.9440326   -0.2182335 
   0.006951726     0.9254229   -0.2254340     0.0443786    0.2031327     0.0446726    0.2026422     0.9433963   -0.2162652 
   0.007051751     0.9655604   -0.2135078     0.0480043    0.2110903     0.0472688    0.2088308     0.9419699   -0.2230427 
   0.007151776     0.9360794   -0.2282124     0.0477280    0.2109883     0.0481522    0.2084644     0.9364673   -0.2268952 
   0.007251801     0.9565306   -0.2108081     0.0473841    0.2169148     0.0488471    0.2139389     0.9374885   -0.2282873 
   0.007351826     0.9460605   -0.2399731     0.0536750    0.2195687     0.0530607    0.2155490     0.9437800   -0.2320310 
   0.007451851     0.9284260   -0.2245638     0.0495648    0.2152471     0.0509933    0.2162015     0.9353091   -0.2332517 
   0.007551876     0.9241128   -0.2390350     0.0556606    0.2210915     0.0533635    0.2191200     0.9351513   -0.2350891 
   0.007651901     0.9427651   -0.2674127     0.0607917    0.2259385     0.0584014    0.2213243     0.9348274   -0.2388225 
   0.007751926     0.9268475   -0.2513634     0.0588502    0.2246773     0.0586192    0.2245472     0.9335988   -0.2441194 
   0.007851951     0.9203652   -0.2504376     0.0622551    0.2253151     0.0585400    0.2268275     0.9334047   -0.2437901 
   0.007951976     0.9382696   -0.2787485     0.0635531    0.2327375     0.0642296    0.2289893     0.9276892   -0.2479092 
   0.008052001     0.9347390   -0.2575140     0.0631268    0.2352022     0.0619430    0.2326068     0.9262550   -0.2473113 
   0.008152026     0.9246461   -0.2769527     0.0663327    0.2325309     0.0658384    0.2328013     0.9272695   -0.2515199 
   0.008252051     0.9114017   -0.2416884     0.0593700    0.2368369     0.0630613    0.2360559     0.9236072   -0.2556067 
   0.008352076     0.9340484   -0.2581226     0.0655597    0.2445315     0.0669017    0.2418379     0.9265397   -0.2591557 
   0.008452101     0.9192753   -0.2559350     0.0674588    0.2430930     0.0674570    0.2426358     0.9231269   -0.2575966 
   0.008552126     0.9125615   -0.2554712     0.0700492    0.2405896     0.0690895    0.2431796     0.9183837   -0.2615739 
   0.008652151     0.9198312   -0.2730539     0.0772890    0.2459816     0.0723080    0.2471458     0.9187380   -0.2647657 
   0.008752176     0.9212271   -0.2603178     0.0718974    0.2513153     0.0734772    0.2498231     0.9181225   -0.2723011 
   0.008852201     0.8989872   -0.2482195     0.0720187    0.2473543     0.0718181    0.2520028     0.9164785   -0.2703316 
   0.008952226     0.9143523   -0.2625253     0.0741182    0.2528028     0.0739471    0.2565526     0.9152172   -0.2683993 
   0.009052251     0.9071671   -0.2670860     0.0797428    0.2550957     0.0770729    0.2565538     0.9120938   -0.2758370 
   0.009152276     0.9172741   -0.2735316     0.0798532    0.2614321     0.0801465    0.2589005     0.9073577   -0.2807833 
   0.009252301     0.9020779   -0.2722584     0.0805364    0.2597424     0.0792131    0.2602676     0.9064507   -0.2806839 
   0.009352326     0.9280325   -0.2751650     0.0810130    0.2699220     0.0821592    0.2676533     0.9080558   -0.2785866 
   0.009452351     0.9158968   -0.2884853     0.0891685    0.2672406     0.0849201    0.2664378     0.9026275   -0.2843491 
   0.009552376     0.9136645   -0.2896831     0.0851294    0.2714318     0.0866236    0.2680428     0.8998077   -0.2872483 
   0.009652401     0.8900490   -0.2802366     0.0846443    0.2666381     0.0862107    0.2688008     0.8985163   -0.2902511 
   0.009752426     0.8904528   -0.2863458     0.0888934    0.2697233     0.0879584    0.2711845     0.8986777   -0.2889835 
   0.009852451     0.9051930   -0.3138868     0.0958769    0.2761663     0.0944058    0.2741640     0.8978880   -0.2951545 
   0.009952476     0.8915127   -0.3033145     0.0946858    0.2756567     0.0933375    0.2750858     0.8942313   -0.2935050 
   0.010052501     0.8902769   -0.3023376     0.0950744    0.2773967     0.0932755    0.2786363     0.8932809   -0.2938166 
   0.010152526     0.8955342   -0.2867503     0.0936357    0.2786381     0.0945934    0.2830747     0.8901475   -0.2988144 
   0.010252551     0.8749282   -0.2979394     0.0986338    0.2790832     0.0972841    0.2830710     0.8927244   -0.3082759 
   0.010352576     0.9078090   -0.3189086     0.1008587    0.2897789     0.1037809    0.2872072     0.8858635   -0.3057214 
   0.010452601     0.8905432   -0.2976024     0.0982405    0.2886772     0.1017558    0.2885319     0.8840546   -0.3118144 
   0.010552626     0.8701693   -0.2962511     0.0975556    0.2905154     0.1026016    0.2888606     0.8815814   -0.3152934 
   0.010652651     0.8878229   -0.3125921     0.1091989    0.2920212     0.1079121    0.2919130     0.8843516   -0.3167051 
   0.010752676     0.8887031   -0.3291481     0.1105580    0.2951691     0.1096119    0.2929365     0.8783828   -0.3154311 
   0.010852701     0.8817196   -0.3134064     0.1127019    0.2959583     0.1093128    0.2985361     0.8829059   -0.3140560 
   0.010952726     0.8707998   -0.3181247     0.1121278    0.2972663     0.1100392    0.2968302     0.8740116   -0.3212742 
   0.011052751     0.8834978   -0.3325607     0.1140175    0.3030843     0.1157428    0.2995981     0.8730459   -0.3242934 
   0.011152776     0.8848757   -0.3213391     0.1134830    0.3042085     0.1166169    0.3040774     0.8718903   -0.3247391 
   0.011252801     0.8829675   -0.3380409     0.1173793    0.3032286     0.1209687    0.3044050     0.8702984   -0.3283616 
   0.011352826     0.8702930   -0.3457808     0.1205342    0.3068940     0.1206826    0.3052563     0.8701138   -0.3263189 
   0.011452851     0.8651826   -0.3281886     0.1204332    0.3059711     0.1213284    0.3083679     0.8672170   -0.3338257 
   0.011552876     0.8624051   -0.3353660     0.1248097    0.3095014     0.1240996    0.3095523     0.8654665   -0.3367520 
   0.011652901     0.8680760   -0.3427273     0.1229047    0.3123497     0.1264681    0.3124492     0.8637716   -0.3363912 
   0.011752926     0.8526134   -0.3320070     0.1208825    0.3123119     0.1248705    0.3137601     0.8632671   -0.3382873 
   0.011852951     0.8719255   -0.3417072     0.1267995    0.3208486     0.1309354    0.3187811     0.8622964   -0.3379485 
   0.011952976     0.8600600   -0.3376828     0.1323567    0.3189322     0.1308270    0.3176468     0.8554822   -0.3428358 
   0.012053002     0.8453925   -0.3593764     0.1341640    0.3150502     0.1330375    0.3158870     0.8545802   -0.3420560 
   0.012153027     0.8477005   -0.3389635     0.1290538    0.3163478     0.1346954    0.3218763     0.8545187   -0.3506117 
   0.012253052     0.8391932   -0.3548934     0.1356995    0.3215731     0.1353122    0.3212297     0.8523616   -0.3461156 
   0.012353077     0.8505938   -0.3484864     0.1375218    0.3240462     0.1377179    0.3248397     0.8514071   -0.3485664 
   0.012453102     0.8632624   -0.3498384     0.1442322    0.3313138     0.1439869    0.3285134     0.8481131   -0.3545116 
   0.012553127     0.8347488   -0.3713151     0.1430400    0.3214690     0.1432804    0.3250254     0.8440740   -0.3555064 
   0.012653152     0.8467166   -0.3461791     0.1438477    0.3299702     0.1439341    0.3308377     0.8401061   -0.3573438 
   0.012753177     0.8296026   -0.3631233     0.1475401    0.3253211     0.1455186    0.3303158     0.8421301   -0.3577122 
   0.012853202     0.8392500   -0.3479253     0.1493090    0.3342216     0.1480567    0.3350935     0.8381248   -0.3592851 
   0.012953227     0.8454565   -0.3515464     0.1474408    0.3376498     0.1505674    0.3389209     0.8394994   -0.3605852 
   0.013053252     0.8183586   -0.3628335     0.1470744    0.3293951     0.1505703    0.3380073     0.8395904   -0.3643984 
   0.013153277     0.8241441   -0.3667829     0.1565739    0.3333627     0.1548665    0.3370658     0.8353516   -0.3676651 
   0.013253302     0.8377223   -0.3564549     0.1557363    0.3418252     0.1578481    0.3441460     0.8315578   -0.3655514 
   0.013353327     0.8256590   -0.3679792     0.1596169    0.3393550     0.1594586    0.3420941     0.8294116   -0.3716540 
   0.013453352     0.8347620   -0.3600984     0.1581546    0.3430627     0.1612290    0.3479632     0.8294938   -0.3732989 
   0.013553377     0.8167517   -0.3590208     0.1592044    0.3455753     0.1603396    0.3470157     0.8255196   -0.3747325 
   0.013653402     0.8257657   -0.3768584     0.1634452    0.3461912     0.1651167    0.3459495     0.8219250   -0.3724107 
   0.013753427     0.8202710   -0.3754071     0.1663060    0.3464086     0.1659555    0.3488628     0.8202334   -0.3750477 
   0.013853452     0.8300521   -0.3896466     0.1719514    0.3523701     0.1718259    0.3499982     0.8206446   -0.3746611 
   0.013953477     0.8043507   -0.3636082     0.1648255    0.3506709     0.1683839    0.3545910     0.8190618   -0.3832426 
   0.014053502     0.8188945   -0.3839071     0.1726584    0.3536343     0.1749294    0.3532816     0.8151972   -0.3815582 
   0.014153527     0.8090071   -0.3835348     0.1741588    0.3514950     0.1744916    0.3561145     0.8139130   -0.3827658 
   0.014253552     0.8147315   -0.3869161     0.1829356    0.3611289     0.1797303    0.3579506     0.8143866   -0.3835000 
   0.014353577     0.8015064   -0.3890174     0.1779941    0.3559484     0.1778434    0.3541146     0.8065311   -0.3845910 
   0.014453602     0.7932792   -0.3879268     0.1822891    0.3530984     0.1784405    0.3591882     0.8075019   -0.3862458 
   0.014553627     0.8008138   -0.3780523     0.1774237    0.3593070     0.1813451    0.3642694     0.8061025   -0.3889151 
   0.014653652     0.8114846   -0.3963238     0.1834673    0.3662190     0.1874858    0.3627751     0.8022358   -0.3897506 
   0.014753677     0.7876332   -0.3968616     0.1908913    0.3591325     0.1845115    0.3626874     0.8010030   -0.3919056 
   0.014853702     0.8070431   -0.3897900     0.1908874    0.3609065     0.1908505    0.3687363     0.7998790   -0.3946479 
   0.014953727     0.7940405   -0.4131279     0.1978059    0.3656730     0.1937655    0.3628639     0.7971098   -0.3963797 
   0.015053752     0.7953253   -0.3972904     0.1880837    0.3634709     0.1959977    0.3683269     0.7941774   -0.4011660 
   0.015153777     0.7990218   -0.3995026     0.1957945    0.3702729     0.1992840    0.3711660     0.7942389   -0.3996639 
   0.015253802     0.7840874   -0.4040866     0.2019009    0.3681292     0.1974712    0.3703727     0.7911627   -0.4000389 
   0.015353827     0.7810278   -0.4115796     0.2103665    0.3683317     0.1999914    0.3684667     0.7880778   -0.4017078 
   0.015453852     0.7883748   -0.3933408     0.1986793    0.3756116     0.2019689    0.3753393     0.7829680   -0.4037456 
   0.015553877     0.7838018   -0.4109278     0.2109190    0.3732455     0.2053522    0.3753505     0.7858685   -0.4025756 
   0.015653902     0.7837974   -0.4142282     0.2110582    0.3751277     0.2100085    0.3749327     0.7824451   -0.4076401 
