! 26-Feb-26 10:40:04 AM
! E:\VNA_MEASUREMENTS\SPDT1\SPDT1_T1_RF2_1.S2P
! CHANNEL.1
! TR.MEASUREMENT
! CORRECTED.DATA
# GHZ S RI R 50.0
! FREQ.GHZ         S11RE         S11IM         S21RE         S21IM         S12RE         S12IM         S22RE         S22IM         
!; PortSelection: Port_12
   0.000050000     0.2969115    0.1583288     0.1649743    0.0513483    -0.0073190   -0.0047620     1.0020590    0.0335500 
   0.000150025    -0.0882699   -0.0128105    -0.1583681    0.3927692    -0.0009577   -0.0006026     0.9926427   -0.0001677 
   0.000250050    -0.1999980   -0.2002432     0.0009912   -0.0022545    -0.0002750    0.0004790     1.0055000    0.0005208 
   0.000350075     1.0570410   -0.0604777    -0.0032216   -0.0147763     0.0003983    0.0001666     0.9932925   -0.0132395 
   0.000450100     0.9403943   -0.0117763    -0.0023754   -0.0083129    -0.0001919   -0.0008804     0.9958535   -0.0058836 
   0.000550125     1.0033820   -0.0354776    -0.0039310   -0.0103748    -0.0007447    0.0016922     0.9954779   -0.0105266 
   0.000650150     1.0713590   -0.0467222    -0.0051118   -0.0148807    -0.0003630    0.0014239     0.9984784   -0.0141578 
   0.000750175     1.0349750   -0.0234907    -0.0097833   -0.0034510    -0.0000977   -0.0000910     0.9954541   -0.0156204 
   0.000850200     0.9571840   -0.1044508    -0.0114658   -0.0088234     0.0001988   -0.0001122     1.0031290    0.0004718 
   0.000950225     1.0402540   -0.0419038    -0.0073992   -0.0035455     0.0009508   -0.0010836     0.9938265   -0.0179316 
   0.001050250     1.0124660   -0.0222432    -0.0101319   -0.0014348     0.0004052   -0.0007143     0.9961969   -0.0102024 
   0.001150275     0.9951652   -0.0910604    -0.0073795   -0.0014080     0.0001323   -0.0004781     0.9843634   -0.0151840 
   0.001250300     0.9883620   -0.0265475    -0.0143679   -0.0094307     0.0006460   -0.0007099     0.9952437   -0.0232158 
   0.001350325     0.9785025   -0.1000140    -0.0132734   -0.0053924    -0.0006477   -0.0004649     0.9875259   -0.0297723 
   0.001450350     0.9879782   -0.0734516    -0.0067280   -0.0032459     0.0000601   -0.0003378     0.9898295   -0.0198575 
   0.001550375     0.9761146   -0.0504115    -0.0102283   -0.0023203     0.0008573    0.0000941     0.9953898   -0.0204017 
   0.001650400     1.0090370   -0.0632870    -0.0098752    0.0013078    -0.0002284    0.0002450     0.9809519   -0.0312262 
   0.001750425     0.9762874   -0.0655870    -0.0051061   -0.0015764    -0.0006121   -0.0004507     0.9948491   -0.0285874 
   0.001850450     0.9862676   -0.0733491    -0.0111088   -0.0001572    -0.0003446    0.0000265     0.9940022   -0.0341464 
   0.001950475     1.0509360   -0.0023484    -0.0102243    0.0032603    -0.0013475   -0.0000320     0.9950943   -0.0291586 
   0.002050500     0.9743452   -0.0212979    -0.0050524    0.0005382     0.0003095   -0.0004672     0.9922318   -0.0401348 
   0.002150525     1.0020280   -0.0583747    -0.0073038    0.0049480    -0.0007614   -0.0005681     0.9875189   -0.0417623 
   0.002250550     0.9909074   -0.0537153    -0.0079042    0.0043988     0.0001920   -0.0005121     0.9970442   -0.0371529 
   0.002350575     0.9662194   -0.0920347    -0.0047999    0.0013020    -0.0001947   -0.0004610     0.9936247   -0.0360282 
   0.002450600     0.9680845   -0.0905440    -0.0037425    0.0020970     0.0001608    0.0005216     1.0022490   -0.0420847 
   0.002550625     0.9783440   -0.0824670    -0.0046662    0.0091804    -0.0003831   -0.0001130     0.9963976   -0.0460028 
   0.002650650     0.9874170   -0.0946586    -0.0055849    0.0051682    -0.0001267   -0.0001095     0.9943932   -0.0541952 
   0.002750675     0.9671303   -0.0372829    -0.0034990    0.0003765    -0.0001796   -0.0001538     0.9927434   -0.0498136 
   0.002850700     0.9866077   -0.1046254    -0.0027826    0.0039004     0.0001687    0.0007521     0.9905871   -0.0440706 
   0.002950725     0.9581008   -0.0841413    -0.0040234    0.0052010     0.0004605   -0.0000113     0.9981642   -0.0419163 
   0.003050750     1.0014250   -0.0903969    -0.0043499    0.0027290     0.0002973   -0.0000706     0.9943268   -0.0574653 
   0.003150775     1.0015130   -0.1275781     0.0008021    0.0029849     0.0002636   -0.0000947     0.9862981   -0.0556538 
   0.003250800     0.9957644   -0.0550333    -0.0009966    0.0042206    -0.0001054    0.0001421     0.9951029   -0.0489751 
   0.003350825     0.9933677   -0.0708489    -0.0021387    0.0025722    -0.0001606   -0.0005485     0.9908354   -0.0609011 
   0.003450850     0.9643388   -0.1421181    -0.0000326   -0.0017006    -0.0002552   -0.0000865     0.9952664   -0.0640702 
   0.003550875     0.9625446   -0.1302668    -0.0039631    0.0041668    -0.0003895   -0.0003727     0.9940295   -0.0619472 
   0.003650900     0.9603812   -0.1005904     0.0005877    0.0025412    -0.0002870   -0.0003836     0.9913871   -0.0606309 
   0.003750925     0.9804441   -0.1208546    -0.0027048   -0.0016793     0.0005858    0.0001050     0.9856172   -0.0658269 
   0.003850950     0.9611132   -0.1450240     0.0002124    0.0018259     0.0001804   -0.0000770     0.9932707   -0.0601056 
   0.003950975     1.0110750   -0.1337421    -0.0012181    0.0041565     0.0009118   -0.0001949     0.9874534   -0.0660046 
   0.004051001     0.9561880   -0.1692665    -0.0009938    0.0018913     0.0004339   -0.0000708     0.9861162   -0.0633375 
   0.004151026     1.0024560   -0.1455250     0.0016620   -0.0011380     0.0006756   -0.0000760     0.9875929   -0.0721613 
   0.004251051     0.9770422   -0.1593184     0.0004465    0.0010994    -0.0001291   -0.0007688     0.9919670   -0.0703268 
   0.004351076     0.9648561   -0.1012203    -0.0016957    0.0026573    -0.0001169    0.0003384     0.9854179   -0.0742890 
   0.004451101     0.9926690   -0.1676756     0.0021312   -0.0002957    -0.0001848   -0.0004283     0.9869623   -0.0720225 
   0.004551126     0.9867210   -0.1614381    -0.0020330    0.0045227     0.0001349   -0.0002298     0.9946215   -0.0674648 
   0.004651151     0.9833379   -0.1691334    -0.0010695    0.0033675     0.0001436   -0.0002189     0.9929464   -0.0786167 
   0.004751176     0.9659593   -0.2072634    -0.0012197    0.0010835    -0.0003149    0.0002065     0.9879735   -0.0785367 
   0.004851201     0.9294056   -0.1396656     0.0014415   -0.0005528     0.0000626    0.0003886     0.9875286   -0.0793336 
   0.004951226     0.9592050   -0.1328568    -0.0013646    0.0009200     0.0001209   -0.0000749     0.9868149   -0.0815040 
   0.005051251     0.9665560   -0.1895417    -0.0011958    0.0007945     0.0000048    0.0004863     0.9859358   -0.0814733 
   0.005151276     0.9684680   -0.1382311    -0.0020111    0.0034875     0.0003609   -0.0004625     0.9883531   -0.0846936 
   0.005251301     0.9472883   -0.1532366    -0.0033493   -0.0008714    -0.0001928   -0.0002763     0.9880971   -0.0841674 
   0.005351326     0.9248062   -0.1622380     0.0025037    0.0001780    -0.0001113    0.0002612     0.9908280   -0.0848646 
   0.005451351     0.9674053   -0.1698961    -0.0016967   -0.0010064     0.0000841    0.0003279     0.9890301   -0.0900197 
   0.005551376     0.9730346   -0.2054841     0.0008716    0.0029153    -0.0005382   -0.0004660     0.9834211   -0.0884324 
   0.005651401     0.9444880   -0.1520917    -0.0007695    0.0006774    -0.0000285   -0.0003767     0.9829961   -0.0972220 
   0.005751426     0.9263513   -0.1790797    -0.0009151    0.0000007     0.0004325   -0.0002118     0.9837171   -0.0938854 
   0.005851451     0.9772996   -0.2220896    -0.0002920    0.0008793     0.0001284    0.0000935     0.9879407   -0.0973362 
   0.005951476     0.9679796   -0.1675982    -0.0000280    0.0016160    -0.0003303    0.0002710     0.9845831   -0.0984097 
   0.006051501     0.9405645   -0.2042847    -0.0005927   -0.0007021     0.0001273    0.0003784     0.9900080   -0.0968036 
   0.006151526     0.9418207   -0.2130567    -0.0002172   -0.0016314     0.0002680   -0.0006761     0.9859658   -0.1042613 
   0.006251551     0.9524406   -0.1864185     0.0012630    0.0017182     0.0007202    0.0000952     0.9831450   -0.1035786 
   0.006351576     0.9431622   -0.1991438     0.0002673   -0.0001969     0.0001316    0.0004921     0.9835579   -0.1013393 
   0.006451601     0.9421921   -0.1948514    -0.0001960    0.0019853    -0.0003728    0.0001554     0.9834324   -0.1091726 
   0.006551626     0.9232785   -0.2173396    -0.0031788    0.0001306    -0.0000296   -0.0001275     0.9841439   -0.1071924 
   0.006651651     0.9314780   -0.2279061    -0.0004138    0.0004167    -0.0001899    0.0001851     0.9842644   -0.1103897 
   0.006751676     0.9333957   -0.2208207    -0.0005080    0.0014760     0.0000966    0.0000851     0.9839703   -0.1090862 
   0.006851701     0.9722856   -0.2206296     0.0002218    0.0018693     0.0000827    0.0004675     0.9850403   -0.1163973 
   0.006951726     0.9261513   -0.2328478     0.0006830   -0.0004133    -0.0000235    0.0004545     0.9804175   -0.1111755 
   0.007051751     0.9288592   -0.2047087    -0.0020019   -0.0005175     0.0000298   -0.0000533     0.9807260   -0.1132812 
   0.007151776     0.9324138   -0.2122097    -0.0009040    0.0002866    -0.0003052   -0.0000174     0.9809090   -0.1200058 
   0.007251801     0.9429461   -0.2303043    -0.0008718    0.0004822     0.0004421    0.0004263     0.9812090   -0.1191796 
   0.007351826     0.9292237   -0.2393055     0.0003422    0.0010997     0.0000229    0.0001546     0.9850076   -0.1246818 
   0.007451851     0.9314317   -0.2206616    -0.0002530   -0.0007641    -0.0000155   -0.0000653     0.9763825   -0.1220008 
   0.007551876     0.9297533   -0.2319112    -0.0002264    0.0014436     0.0003107   -0.0002247     0.9820533   -0.1190693 
   0.007651901     0.9528530   -0.2538560     0.0009834    0.0012434    -0.0000134   -0.0001305     0.9792976   -0.1238432 
   0.007751926     0.9360381   -0.2473912    -0.0017806    0.0007828     0.0002615   -0.0000340     0.9799482   -0.1264050 
   0.007851951     0.9343270   -0.2625774    -0.0000270    0.0005870    -0.0001143   -0.0006360     0.9771463   -0.1247829 
   0.007951976     0.9287431   -0.2547911     0.0006224   -0.0004713     0.0000481    0.0003953     0.9739922   -0.1292695 
   0.008052001     0.9298142   -0.2379628     0.0017665    0.0006716     0.0000744    0.0002336     0.9767423   -0.1330441 
   0.008152026     0.9129160   -0.2694482     0.0006931   -0.0028018    -0.0004296   -0.0002007     0.9821329   -0.1330323 
   0.008252051     0.9113709   -0.2480682     0.0003333   -0.0018564     0.0000490    0.0002078     0.9750759   -0.1337653 
   0.008352076     0.9230977   -0.2481178     0.0003760   -0.0019454    -0.0000555    0.0005984     0.9774988   -0.1375149 
   0.008452101     0.9381936   -0.2581305    -0.0008389    0.0016247     0.0003317   -0.0004607     0.9789284   -0.1377678 
   0.008552126     0.9289008   -0.2604792     0.0004698    0.0006591    -0.0003115   -0.0001441     0.9757149   -0.1390411 
   0.008652151     0.9121898   -0.2606702    -0.0005409   -0.0002544    -0.0003335   -0.0000809     0.9745116   -0.1434635 
   0.008752176     0.9285789   -0.2539739    -0.0000145   -0.0001913     0.0000175    0.0000350     0.9780989   -0.1442060 
   0.008852201     0.8941544   -0.2598922     0.0000818   -0.0001629    -0.0004320    0.0002544     0.9699167   -0.1408613 
   0.008952226     0.9276198   -0.2784205    -0.0003309   -0.0006405    -0.0001008   -0.0003344     0.9780493   -0.1435098 
   0.009052251     0.9286858   -0.2695820    -0.0003612    0.0009082    -0.0002458   -0.0001790     0.9777741   -0.1418096 
   0.009152276     0.9048628   -0.2857585     0.0015336   -0.0008659     0.0004768   -0.0003691     0.9712321   -0.1499829 
   0.009252301     0.9048424   -0.2934208    -0.0000441   -0.0000242    -0.0000283   -0.0002758     0.9719473   -0.1512127 
   0.009352326     0.9210042   -0.2851989     0.0005117    0.0004097     0.0000466   -0.0001238     0.9704770   -0.1456320 
   0.009452351     0.9078096   -0.2829066     0.0001399   -0.0008975    -0.0002276   -0.0001024     0.9683228   -0.1517000 
   0.009552376     0.9216193   -0.2842066     0.0005797    0.0001877     0.0000865   -0.0001465     0.9710984   -0.1537512 
   0.009652401     0.8893799   -0.2786043     0.0021128   -0.0001145    -0.0000914   -0.0003283     0.9721532   -0.1557735 
   0.009752426     0.8902358   -0.2941118    -0.0003297    0.0009517     0.0000636    0.0003003     0.9722931   -0.1549140 
   0.009852451     0.8962729   -0.3102137     0.0001607   -0.0002064    -0.0000188    0.0004018     0.9716639   -0.1560899 
   0.009952476     0.9069155   -0.3036200    -0.0014353    0.0008914    -0.0000178   -0.0001480     0.9667066   -0.1615372 
   0.010052501     0.8937439   -0.2970870    -0.0007807    0.0001935    -0.0000809    0.0000893     0.9719345   -0.1574163 
   0.010152526     0.8777586   -0.2972261    -0.0004989    0.0000488     0.0001542    0.0000767     0.9626310   -0.1632811 
   0.010252551     0.8739541   -0.3012711    -0.0003446    0.0014726    -0.0001814    0.0000342     0.9683601   -0.1702703 
   0.010352576     0.9039294   -0.3115340    -0.0015127    0.0010401     0.0000549   -0.0001857     0.9660491   -0.1648375 
   0.010452601     0.8993478   -0.3032243     0.0002830   -0.0000883     0.0000150   -0.0002494     0.9701631   -0.1693898 
   0.010552626     0.8695424   -0.3151530    -0.0012784    0.0005884     0.0002887    0.0000478     0.9684699   -0.1699751 
   0.010652651     0.8952666   -0.3204364    -0.0000470   -0.0003661     0.0000827   -0.0004505     0.9689821   -0.1724662 
   0.010752676     0.8746481   -0.3357700     0.0005116    0.0011005     0.0000700    0.0002976     0.9642132   -0.1721639 
   0.010852701     0.8891794   -0.3122933     0.0004210   -0.0000322    -0.0000239    0.0003738     0.9680092   -0.1702339 
   0.010952726     0.8774096   -0.3121335     0.0002386   -0.0007948    -0.0000060    0.0001352     0.9638541   -0.1744554 
   0.011052751     0.8693132   -0.3498225    -0.0004034   -0.0003253    -0.0001125   -0.0002205     0.9648735   -0.1777251 
   0.011152776     0.8836746   -0.3127950     0.0004502    0.0002257    -0.0001802    0.0000043     0.9637823   -0.1787761 
   0.011252801     0.8708025   -0.3321946    -0.0002158   -0.0013395    -0.0002951   -0.0001195     0.9618303   -0.1777155 
   0.011352826     0.8702686   -0.3444742    -0.0013215    0.0013595    -0.0000878    0.0000969     0.9641791   -0.1773176 
   0.011452851     0.8715523   -0.3356850     0.0000556   -0.0003416     0.0000879   -0.0000709     0.9628242   -0.1839361 
   0.011552876     0.8635508   -0.3361508     0.0003309    0.0007748     0.0001068    0.0000000     0.9643520   -0.1872314 
   0.011652901     0.8609185   -0.3569589    -0.0006124    0.0013622     0.0000486   -0.0001238     0.9616162   -0.1876794 
   0.011752926     0.8521447   -0.3383748     0.0001867   -0.0011231     0.0002785   -0.0000961     0.9641176   -0.1873824 
   0.011852951     0.8669816   -0.3540881    -0.0001018    0.0008110    -0.0000748    0.0000477     0.9632627   -0.1853111 
   0.011952976     0.8586647   -0.3387527    -0.0004889   -0.0001188     0.0002806    0.0000939     0.9574460   -0.1904266 
   0.012053002     0.8473669   -0.3536294    -0.0006332    0.0004159     0.0000276    0.0001550     0.9583318   -0.1899909 
   0.012153027     0.8536552   -0.3723617     0.0002790    0.0010041     0.0000873    0.0000851     0.9623154   -0.1967524 
   0.012253052     0.8382447   -0.3493570    -0.0002192    0.0005146    -0.0001794   -0.0000795     0.9593976   -0.1963533 
   0.012353077     0.8557838   -0.3619090    -0.0007065    0.0002190     0.0000779   -0.0000900     0.9579118   -0.1939643 
   0.012453102     0.8487323   -0.3590962    -0.0010337    0.0009022     0.0004615    0.0003038     0.9596699   -0.2008838 
   0.012553127     0.8220161   -0.3676068    -0.0008284   -0.0003300     0.0002974    0.0000857     0.9520859   -0.2007836 
   0.012653152     0.8525577   -0.3525436     0.0009435    0.0007357     0.0003519    0.0001072     0.9575840   -0.2015781 
   0.012753177     0.8309629   -0.3640697    -0.0002929   -0.0007200     0.0000270   -0.0000933     0.9579698   -0.2040518 
   0.012853202     0.8374588   -0.3455569    -0.0010093    0.0003671    -0.0000090    0.0001640     0.9517449   -0.2060101 
   0.012953227     0.8397863   -0.3622538    -0.0010618   -0.0002828    -0.0001068   -0.0001074     0.9576611   -0.2043984 
   0.013053252     0.8233998   -0.3844429    -0.0004671   -0.0001010    -0.0000605   -0.0002473     0.9587647   -0.2012331 
   0.013153277     0.8232010   -0.3672449    -0.0007336   -0.0002064     0.0000130   -0.0001793     0.9567647   -0.2091606 
   0.013253302     0.8298820   -0.3736930     0.0000691   -0.0000144    -0.0000865    0.0001721     0.9516969   -0.2099825 
   0.013353327     0.8190430   -0.3674287     0.0004401    0.0003945     0.0001203   -0.0000979     0.9516248   -0.2138716 
   0.013453352     0.8358714   -0.3546509     0.0005005   -0.0009043     0.0005112    0.0000197     0.9533622   -0.2135117 
   0.013553377     0.8149372   -0.3752255    -0.0006322   -0.0002768     0.0001153   -0.0002004     0.9495618   -0.2159538 
   0.013653402     0.8108548   -0.3755077     0.0000214   -0.0004160     0.0000015    0.0002323     0.9502156   -0.2161721 
   0.013753427     0.8204859   -0.3869674    -0.0000394   -0.0000036     0.0000628   -0.0000784     0.9476650   -0.2182122 
   0.013853452     0.8132789   -0.3828266     0.0008729    0.0000582     0.0002611    0.0001834     0.9528264   -0.2164442 
   0.013953477     0.7998717   -0.3725267     0.0003920   -0.0002485    -0.0002373   -0.0000539     0.9500144   -0.2169758 
   0.014053502     0.8189394   -0.3887674    -0.0009110    0.0001365     0.0001118   -0.0001975     0.9475001   -0.2208129 
   0.014153527     0.8111583   -0.3848442    -0.0004652   -0.0008895     0.0003344    0.0001191     0.9504755   -0.2220523 
   0.014253552     0.8211863   -0.3938532     0.0002118    0.0004127    -0.0000694    0.0000972     0.9496455   -0.2211513 
   0.014353577     0.7982817   -0.3933134     0.0001834   -0.0004571     0.0000071    0.0000445     0.9451455   -0.2255231 
   0.014453602     0.7920676   -0.3918003     0.0009045    0.0005238     0.0000964   -0.0001190     0.9447111   -0.2218753 
   0.014553627     0.8001907   -0.3901749     0.0003658    0.0010986     0.0002067    0.0000436     0.9454482   -0.2248887 
   0.014653652     0.8033581   -0.3989631     0.0000388    0.0006407     0.0001341    0.0000098     0.9413400   -0.2277309 
   0.014753677     0.7968355   -0.3935880    -0.0005228    0.0002247    -0.0000346   -0.0001042     0.9412473   -0.2264372 
   0.014853702     0.8012334   -0.3842990    -0.0001051   -0.0001431     0.0002984   -0.0001191     0.9434409   -0.2313745 
   0.014953727     0.7856660   -0.4107299    -0.0007556    0.0004899     0.0002519   -0.0001172     0.9421009   -0.2311181 
   0.015053752     0.7912174   -0.4019017    -0.0002555    0.0010415     0.0000178   -0.0000542     0.9414529   -0.2350111 
   0.015153777     0.7923940   -0.4045052    -0.0003411    0.0002603    -0.0001270   -0.0000224     0.9440229   -0.2363664 
   0.015253802     0.7872793   -0.3999845    -0.0007010   -0.0006526    -0.0000150   -0.0001005     0.9402155   -0.2352174 
   0.015353827     0.7921699   -0.4087172    -0.0002222    0.0005179     0.0004319   -0.0001436     0.9419247   -0.2376365 
   0.015453852     0.7897397   -0.4110650     0.0013051   -0.0000114     0.0000398   -0.0000190     0.9366052   -0.2393991 
   0.015553877     0.7767454   -0.4135624     0.0002972    0.0004087     0.0000083   -0.0001677     0.9392938   -0.2404037 
   0.015653902     0.7715466   -0.4144923    -0.0006352    0.0000521    -0.0001798   -0.0001793     0.9417264   -0.2421913 
