! 26-Feb-26 10:37:53 AM
! E:\VNA_MEASUREMENTS\SPDT1\SPDT1_T2_RF2_0.S2P
! CHANNEL.1
! TR.MEASUREMENT
! CORRECTED.DATA
# GHZ S RI R 50.0
! FREQ.GHZ         S11RE         S11IM         S21RE         S21IM         S12RE         S12IM         S22RE         S22IM         
!; PortSelection: Port_12
   0.000050000    -0.1726082   -0.1133194     0.2752060    0.1500458     0.0040035   -0.0000829     0.9850425    0.0035903 
   0.000150025     0.1309797    0.2807441    -0.9347269   -0.4263781     0.0000745    0.0010861     0.9954545    0.0050746 
   0.000250050     0.1080595   -0.3549966    -0.0003053    0.0000724     0.0021124    0.0045064     1.0022570   -0.0141037 
   0.000350075     1.0318780   -0.0119174    -0.0095150    0.0031884    -0.0006670    0.0089486     0.9867827   -0.0168376 
   0.000450100     1.0420040   -0.0632595    -0.0037939    0.0026388     0.0000862    0.0128009     0.9877176   -0.0036899 
   0.000550125     0.9794303   -0.0729398    -0.0061885    0.0052378    -0.0011308    0.0155515     1.0037490   -0.0171263 
   0.000650150     0.9700003   -0.0496845    -0.0052161    0.0095712    -0.0018123    0.0176651     1.0143150   -0.0279469 
   0.000750175     0.9442528   -0.0487957    -0.0083369    0.0102522    -0.0008677    0.0207493     1.0069200   -0.0265782 
   0.000850200     0.9722371   -0.1212507    -0.0081413    0.0156975    -0.0002006    0.0242308     1.0018210   -0.0292803 
   0.000950225     1.0342840   -0.0225848    -0.0100012    0.0198455    -0.0016106    0.0276536     0.9957867   -0.0377676 
   0.001050250     0.9905400   -0.0229281    -0.0122719    0.0266565    -0.0008653    0.0300827     0.9906527   -0.0331363 
   0.001150275     1.0518160   -0.0540237    -0.0145225    0.0265133    -0.0022628    0.0344326     0.9912843   -0.0265492 
   0.001250300     0.9686875   -0.0304900    -0.0101926    0.0336155    -0.0007112    0.0353147     0.9931480   -0.0474262 
   0.001350325     0.9974338   -0.0711920    -0.0094493    0.0353761    -0.0011038    0.0398883     0.9831448   -0.0509650 
   0.001450350     0.9735414   -0.0800641    -0.0100177    0.0412791    -0.0000530    0.0421887     0.9918975   -0.0442988 
   0.001550375     1.0165570   -0.0831633    -0.0074560    0.0474502    -0.0002506    0.0468914     1.0023790   -0.0537245 
   0.001650400     0.9727524   -0.0180462    -0.0106315    0.0483321    -0.0009479    0.0492562     0.9890021   -0.0530435 
   0.001750425     0.9662827   -0.0788015    -0.0107399    0.0501524    -0.0002794    0.0513486     0.9916925   -0.0562338 
   0.001850450     0.9598411   -0.0547450    -0.0070850    0.0536264    -0.0000948    0.0544805     0.9885151   -0.0524884 
   0.001950475     1.0053220   -0.0228650    -0.0048686    0.0620031    -0.0005583    0.0590330     0.9926912   -0.0627867 
   0.002050500     0.9607102   -0.0529540    -0.0048166    0.0620548     0.0008343    0.0617509     0.9945121   -0.0752850 
   0.002150525     1.0270000   -0.0842312    -0.0001171    0.0628508     0.0011683    0.0656298     0.9869381   -0.0714065 
   0.002250550     0.9502192   -0.0688303    -0.0038343    0.0679209     0.0014062    0.0668806     0.9897249   -0.0716708 
   0.002350575     0.9664069   -0.1151359    -0.0031821    0.0739286     0.0028373    0.0705109     0.9902380   -0.0802664 
   0.002450600     0.9780986   -0.0660413    -0.0040727    0.0791233     0.0015277    0.0742505     0.9934945   -0.0863835 
   0.002550625     1.0135900   -0.0930713     0.0005750    0.0880340     0.0020448    0.0776613     0.9825826   -0.0830648 
   0.002650650     1.0030370   -0.0658834    -0.0042620    0.0792376     0.0043731    0.0814031     0.9892103   -0.0969770 
   0.002750675     1.0031810   -0.0509405    -0.0018338    0.0892867     0.0040473    0.0838948     0.9844849   -0.1012050 
   0.002850700     0.9944631   -0.0844923    -0.0011608    0.0915534     0.0041070    0.0869217     0.9896735   -0.0930648 
   0.002950725     0.9433762   -0.0851026     0.0014599    0.0884584     0.0041044    0.0883154     0.9885149   -0.0954441 
   0.003050750     1.0048570   -0.1145154     0.0030503    0.0950538     0.0054442    0.0920498     0.9832184   -0.0994605 
   0.003150775     0.9794486   -0.1360383     0.0058785    0.0979748     0.0080461    0.0945398     0.9825396   -0.1061487 
   0.003250800     0.9620796   -0.1310459     0.0125190    0.1007533     0.0078140    0.0981815     0.9918745   -0.1028920 
   0.003350825     0.9850771   -0.0889016     0.0021737    0.1029048     0.0080204    0.1013209     0.9798055   -0.1156982 
   0.003450850     0.9375524   -0.1525545     0.0098188    0.1031818     0.0090417    0.1014704     0.9814197   -0.1105618 
   0.003550875     0.9603506   -0.1449696     0.0135151    0.1124975     0.0101746    0.1071437     0.9812726   -0.1183428 
   0.003650900     0.9924650   -0.0885807     0.0038015    0.1132633     0.0081566    0.1111805     0.9798203   -0.1186275 
   0.003750925     0.9611996   -0.1212601     0.0079949    0.1109420     0.0105665    0.1109973     0.9731876   -0.1246217 
   0.003850950     0.9612710   -0.1303696     0.0124617    0.1153992     0.0116202    0.1149343     0.9804952   -0.1260869 
   0.003950975     0.9846110   -0.1111214     0.0112134    0.1210879     0.0116161    0.1199926     0.9778019   -0.1295099 
   0.004051001     0.9506010   -0.1591183     0.0145521    0.1227544     0.0134027    0.1204566     0.9737377   -0.1291878 
   0.004151026     0.9879409   -0.1266165     0.0115572    0.1248104     0.0138837    0.1269931     0.9799357   -0.1412750 
   0.004251051     0.9485974   -0.1365737     0.0132657    0.1257444     0.0151145    0.1270124     0.9761096   -0.1429866 
   0.004351076     0.9620989   -0.1045038     0.0118085    0.1303903     0.0146545    0.1303610     0.9725744   -0.1458489 
   0.004451101     1.0153680   -0.1767500     0.0189051    0.1370721     0.0181876    0.1340947     0.9664215   -0.1474075 
   0.004551126     0.9636142   -0.1333967     0.0126001    0.1369428     0.0158176    0.1361204     0.9710683   -0.1443741 
   0.004651151     0.9800152   -0.1577179     0.0153124    0.1413070     0.0184710    0.1410638     0.9758880   -0.1481033 
   0.004751176     0.9778151   -0.1878361     0.0219991    0.1444348     0.0220559    0.1434878     0.9741989   -0.1542833 
   0.004851201     0.9396390   -0.1476902     0.0169856    0.1453621     0.0202618    0.1434851     0.9671461   -0.1623560 
   0.004951226     0.9433451   -0.1668540     0.0248980    0.1455124     0.0204834    0.1461072     0.9668858   -0.1575388 
   0.005051251     1.0220030   -0.1744890     0.0245305    0.1569432     0.0230039    0.1542737     0.9664044   -0.1603600 
   0.005151276     0.9376124   -0.1616769     0.0220205    0.1540187     0.0228271    0.1533453     0.9689918   -0.1665832 
   0.005251301     0.9543010   -0.1602035     0.0216391    0.1591740     0.0233728    0.1573381     0.9669384   -0.1664669 
   0.005351326     0.9634250   -0.1738077     0.0288375    0.1650474     0.0252276    0.1596842     0.9664565   -0.1714387 
   0.005451351     0.9611470   -0.1680412     0.0264479    0.1624062     0.0268864    0.1627620     0.9655390   -0.1765027 
   0.005551376     0.9688603   -0.2112820     0.0365903    0.1632910     0.0288885    0.1662325     0.9643074   -0.1741711 
   0.005651401     0.9337922   -0.1688258     0.0281702    0.1672142     0.0284094    0.1668009     0.9609340   -0.1882229 
   0.005751426     0.9385082   -0.1804130     0.0318353    0.1682255     0.0292715    0.1700998     0.9587616   -0.1850934 
   0.005851451     0.9704152   -0.2187404     0.0352837    0.1767227     0.0331625    0.1752833     0.9601660   -0.1884544 
   0.005951476     0.9587396   -0.1693331     0.0277640    0.1775090     0.0308603    0.1778878     0.9597472   -0.1866327 
   0.006051501     0.9542495   -0.1907560     0.0370015    0.1819003     0.0331811    0.1805859     0.9596359   -0.1923493 
   0.006151526     0.9551307   -0.2002706     0.0352483    0.1822616     0.0362637    0.1812055     0.9524421   -0.1966029 
   0.006251551     0.9668605   -0.1758049     0.0334138    0.1867531     0.0346188    0.1867378     0.9526824   -0.1958090 
   0.006351576     0.9405433   -0.2044481     0.0361896    0.1871102     0.0376333    0.1867495     0.9512073   -0.2027717 
   0.006451601     0.9471971   -0.1892694     0.0330798    0.1897194     0.0390193    0.1906827     0.9495797   -0.2093483 
   0.006551626     0.9433175   -0.1948061     0.0352694    0.1940433     0.0380489    0.1938092     0.9499274   -0.2062055 
   0.006651651     0.9518064   -0.2170166     0.0419892    0.1950167     0.0420206    0.1961121     0.9491481   -0.2095306 
   0.006751676     0.9339918   -0.2395116     0.0452002    0.1964289     0.0446235    0.1979137     0.9531923   -0.2090092 
   0.006851701     0.9532947   -0.2195276     0.0444488    0.2018937     0.0453881    0.2027041     0.9487210   -0.2190733 
   0.006951726     0.9080512   -0.2171119     0.0446746    0.1993783     0.0434655    0.2014839     0.9442788   -0.2148073 
   0.007051751     0.9580147   -0.2144463     0.0480294    0.2090096     0.0466420    0.2083060     0.9416097   -0.2210054 
   0.007151776     0.9006839   -0.2223968     0.0477157    0.2059523     0.0457541    0.2064936     0.9411693   -0.2234623 
   0.007251801     0.9636847   -0.2256735     0.0500561    0.2155000     0.0513103    0.2138674     0.9374259   -0.2287490 
   0.007351826     0.9536167   -0.2323516     0.0511022    0.2198813     0.0526801    0.2157433     0.9391519   -0.2338013 
   0.007451851     0.9285469   -0.2368018     0.0553021    0.2159347     0.0527881    0.2159543     0.9380311   -0.2354076 
   0.007551876     0.9414170   -0.2463619     0.0579377    0.2232246     0.0550075    0.2210501     0.9356431   -0.2339859 
   0.007651901     0.9428278   -0.2272337     0.0511593    0.2253655     0.0549833    0.2226620     0.9338967   -0.2388498 
   0.007751926     0.9334018   -0.2490433     0.0581344    0.2293511     0.0582455    0.2241850     0.9301200   -0.2423991 
   0.007851951     0.9301430   -0.2579851     0.0610916    0.2272134     0.0592019    0.2262290     0.9294228   -0.2430062 
   0.007951976     0.9317633   -0.2657155     0.0595348    0.2304253     0.0612959    0.2288896     0.9270572   -0.2438079 
   0.008052001     0.9310969   -0.2372120     0.0574049    0.2339740     0.0609261    0.2329879     0.9265477   -0.2520963 
   0.008152026     0.9218318   -0.2515225     0.0598953    0.2324760     0.0637768    0.2347885     0.9303519   -0.2541814 
   0.008252051     0.9126933   -0.2258406     0.0577280    0.2370528     0.0615091    0.2363328     0.9188504   -0.2558187 
   0.008352076     0.9316388   -0.2594467     0.0656418    0.2420616     0.0668774    0.2408552     0.9250516   -0.2567597 
   0.008452101     0.9246686   -0.2481559     0.0662859    0.2440792     0.0672100    0.2435606     0.9229290   -0.2592318 
   0.008552126     0.9356698   -0.2595124     0.0698377    0.2464554     0.0722249    0.2461878     0.9206303   -0.2640829 
   0.008652151     0.9187261   -0.2571171     0.0747835    0.2463138     0.0705058    0.2478632     0.9176175   -0.2662140 
   0.008752176     0.9155397   -0.2544176     0.0689889    0.2478726     0.0724889    0.2498458     0.9197224   -0.2703501 
   0.008852201     0.9093262   -0.2494736     0.0721674    0.2506095     0.0720849    0.2517612     0.9124993   -0.2700507 
   0.008952226     0.9191707   -0.2746204     0.0786318    0.2521355     0.0762789    0.2545282     0.9115948   -0.2704293 
   0.009052251     0.8957870   -0.2758724     0.0820942    0.2506598     0.0771811    0.2549260     0.9129659   -0.2758946 
   0.009152276     0.8981715   -0.2771474     0.0791175    0.2538925     0.0788979    0.2561569     0.9055096   -0.2808139 
   0.009252301     0.9103495   -0.2884821     0.0839640    0.2601745     0.0839195    0.2610634     0.9115707   -0.2874751 
   0.009352326     0.9309982   -0.2884459     0.0832404    0.2715272     0.0849672    0.2667134     0.9069504   -0.2818630 
   0.009452351     0.9049693   -0.2745635     0.0851309    0.2657496     0.0824373    0.2656322     0.9027333   -0.2828465 
   0.009552376     0.9133304   -0.2929533     0.0839914    0.2704375     0.0868724    0.2680696     0.9003894   -0.2894161 
   0.009652401     0.9014150   -0.2893118     0.0865391    0.2689620     0.0880887    0.2705860     0.9009233   -0.2898269 
   0.009752426     0.9064991   -0.2863701     0.0894283    0.2732510     0.0904830    0.2724275     0.8962429   -0.2947567 
   0.009852451     0.8983734   -0.3038130     0.0932461    0.2734189     0.0928009    0.2744749     0.8964313   -0.2942515 
   0.009952476     0.9038968   -0.2937833     0.0922272    0.2801851     0.0933813    0.2769949     0.8925053   -0.2959276 
   0.010052501     0.8909993   -0.3070678     0.0954982    0.2764410     0.0948166    0.2787738     0.8946982   -0.2971862 
   0.010152526     0.9019548   -0.2922780     0.0951799    0.2813880     0.0953439    0.2828256     0.8883658   -0.2983884 
   0.010252551     0.8795173   -0.2972326     0.0981470    0.2826391     0.0967703    0.2837810     0.8933352   -0.3050903 
   0.010352576     0.9000201   -0.3224622     0.1020921    0.2857246     0.1033751    0.2862377     0.8888068   -0.3051155 
   0.010452601     0.8947369   -0.2996272     0.0982858    0.2914442     0.1025457    0.2898345     0.8872545   -0.3112120 
   0.010552626     0.8635992   -0.3095421     0.1017084    0.2884849     0.1029614    0.2882616     0.8860257   -0.3121192 
   0.010652651     0.8932235   -0.3222592     0.1126460    0.2944260     0.1089011    0.2905507     0.8800932   -0.3160289 
   0.010752676     0.8797390   -0.3373064     0.1125467    0.2925067     0.1097028    0.2914156     0.8796275   -0.3138455 
   0.010852701     0.8809394   -0.3051378     0.1100558    0.2947614     0.1080770    0.2981176     0.8802867   -0.3147491 
   0.010952726     0.8700373   -0.3157884     0.1098670    0.2971583     0.1101531    0.2976995     0.8761472   -0.3210943 
   0.011052751     0.8862641   -0.3383189     0.1176506    0.3041231     0.1157658    0.3006535     0.8762785   -0.3194704 
   0.011152776     0.8701124   -0.3280289     0.1158461    0.3003460     0.1165123    0.3012632     0.8726527   -0.3265898 
   0.011252801     0.8773964   -0.3362626     0.1176480    0.3023187     0.1197981    0.3035879     0.8692495   -0.3280930 
   0.011352826     0.8807103   -0.3498643     0.1225572    0.3095672     0.1225050    0.3046436     0.8665929   -0.3273501 
   0.011452851     0.8627148   -0.3270088     0.1193457    0.3055078     0.1210142    0.3075796     0.8662513   -0.3348757 
   0.011552876     0.8570262   -0.3457927     0.1276400    0.3082728     0.1253296    0.3087025     0.8697659   -0.3380341 
   0.011652901     0.8525890   -0.3509133     0.1258396    0.3053196     0.1252883    0.3097559     0.8652190   -0.3371795 
   0.011752926     0.8507192   -0.3307223     0.1211731    0.3114253     0.1238733    0.3125072     0.8604190   -0.3364471 
   0.011852951     0.8581374   -0.3447793     0.1266953    0.3162624     0.1292394    0.3168097     0.8618922   -0.3378594 
   0.011952976     0.8437783   -0.3329585     0.1294632    0.3132695     0.1279524    0.3162924     0.8578066   -0.3438211 
   0.012053002     0.8528642   -0.3529302     0.1322347    0.3184370     0.1335971    0.3179190     0.8552553   -0.3431810 
   0.012153027     0.8642980   -0.3647274     0.1393584    0.3212898     0.1388390    0.3207196     0.8541420   -0.3456694 
   0.012253052     0.8337457   -0.3521276     0.1348235    0.3188239     0.1352697    0.3211108     0.8529278   -0.3480284 
   0.012353077     0.8540059   -0.3572395     0.1409990    0.3252077     0.1398766    0.3240578     0.8510407   -0.3511990 
   0.012453102     0.8507196   -0.3477868     0.1422053    0.3273678     0.1413226    0.3272392     0.8478592   -0.3547935 
   0.012553127     0.8406119   -0.3660706     0.1411431    0.3237139     0.1420944    0.3262834     0.8433869   -0.3520344 
   0.012653152     0.8529605   -0.3480337     0.1456384    0.3334594     0.1445556    0.3315467     0.8419470   -0.3568892 
   0.012753177     0.8326362   -0.3538000     0.1450714    0.3276319     0.1455610    0.3332790     0.8435646   -0.3586531 
   0.012853202     0.8322629   -0.3516445     0.1487049    0.3315192     0.1473038    0.3322599     0.8341659   -0.3601592 
   0.012953227     0.8350154   -0.3493119     0.1468519    0.3348532     0.1485744    0.3387209     0.8406975   -0.3621164 
   0.013053252     0.8281243   -0.3762502     0.1521730    0.3331529     0.1536643    0.3366978     0.8391920   -0.3638515 
   0.013153277     0.8421016   -0.3625198     0.1553744    0.3404226     0.1568322    0.3398957     0.8330336   -0.3660850 
   0.013253302     0.8358542   -0.3577290     0.1556650    0.3401375     0.1562998    0.3433884     0.8311546   -0.3623548 
   0.013353327     0.8237064   -0.3613102     0.1565053    0.3404705     0.1582608    0.3433852     0.8294781   -0.3709823 
   0.013453352     0.8240975   -0.3698559     0.1622609    0.3387361     0.1601993    0.3436590     0.8276730   -0.3726182 
   0.013553377     0.8105543   -0.3654430     0.1615498    0.3423562     0.1598526    0.3458653     0.8263622   -0.3748170 
   0.013653402     0.8228832   -0.3675510     0.1598164    0.3458704     0.1652936    0.3461420     0.8189858   -0.3766971 
   0.013753427     0.8201672   -0.3718261     0.1638732    0.3477755     0.1647881    0.3495272     0.8203989   -0.3743524 
   0.013853452     0.8211221   -0.3884416     0.1700047    0.3500347     0.1696908    0.3479171     0.8180891   -0.3756246 
   0.013953477     0.8008767   -0.3701553     0.1667970    0.3489192     0.1672989    0.3526698     0.8192304   -0.3802019 
   0.014053502     0.8144819   -0.3904205     0.1753747    0.3501577     0.1742280    0.3519001     0.8152729   -0.3806175 
   0.014153527     0.8167691   -0.3947004     0.1802956    0.3531865     0.1775388    0.3552853     0.8165550   -0.3830211 
   0.014253552     0.8114783   -0.3902683     0.1844313    0.3604294     0.1790685    0.3566582     0.8145778   -0.3828751 
   0.014353577     0.8057799   -0.3953236     0.1816518    0.3565690     0.1793175    0.3529529     0.8052887   -0.3842017 
   0.014453602     0.7955684   -0.3920096     0.1838879    0.3526072     0.1790437    0.3587725     0.8093725   -0.3866390 
   0.014553627     0.8006284   -0.3829949     0.1806957    0.3573816     0.1821604    0.3627590     0.8062933   -0.3895249 
   0.014653652     0.8026890   -0.3944936     0.1824645    0.3632775     0.1854743    0.3617171     0.8008086   -0.3913320 
   0.014753677     0.7886988   -0.3938524     0.1893941    0.3599923     0.1837976    0.3620496     0.7974260   -0.3913672 
   0.014853702     0.8104426   -0.3956187     0.1928917    0.3617728     0.1922508    0.3676916     0.7996721   -0.3952117 
   0.014953727     0.7909583   -0.4079313     0.1963781    0.3641181     0.1921015    0.3629924     0.7954252   -0.3951836 
   0.015053752     0.7843828   -0.3966694     0.1878681    0.3602503     0.1920061    0.3675400     0.7943813   -0.3988432 
   0.015153777     0.8013514   -0.4040103     0.1985384    0.3724775     0.2009625    0.3701669     0.7938821   -0.4005607 
   0.015253802     0.7906925   -0.3988642     0.1994840    0.3713709     0.1983218    0.3715298     0.7882344   -0.4003726 
   0.015353827     0.7899826   -0.4038886     0.2073682    0.3732435     0.2009303    0.3729182     0.7900835   -0.4005418 
   0.015453852     0.7926627   -0.3954067     0.1987408    0.3757401     0.2021385    0.3760228     0.7833267   -0.4013544 
   0.015553877     0.7804595   -0.4109178     0.2092300    0.3714323     0.2055282    0.3735271     0.7835428   -0.4054436 
   0.015653902     0.7830303   -0.4071623     0.2061337    0.3759078     0.2096961    0.3760980     0.7802982   -0.4095572 
