! 26-Feb-26 10:45:46 AM
! E:\VNA_MEASUREMENTS\SPDT1\SPDT1_T2_RF1_0.S2P
! CHANNEL.1
! TR.MEASUREMENT
! CORRECTED.DATA
# GHZ S RI R 50.0
! FREQ.GHZ         S11RE         S11IM         S21RE         S21IM         S12RE         S12IM         S22RE         S22IM         
!; PortSelection: Port_12
   0.000050000     0.1166519   -0.1983279     0.0127873    0.1775165    -0.0005346    0.0089537     1.0223020    0.0765882 
   0.000150025    -0.3742026   -0.1347008     0.9944344   -0.2483111     0.0005174    0.0008241     1.0000780   -0.0047641 
   0.000250050    -0.6291173   -0.9253572    -0.0050013    0.0021168    -0.0000035    0.0002337     1.0020380   -0.0001672 
   0.000350075     0.9628330   -0.0658202    -0.0014456   -0.0085241     0.0014484   -0.0007427     0.9997523   -0.0192326 
   0.000450100     0.9456575   -0.0297991    -0.0064235   -0.0033995    -0.0001131    0.0015642     0.9858782    0.0041732 
   0.000550125     0.9958577   -0.0048266    -0.0030235   -0.0123562     0.0001046    0.0005574     0.9864752   -0.0047925 
   0.000650150     1.0116630   -0.0319956    -0.0095956   -0.0108015     0.0009137    0.0004468     1.0039010   -0.0167236 
   0.000750175     1.0193820   -0.0220828    -0.0048975   -0.0080257     0.0010861   -0.0000697     0.9941759   -0.0196757 
   0.000850200     0.9544756   -0.0906153    -0.0043252   -0.0102627     0.0010390    0.0013300     0.9995452   -0.0137150 
   0.000950225     1.0164750   -0.0615621    -0.0090368   -0.0074490    -0.0008457   -0.0004314     0.9892293   -0.0271982 
   0.001050250     0.9671388   -0.0805303    -0.0065631   -0.0046240    -0.0005995    0.0004107     0.9924390   -0.0130158 
   0.001150275     0.9824678   -0.0519285    -0.0061790   -0.0018826     0.0003499   -0.0006053     0.9919299   -0.0177759 
   0.001250300     0.9819662   -0.0606792    -0.0112401   -0.0023042     0.0004937    0.0000615     0.9964627   -0.0256894 
   0.001350325     0.9816560   -0.0600127    -0.0087418    0.0008881     0.0010196    0.0008266     0.9953377   -0.0304915 
   0.001450350     1.0198320   -0.0799717    -0.0121860   -0.0055632    -0.0003856   -0.0004985     0.9991945   -0.0261001 
   0.001550375     1.0063540   -0.0917729    -0.0071069   -0.0022007    -0.0006651   -0.0010359     1.0034820   -0.0245475 
   0.001650400     1.0190640   -0.0085333    -0.0137345   -0.0008897    -0.0012562    0.0001200     0.9923838   -0.0276678 
   0.001750425     1.0209750   -0.0444632    -0.0092933   -0.0045161    -0.0012375    0.0006151     0.9955430   -0.0314621 
   0.001850450     0.9642617   -0.0399539    -0.0060065    0.0024125    -0.0001255   -0.0010522     0.9935306   -0.0313823 
   0.001950475     0.9843819   -0.0358893    -0.0063398   -0.0003048    -0.0000442   -0.0007333     0.9874781   -0.0283979 
   0.002050500     0.9819211   -0.0434329    -0.0104239    0.0027258    -0.0009457   -0.0004000     0.9996126   -0.0345905 
   0.002150525     1.0356270   -0.0678222    -0.0044337   -0.0020068     0.0008974    0.0005226     0.9932949   -0.0389713 
   0.002250550     1.0146140   -0.0955165    -0.0073008    0.0015614    -0.0002189    0.0004451     0.9949335   -0.0334397 
   0.002350575     0.9591931   -0.0922109    -0.0065927    0.0046122    -0.0007294   -0.0008528     0.9993452   -0.0439832 
   0.002450600     1.0091590   -0.1046372    -0.0052950    0.0020045    -0.0004246    0.0000440     0.9935257   -0.0440478 
   0.002550625     0.9924746   -0.0750861    -0.0055190    0.0029595     0.0004811   -0.0003544     1.0005170   -0.0404265 
   0.002650650     0.9957981   -0.0992412    -0.0049143    0.0020567     0.0002188    0.0007604     0.9970718   -0.0523370 
   0.002750675     0.9829080   -0.0584664    -0.0044177   -0.0004286    -0.0003702    0.0006162     0.9919172   -0.0506752 
   0.002850700     0.9870980   -0.1028763    -0.0049774    0.0005427     0.0007681   -0.0005249     0.9928437   -0.0505331 
   0.002950725     0.9533159   -0.0483267    -0.0020912    0.0016539    -0.0000279   -0.0008103     0.9972665   -0.0418663 
   0.003050750     0.9874679   -0.0936477    -0.0048284    0.0032750    -0.0003049    0.0002112     0.9902729   -0.0508585 
   0.003150775     0.9623355   -0.1124231    -0.0026847    0.0048788     0.0005228    0.0001616     0.9921505   -0.0569285 
   0.003250800     0.9788583   -0.0822258    -0.0011952    0.0019744     0.0011783    0.0001862     0.9953750   -0.0509038 
   0.003350825     1.0005010   -0.0702824    -0.0008272    0.0036115     0.0007462   -0.0006946     0.9878923   -0.0618327 
   0.003450850     0.9398631   -0.1436432    -0.0022986    0.0026204     0.0002226    0.0003259     0.9895110   -0.0595676 
   0.003550875     0.9458123   -0.1369541    -0.0021821    0.0050356     0.0001274    0.0001887     0.9927486   -0.0614074 
   0.003650900     0.9877947   -0.1000883    -0.0032650    0.0044082     0.0002790    0.0001218     0.9921402   -0.0660292 
   0.003750925     0.9645189   -0.1125673    -0.0036442    0.0006765    -0.0006134   -0.0004925     0.9867207   -0.0655498 
   0.003850950     0.9573028   -0.1581831    -0.0002169    0.0024165    -0.0007380    0.0003728     0.9885352   -0.0643896 
   0.003950975     0.9952992   -0.1342690     0.0018565    0.0025277    -0.0000321    0.0000719     0.9883898   -0.0663797 
   0.004051001     0.9555764   -0.1535600    -0.0011171   -0.0003886    -0.0001253    0.0001161     0.9882618   -0.0654614 
   0.004151026     0.9996145   -0.1435088    -0.0016463    0.0033381    -0.0001061   -0.0001654     0.9923810   -0.0746306 
   0.004251051     0.9610689   -0.1313651    -0.0021621    0.0027324     0.0001314    0.0004303     0.9951285   -0.0664053 
   0.004351076     0.9666137   -0.1266531     0.0004123    0.0004160    -0.0005732   -0.0007095     0.9870359   -0.0770366 
   0.004451101     0.9729516   -0.1869375    -0.0021286    0.0006450    -0.0005542   -0.0002073     0.9870595   -0.0737442 
   0.004551126     1.0005110   -0.1359004    -0.0019507    0.0016179    -0.0005571   -0.0002346     0.9884013   -0.0702728 
   0.004651151     0.9878216   -0.1631740     0.0017715    0.0019001     0.0002474   -0.0003126     0.9944703   -0.0785388 
   0.004751176     0.9620607   -0.1708039    -0.0008602    0.0018827     0.0000254    0.0000618     0.9917864   -0.0768743 
   0.004851201     0.9405826   -0.1613027     0.0017585    0.0005823    -0.0002814    0.0004105     0.9887920   -0.0783264 
   0.004951226     0.9520508   -0.1442470     0.0012042   -0.0010945    -0.0000205    0.0004753     0.9871287   -0.0823034 
   0.005051251     0.9772449   -0.1816168    -0.0000147    0.0009084    -0.0004135   -0.0001262     0.9860148   -0.0766215 
   0.005151276     0.9533976   -0.1612308     0.0007796    0.0018576     0.0002554   -0.0000906     0.9881397   -0.0846400 
   0.005251301     0.9524435   -0.1511420     0.0011178   -0.0011705    -0.0000420    0.0003089     0.9873565   -0.0829629 
   0.005351326     0.9173869   -0.1508488     0.0013961    0.0010167    -0.0003370    0.0001442     0.9909120   -0.0898616 
   0.005451351     0.9716800   -0.1726671    -0.0001094    0.0021578    -0.0004508   -0.0002205     0.9899758   -0.0912621 
   0.005551376     0.9772505   -0.1852289     0.0005453    0.0032072    -0.0004843    0.0001065     0.9874156   -0.0822196 
   0.005651401     0.9599757   -0.1494833     0.0000944    0.0012518     0.0004647   -0.0007211     0.9890633   -0.0979276 
   0.005751426     0.9545838   -0.1879293     0.0002277    0.0009159    -0.0000582   -0.0000306     0.9852009   -0.0975192 
   0.005851451     0.9456905   -0.1990367     0.0008519    0.0018504    -0.0000017   -0.0001191     0.9848307   -0.0999443 
   0.005951476     0.9623708   -0.1829764    -0.0024142   -0.0002990     0.0000774   -0.0002091     0.9883009   -0.0927750 
   0.006051501     0.9463874   -0.1843475     0.0001383    0.0009099     0.0002224    0.0001189     0.9829565   -0.0974768 
   0.006151526     0.9262645   -0.2271513     0.0000037    0.0002562    -0.0003097   -0.0002359     0.9856780   -0.1014763 
   0.006251551     0.9352649   -0.1759035    -0.0003961    0.0025457     0.0001438   -0.0001965     0.9874374   -0.1078956 
   0.006351576     0.9551530   -0.2326586    -0.0002000   -0.0011839     0.0002730    0.0004536     0.9819064   -0.1041830 
   0.006451601     0.9386361   -0.1936145    -0.0015891    0.0018029    -0.0001877   -0.0004169     0.9850389   -0.1144894 
   0.006551626     0.9254103   -0.1975609     0.0007513    0.0008042     0.0000994   -0.0000756     0.9849406   -0.1059102 
   0.006651651     0.9552454   -0.2307823    -0.0007502   -0.0000752     0.0002305   -0.0001078     0.9820394   -0.1111629 
   0.006751676     0.9282799   -0.2436929    -0.0013476    0.0013407     0.0003319   -0.0000217     0.9870781   -0.1070406 
   0.006851701     0.9539804   -0.2482393     0.0002806   -0.0002798    -0.0002530   -0.0005798     0.9854536   -0.1141783 
   0.006951726     0.9382791   -0.2122880     0.0010208    0.0009706    -0.0000374   -0.0004145     0.9814961   -0.1110132 
   0.007051751     0.9375377   -0.2128470     0.0007066    0.0007470    -0.0000916   -0.0000334     0.9777665   -0.1166656 
   0.007151776     0.9502906   -0.2168976     0.0000453    0.0001088    -0.0001786    0.0006508     0.9789278   -0.1180803 
   0.007251801     0.9516330   -0.2213370     0.0004673   -0.0002930     0.0000200    0.0002613     0.9795468   -0.1228284 
   0.007351826     0.9326209   -0.2305415     0.0002259   -0.0013546    -0.0000692   -0.0000400     0.9837184   -0.1231841 
   0.007451851     0.9169375   -0.2292431     0.0004192   -0.0007269    -0.0004603    0.0002076     0.9795744   -0.1200286 
   0.007551876     0.9406354   -0.2330000    -0.0018168    0.0006247    -0.0001346    0.0005133     0.9800784   -0.1240926 
   0.007651901     0.9365339   -0.2580974     0.0025170    0.0005512     0.0002136    0.0000307     0.9818501   -0.1225488 
   0.007751926     0.9295676   -0.2436458     0.0015960    0.0000802     0.0001895    0.0000608     0.9768183   -0.1263125 
   0.007851951     0.9434533   -0.2390774    -0.0005185   -0.0010854     0.0002986    0.0004071     0.9800800   -0.1242960 
   0.007951976     0.9283725   -0.2568688     0.0009304   -0.0008701     0.0001155   -0.0004879     0.9801308   -0.1295088 
   0.008052001     0.9327126   -0.2543997    -0.0004505    0.0009998    -0.0000245    0.0003320     0.9774940   -0.1352712 
   0.008152026     0.9211715   -0.2712376    -0.0005131    0.0002246     0.0000157    0.0000525     0.9832805   -0.1300017 
   0.008252051     0.9092166   -0.2419531     0.0007676   -0.0003201    -0.0000818    0.0001516     0.9769883   -0.1377211 
   0.008352076     0.9281964   -0.2638781    -0.0000719   -0.0003688    -0.0000284    0.0000654     0.9801737   -0.1368076 
   0.008452101     0.9201746   -0.2593555     0.0002655    0.0008285     0.0001748    0.0004347     0.9829294   -0.1346756 
   0.008552126     0.9108829   -0.2577901    -0.0010112   -0.0000862     0.0001193   -0.0003690     0.9781258   -0.1389202 
   0.008652151     0.9287958   -0.2726935     0.0002284   -0.0015573    -0.0002860    0.0003710     0.9771221   -0.1414238 
   0.008752176     0.9196259   -0.2438919     0.0006934   -0.0007524     0.0002432    0.0002036     0.9798679   -0.1451077 
   0.008852201     0.9060089   -0.2577920    -0.0000122    0.0003405    -0.0001024    0.0002736     0.9761879   -0.1437496 
   0.008952226     0.9242051   -0.2721901    -0.0000888   -0.0009734     0.0000831    0.0004197     0.9752442   -0.1431470 
   0.009052251     0.9170728   -0.2757385    -0.0001835    0.0010014     0.0000646    0.0001033     0.9790918   -0.1470746 
   0.009152276     0.9017107   -0.2785694     0.0000448   -0.0002095     0.0005159   -0.0001545     0.9700184   -0.1526895 
   0.009252301     0.9018738   -0.2728892     0.0006299   -0.0005290     0.0005423   -0.0002481     0.9762952   -0.1544923 
   0.009352326     0.9075701   -0.2894086     0.0001318   -0.0005563     0.0000122    0.0000086     0.9728904   -0.1475304 
   0.009452351     0.9048984   -0.2745250    -0.0004070    0.0004539     0.0002664   -0.0002832     0.9701455   -0.1512806 
   0.009552376     0.9110771   -0.2920607     0.0001003    0.0003765     0.0000212    0.0000720     0.9687381   -0.1538008 
   0.009652401     0.8851423   -0.2788474    -0.0011909   -0.0008710     0.0001342   -0.0000564     0.9719002   -0.1563030 
   0.009752426     0.9022066   -0.2900505     0.0008267    0.0011078     0.0001750   -0.0000347     0.9701481   -0.1561867 
   0.009852451     0.9027150   -0.3048210     0.0000520    0.0012431    -0.0000008   -0.0001536     0.9732003   -0.1591168 
   0.009952476     0.9014161   -0.2978680    -0.0000925    0.0006433     0.0000267    0.0000464     0.9664913   -0.1618789 
   0.010052501     0.8930925   -0.2868803    -0.0009220   -0.0013442     0.0001887   -0.0000739     0.9695528   -0.1605804 
   0.010152526     0.8897337   -0.2965812     0.0011578    0.0000346     0.0002552    0.0000343     0.9677946   -0.1607314 
   0.010252551     0.8733572   -0.2993406     0.0010810   -0.0007886     0.0002887   -0.0000743     0.9703055   -0.1681324 
   0.010352576     0.8933024   -0.3080527    -0.0014441    0.0010497     0.0000381    0.0002585     0.9662909   -0.1662446 
   0.010452601     0.9096649   -0.2920544     0.0011686    0.0008972    -0.0003417    0.0002794     0.9680147   -0.1715517 
   0.010552626     0.8735462   -0.3135506    -0.0008587    0.0013658    -0.0002220    0.0000789     0.9661544   -0.1715135 
   0.010652651     0.8850647   -0.3124525     0.0002795   -0.0009374     0.0000916    0.0002232     0.9665039   -0.1751290 
   0.010752676     0.8911174   -0.3326109     0.0000184   -0.0004605    -0.0000361    0.0000379     0.9659352   -0.1736418 
   0.010852701     0.8840886   -0.3199925     0.0010141    0.0014072     0.0000402    0.0000350     0.9676924   -0.1705602 
   0.010952726     0.8872869   -0.3214143     0.0005123    0.0004054     0.0002079    0.0001678     0.9646377   -0.1770269 
   0.011052751     0.8834747   -0.3346546     0.0003533    0.0006426    -0.0001630   -0.0006266     0.9678587   -0.1804824 
   0.011152776     0.8788226   -0.3203232     0.0003748    0.0009582     0.0000378   -0.0000553     0.9628747   -0.1811565 
   0.011252801     0.8692459   -0.3355440     0.0005157   -0.0003266     0.0000340    0.0000047     0.9629654   -0.1794539 
   0.011352826     0.8741205   -0.3395758     0.0000816    0.0000730     0.0002866   -0.0000359     0.9654869   -0.1800219 
   0.011452851     0.8726282   -0.3276422     0.0002384   -0.0008624     0.0000829   -0.0000878     0.9632692   -0.1852062 
   0.011552876     0.8596596   -0.3425365    -0.0004311   -0.0002563     0.0000712   -0.0003788     0.9631888   -0.1869069 
   0.011652901     0.8543223   -0.3482050    -0.0003719   -0.0003147    -0.0000895   -0.0000034     0.9585246   -0.1865980 
   0.011752926     0.8567606   -0.3453788    -0.0001713    0.0002180    -0.0000972    0.0000942     0.9594176   -0.1871150 
   0.011852951     0.8647659   -0.3455183     0.0004520   -0.0001609    -0.0001106   -0.0002621     0.9648215   -0.1888598 
   0.011952976     0.8571222   -0.3325497     0.0005502    0.0007238    -0.0000318    0.0001019     0.9615887   -0.1896378 
   0.012053002     0.8437800   -0.3514276     0.0010182   -0.0003820    -0.0001776    0.0000383     0.9607772   -0.1925381 
   0.012153027     0.8571197   -0.3599308     0.0001256   -0.0001134    -0.0000443    0.0001040     0.9572683   -0.1970915 
   0.012253052     0.8344572   -0.3536929     0.0005032   -0.0010490     0.0001749    0.0001601     0.9582371   -0.1976737 
   0.012353077     0.8584958   -0.3632547    -0.0003484    0.0000697    -0.0002150   -0.0000868     0.9603119   -0.1951993 
   0.012453102     0.8427574   -0.3494817    -0.0005242    0.0013277     0.0002500    0.0000465     0.9570594   -0.2037535 
   0.012553127     0.8317826   -0.3708697     0.0004847    0.0003319     0.0000223    0.0000753     0.9547221   -0.1997343 
   0.012653152     0.8502156   -0.3552864    -0.0004554    0.0008590    -0.0000909   -0.0000310     0.9542245   -0.2027521 
   0.012753177     0.8340541   -0.3563830    -0.0001886   -0.0003494     0.0002537   -0.0001027     0.9580856   -0.2024680 
   0.012853202     0.8496240   -0.3442602     0.0014333    0.0003686    -0.0000474   -0.0000946     0.9548682   -0.2049415 
   0.012953227     0.8398862   -0.3541203    -0.0006793   -0.0002540     0.0001125   -0.0000789     0.9559662   -0.2062867 
   0.013053252     0.8349248   -0.3743570    -0.0009007   -0.0006792     0.0000037    0.0001064     0.9585218   -0.2052475 
   0.013153277     0.8397744   -0.3677485     0.0008835    0.0002750     0.0000703    0.0000513     0.9527435   -0.2132028 
   0.013253302     0.8341596   -0.3641489     0.0006482   -0.0001281     0.0001513   -0.0000606     0.9496015   -0.2078041 
   0.013353327     0.8225023   -0.3667481    -0.0001624   -0.0000026    -0.0002267    0.0001984     0.9497506   -0.2130289 
   0.013453352     0.8284466   -0.3669194     0.0006372    0.0001352     0.0000071    0.0001463     0.9521729   -0.2123224 
   0.013553377     0.8122142   -0.3639223     0.0010238    0.0004254     0.0002779    0.0001529     0.9500390   -0.2153631 
   0.013653402     0.8180390   -0.3732357     0.0002088   -0.0003232    -0.0000947   -0.0001621     0.9486245   -0.2148472 
   0.013753427     0.8262891   -0.3906590     0.0007582    0.0006888    -0.0000328    0.0001713     0.9485171   -0.2195256 
   0.013853452     0.8350933   -0.3887508     0.0004855   -0.0011421     0.0000786   -0.0000315     0.9509589   -0.2165843 
   0.013953477     0.8149329   -0.3687333     0.0007741   -0.0006666     0.0002932   -0.0001157     0.9515250   -0.2209533 
   0.014053502     0.8244407   -0.3890267     0.0001856   -0.0009733     0.0001126   -0.0001362     0.9493955   -0.2194210 
   0.014153527     0.8149357   -0.3850578    -0.0007998    0.0004460    -0.0000351   -0.0000703     0.9517835   -0.2194551 
   0.014253552     0.8181607   -0.3789320    -0.0006666   -0.0000975    -0.0000847   -0.0000647     0.9476801   -0.2251935 
   0.014353577     0.8004320   -0.3888343     0.0009643   -0.0004530     0.0002604    0.0000578     0.9432836   -0.2254107 
   0.014453602     0.7827222   -0.3866840    -0.0012972    0.0009630    -0.0000583    0.0000989     0.9449267   -0.2238333 
   0.014553627     0.7971839   -0.3922209    -0.0000307   -0.0001845    -0.0001976   -0.0000213     0.9464769   -0.2288283 
   0.014653652     0.8060566   -0.3961743     0.0008849   -0.0002205     0.0000592    0.0000721     0.9434516   -0.2307154 
   0.014753677     0.7980908   -0.3831614     0.0003643   -0.0002359    -0.0002252   -0.0001096     0.9421658   -0.2306014 
   0.014853702     0.8015991   -0.3939528    -0.0010539    0.0001263    -0.0002749    0.0000534     0.9445373   -0.2303559 
   0.014953727     0.7901040   -0.4169881    -0.0001610   -0.0001300     0.0000319    0.0001947     0.9402598   -0.2315180 
   0.015053752     0.7903932   -0.3997504     0.0010131    0.0005490    -0.0000203    0.0000394     0.9387502   -0.2361199 
   0.015153777     0.7966122   -0.3995240     0.0011150    0.0003368    -0.0001611    0.0001478     0.9444939   -0.2355973 
   0.015253802     0.7745637   -0.4031348    -0.0001579   -0.0012072     0.0000990   -0.0000484     0.9395307   -0.2389481 
   0.015353827     0.7888149   -0.4006043    -0.0003439    0.0000532    -0.0001155    0.0001111     0.9420910   -0.2407103 
   0.015453852     0.7911292   -0.4013005     0.0001025   -0.0005636     0.0002454    0.0000472     0.9374978   -0.2422550 
   0.015553877     0.7828043   -0.4143152    -0.0000649   -0.0006976     0.0001735    0.0000062     0.9412233   -0.2407446 
   0.015653902     0.7854839   -0.4066945     0.0001515   -0.0003952    -0.0001752   -0.0003382     0.9410834   -0.2461854 
