! 26-Feb-26 10:47:04 AM
! E:\VNA_MEASUREMENTS\SPDT1\SPDT1_T1_RF1_1.S2P
! CHANNEL.1
! TR.MEASUREMENT
! CORRECTED.DATA
# GHZ S RI R 50.0
! FREQ.GHZ         S11RE         S11IM         S21RE         S21IM         S12RE         S12IM         S22RE         S22IM         
!; PortSelection: Port_12
   0.000050000     0.2470108    1.4223180     1.5024770    0.6623803     0.0007271   -0.0020739     1.0013610    0.0043452 
   0.000150025    -0.0329667    0.0525240    -0.2920322   -0.0000868     0.0000903    0.0020182     1.0088030   -0.0018726 
   0.000250050    -0.5067332    0.4409385     0.0423378    0.0794488    -0.0014192    0.0020807     1.0133940   -0.0088213 
   0.000350075     0.9640847   -0.0360305    -0.0029507    0.0033572    -0.0004772    0.0098914     0.9947531   -0.0221843 
   0.000450100     0.9784176   -0.0146362    -0.0040676    0.0002519    -0.0021387    0.0123543     0.9817731   -0.0078535 
   0.000550125     1.0226700   -0.0178636    -0.0047469    0.0014671    -0.0013269    0.0164617     0.9973533   -0.0236228 
   0.000650150     0.9970511   -0.0146207    -0.0108237    0.0074886    -0.0020659    0.0189901     1.0111570   -0.0254315 
   0.000750175     0.9306804   -0.0416029    -0.0071710    0.0119445    -0.0005435    0.0226801     0.9961464   -0.0301506 
   0.000850200     1.0278420   -0.0476874    -0.0129915    0.0136431    -0.0020475    0.0240745     1.0018220   -0.0205793 
   0.000950225     1.0231140   -0.0479800    -0.0077100    0.0246473    -0.0014325    0.0281848     0.9880258   -0.0323221 
   0.001050250     0.9977240   -0.0758746    -0.0140973    0.0277151    -0.0009688    0.0305171     0.9974930   -0.0346686 
   0.001150275     0.9903215   -0.0574801    -0.0090950    0.0302601    -0.0002484    0.0322538     0.9897041   -0.0434070 
   0.001250300     0.9868203   -0.0063131    -0.0116749    0.0353840    -0.0008224    0.0366675     0.9905557   -0.0461656 
   0.001350325     0.9833802   -0.0799165    -0.0124092    0.0376920     0.0010661    0.0393165     0.9974787   -0.0506123 
   0.001450350     1.0068590   -0.0848521    -0.0087043    0.0468989     0.0002646    0.0443104     0.9990526   -0.0574666 
   0.001550375     0.9706026   -0.1009422    -0.0124828    0.0418401    -0.0007971    0.0462720     1.0035790   -0.0484699 
   0.001650400     1.0173460   -0.0484086    -0.0115457    0.0510185    -0.0011322    0.0492888     0.9865876   -0.0533091 
   0.001750425     0.9714026   -0.0530750    -0.0054192    0.0537572     0.0005048    0.0523410     1.0024870   -0.0603754 
   0.001850450     0.9689691   -0.0448826    -0.0087272    0.0548487    -0.0005707    0.0553624     0.9848105   -0.0572240 
   0.001950475     0.9734185   -0.0108013    -0.0094401    0.0609999    -0.0021117    0.0577513     0.9894795   -0.0553765 
   0.002050500     0.9624586   -0.0746092    -0.0068361    0.0616963     0.0012124    0.0616689     0.9975565   -0.0772461 
   0.002150525     0.9923458   -0.0577714    -0.0069939    0.0675169     0.0013075    0.0639814     0.9846863   -0.0730916 
   0.002250550     0.9651728   -0.0482174    -0.0081956    0.0686480     0.0011149    0.0662574     0.9852908   -0.0756486 
   0.002350575     0.9716434   -0.1141683    -0.0034983    0.0761255     0.0024018    0.0709899     0.9949295   -0.0753140 
   0.002450600     0.9942452   -0.1097382    -0.0035664    0.0795321     0.0027698    0.0751891     0.9926796   -0.0834717 
   0.002550625     1.0107720   -0.1084479    -0.0044885    0.0820839     0.0037296    0.0785953     0.9901105   -0.0864183 
   0.002650650     0.9952027   -0.0870179    -0.0026644    0.0844543     0.0041688    0.0818123     0.9895613   -0.0939943 
   0.002750675     0.9831030   -0.0262030    -0.0034037    0.0885597     0.0031163    0.0835533     0.9825730   -0.0991192 
   0.002850700     0.9599289   -0.0475806    -0.0052114    0.0859979     0.0024887    0.0864148     0.9838234   -0.0894246 
   0.002950725     0.9790619   -0.0538334     0.0020441    0.0912335     0.0030297    0.0910945     0.9922140   -0.0913229 
   0.003050750     0.9615282   -0.0423864    -0.0007097    0.0907954     0.0032851    0.0921443     0.9847863   -0.1015728 
   0.003150775     1.0035750   -0.1252743     0.0047703    0.0987770     0.0064744    0.0964698     0.9829939   -0.1036005 
   0.003250800     0.9780366   -0.0809522     0.0038600    0.1025524     0.0052469    0.0987527     0.9868229   -0.1049605 
   0.003350825     0.9881275   -0.1085484     0.0075898    0.1062004     0.0085849    0.1026488     0.9834014   -0.1141052 
   0.003450850     0.9654303   -0.1411459     0.0104355    0.1082926     0.0100019    0.1045189     0.9830688   -0.1168791 
   0.003550875     0.9639785   -0.1118483     0.0098052    0.1137400     0.0093867    0.1070354     0.9819549   -0.1213995 
   0.003650900     0.9966333   -0.1241574     0.0060341    0.1138511     0.0113988    0.1117776     0.9828899   -0.1272419 
   0.003750925     0.9872280   -0.1555046     0.0120058    0.1140807     0.0119714    0.1135935     0.9745447   -0.1257036 
   0.003850950     0.9838265   -0.1561814     0.0152655    0.1187760     0.0125259    0.1170964     0.9788550   -0.1241593 
   0.003950975     1.0002040   -0.1182905     0.0137972    0.1196137     0.0122243    0.1212748     0.9766942   -0.1294708 
   0.004051001     0.9444658   -0.1601243     0.0121443    0.1213396     0.0143871    0.1208906     0.9744236   -0.1290454 
   0.004151026     0.9984879   -0.1330109     0.0107999    0.1284680     0.0142440    0.1273705     0.9762105   -0.1389995 
   0.004251051     0.9857324   -0.1769004     0.0178795    0.1347015     0.0171394    0.1282515     0.9755946   -0.1408430 
   0.004351076     0.9743402   -0.1231739     0.0169003    0.1336315     0.0161286    0.1322132     0.9774396   -0.1444774 
   0.004451101     0.9956786   -0.1738589     0.0173371    0.1334671     0.0177647    0.1360177     0.9735521   -0.1414731 
   0.004551126     0.9787980   -0.1716297     0.0211553    0.1385449     0.0185208    0.1374167     0.9739062   -0.1443198 
   0.004651151     0.9822332   -0.1627209     0.0171146    0.1431574     0.0202932    0.1416008     0.9765788   -0.1536191 
   0.004751176     0.9571256   -0.1582924     0.0195358    0.1441888     0.0196008    0.1429743     0.9728160   -0.1598617 
   0.004851201     0.9327735   -0.1533967     0.0217081    0.1448619     0.0206527    0.1439320     0.9687259   -0.1610818 
   0.004951226     0.9595348   -0.1498261     0.0219715    0.1515243     0.0207343    0.1497611     0.9711229   -0.1624909 
   0.005051251     0.9904681   -0.1718277     0.0236292    0.1550822     0.0236725    0.1534897     0.9667780   -0.1667894 
   0.005151276     0.9533566   -0.1533336     0.0202933    0.1566178     0.0219540    0.1550084     0.9630086   -0.1631409 
   0.005251301     0.9624723   -0.1629518     0.0240555    0.1610827     0.0233937    0.1580301     0.9657261   -0.1646501 
   0.005351326     0.9248638   -0.1498776     0.0239461    0.1575167     0.0230599    0.1594322     0.9689745   -0.1717717 
   0.005451351     0.9721653   -0.1473907     0.0213713    0.1663072     0.0264472    0.1651142     0.9655891   -0.1811889 
   0.005551376     0.9703221   -0.1904469     0.0299996    0.1683851     0.0286777    0.1669851     0.9601434   -0.1814470 
   0.005651401     0.9458519   -0.1681724     0.0282188    0.1651965     0.0286098    0.1685335     0.9597712   -0.1889576 
   0.005751426     0.9398856   -0.1860886     0.0332300    0.1677518     0.0297419    0.1705136     0.9566377   -0.1855920 
   0.005851451     0.9595600   -0.2037894     0.0327246    0.1775847     0.0318785    0.1754953     0.9595544   -0.1845808 
   0.005951476     0.9422997   -0.1889970     0.0316052    0.1741908     0.0335448    0.1764349     0.9563484   -0.1928090 
   0.006051501     0.9278707   -0.1878027     0.0357969    0.1790182     0.0324585    0.1788524     0.9570881   -0.1931409 
   0.006151526     0.9412282   -0.2117196     0.0388088    0.1817419     0.0365018    0.1812035     0.9552342   -0.1956708 
   0.006251551     0.9548702   -0.1897730     0.0363010    0.1849295     0.0367527    0.1859844     0.9514892   -0.1998806 
   0.006351576     0.9437228   -0.2105983     0.0384127    0.1888898     0.0395862    0.1864016     0.9480898   -0.2081809 
   0.006451601     0.9367216   -0.2040919     0.0369513    0.1898535     0.0401798    0.1911844     0.9518413   -0.2121651 
   0.006551626     0.9456107   -0.2007039     0.0376148    0.1925647     0.0396147    0.1949102     0.9483041   -0.2080324 
   0.006651651     0.9478307   -0.2009593     0.0390124    0.1937647     0.0416339    0.1969044     0.9446392   -0.2141585 
   0.006751676     0.9186780   -0.2038559     0.0387963    0.1977862     0.0413621    0.1979069     0.9476296   -0.2113759 
   0.006851701     0.9671847   -0.2206087     0.0451905    0.2058281     0.0468757    0.2047413     0.9471461   -0.2230700 
   0.006951726     0.9285616   -0.2209773     0.0460540    0.2055555     0.0449993    0.2054013     0.9468797   -0.2171376 
   0.007051751     0.9477842   -0.2454900     0.0538406    0.2076808     0.0494305    0.2060812     0.9379271   -0.2246250 
   0.007151776     0.9215277   -0.2178559     0.0450324    0.2084403     0.0480014    0.2091464     0.9384099   -0.2315334 
   0.007251801     0.9514560   -0.2211019     0.0510897    0.2156013     0.0505016    0.2148857     0.9434029   -0.2284512 
   0.007351826     0.9198413   -0.2366284     0.0507877    0.2140146     0.0520755    0.2138552     0.9403395   -0.2327035 
   0.007451851     0.9242721   -0.2379824     0.0516077    0.2157396     0.0526064    0.2162861     0.9345358   -0.2350463 
   0.007551876     0.9212873   -0.2325001     0.0530250    0.2214641     0.0540415    0.2210719     0.9355926   -0.2383872 
   0.007651901     0.9126650   -0.2730325     0.0605628    0.2173559     0.0580676    0.2189104     0.9319662   -0.2394142 
   0.007751926     0.9139747   -0.2438637     0.0564319    0.2235809     0.0578696    0.2250290     0.9347974   -0.2441110 
   0.007851951     0.9211394   -0.2446834     0.0604754    0.2279796     0.0583558    0.2281818     0.9334072   -0.2450540 
   0.007951976     0.9492875   -0.2494580     0.0559961    0.2371538     0.0620687    0.2328626     0.9250005   -0.2478539 
   0.008052001     0.9176611   -0.2587180     0.0639457    0.2324648     0.0622414    0.2321355     0.9244837   -0.2495571 
   0.008152026     0.9267075   -0.2711872     0.0650832    0.2339580     0.0658421    0.2346545     0.9263335   -0.2547646 
   0.008252051     0.9244447   -0.2344318     0.0590232    0.2419146     0.0639380    0.2391606     0.9226366   -0.2571844 
   0.008352076     0.9207625   -0.2694234     0.0692838    0.2404983     0.0674347    0.2405037     0.9230143   -0.2584371 
   0.008452101     0.9186446   -0.2402880     0.0654946    0.2447485     0.0667817    0.2443404     0.9186286   -0.2601454 
   0.008552126     0.9301546   -0.2540816     0.0684932    0.2471820     0.0709614    0.2474229     0.9208775   -0.2641315 
   0.008652151     0.9343256   -0.2730188     0.0772925    0.2504421     0.0737401    0.2485217     0.9144713   -0.2677635 
   0.008752176     0.9054303   -0.2698404     0.0757994    0.2478729     0.0724878    0.2488435     0.9176924   -0.2678626 
   0.008852201     0.9141493   -0.2470963     0.0723140    0.2521821     0.0734160    0.2541976     0.9129151   -0.2738401 
   0.008952226     0.9323862   -0.2836045     0.0815540    0.2575340     0.0790906    0.2567729     0.9139323   -0.2727574 
   0.009052251     0.9269218   -0.2602619     0.0779693    0.2621326     0.0781002    0.2608409     0.9111999   -0.2778452 
   0.009152276     0.9203085   -0.2722124     0.0809615    0.2631461     0.0816228    0.2600789     0.9040197   -0.2833419 
   0.009252301     0.9129363   -0.2654226     0.0789832    0.2618956     0.0818781    0.2634948     0.9065493   -0.2867374 
   0.009352326     0.9175950   -0.2789576     0.0823612    0.2689621     0.0835047    0.2653924     0.9015232   -0.2826282 
   0.009452351     0.9078265   -0.2716080     0.0843676    0.2667686     0.0830812    0.2672942     0.8991730   -0.2854512 
   0.009552376     0.9047689   -0.2919067     0.0864182    0.2695511     0.0868634    0.2685425     0.9001308   -0.2885686 
   0.009652401     0.8966881   -0.2879490     0.0878483    0.2690204     0.0888257    0.2711210     0.8998026   -0.2936603 
   0.009752426     0.8970376   -0.2865459     0.0911634    0.2726967     0.0892630    0.2730401     0.8969338   -0.2922894 
   0.009852451     0.8985370   -0.3024925     0.0946491    0.2752182     0.0946731    0.2760687     0.8975601   -0.2993907 
   0.009952476     0.8862549   -0.3023579     0.0940334    0.2754793     0.0939905    0.2752071     0.8902853   -0.2966893 
   0.010052501     0.9057809   -0.3026258     0.0952332    0.2825713     0.0957915    0.2819100     0.8908901   -0.2943146 
   0.010152526     0.8801500   -0.3033678     0.0972820    0.2752924     0.0963861    0.2813963     0.8907458   -0.3007551 
   0.010252551     0.8819398   -0.3012773     0.0985631    0.2829807     0.0994317    0.2851214     0.8918315   -0.3083586 
   0.010352576     0.9059876   -0.3157113     0.0998634    0.2881584     0.1043607    0.2886864     0.8856019   -0.3083460 
   0.010452601     0.8989210   -0.2961335     0.0986174    0.2926111     0.1028029    0.2915527     0.8843226   -0.3117263 
   0.010552626     0.8677335   -0.3155622     0.1034777    0.2903515     0.1050272    0.2893698     0.8838892   -0.3133254 
   0.010652651     0.8844778   -0.3274392     0.1145436    0.2920954     0.1095105    0.2912549     0.8820606   -0.3158293 
   0.010752676     0.8819650   -0.3305595     0.1111558    0.2960759     0.1108747    0.2932918     0.8773312   -0.3183331 
   0.010852701     0.8797972   -0.3099192     0.1128410    0.2955131     0.1106403    0.2997421     0.8808956   -0.3182714 
   0.010952726     0.8843113   -0.3250215     0.1137335    0.3035861     0.1135914    0.2992359     0.8716819   -0.3221324 
   0.011052751     0.8752302   -0.3344888     0.1164364    0.3019303     0.1159683    0.2995318     0.8711482   -0.3218865 
   0.011152776     0.8722709   -0.3273946     0.1161576    0.3017294     0.1179268    0.3031034     0.8721792   -0.3297115 
   0.011252801     0.8805339   -0.3210227     0.1136543    0.3040602     0.1206225    0.3083445     0.8702093   -0.3322889 
   0.011352826     0.8667921   -0.3368746     0.1183345    0.3077507     0.1212981    0.3075361     0.8702019   -0.3303881 
   0.011452851     0.8552383   -0.3342366     0.1208730    0.3045337     0.1220752    0.3088426     0.8673286   -0.3347154 
   0.011552876     0.8533650   -0.3363260     0.1257785    0.3056866     0.1239494    0.3091771     0.8644853   -0.3378588 
   0.011652901     0.8606552   -0.3519199     0.1265096    0.3094012     0.1280502    0.3117157     0.8630164   -0.3387460 
   0.011752926     0.8508166   -0.3416557     0.1257881    0.3139718     0.1263992    0.3132117     0.8602806   -0.3374729 
   0.011852951     0.8640054   -0.3486614     0.1285840    0.3186953     0.1323496    0.3185720     0.8607663   -0.3414076 
   0.011952976     0.8447911   -0.3428999     0.1345212    0.3141523     0.1298774    0.3160774     0.8549586   -0.3432293 
   0.012053002     0.8413967   -0.3597090     0.1345554    0.3151882     0.1363989    0.3175348     0.8555587   -0.3498101 
   0.012153027     0.8597689   -0.3458999     0.1331230    0.3230106     0.1380943    0.3229747     0.8493834   -0.3508262 
   0.012253052     0.8349715   -0.3620644     0.1410172    0.3218341     0.1372447    0.3212569     0.8521146   -0.3480844 
   0.012353077     0.8436664   -0.3465437     0.1376773    0.3239866     0.1382770    0.3258872     0.8492343   -0.3513654 
   0.012453102     0.8451935   -0.3521823     0.1459203    0.3249971     0.1425145    0.3268355     0.8453350   -0.3564987 
   0.012553127     0.8407211   -0.3677975     0.1417837    0.3254131     0.1450601    0.3269811     0.8400586   -0.3556537 
   0.012653152     0.8553296   -0.3552683     0.1491771    0.3354403     0.1472271    0.3323292     0.8409925   -0.3574392 
   0.012753177     0.8382152   -0.3600252     0.1483971    0.3305412     0.1479743    0.3341848     0.8410916   -0.3582780 
   0.012853202     0.8426845   -0.3475958     0.1498123    0.3362603     0.1497937    0.3367675     0.8356922   -0.3601080 
   0.012953227     0.8364946   -0.3472911     0.1473016    0.3362340     0.1510671    0.3396704     0.8367227   -0.3652336 
   0.013053252     0.8227755   -0.3856212     0.1588173    0.3321301     0.1557307    0.3366733     0.8395854   -0.3664826 
   0.013153277     0.8247939   -0.3595865     0.1560118    0.3345266     0.1554426    0.3392590     0.8307027   -0.3688263 
   0.013253302     0.8360749   -0.3654626     0.1602858    0.3415019     0.1604689    0.3426045     0.8282084   -0.3669084 
   0.013353327     0.8366390   -0.3716608     0.1632260    0.3459593     0.1630376    0.3441021     0.8260025   -0.3718119 
   0.013453352     0.8290476   -0.3642875     0.1608526    0.3434879     0.1616646    0.3470738     0.8258668   -0.3728392 
   0.013553377     0.8097735   -0.3700067     0.1633164    0.3447659     0.1606286    0.3450957     0.8212129   -0.3732226 
   0.013653402     0.8178198   -0.3743177     0.1644402    0.3451928     0.1674069    0.3473623     0.8227889   -0.3790805 
   0.013753427     0.8235726   -0.3738887     0.1659004    0.3495047     0.1683627    0.3506085     0.8179050   -0.3789353 
   0.013853452     0.8241614   -0.3966514     0.1747398    0.3529949     0.1733064    0.3495676     0.8204389   -0.3758771 
   0.013953477     0.8018337   -0.3824705     0.1734419    0.3494850     0.1712245    0.3515594     0.8165645   -0.3820878 
   0.014053502     0.8136219   -0.4005252     0.1809506    0.3514100     0.1773384    0.3503331     0.8120358   -0.3826235 
   0.014153527     0.8112989   -0.3878057     0.1775327    0.3527874     0.1773446    0.3578155     0.8143238   -0.3837214 
   0.014253552     0.8100694   -0.3773514     0.1806787    0.3626030     0.1783912    0.3603434     0.8103725   -0.3838894 
   0.014353577     0.8046806   -0.3904040     0.1808853    0.3590828     0.1808305    0.3546995     0.8026835   -0.3874258 
   0.014453602     0.7996565   -0.3851083     0.1830506    0.3585917     0.1809878    0.3605878     0.8028334   -0.3870997 
   0.014553627     0.7972496   -0.3906296     0.1848781    0.3581082     0.1835295    0.3624579     0.8046213   -0.3894220 
   0.014653652     0.8024474   -0.3990050     0.1857231    0.3641182     0.1878744    0.3617941     0.7983683   -0.3918974 
   0.014753677     0.7883422   -0.3942521     0.1913080    0.3617758     0.1858554    0.3647837     0.7984369   -0.3913622 
   0.014853702     0.8074350   -0.3853281     0.1909835    0.3632686     0.1915150    0.3709134     0.7967969   -0.3950008 
   0.014953727     0.7876609   -0.4063458     0.1957724    0.3643355     0.1933336    0.3662099     0.7973297   -0.3968042 
   0.015053752     0.7860463   -0.3962596     0.1884865    0.3604049     0.1952386    0.3681142     0.7890977   -0.4024545 
   0.015153777     0.7955360   -0.4081202     0.2023020    0.3708982     0.2013661    0.3698799     0.7924671   -0.4008656 
   0.015253802     0.7839305   -0.4035244     0.2025934    0.3698427     0.1990343    0.3720485     0.7886463   -0.4003614 
   0.015353827     0.7823815   -0.4132136     0.2118080    0.3707333     0.2026360    0.3707185     0.7871749   -0.4031400 
   0.015453852     0.7955610   -0.4027463     0.2049330    0.3795258     0.2080543    0.3762371     0.7834554   -0.4053984 
   0.015553877     0.7761796   -0.4016834     0.2068897    0.3710798     0.2051536    0.3761688     0.7801273   -0.4062521 
   0.015653902     0.7774502   -0.4057362     0.2084072    0.3742561     0.2100412    0.3778165     0.7796739   -0.4104013 
