! 26-Feb-26 10:44:40 AM
! E:\VNA_MEASUREMENTS\SPDT1\SPDT1_T1_RF1_0.S2P
! CHANNEL.1
! TR.MEASUREMENT
! CORRECTED.DATA
# GHZ S RI R 50.0
! FREQ.GHZ         S11RE         S11IM         S21RE         S21IM         S12RE         S12IM         S22RE         S22IM         
!; PortSelection: Port_12
   0.000050000    -0.6912263   -0.4985058     0.4217949   -0.1550731     0.0016262    0.0060075     1.0307420    0.0596319 
   0.000150025    -0.2350162    0.0663893     0.1141956   -0.2216839     0.0000755    0.0017006     1.0101720   -0.0058522 
   0.000250050    -0.2742186    0.1757361     0.0020253    0.0051657    -0.0004176    0.0029424     1.0017150   -0.0159347 
   0.000350075     1.0823800   -0.0559947    -0.0009656    0.0002496     0.0000436    0.0104730     0.9924580   -0.0278552 
   0.000450100     1.0103300   -0.0231189    -0.0092832    0.0005136    -0.0022024    0.0115300     0.9981702    0.0001856 
   0.000550125     0.9594113   -0.0432313    -0.0045757    0.0032976    -0.0009239    0.0141596     0.9898272   -0.0200575 
   0.000650150     1.0010220   -0.0150437    -0.0075599    0.0060439    -0.0014251    0.0194189     1.0018440   -0.0285258 
   0.000750175     0.9892504   -0.0411171    -0.0130312    0.0126589    -0.0015122    0.0214547     0.9931647   -0.0344863 
   0.000850200     1.0008260   -0.0891956    -0.0093436    0.0133655    -0.0003211    0.0240905     1.0007300   -0.0327049 
   0.000950225     1.0287730   -0.0145993    -0.0080329    0.0184587    -0.0019149    0.0273634     0.9850450   -0.0402799 
   0.001050250     1.0036550   -0.0456040    -0.0132779    0.0257988    -0.0013247    0.0315934     0.9926976   -0.0245289 
   0.001150275     0.9984406   -0.0511817    -0.0110213    0.0287937    -0.0016644    0.0329657     0.9857731   -0.0340830 
   0.001250300     0.9705701   -0.0666413    -0.0046048    0.0358863    -0.0006434    0.0363062     0.9956248   -0.0457651 
   0.001350325     0.9771985   -0.0979029    -0.0084546    0.0374153    -0.0006757    0.0393427     0.9888915   -0.0496215 
   0.001450350     0.9924506   -0.0320741    -0.0118290    0.0397634    -0.0017707    0.0419243     0.9904374   -0.0424334 
   0.001550375     0.9625371   -0.1007789    -0.0105810    0.0468920     0.0010555    0.0464009     1.0012370   -0.0468611 
   0.001650400     1.0013150   -0.0148366    -0.0130107    0.0497594    -0.0008074    0.0492058     0.9790465   -0.0560425 
   0.001750425     0.9927074   -0.0618057    -0.0121892    0.0528325    -0.0002587    0.0526953     0.9906330   -0.0562761 
   0.001850450     0.9394361   -0.0434614    -0.0096935    0.0521115     0.0001880    0.0538372     0.9895809   -0.0616136 
   0.001950475     1.0106440    0.0020781    -0.0080607    0.0609926    -0.0005311    0.0583579     0.9903488   -0.0662016 
   0.002050500     0.9571230   -0.0329232    -0.0078731    0.0618449     0.0000376    0.0615973     0.9987407   -0.0765236 
   0.002150525     0.9997549   -0.0690025    -0.0076818    0.0644141     0.0013434    0.0642518     0.9827328   -0.0769492 
   0.002250550     0.9629623   -0.0852554    -0.0014586    0.0688895     0.0024061    0.0673322     0.9887674   -0.0789364 
   0.002350575     0.9613990   -0.0944154     0.0000828    0.0740724     0.0030602    0.0695669     0.9893201   -0.0838666 
   0.002450600     0.9842068   -0.1263046     0.0014886    0.0759141     0.0030945    0.0745168     0.9913349   -0.0820983 
   0.002550625     0.9866527   -0.0885499     0.0028944    0.0819176     0.0032785    0.0766673     0.9840102   -0.0884767 
   0.002650650     0.9955252   -0.0459368    -0.0031158    0.0799638     0.0020851    0.0809280     0.9887503   -0.0966956 
   0.002750675     0.9688557   -0.0832797     0.0013387    0.0847203     0.0042096    0.0830715     0.9852653   -0.1018768 
   0.002850700     0.9936841   -0.0818366    -0.0003673    0.0884324     0.0056665    0.0884710     0.9872918   -0.1006402 
   0.002950725     0.9846346   -0.0961855     0.0053492    0.0926758     0.0043704    0.0895665     0.9895490   -0.0981651 
   0.003050750     0.9627169   -0.0955173     0.0043327    0.0920614     0.0051960    0.0920781     0.9866416   -0.0966602 
   0.003150775     0.9656779   -0.1566846     0.0082844    0.0980642     0.0087905    0.0950199     0.9850764   -0.1104878 
   0.003250800     0.9798114   -0.0985347     0.0051945    0.1042354     0.0073758    0.0985250     0.9828261   -0.1059168 
   0.003350825     0.9689637   -0.0846542     0.0029468    0.0999471     0.0073764    0.1013191     0.9822903   -0.1110192 
   0.003450850     0.9719247   -0.1394569     0.0096004    0.1077594     0.0102585    0.1055230     0.9876060   -0.1179064 
   0.003550875     0.9819050   -0.1308089     0.0112264    0.1133332     0.0096158    0.1088473     0.9844117   -0.1204027 
   0.003650900     0.9673904   -0.1027623     0.0070460    0.1125346     0.0086638    0.1107470     0.9799732   -0.1208889 
   0.003750925     0.9813425   -0.1322225     0.0096357    0.1150417     0.0117993    0.1125772     0.9716949   -0.1309299 
   0.003850950     0.9817469   -0.1483446     0.0124423    0.1179073     0.0130129    0.1172778     0.9848503   -0.1298543 
   0.003950975     1.0177890   -0.1065058     0.0109708    0.1254710     0.0111815    0.1218054     0.9724420   -0.1253674 
   0.004051001     0.9479191   -0.1539594     0.0122876    0.1251020     0.0132015    0.1209084     0.9739035   -0.1284451 
   0.004151026     0.9886158   -0.1323539     0.0106783    0.1282225     0.0137201    0.1273160     0.9745611   -0.1389548 
   0.004251051     0.9840775   -0.1574289     0.0173096    0.1313401     0.0158702    0.1288621     0.9759877   -0.1400795 
   0.004351076     0.9713255   -0.1282282     0.0134468    0.1356928     0.0159973    0.1310671     0.9735549   -0.1447529 
   0.004451101     0.9791648   -0.1642878     0.0178521    0.1344650     0.0171195    0.1345744     0.9714344   -0.1440647 
   0.004551126     1.0038050   -0.1555867     0.0164462    0.1429114     0.0195315    0.1390983     0.9736084   -0.1464405 
   0.004651151     0.9847636   -0.1555176     0.0178290    0.1460039     0.0193808    0.1418652     0.9746853   -0.1529377 
   0.004751176     0.9750221   -0.1768038     0.0184151    0.1463041     0.0220647    0.1439712     0.9747692   -0.1603974 
   0.004851201     0.9590082   -0.1722538     0.0235724    0.1459922     0.0221610    0.1449158     0.9687991   -0.1606720 
   0.004951226     0.9595104   -0.1382863     0.0192680    0.1511454     0.0198257    0.1498314     0.9677823   -0.1581215 
   0.005051251     0.9985626   -0.1849739     0.0243048    0.1562977     0.0240668    0.1543144     0.9715975   -0.1613197 
   0.005151276     0.9445251   -0.1506985     0.0219817    0.1552663     0.0223624    0.1537944     0.9681028   -0.1654029 
   0.005251301     0.9525759   -0.1417333     0.0225547    0.1611890     0.0229120    0.1576760     0.9688500   -0.1706490 
   0.005351326     0.9639558   -0.1577399     0.0282429    0.1630129     0.0253309    0.1623205     0.9733323   -0.1741324 
   0.005451351     0.9519185   -0.1605974     0.0227919    0.1610982     0.0266450    0.1638587     0.9676919   -0.1808646 
   0.005551376     0.9573602   -0.1792283     0.0297913    0.1646570     0.0272312    0.1663134     0.9586043   -0.1757732 
   0.005651401     0.9610171   -0.1787944     0.0269195    0.1686243     0.0292549    0.1691329     0.9623911   -0.1879843 
   0.005751426     0.9369118   -0.1868059     0.0327643    0.1677578     0.0291705    0.1700811     0.9548492   -0.1835283 
   0.005851451     0.9493278   -0.2163260     0.0359110    0.1758873     0.0333675    0.1738353     0.9574325   -0.1898881 
   0.005951476     0.9491673   -0.1741591     0.0275311    0.1763201     0.0326653    0.1770608     0.9562280   -0.1945699 
   0.006051501     0.9570689   -0.1938011     0.0383840    0.1853664     0.0346216    0.1806599     0.9554412   -0.1942624 
   0.006151526     0.9483070   -0.2073738     0.0398911    0.1824545     0.0376329    0.1811868     0.9533588   -0.2004460 
   0.006251551     0.9541570   -0.1814664     0.0343908    0.1836852     0.0357838    0.1855173     0.9509023   -0.2023112 
   0.006351576     0.9549803   -0.2028182     0.0367879    0.1905351     0.0375513    0.1883520     0.9482146   -0.2026922 
   0.006451601     0.9515259   -0.2026132     0.0375115    0.1928156     0.0400734    0.1915105     0.9471692   -0.2070435 
   0.006551626     0.9278430   -0.2219377     0.0414509    0.1892618     0.0403889    0.1936120     0.9542594   -0.2070257 
   0.006651651     0.9313158   -0.2037847     0.0415015    0.1914522     0.0416058    0.1960812     0.9490971   -0.2143323 
   0.006751676     0.9297832   -0.2251666     0.0422077    0.1993297     0.0432482    0.1985940     0.9504985   -0.2099295 
   0.006851701     0.9481589   -0.2223629     0.0448829    0.2015841     0.0465156    0.2028593     0.9455656   -0.2240693 
   0.006951726     0.9129009   -0.2067987     0.0415260    0.2043064     0.0439491    0.2036316     0.9451097   -0.2202705 
   0.007051751     0.9485923   -0.2330911     0.0507772    0.2080800     0.0486200    0.2076069     0.9401103   -0.2287024 
   0.007151776     0.9057727   -0.2231364     0.0485691    0.2082940     0.0477468    0.2072309     0.9378365   -0.2301906 
   0.007251801     0.9500942   -0.2110562     0.0471922    0.2152469     0.0488555    0.2136072     0.9357842   -0.2284351 
   0.007351826     0.9381922   -0.2401434     0.0524375    0.2169438     0.0533306    0.2149831     0.9393407   -0.2354704 
   0.007451851     0.9097489   -0.2264631     0.0511748    0.2133622     0.0511425    0.2160665     0.9352102   -0.2351151 
   0.007551876     0.9217771   -0.2370836     0.0522786    0.2212949     0.0545466    0.2203926     0.9366794   -0.2387966 
   0.007651901     0.9324989   -0.2669668     0.0601073    0.2237989     0.0584600    0.2215428     0.9350455   -0.2383950 
   0.007751926     0.9259819   -0.2481409     0.0599203    0.2277974     0.0585799    0.2258220     0.9336578   -0.2442775 
   0.007851951     0.9393731   -0.2433925     0.0576299    0.2304281     0.0593304    0.2295040     0.9304386   -0.2446441 
   0.007951976     0.9321601   -0.2818943     0.0638747    0.2329603     0.0630760    0.2296567     0.9273546   -0.2452376 
   0.008052001     0.9351224   -0.2493415     0.0612715    0.2367781     0.0628550    0.2333394     0.9213105   -0.2504196 
   0.008152026     0.9295509   -0.2607541     0.0633918    0.2364115     0.0655558    0.2364579     0.9302029   -0.2545284 
   0.008252051     0.9041227   -0.2436973     0.0616844    0.2374286     0.0634543    0.2364542     0.9214337   -0.2568635 
   0.008352076     0.9157507   -0.2762684     0.0716344    0.2412591     0.0685835    0.2394653     0.9224002   -0.2588546 
   0.008452101     0.9219695   -0.2502947     0.0681416    0.2456723     0.0684151    0.2441602     0.9209014   -0.2622215 
   0.008552126     0.9204525   -0.2777438     0.0758533    0.2447338     0.0724418    0.2449055     0.9215168   -0.2612705 
   0.008652151     0.9205331   -0.2438847     0.0725047    0.2478080     0.0696730    0.2497150     0.9164124   -0.2674453 
   0.008752176     0.9209569   -0.2450498     0.0680933    0.2518079     0.0720446    0.2513260     0.9144306   -0.2698876 
   0.008852201     0.8998377   -0.2556252     0.0725120    0.2480297     0.0733964    0.2524753     0.9151997   -0.2730596 
   0.008952226     0.9242548   -0.2782390     0.0807385    0.2543631     0.0766822    0.2567831     0.9126184   -0.2692105 
   0.009052251     0.9176175   -0.2723872     0.0818450    0.2603526     0.0780460    0.2595259     0.9129932   -0.2756486 
   0.009152276     0.9180951   -0.2847762     0.0842023    0.2619912     0.0816574    0.2603121     0.9089128   -0.2798620 
   0.009252301     0.9110253   -0.2893769     0.0839319    0.2632434     0.0843319    0.2615514     0.9074752   -0.2865920 
   0.009352326     0.9165146   -0.2890885     0.0835098    0.2667690     0.0842172    0.2653467     0.9039623   -0.2820259 
   0.009452351     0.8992043   -0.2884502     0.0905660    0.2655621     0.0851109    0.2661978     0.9031198   -0.2879746 
   0.009552376     0.9114112   -0.2860883     0.0833531    0.2720209     0.0868617    0.2690199     0.8986119   -0.2905215 
   0.009652401     0.8984458   -0.2858690     0.0865375    0.2687680     0.0885783    0.2719716     0.8998247   -0.2928912 
   0.009752426     0.8935338   -0.2946507     0.0918722    0.2712741     0.0904142    0.2719094     0.8965545   -0.2915195 
   0.009852451     0.8957987   -0.3100545     0.0949639    0.2744943     0.0946519    0.2749871     0.8965387   -0.2981817 
   0.009952476     0.8922924   -0.3085695     0.0971320    0.2757028     0.0952572    0.2756024     0.8929232   -0.2970638 
   0.010052501     0.8858086   -0.3078274     0.0967781    0.2779450     0.0947753    0.2799918     0.8956297   -0.2958556 
   0.010152526     0.8834071   -0.2874088     0.0939788    0.2766230     0.0955704    0.2828110     0.8900660   -0.3034270 
   0.010252551     0.8792669   -0.2899868     0.0986083    0.2830861     0.0981283    0.2862357     0.8927436   -0.3068627 
   0.010352576     0.9122692   -0.3219472     0.1019261    0.2912092     0.1057328    0.2873193     0.8828297   -0.3084785 
   0.010452601     0.8946289   -0.3051265     0.1005060    0.2907596     0.1045228    0.2897776     0.8840709   -0.3134484 
   0.010552626     0.8665898   -0.3098485     0.1012509    0.2899101     0.1047827    0.2899400     0.8843352   -0.3141195 
   0.010652651     0.8847098   -0.3055805     0.1083838    0.2934113     0.1073555    0.2928253     0.8798370   -0.3179920 
   0.010752676     0.8921373   -0.3256386     0.1097128    0.2997954     0.1105356    0.2955414     0.8774899   -0.3150277 
   0.010852701     0.8951356   -0.2977613     0.1102991    0.3001353     0.1100860    0.3018222     0.8783854   -0.3160307 
   0.010952726     0.8840509   -0.3338490     0.1166586    0.3017387     0.1148335    0.2985885     0.8740383   -0.3230809 
   0.011052751     0.8727720   -0.3266168     0.1126766    0.3015861     0.1157851    0.3008386     0.8739093   -0.3257124 
   0.011152776     0.8714409   -0.3184082     0.1137438    0.3011548     0.1167053    0.3053241     0.8739282   -0.3283514 
   0.011252801     0.8687543   -0.3321821     0.1184925    0.2993025     0.1191283    0.3046120     0.8687348   -0.3287383 
   0.011352826     0.8701286   -0.3451540     0.1206559    0.3089639     0.1219187    0.3054996     0.8661469   -0.3284183 
   0.011452851     0.8638400   -0.3333110     0.1228509    0.3066324     0.1232780    0.3077815     0.8628898   -0.3361410 
   0.011552876     0.8578036   -0.3394756     0.1261830    0.3085791     0.1258086    0.3097896     0.8646225   -0.3398636 
   0.011652901     0.8604959   -0.3440101     0.1232122    0.3097449     0.1270982    0.3118867     0.8600503   -0.3387876 
   0.011752926     0.8498020   -0.3390975     0.1258348    0.3127076     0.1267400    0.3133872     0.8597080   -0.3400103 
   0.011852951     0.8718627   -0.3496189     0.1302137    0.3226964     0.1334618    0.3193681     0.8602484   -0.3405382 
   0.011952976     0.8487419   -0.3409085     0.1345932    0.3170912     0.1309956    0.3161822     0.8536170   -0.3448814 
   0.012053002     0.8431159   -0.3584121     0.1346519    0.3162524     0.1358635    0.3172318     0.8528433   -0.3490142 
   0.012153027     0.8451093   -0.3615413     0.1383573    0.3177202     0.1376943    0.3204439     0.8545966   -0.3490443 
   0.012253052     0.8459291   -0.3610731     0.1405069    0.3260241     0.1395914    0.3230113     0.8524849   -0.3486193 
   0.012353077     0.8507780   -0.3470481     0.1373759    0.3274502     0.1393621    0.3270765     0.8501172   -0.3508628 
   0.012453102     0.8484522   -0.3579760     0.1473082    0.3260245     0.1443698    0.3253486     0.8442630   -0.3570873 
   0.012553127     0.8335378   -0.3749209     0.1440728    0.3226108     0.1453906    0.3256027     0.8406088   -0.3570955 
   0.012653152     0.8444604   -0.3526908     0.1472765    0.3307286     0.1452341    0.3318554     0.8408170   -0.3577168 
   0.012753177     0.8430821   -0.3601546     0.1482029    0.3324280     0.1484519    0.3339521     0.8393191   -0.3583428 
   0.012853202     0.8392270   -0.3465297     0.1495817    0.3362861     0.1497764    0.3361804     0.8339379   -0.3623996 
   0.012953227     0.8442347   -0.3507608     0.1493637    0.3389107     0.1528250    0.3403304     0.8370631   -0.3649101 
   0.013053252     0.8374799   -0.3683805     0.1517452    0.3369273     0.1549014    0.3397950     0.8337336   -0.3644517 
   0.013153277     0.8351824   -0.3649308     0.1583688    0.3394721     0.1581352    0.3398849     0.8315299   -0.3690827 
   0.013253302     0.8266441   -0.3636127     0.1592473    0.3379244     0.1582860    0.3428882     0.8297106   -0.3672857 
   0.013353327     0.8310367   -0.3616463     0.1586297    0.3430118     0.1603263    0.3462232     0.8278270   -0.3707966 
   0.013453352     0.8343366   -0.3683330     0.1621074    0.3441243     0.1627163    0.3461085     0.8236337   -0.3715211 
   0.013553377     0.8133003   -0.3700846     0.1651973    0.3462055     0.1625401    0.3457720     0.8220229   -0.3750032 
   0.013653402     0.8163995   -0.3734354     0.1633646    0.3453493     0.1666833    0.3463123     0.8196379   -0.3790578 
   0.013753427     0.8165299   -0.3851797     0.1696614    0.3461858     0.1688793    0.3468722     0.8170851   -0.3801768 
   0.013853452     0.8202945   -0.3921916     0.1724503    0.3517571     0.1724172    0.3497120     0.8191021   -0.3774907 
   0.013953477     0.8101934   -0.3645591     0.1669920    0.3554417     0.1703021    0.3561025     0.8159617   -0.3814954 
   0.014053502     0.8202624   -0.3917343     0.1775755    0.3541222     0.1775899    0.3540405     0.8140098   -0.3817784 
   0.014153527     0.8128617   -0.3829097     0.1760068    0.3540685     0.1766148    0.3574161     0.8106734   -0.3835019 
   0.014253552     0.8108816   -0.3805002     0.1813743    0.3607911     0.1796584    0.3597534     0.8108115   -0.3853374 
   0.014353577     0.7963850   -0.3848211     0.1792332    0.3557693     0.1794008    0.3552051     0.8035232   -0.3890780 
   0.014453602     0.7895461   -0.3930265     0.1846127    0.3532557     0.1800866    0.3585616     0.8045322   -0.3879248 
   0.014553627     0.8019713   -0.3867176     0.1834244    0.3604970     0.1851370    0.3638654     0.8042844   -0.3915762 
   0.014653652     0.7990502   -0.3980586     0.1860962    0.3637519     0.1874928    0.3615345     0.7980228   -0.3932220 
   0.014753677     0.7953911   -0.3990487     0.1936692    0.3645787     0.1879972    0.3641337     0.7982504   -0.3911504 
   0.014853702     0.8033766   -0.3894918     0.1926173    0.3613583     0.1919361    0.3688782     0.7951560   -0.3966374 
   0.014953727     0.7859536   -0.4017685     0.1957621    0.3633766     0.1925325    0.3660989     0.7956462   -0.3971001 
   0.015053752     0.7907096   -0.4036107     0.1926806    0.3624795     0.1975785    0.3673118     0.7908617   -0.4016699 
   0.015153777     0.8036053   -0.4081329     0.2022272    0.3742678     0.2031174    0.3713599     0.7915685   -0.3990881 
   0.015253802     0.7767276   -0.4008154     0.2006418    0.3689497     0.1982867    0.3718490     0.7889825   -0.4030265 
   0.015353827     0.7910274   -0.4096004     0.2105559    0.3746775     0.2049183    0.3710896     0.7848068   -0.4037651 
   0.015453852     0.7764248   -0.4054494     0.2047845    0.3701172     0.2027255    0.3738566     0.7849599   -0.4047378 
   0.015553877     0.7745877   -0.4108793     0.2107872    0.3701527     0.2068677    0.3745615     0.7819911   -0.4084021 
   0.015653902     0.7758812   -0.4088993     0.2096126    0.3734693     0.2120380    0.3778484     0.7821677   -0.4143665 
