! 26-Feb-26 2:21:37 PM
! E:\VNA_MEASUREMENTS\HEATED_LOAD\FULL_HEATED_LOAD_2.S2P
! CHANNEL.1
! TR.MEASUREMENT
! CORRECTED.DATA
# GHZ S RI R 50.0
! FREQ.GHZ         S11RE         S11IM         S21RE         S21IM         S12RE         S12IM         S22RE         S22IM         
!; PortSelection: Port_12
   0.000050000     0.1968668    0.9328372     0.1476995    0.9168022    -0.0007988    0.0001687    -0.0059012    0.0017536 
   0.000150025    -0.2760383   -0.6808106     0.6553168    0.8411701     0.0000906   -0.0016112     0.0033479   -0.0044621 
   0.000250050     1.5799890   -1.0142350     0.4791394    1.2412180     0.0034193   -0.0000916     0.0001896   -0.0008780 
   0.000350075     0.0108160   -0.0021471     0.0008576   -0.0054188     0.0004030   -0.0007405    -0.0018082   -0.0024070 
   0.000450100     0.0088770   -0.0017196     0.0001412   -0.0073024     0.0002171    0.0002234    -0.0014896   -0.0018537 
   0.000550125    -0.0010219    0.0046684    -0.0016882   -0.0065726    -0.0009577   -0.0000298     0.0004016    0.0005109 
   0.000650150     0.0042978   -0.0004581    -0.0042958   -0.0057101    -0.0003849   -0.0001758     0.0013124   -0.0019140 
   0.000750175     0.0010560    0.0027667    -0.0046283   -0.0058345    -0.0000534    0.0000599    -0.0000622    0.0003566 
   0.000850200     0.0052747   -0.0043522    -0.0024289   -0.0044290    -0.0002896   -0.0000720    -0.0005289    0.0002705 
   0.000950225     0.0070594    0.0010184    -0.0051572   -0.0046037    -0.0004138    0.0009531     0.0002048    0.0009613 
   0.001050250     0.0058494   -0.0004969    -0.0069428   -0.0036892     0.0001838    0.0011040     0.0008123    0.0012410 
   0.001150275     0.0080281    0.0007678    -0.0055362   -0.0034642     0.0001667    0.0001353     0.0009569    0.0007593 
   0.001250300     0.0027555   -0.0011351    -0.0059346   -0.0044399    -0.0002424   -0.0000893     0.0007506   -0.0002594 
   0.001350325     0.0034568    0.0013372    -0.0046924   -0.0023655     0.0001929   -0.0000262    -0.0007214   -0.0002261 
   0.001450350     0.0047222    0.0011025    -0.0036302   -0.0026701     0.0002498   -0.0004461    -0.0002365    0.0007791 
   0.001550375     0.0082625    0.0020184    -0.0044686   -0.0016503    -0.0000060    0.0001694     0.0009729   -0.0002458 
   0.001650400     0.0091966   -0.0008328    -0.0047261   -0.0015627     0.0000822    0.0002505     0.0003299    0.0002205 
   0.001750425     0.0100192   -0.0011527    -0.0062082    0.0013406     0.0000932    0.0004767    -0.0007763    0.0003845 
   0.001850450     0.0092544    0.0005408    -0.0024225    0.0002190    -0.0003506    0.0002244    -0.0004422    0.0009167 
   0.001950475     0.0060005   -0.0009180    -0.0024887   -0.0004363    -0.0002782   -0.0004686     0.0012399   -0.0001597 
   0.002050500     0.0075716    0.0034089    -0.0052058    0.0006324    -0.0000688    0.0000040     0.0001313    0.0004331 
   0.002150525     0.0045346    0.0015605    -0.0040075    0.0019121     0.0002642    0.0002542     0.0005206    0.0007170 
   0.002250550     0.0101929    0.0020823    -0.0021901   -0.0004993     0.0003557   -0.0000522    -0.0000079   -0.0003519 
   0.002350575     0.0055760   -0.0034310    -0.0020577    0.0013890     0.0000075    0.0005650     0.0006255   -0.0008374 
   0.002450600     0.0049006    0.0013366    -0.0004445    0.0016095     0.0000554    0.0002434    -0.0009087    0.0008758 
   0.002550625     0.0034931   -0.0065895    -0.0033679    0.0011773    -0.0002038    0.0002787     0.0003409    0.0004265 
   0.002650650     0.0052775    0.0033464    -0.0027899    0.0020187    -0.0003309   -0.0000912    -0.0007478    0.0005560 
   0.002750675     0.0055283    0.0012131    -0.0025158   -0.0006199    -0.0003726    0.0004870    -0.0010603    0.0004960 
   0.002850700     0.0078423    0.0017270    -0.0002040    0.0014221     0.0003403    0.0000033     0.0001703    0.0002176 
   0.002950725     0.0111606    0.0014957    -0.0021295    0.0026362     0.0001567   -0.0002565     0.0010923    0.0002057 
   0.003050750     0.0060784   -0.0004561    -0.0012848    0.0018183    -0.0001905   -0.0003161     0.0004235   -0.0008117 
   0.003150775     0.0056697   -0.0006223    -0.0012782    0.0010057     0.0001922   -0.0001583     0.0000065   -0.0002016 
   0.003250800     0.0069905   -0.0014828    -0.0016050    0.0002949    -0.0001967   -0.0003131    -0.0003878   -0.0000796 
   0.003350825     0.0069516    0.0022155    -0.0023717    0.0022339     0.0003365    0.0001861     0.0001586    0.0004568 
   0.003450850     0.0089426   -0.0014386    -0.0015944    0.0006668    -0.0000739    0.0001520     0.0001044   -0.0001306 
   0.003550875     0.0093010   -0.0011083    -0.0009622    0.0009391    -0.0002528    0.0001514    -0.0001301   -0.0004688 
   0.003650900     0.0069560    0.0021211    -0.0003814    0.0015745     0.0002996    0.0002831     0.0005493    0.0002324 
   0.003750925     0.0066455   -0.0021755    -0.0003396    0.0010741     0.0001760   -0.0001345    -0.0003265   -0.0004065 
   0.003850950     0.0068997   -0.0023937    -0.0027834    0.0011574     0.0000288    0.0000446     0.0000350    0.0008537 
   0.003950975     0.0044947    0.0023257    -0.0017539   -0.0002214    -0.0003096   -0.0002282    -0.0003959   -0.0010936 
   0.004051001     0.0074216   -0.0022827    -0.0004181    0.0020466    -0.0002463    0.0001395     0.0000815    0.0002715 
   0.004151026     0.0064986    0.0035550     0.0003845    0.0006679    -0.0002327   -0.0003725     0.0001488   -0.0005905 
   0.004251051     0.0033160    0.0010083    -0.0013021    0.0000862    -0.0000187    0.0002794     0.0004220   -0.0003618 
   0.004351076     0.0072198   -0.0001781     0.0003775    0.0011384    -0.0001829   -0.0000771     0.0002882    0.0003472 
   0.004451101     0.0070332    0.0002755    -0.0010405    0.0017530    -0.0001499    0.0003891     0.0003031    0.0001527 
   0.004551126     0.0064824   -0.0026501    -0.0008944    0.0003596     0.0000824   -0.0000687    -0.0008236    0.0006045 
   0.004651151     0.0098438   -0.0009247    -0.0013056   -0.0021139    -0.0001064   -0.0001271     0.0004019    0.0004011 
   0.004751176     0.0076360    0.0025380     0.0008254    0.0007368    -0.0001813   -0.0002287     0.0000143    0.0001589 
   0.004851201     0.0077182   -0.0010251    -0.0003049    0.0007384     0.0000385    0.0001218     0.0006406    0.0004612 
   0.004951226     0.0065689   -0.0017053    -0.0000603   -0.0000373     0.0001819   -0.0000018     0.0004315    0.0000842 
   0.005051251     0.0070529    0.0002990     0.0002631    0.0007837    -0.0001592    0.0000342     0.0006985   -0.0003680 
   0.005151276     0.0058973    0.0028288     0.0000204    0.0011040     0.0001087    0.0002625     0.0003906   -0.0006441 
   0.005251301     0.0055384    0.0007179    -0.0003288   -0.0002942    -0.0000746    0.0001023     0.0001331    0.0010652 
   0.005351326     0.0078303    0.0015319    -0.0003493    0.0006933    -0.0002520   -0.0002035     0.0008763   -0.0002289 
   0.005451351     0.0088356   -0.0001315    -0.0004813    0.0003581    -0.0000116   -0.0001401     0.0002097   -0.0000536 
   0.005551376     0.0036598    0.0007953     0.0001122    0.0008803    -0.0001246   -0.0001322     0.0000955    0.0000739 
   0.005651401     0.0105869    0.0019833    -0.0002130    0.0000028     0.0000436   -0.0003780     0.0000760   -0.0003800 
   0.005751426     0.0086342    0.0011678    -0.0010745    0.0017118    -0.0000198   -0.0000389     0.0006697   -0.0000766 
   0.005851451     0.0083220   -0.0006833    -0.0003521   -0.0000973     0.0002524   -0.0000297    -0.0000198   -0.0000539 
   0.005951476     0.0084700    0.0001473    -0.0008524    0.0003273    -0.0000176   -0.0002643    -0.0000395    0.0002745 
   0.006051501     0.0063311    0.0002142     0.0001915   -0.0006833    -0.0002646    0.0002300    -0.0004058   -0.0002311 
   0.006151526     0.0077716   -0.0002009    -0.0001508    0.0010382     0.0002745   -0.0001707     0.0001037   -0.0005176 
   0.006251551     0.0071183   -0.0018876    -0.0007365   -0.0001783     0.0000423    0.0000627    -0.0000557   -0.0000213 
   0.006351576     0.0056638    0.0003912    -0.0010233    0.0018630    -0.0000462   -0.0001084     0.0000350   -0.0002896 
   0.006451601     0.0033700    0.0025669    -0.0004013    0.0003880    -0.0001494    0.0002477     0.0003888    0.0002712 
   0.006551626     0.0058403    0.0008268     0.0003668   -0.0002154     0.0002122   -0.0001913    -0.0005257   -0.0002677 
   0.006651651     0.0061794    0.0006690     0.0004468    0.0004768     0.0001079    0.0001003     0.0003656    0.0002690 
   0.006751676     0.0066817   -0.0004326    -0.0003403    0.0001783     0.0002524    0.0000253     0.0003311    0.0003771 
   0.006851701     0.0088517    0.0023139     0.0000085    0.0011402    -0.0001982   -0.0001372     0.0000480    0.0000144 
   0.006951726     0.0085584    0.0009096     0.0006775   -0.0012303    -0.0000337    0.0000253     0.0004737    0.0008797 
   0.007051751     0.0072251    0.0000112     0.0007593    0.0007514     0.0001912    0.0002076     0.0006061   -0.0001799 
   0.007151776     0.0080566    0.0003378    -0.0001786    0.0006346     0.0002252    0.0001186     0.0003646    0.0003450 
   0.007251801     0.0084391    0.0022332     0.0002568    0.0001806     0.0000551   -0.0000712     0.0003350   -0.0000691 
   0.007351826     0.0088084   -0.0021513    -0.0000170    0.0008227    -0.0001912   -0.0001588     0.0004327    0.0003681 
   0.007451851     0.0086687    0.0014600     0.0001540    0.0002462     0.0002605    0.0001669     0.0003003   -0.0000449 
   0.007551876     0.0080742    0.0016632     0.0004867    0.0000508     0.0002162   -0.0001714     0.0007336   -0.0004255 
   0.007651901     0.0074954    0.0010949    -0.0002950   -0.0006561    -0.0001725   -0.0001724    -0.0003549    0.0001136 
   0.007751926     0.0077157    0.0007588    -0.0009165   -0.0001772    -0.0002009   -0.0000405    -0.0001338   -0.0006683 
   0.007851951     0.0066051    0.0022920     0.0005170    0.0000646     0.0001609   -0.0001638     0.0003245   -0.0002213 
   0.007951976     0.0067670   -0.0006890     0.0002753   -0.0003294    -0.0001358    0.0001766     0.0003724    0.0000975 
   0.008052001     0.0069481    0.0010376    -0.0003594    0.0002058    -0.0004250    0.0000209     0.0001974    0.0000294 
   0.008152026     0.0072540    0.0005312     0.0001802    0.0002391     0.0001493    0.0002380     0.0004119   -0.0000577 
   0.008252051     0.0070778   -0.0020278    -0.0007652    0.0002612    -0.0000154    0.0001923     0.0003859    0.0002361 
   0.008352076     0.0079604   -0.0008340     0.0000568    0.0001792     0.0002501    0.0001173     0.0004217   -0.0000561 
   0.008452101     0.0065441   -0.0012350    -0.0000818    0.0012389     0.0003922    0.0002163     0.0004506   -0.0009101 
   0.008552126     0.0077939    0.0016277     0.0000656   -0.0009938    -0.0000152   -0.0000831    -0.0000193    0.0004880 
   0.008652151     0.0070590   -0.0011489     0.0000332   -0.0004054     0.0000697   -0.0002878     0.0004526   -0.0001232 
   0.008752176     0.0068242    0.0016548    -0.0004363    0.0012015     0.0000796    0.0000541     0.0001828   -0.0005862 
   0.008852201     0.0076529   -0.0018218    -0.0005573   -0.0004042    -0.0000875   -0.0000335     0.0001165    0.0001375 
   0.008952226     0.0076375    0.0004343     0.0005841   -0.0003460    -0.0000116    0.0001143     0.0006347   -0.0003569 
   0.009052251     0.0072460    0.0007030     0.0003216   -0.0007770    -0.0001657    0.0003611     0.0003095   -0.0000427 
   0.009152276     0.0072419    0.0004023     0.0009253   -0.0003475     0.0002658    0.0001352     0.0008933    0.0002101 
   0.009252301     0.0069965   -0.0005529     0.0005816    0.0000532    -0.0004145   -0.0001300    -0.0001115   -0.0000821 
   0.009352326     0.0062559    0.0015803     0.0001541    0.0002411    -0.0001095    0.0003678    -0.0002196   -0.0002098 
   0.009452351     0.0081441    0.0007949    -0.0011823   -0.0002168    -0.0002119    0.0002866     0.0001423    0.0000195 
   0.009552376     0.0086027   -0.0001507    -0.0001259   -0.0008510     0.0000380   -0.0000529     0.0000753   -0.0000317 
   0.009652401     0.0077213    0.0012787    -0.0005800   -0.0013500    -0.0000455   -0.0000219     0.0000066   -0.0000594 
   0.009752426     0.0078870    0.0002653    -0.0001738    0.0001481     0.0000228    0.0002552     0.0004016    0.0002921 
   0.009852451     0.0083498   -0.0005669    -0.0001520   -0.0002332     0.0001265    0.0000757     0.0002918    0.0001743 
   0.009952476     0.0089379    0.0002068    -0.0000200    0.0005854     0.0000972    0.0002067     0.0002353    0.0003553 
   0.010052501     0.0079736   -0.0003018    -0.0000765   -0.0006372    -0.0001548   -0.0001397    -0.0000262   -0.0002635 
   0.010152526     0.0071645    0.0008697    -0.0012370    0.0002123     0.0000680    0.0000494    -0.0002388   -0.0000084 
   0.010252551     0.0073912    0.0001674    -0.0002959   -0.0008141     0.0001135   -0.0000396     0.0003511   -0.0000544 
   0.010352576     0.0082463   -0.0014597     0.0000263   -0.0008149    -0.0002113    0.0002663     0.0002830   -0.0000277 
   0.010452601     0.0072513    0.0001836    -0.0001376   -0.0006308    -0.0002590   -0.0000267     0.0003541   -0.0002771 
   0.010552626     0.0071945   -0.0000673    -0.0003878   -0.0006793     0.0001043   -0.0000087     0.0000410   -0.0001623 
   0.010652651     0.0090503    0.0000504    -0.0009177   -0.0003658    -0.0000393   -0.0001372     0.0000010   -0.0005119 
   0.010752676     0.0075462    0.0004837     0.0008161   -0.0001793     0.0000004    0.0000264     0.0000626   -0.0001215 
   0.010852701     0.0079497    0.0013585    -0.0007382   -0.0001006     0.0000412   -0.0001120    -0.0000365   -0.0001222 
   0.010952726     0.0073514   -0.0000878    -0.0001184   -0.0001123    -0.0000334    0.0000332    -0.0007423   -0.0001730 
   0.011052751     0.0077688    0.0007609     0.0002066   -0.0008098    -0.0002573   -0.0001864     0.0003775    0.0002201 
   0.011152776     0.0075176    0.0015340     0.0000970   -0.0000306     0.0003341    0.0000298    -0.0001018    0.0001238 
   0.011252801     0.0084465   -0.0002149    -0.0002192    0.0001470    -0.0002472   -0.0000603    -0.0000253    0.0003125 
   0.011352826     0.0078991    0.0000368    -0.0004648   -0.0007600    -0.0000822   -0.0000761     0.0001150   -0.0003795 
   0.011452851     0.0069547    0.0005542    -0.0006906   -0.0000385    -0.0001440    0.0000324     0.0003639   -0.0001646 
   0.011552876     0.0076802    0.0017004    -0.0004399   -0.0009724     0.0000908   -0.0001000     0.0005968   -0.0000468 
   0.011652901     0.0092518    0.0004930    -0.0006200    0.0002858     0.0002095    0.0001960     0.0000129    0.0003269 
   0.011752926     0.0080725    0.0008911    -0.0002880   -0.0001115    -0.0000679    0.0001146     0.0001104   -0.0000214 
   0.011852951     0.0081574    0.0002794    -0.0005438    0.0001302    -0.0000596   -0.0001097     0.0001731   -0.0001390 
   0.011952976     0.0073707   -0.0000346     0.0003122   -0.0001393     0.0000169    0.0000808    -0.0000868    0.0002213 
   0.012053002     0.0079345   -0.0001283    -0.0001585   -0.0004969    -0.0001962    0.0001719     0.0004574    0.0001976 
   0.012153027     0.0079403    0.0001379    -0.0001542    0.0000706    -0.0000541   -0.0002891     0.0004588   -0.0004307 
   0.012253052     0.0084874    0.0015464    -0.0002135   -0.0005298     0.0001508    0.0001017     0.0004435    0.0002017 
   0.012353077     0.0089137    0.0009094    -0.0004112   -0.0000573    -0.0000657    0.0000590    -0.0001120    0.0001195 
   0.012453102     0.0063394    0.0003559    -0.0000625    0.0011398    -0.0000499   -0.0001292     0.0004039   -0.0004764 
   0.012553127     0.0098390   -0.0002171    -0.0002792   -0.0002355    -0.0002582    0.0002352     0.0004857   -0.0001643 
   0.012653152     0.0061608   -0.0000408     0.0003858   -0.0010172    -0.0000239    0.0000295    -0.0001825   -0.0001443 
   0.012753177     0.0081314   -0.0008088    -0.0012174   -0.0004530     0.0000758    0.0001243    -0.0002752   -0.0004990 
   0.012853202     0.0062392   -0.0007721     0.0003130    0.0007775    -0.0001901   -0.0000302     0.0003120    0.0003695 
   0.012953227     0.0078939   -0.0006544    -0.0001299   -0.0002670    -0.0000278   -0.0000745     0.0004922    0.0004127 
   0.013053252     0.0071412    0.0010421     0.0007961    0.0000854     0.0000370   -0.0000483     0.0002367    0.0001976 
   0.013153277     0.0089542    0.0002507    -0.0007242   -0.0005408    -0.0000299    0.0001705     0.0001650   -0.0000703 
   0.013253302     0.0074056    0.0005066     0.0005595    0.0006161    -0.0002343    0.0000260     0.0003197   -0.0000811 
   0.013353327     0.0067303    0.0021461    -0.0005709   -0.0004970     0.0000610   -0.0000360     0.0001168   -0.0002681 
   0.013453352     0.0074217    0.0003171     0.0001517   -0.0006516     0.0000271    0.0002776     0.0004592    0.0000605 
   0.013553377     0.0082238    0.0007823    -0.0005351    0.0001532     0.0000910   -0.0000821     0.0002352   -0.0004326 
   0.013653402     0.0079824    0.0004721    -0.0001143   -0.0000718    -0.0000680    0.0001619     0.0005758    0.0000853 
   0.013753427     0.0078986    0.0008324     0.0000912    0.0000753     0.0000786   -0.0000611     0.0000461    0.0002053 
   0.013853452     0.0089548    0.0002145    -0.0006857    0.0009297    -0.0001827    0.0001082     0.0003168   -0.0003989 
   0.013953477     0.0090754    0.0006676    -0.0004298    0.0010726     0.0002134    0.0002669     0.0003790   -0.0002896 
   0.014053502     0.0070085   -0.0015697     0.0003222   -0.0002183     0.0002482   -0.0000961    -0.0000977   -0.0001655 
   0.014153527     0.0088051    0.0010867     0.0003991   -0.0000890     0.0003945    0.0000937     0.0006470    0.0005111 
   0.014253552     0.0079762    0.0000243    -0.0000131   -0.0000602     0.0001698   -0.0000209     0.0003202   -0.0003804 
   0.014353577     0.0071890    0.0013432     0.0001666    0.0001739     0.0000876   -0.0000796     0.0004766    0.0000091 
   0.014453602     0.0059854    0.0004449     0.0002811   -0.0004220    -0.0002000    0.0001853     0.0002051   -0.0000291 
   0.014553627     0.0081172   -0.0003638    -0.0008921    0.0001642    -0.0003774    0.0002616     0.0003442    0.0001101 
   0.014653652     0.0083909    0.0011434     0.0008889   -0.0002761     0.0000744   -0.0001570     0.0004097   -0.0003155 
   0.014753677     0.0070145   -0.0005048    -0.0006287    0.0000850    -0.0000663   -0.0001623     0.0002336   -0.0004452 
   0.014853702     0.0106615   -0.0009716    -0.0002634    0.0002205     0.0000183   -0.0001481     0.0003036    0.0003086 
   0.014953727     0.0091904   -0.0003162    -0.0004838   -0.0010326    -0.0000194    0.0000631     0.0004125   -0.0002644 
   0.015053752     0.0071290   -0.0006895     0.0009794   -0.0006964    -0.0000973    0.0000662     0.0002696    0.0001592 
   0.015153777     0.0073228    0.0006829     0.0002280    0.0000986    -0.0000131    0.0000220     0.0001709   -0.0001939 
   0.015253802     0.0081046    0.0022270     0.0003657    0.0013369    -0.0000742    0.0001252     0.0001586   -0.0004291 
   0.015353827     0.0072213   -0.0004957    -0.0007119    0.0006435    -0.0000668   -0.0002101     0.0007032   -0.0001914 
   0.015453852     0.0077751   -0.0002351    -0.0005575    0.0001969     0.0000674   -0.0001674     0.0003236    0.0001000 
   0.015553877     0.0073892    0.0005219    -0.0007204    0.0000388    -0.0000761    0.0001170     0.0001209   -0.0000203 
   0.015653902     0.0101407   -0.0002698    -0.0010732    0.0003264    -0.0000018   -0.0000183     0.0002931    0.0002036 
