! 26-Feb-26 2:20:38 PM
! E:\VNA_MEASUREMENTS\HEATED_LOAD\FULL_HEATED_LOAD_1.S2P
! CHANNEL.1
! TR.MEASUREMENT
! CORRECTED.DATA
# GHZ S RI R 50.0
! FREQ.GHZ         S11RE         S11IM         S21RE         S21IM         S12RE         S12IM         S22RE         S22IM         
!; PortSelection: Port_12
   0.000050000    -0.0612810   -0.3293019     0.4595302   -0.1155911     0.0045108    0.0063732    -0.0065325    0.0114707 
   0.000150025    -0.0860767    0.1043619    -0.1434662    0.0161106    -0.0002649   -0.0001994     0.0014728   -0.0038147 
   0.000250050     0.3735359    0.0415348     0.1957426   -0.2477956    -0.0005977    0.0009379     0.0015510   -0.0025837 
   0.000350075     0.0094209   -0.0023536    -0.0019183   -0.0061807     0.0002988    0.0000965    -0.0011604   -0.0016090 
   0.000450100     0.0063492   -0.0116122    -0.0017159   -0.0063506    -0.0000342   -0.0002838     0.0001753   -0.0015737 
   0.000550125     0.0069092    0.0032681    -0.0014334   -0.0042969    -0.0005079    0.0001038     0.0003027    0.0008929 
   0.000650150     0.0040037   -0.0010113    -0.0032810   -0.0060314    -0.0004098    0.0002647     0.0007021   -0.0008405 
   0.000750175     0.0028183   -0.0006228    -0.0043350   -0.0014099     0.0005187   -0.0001270    -0.0009078    0.0011107 
   0.000850200     0.0046766   -0.0013397    -0.0053297   -0.0049594    -0.0002903   -0.0000012    -0.0010188   -0.0003577 
   0.000950225     0.0089381    0.0065092    -0.0027098   -0.0041331     0.0002919   -0.0003223     0.0003590    0.0006262 
   0.001050250     0.0028569    0.0020491    -0.0063007   -0.0028567    -0.0001501    0.0000145     0.0008997   -0.0000443 
   0.001150275     0.0078159    0.0003549    -0.0058902   -0.0021733    -0.0000230    0.0001637     0.0001734    0.0010272 
   0.001250300     0.0050499   -0.0014713    -0.0068781   -0.0029551    -0.0005768   -0.0010582     0.0011900    0.0006791 
   0.001350325     0.0062864   -0.0034840    -0.0046794   -0.0014739    -0.0005169    0.0002147    -0.0003967   -0.0006642 
   0.001450350     0.0032459   -0.0001168    -0.0025826   -0.0050840    -0.0001595   -0.0002095    -0.0010192    0.0008131 
   0.001550375     0.0077877    0.0009285    -0.0055741   -0.0001038    -0.0005647   -0.0002458     0.0008503   -0.0003612 
   0.001650400     0.0083058    0.0014196    -0.0045123   -0.0020322    -0.0003646    0.0000060    -0.0004857   -0.0000704 
   0.001750425     0.0076446   -0.0013158    -0.0058802    0.0007974     0.0005081    0.0001428     0.0003450    0.0004213 
   0.001850450     0.0073145   -0.0026345    -0.0071996   -0.0004001     0.0000433   -0.0000556    -0.0010119    0.0003762 
   0.001950475     0.0053424    0.0030457    -0.0040335   -0.0010734     0.0002654   -0.0003361     0.0010080   -0.0009322 
   0.002050500     0.0090900    0.0026262    -0.0039728    0.0019173     0.0001441   -0.0003208     0.0007767    0.0004334 
   0.002150525     0.0014912   -0.0033008    -0.0042405   -0.0000304     0.0002218    0.0003013     0.0002865    0.0000087 
   0.002250550     0.0107553   -0.0000475    -0.0028372   -0.0004870     0.0000524   -0.0003673     0.0002401   -0.0006160 
   0.002350575     0.0040769    0.0005681    -0.0034605    0.0021372    -0.0005331    0.0000473    -0.0001487   -0.0009752 
   0.002450600     0.0057384    0.0017312    -0.0022883    0.0023777     0.0000846    0.0002091     0.0003459    0.0001004 
   0.002550625     0.0077774   -0.0021150    -0.0035762    0.0002827    -0.0000110   -0.0001360     0.0003381    0.0007577 
   0.002650650     0.0067738    0.0057096    -0.0018685    0.0020651     0.0001191    0.0000573     0.0002751    0.0006095 
   0.002750675     0.0043025   -0.0011279    -0.0030199    0.0014909     0.0000030   -0.0004395    -0.0005589   -0.0000231 
   0.002850700     0.0064242    0.0016877    -0.0040622    0.0019623    -0.0003221   -0.0001899    -0.0002875   -0.0004042 
   0.002950725     0.0089020   -0.0011654    -0.0012634    0.0021589    -0.0001720    0.0001939     0.0014280    0.0007279 
   0.003050750     0.0066633   -0.0016992    -0.0009035    0.0030036     0.0000969    0.0000290     0.0000654   -0.0001531 
   0.003150775     0.0036672   -0.0014916    -0.0016537    0.0010261    -0.0004508   -0.0002996    -0.0001270    0.0000857 
   0.003250800     0.0066265   -0.0025986    -0.0016149    0.0021247     0.0001424   -0.0002371     0.0002083    0.0004315 
   0.003350825     0.0050316    0.0008494    -0.0033528    0.0002312     0.0007376    0.0000771     0.0000952    0.0006871 
   0.003450850     0.0070364    0.0009483    -0.0024930    0.0013483     0.0001962   -0.0001953    -0.0000490   -0.0002775 
   0.003550875     0.0053584    0.0001014     0.0001286    0.0009980    -0.0000343    0.0000499     0.0002619   -0.0007619 
   0.003650900     0.0070024    0.0000254     0.0001292   -0.0002073    -0.0000703   -0.0000235     0.0002403    0.0001915 
   0.003750925     0.0035135   -0.0029083    -0.0008476    0.0013996     0.0000740   -0.0002122     0.0002831   -0.0004762 
   0.003850950     0.0080549    0.0000166    -0.0006839    0.0012457    -0.0001756    0.0003540    -0.0004710    0.0006059 
   0.003950975     0.0061867    0.0039539    -0.0002370    0.0008175     0.0005772    0.0000367    -0.0005553   -0.0005815 
   0.004051001     0.0091299   -0.0008432    -0.0002754    0.0017758     0.0000530   -0.0002637    -0.0000188   -0.0000502 
   0.004151026     0.0077683    0.0005916    -0.0005803    0.0001776    -0.0001460    0.0003669    -0.0005037    0.0003650 
   0.004251051     0.0014366    0.0034216     0.0005923    0.0008422     0.0000326    0.0001217    -0.0009136    0.0003352 
   0.004351076     0.0073597    0.0003855     0.0003719    0.0019292     0.0001536    0.0002946     0.0004674   -0.0002322 
   0.004451101     0.0040607    0.0003890     0.0001089   -0.0011722     0.0001583   -0.0005252     0.0011982   -0.0003528 
   0.004551126     0.0064801   -0.0009648     0.0000861    0.0009688    -0.0001894   -0.0002369    -0.0003939    0.0004424 
   0.004651151     0.0097384   -0.0004183    -0.0004142    0.0002732     0.0001153    0.0001406     0.0003546    0.0001072 
   0.004751176     0.0069574    0.0006421     0.0007144    0.0005243    -0.0003037   -0.0000771     0.0001457   -0.0003518 
   0.004851201     0.0067046   -0.0003749    -0.0017106    0.0008485    -0.0000045    0.0001978     0.0003621    0.0005082 
   0.004951226     0.0070964   -0.0004767    -0.0003558    0.0001490     0.0002459    0.0002276     0.0002465    0.0000087 
   0.005051251     0.0081075    0.0015083    -0.0003910    0.0003334     0.0003304    0.0004267     0.0004539   -0.0003466 
   0.005151276     0.0064414   -0.0009882     0.0002230    0.0012455     0.0002868    0.0001881     0.0000377   -0.0003428 
   0.005251301     0.0046664    0.0017959    -0.0002419    0.0010446     0.0001381    0.0000556     0.0009516    0.0010413 
   0.005351326     0.0078993    0.0018396     0.0000060   -0.0006722     0.0001147   -0.0002986     0.0010704    0.0003093 
   0.005451351     0.0079728    0.0004279    -0.0007076    0.0000623    -0.0000963    0.0002954     0.0001741    0.0003471 
   0.005551376     0.0043428    0.0018164     0.0001817    0.0020284     0.0001770   -0.0001105     0.0004481   -0.0002944 
   0.005651401     0.0120450    0.0010328     0.0003476    0.0003116     0.0001030    0.0000786    -0.0000880   -0.0002209 
   0.005751426     0.0076691    0.0000667     0.0006438   -0.0002501     0.0005151   -0.0000790     0.0000170    0.0006241 
   0.005851451     0.0081964    0.0006274    -0.0001602   -0.0006300    -0.0003565   -0.0002587    -0.0003212   -0.0000737 
   0.005951476     0.0082056   -0.0000012     0.0005400   -0.0006054     0.0002272    0.0003790     0.0005585    0.0002599 
   0.006051501     0.0066729    0.0002605    -0.0003869    0.0000197    -0.0001895   -0.0001511    -0.0003097   -0.0002174 
   0.006151526     0.0074089    0.0014782     0.0002653   -0.0000509    -0.0000642   -0.0001415     0.0009514   -0.0001633 
   0.006251551     0.0064523   -0.0001951    -0.0006727    0.0004440     0.0002198   -0.0002408     0.0004046    0.0000619 
   0.006351576     0.0051526   -0.0009560    -0.0001896   -0.0003500     0.0000974   -0.0000998     0.0001446    0.0000030 
   0.006451601     0.0050416    0.0017290    -0.0002662   -0.0011658     0.0002299    0.0001407     0.0001593    0.0004042 
   0.006551626     0.0064547    0.0001100    -0.0001749    0.0007914    -0.0003273    0.0000576    -0.0006417    0.0001114 
   0.006651651     0.0067783    0.0004108    -0.0009439   -0.0002097     0.0000219    0.0002515     0.0003402   -0.0003152 
   0.006751676     0.0074762   -0.0008819     0.0004818    0.0001239    -0.0001258   -0.0000744     0.0007197    0.0001696 
   0.006851701     0.0089841   -0.0002590     0.0003997   -0.0004990     0.0003831    0.0001713    -0.0003775   -0.0002245 
   0.006951726     0.0065236   -0.0004615    -0.0002353    0.0009352     0.0001254   -0.0001232     0.0007111    0.0007654 
   0.007051751     0.0077816   -0.0000300    -0.0002101   -0.0004852     0.0000428   -0.0000401     0.0001125   -0.0008348 
   0.007151776     0.0075245   -0.0007317     0.0015290    0.0015798    -0.0001943    0.0000041     0.0006841    0.0003704 
   0.007251801     0.0074017    0.0013310    -0.0010520   -0.0009443     0.0000306    0.0001259     0.0007321    0.0000989 
   0.007351826     0.0091641   -0.0005335     0.0009975    0.0010226     0.0001371   -0.0000536     0.0006957    0.0003201 
   0.007451851     0.0075791    0.0010804    -0.0001125    0.0007261     0.0000851   -0.0003974     0.0001222   -0.0000602 
   0.007551876     0.0081017    0.0002658    -0.0000157    0.0002542     0.0000047    0.0002573     0.0003562   -0.0002931 
   0.007651901     0.0064009    0.0005241     0.0001884   -0.0004361     0.0000945   -0.0002089    -0.0001617    0.0003348 
   0.007751926     0.0059035   -0.0005861     0.0004817   -0.0004378    -0.0002202   -0.0001364    -0.0001963   -0.0001467 
   0.007851951     0.0064478    0.0017301    -0.0002189   -0.0005563    -0.0000095    0.0000881     0.0003125   -0.0001989 
   0.007951976     0.0081700   -0.0002284     0.0000410   -0.0006404    -0.0000477   -0.0002194    -0.0002171    0.0002495 
   0.008052001     0.0071774   -0.0005782    -0.0002749    0.0007821    -0.0000052   -0.0000816     0.0003150    0.0002713 
   0.008152026     0.0083019    0.0014153    -0.0004229   -0.0001150     0.0000164   -0.0002800     0.0008139   -0.0002602 
   0.008252051     0.0065903   -0.0010471    -0.0004320   -0.0001902     0.0000178    0.0000699     0.0005628    0.0008245 
   0.008352076     0.0065960   -0.0000744    -0.0003564   -0.0007553     0.0000364   -0.0001353     0.0006161   -0.0000525 
   0.008452101     0.0062970   -0.0000342    -0.0007397   -0.0004474    -0.0001661   -0.0001568     0.0001559   -0.0006205 
   0.008552126     0.0066833   -0.0003025    -0.0002387   -0.0000004    -0.0000546    0.0002815     0.0005614    0.0007472 
   0.008652151     0.0056311    0.0004492    -0.0002084    0.0002251     0.0001924   -0.0002169     0.0002121    0.0001061 
   0.008752176     0.0080153    0.0011175     0.0000979   -0.0002005    -0.0000759   -0.0000740     0.0001093   -0.0005059 
   0.008852201     0.0080928   -0.0010986    -0.0004523   -0.0007545     0.0000955   -0.0000850     0.0003339    0.0001542 
   0.008952226     0.0070158    0.0012397    -0.0008529   -0.0007844     0.0000982   -0.0000020     0.0001735   -0.0000870 
   0.009052251     0.0080562    0.0018533     0.0002057   -0.0000861     0.0002301    0.0001372     0.0003516    0.0000497 
   0.009152276     0.0081353    0.0002964    -0.0003551    0.0002594    -0.0001782    0.0001135     0.0005904   -0.0001484 
   0.009252301     0.0065984   -0.0003889    -0.0011450    0.0010242    -0.0001095   -0.0000529     0.0001528   -0.0000858 
   0.009352326     0.0067333    0.0003267    -0.0007316    0.0002538     0.0000078   -0.0003447    -0.0000505    0.0001829 
   0.009452351     0.0084992   -0.0003955    -0.0006855    0.0002568    -0.0000498    0.0000199     0.0001745    0.0000203 
   0.009552376     0.0071726    0.0009298    -0.0000811    0.0003691     0.0002352   -0.0000017     0.0005273    0.0002811 
   0.009652401     0.0080002    0.0013721     0.0000535   -0.0001325     0.0002890   -0.0000169     0.0002854    0.0000733 
   0.009752426     0.0073814    0.0012530    -0.0006426   -0.0006696    -0.0000296   -0.0001556     0.0004378    0.0001341 
   0.009852451     0.0081517   -0.0009405     0.0006523    0.0000505     0.0001548   -0.0001333     0.0002271    0.0000510 
   0.009952476     0.0079982   -0.0005433    -0.0008729    0.0000081     0.0000087    0.0001088     0.0002108   -0.0001071 
   0.010052501     0.0070344   -0.0012443    -0.0009221   -0.0001246     0.0000456   -0.0000353     0.0000892    0.0000639 
   0.010152526     0.0089646    0.0002597    -0.0001208    0.0007954    -0.0000606    0.0000719     0.0004328    0.0000870 
   0.010252551     0.0075877    0.0001276     0.0005443   -0.0001897    -0.0000537    0.0001227     0.0005679    0.0000366 
   0.010352576     0.0076140   -0.0013533     0.0005699    0.0002041    -0.0001314   -0.0000830     0.0001618    0.0000091 
   0.010452601     0.0075563    0.0003214    -0.0006405    0.0005190     0.0001281    0.0000630     0.0007129   -0.0001195 
   0.010552626     0.0076611    0.0007044    -0.0000953   -0.0005883     0.0001723   -0.0000632     0.0000278   -0.0001122 
   0.010652651     0.0078395    0.0008883    -0.0007341    0.0002768    -0.0000827   -0.0001601     0.0001678   -0.0000057 
   0.010752676     0.0074254    0.0007228    -0.0003823   -0.0002377    -0.0001670   -0.0001452     0.0001222    0.0003706 
   0.010852701     0.0075028   -0.0002637     0.0003341    0.0011092     0.0002844   -0.0001524    -0.0000328    0.0000212 
   0.010952726     0.0083516   -0.0003958     0.0006858    0.0011700     0.0000708    0.0001848    -0.0004759   -0.0000783 
   0.011052751     0.0089696    0.0002871    -0.0004931   -0.0006695     0.0000833    0.0001154     0.0006134    0.0001303 
   0.011152776     0.0084249    0.0006815    -0.0002903   -0.0004790     0.0000663   -0.0000426     0.0001288   -0.0000603 
   0.011252801     0.0081854    0.0011542    -0.0000620    0.0002264     0.0001081    0.0000179     0.0000003    0.0005365 
   0.011352826     0.0071876   -0.0000542    -0.0001412   -0.0001527    -0.0001250    0.0000191     0.0003055   -0.0001700 
   0.011452851     0.0061867    0.0004412    -0.0002070    0.0007639    -0.0000480   -0.0001024     0.0004900   -0.0001393 
   0.011552876     0.0093626    0.0029385    -0.0000686    0.0001419     0.0001231   -0.0002559     0.0002426   -0.0000150 
   0.011652901     0.0084697    0.0015191    -0.0006998   -0.0001837     0.0000168    0.0000394     0.0002077    0.0001467 
   0.011752926     0.0063965    0.0008503     0.0000258   -0.0002241    -0.0000032   -0.0000842     0.0003281   -0.0000965 
   0.011852951     0.0093000   -0.0001366    -0.0005775   -0.0005098     0.0001603   -0.0001728     0.0001198   -0.0004131 
   0.011952976     0.0074269    0.0002154    -0.0005800    0.0000799     0.0001683   -0.0003420     0.0000291    0.0004108 
   0.012053002     0.0063095    0.0008094    -0.0003676    0.0003198     0.0001435   -0.0001464     0.0001346   -0.0000383 
   0.012153027     0.0093528   -0.0000928    -0.0007141    0.0000887     0.0000451   -0.0001046     0.0005036   -0.0000896 
   0.012253052     0.0086066    0.0016728    -0.0006572   -0.0000892    -0.0000801    0.0002845     0.0007901    0.0003167 
   0.012353077     0.0085670   -0.0000876     0.0004329    0.0008037     0.0002011    0.0000058     0.0000983   -0.0000834 
   0.012453102     0.0079224    0.0009159    -0.0001207   -0.0002138    -0.0000270   -0.0000113     0.0003070    0.0001070 
   0.012553127     0.0091067   -0.0012083     0.0004207    0.0002008    -0.0000216    0.0000264     0.0002736   -0.0003085 
   0.012653152     0.0066764    0.0006102    -0.0004036    0.0002493     0.0002766    0.0002074    -0.0001551    0.0001513 
   0.012753177     0.0082386    0.0007772     0.0000397   -0.0004911    -0.0001763    0.0000216    -0.0000360   -0.0000849 
   0.012853202     0.0077053    0.0002696     0.0001692   -0.0003197    -0.0001355    0.0001717     0.0003011    0.0000966 
   0.012953227     0.0082513   -0.0004854     0.0003466    0.0004939     0.0000168   -0.0000808     0.0005928    0.0001291 
   0.013053252     0.0095790    0.0011157    -0.0002933    0.0001785    -0.0000046   -0.0002547     0.0004032   -0.0001771 
   0.013153277     0.0086755    0.0004788    -0.0002022   -0.0002402    -0.0000301   -0.0001183     0.0000639    0.0004095 
   0.013253302     0.0070245    0.0008913     0.0000777   -0.0001671     0.0000120    0.0000661    -0.0000021    0.0001827 
   0.013353327     0.0073659   -0.0003078     0.0004369    0.0005576     0.0000012    0.0001941    -0.0000510    0.0000436 
   0.013453352     0.0069015    0.0006947    -0.0000813   -0.0003413     0.0000988   -0.0001533     0.0009550   -0.0002679 
   0.013553377     0.0076172    0.0011859    -0.0006069   -0.0002007     0.0001350   -0.0001262     0.0003994   -0.0002949 
   0.013653402     0.0087402    0.0004695     0.0005268    0.0006236     0.0003024    0.0000608     0.0005767    0.0000225 
   0.013753427     0.0080921   -0.0006181    -0.0003141    0.0001764    -0.0000224   -0.0000416    -0.0001383    0.0005623 
   0.013853452     0.0082711    0.0004646     0.0009114   -0.0005540    -0.0001506   -0.0002169     0.0004060    0.0003234 
   0.013953477     0.0083800    0.0018941     0.0003791    0.0008339    -0.0001606   -0.0001054     0.0001969   -0.0000052 
   0.014053502     0.0086054   -0.0009406    -0.0001650    0.0011767     0.0000950    0.0000845     0.0002708   -0.0000070 
   0.014153527     0.0093029   -0.0006058    -0.0001554    0.0009154     0.0003396    0.0000277     0.0007899    0.0001472 
   0.014253552     0.0070676    0.0014016     0.0003738    0.0004051    -0.0001568    0.0002752     0.0001717   -0.0004964 
   0.014353577     0.0081093    0.0004051    -0.0000325   -0.0004802    -0.0001752    0.0000191     0.0004309   -0.0000869 
   0.014453602     0.0066000   -0.0000450    -0.0000954   -0.0008936    -0.0000929    0.0000403    -0.0002908   -0.0002102 
   0.014553627     0.0091602    0.0006751     0.0002025   -0.0001699    -0.0000310    0.0000668     0.0001919    0.0003602 
   0.014653652     0.0086121   -0.0001176     0.0002109   -0.0001889    -0.0000479   -0.0000298     0.0005075   -0.0002817 
   0.014753677     0.0071142    0.0002828     0.0002429   -0.0007565    -0.0001738    0.0000766     0.0002377    0.0000937 
   0.014853702     0.0109819   -0.0005113     0.0000735   -0.0005152    -0.0001897    0.0000346     0.0003676    0.0000650 
   0.014953727     0.0095132    0.0007401    -0.0003204   -0.0001664    -0.0001837   -0.0001645     0.0005534    0.0001902 
   0.015053752     0.0080195    0.0001251     0.0006862   -0.0005843     0.0000708    0.0002458     0.0002202   -0.0000167 
   0.015153777     0.0069061    0.0008334     0.0001286    0.0004266    -0.0003188   -0.0000255     0.0000737   -0.0003433 
   0.015253802     0.0083208    0.0021334    -0.0000797   -0.0002315    -0.0000117    0.0001742    -0.0000351   -0.0001894 
   0.015353827     0.0071566   -0.0002035     0.0005394   -0.0002201     0.0002007    0.0000285     0.0005507   -0.0003893 
   0.015453852     0.0070994   -0.0002748     0.0002165    0.0004886     0.0002299    0.0001177     0.0003289    0.0001008 
   0.015553877     0.0075371   -0.0000748    -0.0003327    0.0000153    -0.0000234    0.0000666     0.0004231    0.0003038 
   0.015653902     0.0087571   -0.0010639    -0.0000001   -0.0003125    -0.0001195    0.0000344    -0.0002389    0.0001397 
