! 26-Feb-26 2:19:51 PM
! E:\VNA_MEASUREMENTS\HEATED_LOAD\FULL_HEATED_LOAD_0.S2P
! CHANNEL.1
! TR.MEASUREMENT
! CORRECTED.DATA
# GHZ S RI R 50.0
! FREQ.GHZ         S11RE         S11IM         S21RE         S21IM         S12RE         S12IM         S22RE         S22IM         
!; PortSelection: Port_12
   0.000050000     0.4502084    0.4355539     0.7046594    0.1226332     0.0026442   -0.0010102     0.0163804    0.0148026 
   0.000150025    -0.0098662    0.1953549    -0.0318584   -0.4499370     0.0002196    0.0004810     0.0011311   -0.0050979 
   0.000250050    -0.5363021    0.0677265    -0.2609553   -0.1552936    -0.0001174   -0.0001026     0.0008277   -0.0026353 
   0.000350075     0.0097410   -0.0094004     0.0023866   -0.0055953     0.0003400   -0.0004570    -0.0007574   -0.0011562 
   0.000450100     0.0047293   -0.0010931     0.0000079   -0.0065163    -0.0003620   -0.0000761    -0.0007768   -0.0028430 
   0.000550125     0.0034044    0.0043406    -0.0016900   -0.0046430     0.0000535   -0.0002060     0.0017662   -0.0005255 
   0.000650150     0.0017140   -0.0035532    -0.0036375   -0.0094658    -0.0004240   -0.0003445    -0.0003143   -0.0020117 
   0.000750175     0.0025722    0.0004492    -0.0056643   -0.0043450    -0.0005418   -0.0002276    -0.0008116   -0.0000305 
   0.000850200     0.0041868   -0.0004365    -0.0035936   -0.0051076    -0.0002766   -0.0005400    -0.0012645    0.0002569 
   0.000950225     0.0104169    0.0026913    -0.0016760   -0.0032416    -0.0000764    0.0003620     0.0001390    0.0013439 
   0.001050250     0.0069710    0.0041288    -0.0052333   -0.0027502     0.0001098    0.0001746    -0.0004914    0.0010241 
   0.001150275     0.0098270    0.0042346    -0.0047074   -0.0033485     0.0005471   -0.0002665    -0.0002226    0.0008003 
   0.001250300     0.0042767    0.0000101    -0.0066055   -0.0071928    -0.0000212    0.0002140     0.0003843    0.0006427 
   0.001350325     0.0033420    0.0010822    -0.0049620   -0.0026854     0.0002918   -0.0002870    -0.0000844   -0.0006011 
   0.001450350     0.0028385    0.0028881    -0.0062861   -0.0015882    -0.0002691    0.0001238     0.0010144    0.0012152 
   0.001550375     0.0062215   -0.0012927    -0.0054929    0.0007433     0.0007180    0.0002183     0.0004776   -0.0001210 
   0.001650400     0.0094076    0.0016032    -0.0049762   -0.0004376    -0.0001355   -0.0000541    -0.0001459   -0.0003209 
   0.001750425     0.0096057    0.0000970    -0.0034593   -0.0013873    -0.0000602    0.0000276    -0.0003954    0.0003221 
   0.001850450     0.0080446   -0.0001271    -0.0067179    0.0006713    -0.0000588    0.0000101    -0.0013415    0.0004523 
   0.001950475     0.0067399    0.0004073    -0.0052709    0.0016550    -0.0001945   -0.0002497     0.0010434   -0.0004938 
   0.002050500     0.0121607    0.0019928    -0.0049296    0.0007305    -0.0002962   -0.0002354     0.0005880   -0.0006775 
   0.002150525     0.0057998    0.0013513    -0.0023082    0.0014978     0.0000332   -0.0001987     0.0006654    0.0003508 
   0.002250550     0.0095662   -0.0003328    -0.0030925   -0.0000252    -0.0000051    0.0000093    -0.0001870   -0.0008888 
   0.002350575     0.0056876    0.0002385    -0.0044535    0.0009172     0.0000185   -0.0005512     0.0001460    0.0004433 
   0.002450600     0.0084356   -0.0001807    -0.0044538    0.0005236    -0.0001310   -0.0001187    -0.0003932   -0.0001272 
   0.002550625     0.0062458   -0.0029781    -0.0029273   -0.0004742    -0.0001858    0.0003469     0.0007155    0.0006555 
   0.002650650     0.0061425    0.0033801    -0.0008134    0.0007414     0.0002741   -0.0006717    -0.0002216    0.0002118 
   0.002750675     0.0028863    0.0024714    -0.0018342    0.0022064     0.0000979    0.0001688    -0.0007000    0.0006897 
   0.002850700     0.0096784    0.0011565    -0.0033088    0.0008047     0.0000865   -0.0004257    -0.0002048   -0.0002926 
   0.002950725     0.0080808    0.0005067    -0.0006722    0.0012571     0.0002805    0.0000401    -0.0000442    0.0001999 
   0.003050750     0.0051688   -0.0010935    -0.0003741    0.0026680    -0.0001208    0.0002564     0.0002223   -0.0002195 
   0.003150775     0.0051983   -0.0008452    -0.0021650    0.0007318     0.0001789    0.0002967     0.0000941    0.0003365 
   0.003250800     0.0085898   -0.0028804    -0.0001056    0.0018939     0.0000028   -0.0000905    -0.0002276   -0.0003512 
   0.003350825     0.0088800   -0.0001554    -0.0006061    0.0019972     0.0001068    0.0000110    -0.0001287    0.0000740 
   0.003450850     0.0074637   -0.0018017    -0.0014480    0.0011276     0.0002921    0.0003528    -0.0001963   -0.0007484 
   0.003550875     0.0083843    0.0022066    -0.0008910    0.0017236     0.0000996    0.0001169     0.0002881   -0.0000919 
   0.003650900     0.0058206    0.0002505    -0.0005289    0.0010941     0.0003939   -0.0000412     0.0003782   -0.0000885 
   0.003750925     0.0038485    0.0001417    -0.0011956    0.0009358    -0.0000365   -0.0001412     0.0002394   -0.0007571 
   0.003850950     0.0079911   -0.0030584     0.0004132    0.0009173    -0.0002471    0.0001145     0.0001317    0.0000514 
   0.003950975     0.0069707    0.0033931    -0.0018831    0.0005686     0.0004476    0.0001556    -0.0000092   -0.0000787 
   0.004051001     0.0087371   -0.0015504    -0.0002534    0.0016312    -0.0000292    0.0003201     0.0003257    0.0003777 
   0.004151026     0.0047883    0.0015958    -0.0011373    0.0004753     0.0000747   -0.0000687     0.0000015    0.0001619 
   0.004251051     0.0016793    0.0022145    -0.0004031    0.0004370    -0.0001228   -0.0002736    -0.0003176    0.0002574 
   0.004351076     0.0059043   -0.0009593     0.0013550    0.0003107    -0.0001079    0.0001065     0.0008940    0.0007385 
   0.004451101     0.0040317    0.0008195    -0.0000778    0.0016750    -0.0000170    0.0002626     0.0005476   -0.0003509 
   0.004551126     0.0091941   -0.0008374    -0.0002210    0.0007396     0.0000384   -0.0001748    -0.0004069    0.0000906 
   0.004651151     0.0093488   -0.0001856    -0.0009168   -0.0001418    -0.0001044   -0.0000002     0.0008752    0.0000688 
   0.004751176     0.0076434   -0.0009173     0.0005306    0.0010362     0.0001967    0.0000614    -0.0000622    0.0003355 
   0.004851201     0.0061202    0.0007823    -0.0001285    0.0002284    -0.0001763    0.0000099     0.0007159    0.0004284 
   0.004951226     0.0091517   -0.0015054    -0.0007847    0.0009490    -0.0000094    0.0000255     0.0003817   -0.0010258 
   0.005051251     0.0071994    0.0008984    -0.0012498    0.0010941     0.0000030   -0.0002693     0.0003082   -0.0003285 
   0.005151276     0.0073846   -0.0012001     0.0000105    0.0001573    -0.0001027   -0.0001789     0.0005520   -0.0005059 
   0.005251301     0.0049085    0.0016919    -0.0006301    0.0000619     0.0002356   -0.0002345     0.0006555    0.0003069 
   0.005351326     0.0076118    0.0016778    -0.0003324    0.0000485     0.0000607    0.0001333     0.0008925    0.0004884 
   0.005451351     0.0078100   -0.0010513    -0.0004386    0.0000259     0.0000757   -0.0000241     0.0005212    0.0004727 
   0.005551376     0.0066607    0.0024142     0.0015745    0.0005587     0.0000434   -0.0000884     0.0000996   -0.0007601 
   0.005651401     0.0096481    0.0038018     0.0004790    0.0003986     0.0000145   -0.0001221     0.0000733   -0.0005089 
   0.005751426     0.0067889   -0.0001205    -0.0001476   -0.0006773     0.0002372    0.0000710     0.0001142    0.0002524 
   0.005851451     0.0076512    0.0012067    -0.0001470    0.0007322     0.0002253    0.0000953    -0.0004319    0.0002840 
   0.005951476     0.0085486    0.0003562     0.0000596    0.0006422     0.0001769   -0.0004786    -0.0003293    0.0002331 
   0.006051501     0.0089703    0.0025602    -0.0002850    0.0001564     0.0000050   -0.0001939    -0.0001029   -0.0005592 
   0.006151526     0.0068907   -0.0012105    -0.0007862    0.0000980     0.0001125    0.0000736     0.0000161   -0.0006464 
   0.006251551     0.0073816   -0.0000870     0.0001347   -0.0001991    -0.0002714   -0.0001826     0.0000695    0.0003375 
   0.006351576     0.0052159    0.0000426     0.0000765    0.0004980    -0.0001722    0.0000279    -0.0000106    0.0000828 
   0.006451601     0.0052191    0.0011822    -0.0005002   -0.0008008     0.0002010    0.0000599    -0.0000604    0.0000515 
   0.006551626     0.0051234   -0.0002264     0.0002707    0.0006822     0.0001542    0.0000723    -0.0006988    0.0001552 
   0.006651651     0.0063262    0.0005106    -0.0006433   -0.0007932     0.0000405   -0.0000386    -0.0003068    0.0000047 
   0.006751676     0.0046365   -0.0004633    -0.0006468   -0.0006360     0.0002932    0.0000363     0.0004948    0.0003356 
   0.006851701     0.0095109    0.0010843    -0.0000756    0.0015047    -0.0001370    0.0004358    -0.0003306   -0.0000102 
   0.006951726     0.0063086    0.0002272    -0.0012047   -0.0000375     0.0003919    0.0000080     0.0009332    0.0011249 
   0.007051751     0.0082599    0.0007610    -0.0002504   -0.0002955     0.0000155   -0.0001022     0.0000871   -0.0003051 
   0.007151776     0.0088944   -0.0008865    -0.0008573    0.0003528     0.0000310    0.0000513     0.0007485    0.0000682 
   0.007251801     0.0066309    0.0002331    -0.0004626    0.0000567    -0.0001786   -0.0002210    -0.0003095   -0.0000952 
   0.007351826     0.0083301   -0.0001395     0.0005544    0.0000179     0.0000706    0.0001143     0.0008292    0.0001918 
   0.007451851     0.0098069    0.0017783    -0.0003530   -0.0000907     0.0000355   -0.0001085     0.0001217   -0.0001318 
   0.007551876     0.0091021    0.0004190    -0.0003930    0.0003974    -0.0001552    0.0000070    -0.0001446   -0.0003507 
   0.007651901     0.0075398    0.0001802     0.0003785   -0.0006878     0.0000963    0.0000144    -0.0001684    0.0005006 
   0.007751926     0.0066729    0.0005927    -0.0011717   -0.0004966    -0.0002690   -0.0002273     0.0000311   -0.0003908 
   0.007851951     0.0074119    0.0024079     0.0000279   -0.0008106     0.0000770   -0.0003232     0.0000071   -0.0003429 
   0.007951976     0.0088245    0.0004384    -0.0002751    0.0003265     0.0000390    0.0000130     0.0005988    0.0004154 
   0.008052001     0.0073497    0.0006552     0.0011861   -0.0002556     0.0002648    0.0003611     0.0004980    0.0003364 
   0.008152026     0.0075910    0.0002009     0.0002137    0.0002447    -0.0001963   -0.0000748     0.0002466    0.0001644 
   0.008252051     0.0062922   -0.0018885     0.0007047   -0.0005256    -0.0001026    0.0000845     0.0009047    0.0001957 
   0.008352076     0.0075427    0.0004389    -0.0008507    0.0008415     0.0000634   -0.0002708     0.0007431   -0.0000476 
   0.008452101     0.0062110    0.0002369     0.0011491    0.0000347    -0.0000325    0.0002697    -0.0004586   -0.0000464 
   0.008552126     0.0077721    0.0016372    -0.0006688   -0.0005506     0.0003894    0.0000161     0.0001879    0.0005364 
   0.008652151     0.0076058    0.0009537    -0.0007402   -0.0005937     0.0001741   -0.0000946     0.0002655    0.0002129 
   0.008752176     0.0072907    0.0027388    -0.0002279    0.0002369     0.0000844   -0.0000266    -0.0004315   -0.0001689 
   0.008852201     0.0082126    0.0002164     0.0010926    0.0005210     0.0000652    0.0000507     0.0003169    0.0002720 
   0.008952226     0.0083318    0.0002810     0.0000978   -0.0002087     0.0002691   -0.0001099     0.0003614   -0.0004324 
   0.009052251     0.0086775    0.0007876     0.0000280   -0.0000320    -0.0001590    0.0001643     0.0003611   -0.0002981 
   0.009152276     0.0085725   -0.0006820    -0.0003493   -0.0008950     0.0000055   -0.0001557     0.0004617   -0.0004320 
   0.009252301     0.0062946   -0.0008709    -0.0007306    0.0000352    -0.0000024   -0.0001469     0.0000400   -0.0004740 
   0.009352326     0.0057632    0.0016137    -0.0001403    0.0005715    -0.0001848    0.0000560     0.0001028   -0.0000761 
   0.009452351     0.0082917    0.0005783    -0.0002374   -0.0002554     0.0000693   -0.0000460     0.0002519    0.0002732 
   0.009552376     0.0099995   -0.0001144     0.0004216    0.0007294     0.0002352   -0.0000245     0.0006210    0.0002854 
   0.009652401     0.0089403    0.0017365    -0.0002816    0.0006410    -0.0001142   -0.0000650    -0.0001114    0.0000330 
   0.009752426     0.0080684    0.0015847    -0.0003467   -0.0006002    -0.0001188    0.0001319     0.0003864    0.0002105 
   0.009852451     0.0084502   -0.0001847     0.0000956    0.0004142    -0.0001266    0.0000494     0.0001600    0.0000625 
   0.009952476     0.0087141   -0.0005289    -0.0000290    0.0006209    -0.0000761   -0.0001744     0.0001286    0.0001674 
   0.010052501     0.0078920   -0.0027274     0.0000643   -0.0001869    -0.0000664   -0.0001295     0.0000144   -0.0002282 
   0.010152526     0.0086031    0.0021545     0.0010511    0.0013880     0.0002974   -0.0000722     0.0006033    0.0000945 
   0.010252551     0.0074909    0.0014677     0.0003136   -0.0002805     0.0001071   -0.0001112     0.0004044    0.0000667 
   0.010352576     0.0083209   -0.0005982     0.0003709    0.0002784    -0.0000205   -0.0000622     0.0000195    0.0003805 
   0.010452601     0.0084024    0.0015863    -0.0001231    0.0008975    -0.0000738   -0.0001739    -0.0001059   -0.0002808 
   0.010552626     0.0050190    0.0011650     0.0001975   -0.0005278     0.0001288    0.0000968    -0.0001781    0.0001195 
   0.010652651     0.0079988   -0.0007152     0.0018940    0.0000245     0.0002320   -0.0000550     0.0007735    0.0001183 
   0.010752676     0.0070038    0.0006480    -0.0003241   -0.0007944     0.0001449    0.0001466     0.0000433    0.0000359 
   0.010852701     0.0071807   -0.0005944     0.0000501   -0.0000236     0.0001863    0.0000384     0.0000662    0.0003056 
   0.010952726     0.0075583   -0.0004138     0.0006414   -0.0014404    -0.0000369   -0.0000706    -0.0002483   -0.0004670 
   0.011052751     0.0090470   -0.0000227    -0.0003085    0.0006288    -0.0001191    0.0000585     0.0002830   -0.0000700 
   0.011152776     0.0070736    0.0002424    -0.0003014    0.0011870    -0.0001732   -0.0003159    -0.0000795   -0.0001630 
   0.011252801     0.0075355    0.0000944     0.0002155    0.0007619     0.0001765   -0.0002830     0.0001084    0.0001508 
   0.011352826     0.0077823    0.0011972     0.0002719   -0.0001248    -0.0001741    0.0000790     0.0000074   -0.0005778 
   0.011452851     0.0068466    0.0008030    -0.0000826   -0.0009897    -0.0001642   -0.0002833    -0.0000185    0.0000352 
   0.011552876     0.0064970    0.0024714     0.0001386   -0.0000437     0.0000365   -0.0000574     0.0007946   -0.0003336 
   0.011652901     0.0073232    0.0015594    -0.0001739    0.0000552     0.0003171    0.0000474    -0.0001567    0.0004144 
   0.011752926     0.0075265   -0.0000024     0.0003008    0.0001552    -0.0002843   -0.0000384     0.0002455    0.0001367 
   0.011852951     0.0076419   -0.0004812    -0.0001199   -0.0003928     0.0000915   -0.0000878     0.0000173   -0.0001463 
   0.011952976     0.0072198    0.0009613     0.0000262    0.0001572     0.0000897    0.0000204     0.0000233    0.0001570 
   0.012053002     0.0069513    0.0011993    -0.0003607   -0.0004442    -0.0000554   -0.0000169     0.0004331    0.0002171 
   0.012153027     0.0095258   -0.0010661    -0.0004544    0.0002183    -0.0001606    0.0000308     0.0002720   -0.0001000 
   0.012253052     0.0082522    0.0010318    -0.0000765    0.0002420     0.0001005   -0.0000280     0.0007038   -0.0000669 
   0.012353077     0.0077085    0.0001013     0.0001918   -0.0003439     0.0000079    0.0001879     0.0000613    0.0003038 
   0.012453102     0.0070585    0.0009872     0.0004265    0.0005619    -0.0000839   -0.0000746     0.0005317   -0.0002040 
   0.012553127     0.0089847   -0.0002183    -0.0000977   -0.0001716     0.0000340    0.0001574     0.0004146   -0.0004434 
   0.012653152     0.0065835   -0.0003341    -0.0002605    0.0001363     0.0003583    0.0000338    -0.0000435   -0.0001961 
   0.012753177     0.0073600   -0.0007068     0.0001814    0.0002126    -0.0001986    0.0002019     0.0000173   -0.0000102 
   0.012853202     0.0064767    0.0012722    -0.0002813   -0.0001836    -0.0000707   -0.0001216     0.0001632    0.0002081 
   0.012953227     0.0075631    0.0012644    -0.0001687   -0.0003015    -0.0001029    0.0000330     0.0006055   -0.0000014 
   0.013053252     0.0077049    0.0005016     0.0000647    0.0004764     0.0000654    0.0001220     0.0004734   -0.0002301 
   0.013153277     0.0085740    0.0007627    -0.0003055    0.0002766     0.0000877   -0.0001747     0.0004128    0.0002698 
   0.013253302     0.0067793    0.0018366     0.0002540   -0.0003699     0.0001487    0.0002449     0.0005147   -0.0001944 
   0.013353327     0.0070208    0.0002824     0.0003551   -0.0003600     0.0000903    0.0002737     0.0004945   -0.0000562 
   0.013453352     0.0078841   -0.0001725    -0.0002111   -0.0001457    -0.0001987   -0.0002375     0.0004758    0.0000630 
   0.013553377     0.0087456    0.0001892    -0.0007822    0.0003255     0.0001644   -0.0002078     0.0002002   -0.0001118 
   0.013653402     0.0081837   -0.0005280    -0.0000949    0.0004744     0.0001705   -0.0001301     0.0006327   -0.0000847 
   0.013753427     0.0088816    0.0008638     0.0006808   -0.0002808     0.0000167   -0.0000059     0.0000769    0.0000752 
   0.013853452     0.0095603    0.0003728    -0.0002123    0.0000514    -0.0000313   -0.0000020     0.0004165    0.0004030 
   0.013953477     0.0076674   -0.0010027    -0.0002932    0.0000075     0.0003366    0.0000430     0.0003219   -0.0001572 
   0.014053502     0.0078053    0.0001073     0.0003614    0.0002023    -0.0000074   -0.0000379     0.0001723   -0.0000875 
   0.014153527     0.0083097   -0.0005697     0.0009571    0.0003093    -0.0000543   -0.0000175     0.0005548    0.0002455 
   0.014253552     0.0076152    0.0004872    -0.0003724    0.0004281    -0.0001781   -0.0001332     0.0006079   -0.0006018 
   0.014353577     0.0069871    0.0007421     0.0002129    0.0008323    -0.0001110   -0.0001848     0.0005320    0.0001609 
   0.014453602     0.0058959    0.0008956     0.0000471    0.0010176     0.0000220   -0.0002330    -0.0003294   -0.0002562 
   0.014553627     0.0078421    0.0010793    -0.0005367   -0.0004235     0.0000236    0.0001194    -0.0001445   -0.0000153 
   0.014653652     0.0084588    0.0003788    -0.0003315    0.0004569    -0.0001907    0.0001906    -0.0000247   -0.0003378 
   0.014753677     0.0079581    0.0009932    -0.0002345    0.0004023     0.0002397   -0.0000923     0.0001816    0.0001738 
   0.014853702     0.0099510   -0.0001917    -0.0007042    0.0003960     0.0000513   -0.0000616     0.0005655    0.0001170 
   0.014953727     0.0092216    0.0008289    -0.0001205    0.0004688    -0.0000609    0.0001585     0.0003797    0.0002400 
   0.015053752     0.0078086   -0.0013726     0.0000133    0.0006547     0.0001652    0.0000904     0.0004620    0.0005109 
   0.015153777     0.0068497    0.0006214    -0.0000707    0.0000594     0.0001145   -0.0002275     0.0005448    0.0002056 
   0.015253802     0.0068002    0.0015928    -0.0000704   -0.0001456     0.0000607    0.0000039     0.0001636   -0.0004366 
   0.015353827     0.0070889   -0.0002289    -0.0001425   -0.0002783     0.0000350   -0.0000614     0.0006241   -0.0000316 
   0.015453852     0.0079324    0.0003233     0.0001529    0.0004540    -0.0002570    0.0000969     0.0001936   -0.0000668 
   0.015553877     0.0088744    0.0007050     0.0001640   -0.0008048     0.0001522    0.0001583     0.0007442   -0.0000461 
   0.015653902     0.0096137    0.0000039     0.0002997    0.0001744     0.0000899   -0.0001267    -0.0000755    0.0001766 
