! 26-Feb-26 2:18:29 PM
! E:\VNA_MEASUREMENTS\HEATED_LOAD\LOAD_TERMINSTION_2.S2P
! CHANNEL.1
! TR.MEASUREMENT
! CORRECTED.DATA
# GHZ S RI R 50.0
! FREQ.GHZ         S11RE         S11IM         S21RE         S21IM         S12RE         S12IM         S22RE         S22IM         
!; PortSelection: Port_12
   0.000050000    -0.3107522    0.0038089     0.1777322    0.3804139     0.0030773   -0.0062475     0.0004132    0.0056512 
   0.000150025     0.2085879    0.0499733     0.1797179   -0.7547339     0.0002806    0.0012633     0.0030446    0.0002745 
   0.000250050    -0.2131819    0.2452567     0.6669862   -0.1669319    -0.0001057    0.0002719    -0.0009805   -0.0030705 
   0.000350075     0.0181329   -0.0018516    -0.0015433   -0.0041184    -0.0002859    0.0005191    -0.0010577   -0.0011976 
   0.000450100     0.0066796   -0.0032152    -0.0009120   -0.0020263    -0.0001705   -0.0009751    -0.0005777   -0.0018568 
   0.000550125     0.0071171   -0.0026582    -0.0033543   -0.0049915     0.0005316   -0.0001120     0.0008840    0.0001800 
   0.000650150     0.0073761    0.0008972    -0.0042180   -0.0061980     0.0002723   -0.0004814    -0.0005616   -0.0010553 
   0.000750175     0.0056823    0.0006075    -0.0064583   -0.0032724     0.0010811   -0.0003684    -0.0000954    0.0004207 
   0.000850200     0.0030815   -0.0021719    -0.0048545   -0.0034633     0.0001887   -0.0003409    -0.0004610   -0.0012775 
   0.000950225     0.0088246    0.0015771    -0.0031665   -0.0055775     0.0006149    0.0001114     0.0009335    0.0008718 
   0.001050250     0.0056189    0.0032408    -0.0061428   -0.0062304     0.0005619   -0.0004818     0.0005020    0.0007104 
   0.001150275     0.0055264    0.0017892    -0.0062000   -0.0013572     0.0000933   -0.0001024     0.0004667    0.0003418 
   0.001250300     0.0043637    0.0021896    -0.0062725   -0.0049737    -0.0003931   -0.0003924    -0.0005380    0.0004882 
   0.001350325     0.0054353    0.0010918    -0.0042745   -0.0011219    -0.0004907    0.0005747    -0.0001369   -0.0001692 
   0.001450350     0.0036368   -0.0026022    -0.0050861   -0.0027466    -0.0001146   -0.0001355    -0.0004454    0.0011821 
   0.001550375     0.0080693   -0.0018506    -0.0050871   -0.0003975    -0.0004314   -0.0000542    -0.0001480    0.0007904 
   0.001650400     0.0040165    0.0015455    -0.0050546   -0.0016373    -0.0004241   -0.0005335     0.0001943   -0.0004366 
   0.001750425     0.0073208   -0.0011132    -0.0044960   -0.0019988     0.0003309    0.0000565     0.0004724    0.0005535 
   0.001850450     0.0065597   -0.0019476    -0.0046560   -0.0005100    -0.0003254   -0.0001082    -0.0000400    0.0014105 
   0.001950475     0.0043129    0.0013428    -0.0019986    0.0024400     0.0001008    0.0000290     0.0002426    0.0001557 
   0.002050500     0.0094035    0.0058454    -0.0046044    0.0014375    -0.0000481   -0.0001822     0.0004043    0.0009981 
   0.002150525     0.0040614    0.0012866    -0.0021769   -0.0011008    -0.0005180    0.0000971     0.0003289    0.0001845 
   0.002250550     0.0067040   -0.0008438    -0.0031191    0.0013167     0.0006890    0.0000124    -0.0007148   -0.0006992 
   0.002350575     0.0070195    0.0018257    -0.0047260    0.0006581     0.0000596   -0.0000300     0.0005109   -0.0003488 
   0.002450600     0.0042654   -0.0016400    -0.0015368    0.0020097     0.0005140    0.0002528     0.0000327    0.0007525 
   0.002550625     0.0066760   -0.0019186    -0.0040284    0.0001059     0.0000825   -0.0002736     0.0001812    0.0013629 
   0.002650650     0.0062166   -0.0004781    -0.0020313    0.0002633     0.0002497   -0.0002376    -0.0005662    0.0008748 
   0.002750675     0.0052271    0.0001659    -0.0024000    0.0013484     0.0004536    0.0001399    -0.0001667    0.0005751 
   0.002850700     0.0099413    0.0005898    -0.0021517    0.0032393     0.0002669    0.0000811     0.0000208    0.0004947 
   0.002950725     0.0070354   -0.0030418    -0.0033540   -0.0008299     0.0001017    0.0001177     0.0007189   -0.0006787 
   0.003050750     0.0056666    0.0007106    -0.0021149    0.0025254    -0.0000342    0.0004404     0.0002117   -0.0007275 
   0.003150775     0.0052157    0.0019646     0.0002038    0.0023948     0.0001346    0.0000636     0.0000090   -0.0004530 
   0.003250800     0.0087885    0.0034936    -0.0003344    0.0011729     0.0005361   -0.0002154     0.0004585    0.0001523 
   0.003350825     0.0066604    0.0031859    -0.0001302    0.0012107     0.0004741    0.0000700     0.0000209    0.0006395 
   0.003450850     0.0051927   -0.0011970    -0.0023038    0.0019768     0.0002579    0.0000823    -0.0001259   -0.0005905 
   0.003550875     0.0064881    0.0009969    -0.0008675    0.0014111     0.0002523    0.0000362    -0.0001928   -0.0000916 
   0.003650900     0.0071511    0.0007080    -0.0002793    0.0024798     0.0000101   -0.0000583     0.0002804   -0.0001603 
   0.003750925     0.0050613   -0.0019464    -0.0010306    0.0000201    -0.0002478    0.0004963     0.0005213   -0.0000041 
   0.003850950     0.0080260   -0.0023403     0.0004369   -0.0004134    -0.0000965   -0.0002688    -0.0000977    0.0004223 
   0.003950975     0.0057392    0.0018436    -0.0005663    0.0004467    -0.0001571   -0.0001876     0.0002100   -0.0005299 
   0.004051001     0.0088273   -0.0045263    -0.0016254    0.0000641    -0.0000934   -0.0000443     0.0000986   -0.0001235 
   0.004151026     0.0053625    0.0014846    -0.0014559    0.0013140    -0.0001363    0.0000064    -0.0002652   -0.0003059 
   0.004251051     0.0045428    0.0008718    -0.0009142    0.0006109    -0.0000758    0.0000617    -0.0003884   -0.0002501 
   0.004351076     0.0081955   -0.0004091     0.0013184    0.0008986    -0.0000788    0.0002137     0.0003992    0.0006926 
   0.004451101     0.0059832   -0.0015177    -0.0004797   -0.0001249    -0.0000320   -0.0004087     0.0004292   -0.0009147 
   0.004551126     0.0061262   -0.0015289    -0.0020339    0.0016853    -0.0001759    0.0002675    -0.0006091    0.0001885 
   0.004651151     0.0092755    0.0011761    -0.0006175    0.0004074    -0.0001604   -0.0001998     0.0003270   -0.0002590 
   0.004751176     0.0062871   -0.0016770    -0.0006263    0.0001829     0.0003703   -0.0003508     0.0005248   -0.0003879 
   0.004851201     0.0064446   -0.0007468    -0.0009238    0.0004319    -0.0000643    0.0002051     0.0002226    0.0004869 
   0.004951226     0.0086107   -0.0014842    -0.0006674    0.0006288    -0.0003595   -0.0001274     0.0003833   -0.0000559 
   0.005051251     0.0082931    0.0016639    -0.0003194    0.0004841    -0.0000518   -0.0003461     0.0005233   -0.0005390 
   0.005151276     0.0061200    0.0020636    -0.0001832    0.0006630    -0.0001713    0.0001853     0.0004307   -0.0005697 
   0.005251301     0.0059523   -0.0004018     0.0003705    0.0011811    -0.0003634    0.0000089     0.0005312    0.0010553 
   0.005351326     0.0083707    0.0037209    -0.0012289    0.0003164    -0.0000785   -0.0000341     0.0005028    0.0000915 
   0.005451351     0.0078366   -0.0010867     0.0001672    0.0017005     0.0000279   -0.0000057    -0.0000076    0.0000155 
   0.005551376     0.0036761    0.0017991     0.0000048   -0.0000704     0.0002877   -0.0002600     0.0002673   -0.0002790 
   0.005651401     0.0084722    0.0010721    -0.0001433    0.0000574    -0.0000560    0.0002443    -0.0002321   -0.0001648 
   0.005751426     0.0074761    0.0013631    -0.0002842    0.0011126     0.0002300   -0.0002599     0.0008726   -0.0004423 
   0.005851451     0.0073989    0.0017717     0.0000434    0.0009954    -0.0000912    0.0000966    -0.0000271   -0.0000631 
   0.005951476     0.0071273    0.0004798    -0.0003588   -0.0001584     0.0001390   -0.0006334    -0.0001531   -0.0002932 
   0.006051501     0.0052028    0.0000408    -0.0002206    0.0002439    -0.0002666   -0.0000774    -0.0004695    0.0001762 
   0.006151526     0.0069238   -0.0008921    -0.0009731    0.0004397    -0.0000213    0.0003723    -0.0000301   -0.0007174 
   0.006251551     0.0060849    0.0002092    -0.0000653    0.0019024     0.0000792    0.0000713     0.0001910    0.0001908 
   0.006351576     0.0070209    0.0006302     0.0000006   -0.0007423     0.0000739    0.0000813     0.0000168   -0.0000966 
   0.006451601     0.0055467    0.0009510     0.0006491    0.0006093     0.0002195   -0.0000651     0.0002729   -0.0000064 
   0.006551626     0.0064626    0.0005989    -0.0009542   -0.0013859     0.0001336   -0.0001908    -0.0005128   -0.0000671 
   0.006651651     0.0058074    0.0010976    -0.0011088   -0.0001061     0.0000959    0.0000740    -0.0004960    0.0001803 
   0.006751676     0.0064358   -0.0007408     0.0004761    0.0003439     0.0003561   -0.0000997     0.0008443    0.0001058 
   0.006851701     0.0093476   -0.0009349     0.0000634   -0.0008885     0.0001784   -0.0000181    -0.0000094   -0.0001501 
   0.006951726     0.0079297   -0.0029034     0.0012512   -0.0003064    -0.0002126    0.0000789     0.0009941    0.0007487 
   0.007051751     0.0077289   -0.0013621     0.0004225    0.0008534     0.0003591    0.0001549     0.0003666   -0.0000273 
   0.007151776     0.0049520   -0.0005409    -0.0000932    0.0011430     0.0000530    0.0003005     0.0004177   -0.0002942 
   0.007251801     0.0068536    0.0024772    -0.0004546    0.0002429    -0.0002794    0.0001013     0.0004075   -0.0002690 
   0.007351826     0.0085474   -0.0017411    -0.0000819   -0.0007600     0.0001513    0.0001206     0.0007956    0.0002632 
   0.007451851     0.0080446    0.0018950     0.0001198    0.0003988    -0.0000455   -0.0002240     0.0011204   -0.0004603 
   0.007551876     0.0059587   -0.0002742    -0.0000795   -0.0008897    -0.0000255    0.0002486     0.0004529   -0.0003493 
   0.007651901     0.0067375   -0.0009788    -0.0007227    0.0001889     0.0000499    0.0002162    -0.0001118    0.0002683 
   0.007751926     0.0056375    0.0010998    -0.0003771    0.0007704     0.0000446    0.0001871     0.0001810   -0.0004131 
   0.007851951     0.0056270    0.0029125    -0.0001085   -0.0005367    -0.0000368    0.0000635     0.0005046   -0.0002896 
   0.007951976     0.0065750    0.0000464    -0.0007794   -0.0001077     0.0002530   -0.0000642     0.0002544    0.0000547 
   0.008052001     0.0052632   -0.0000270     0.0001978   -0.0010345     0.0003022   -0.0000365     0.0005627   -0.0000194 
   0.008152026     0.0081060   -0.0000530     0.0006059    0.0004901    -0.0000358    0.0005510     0.0005051    0.0000960 
   0.008252051     0.0055977   -0.0033573    -0.0002451    0.0000834    -0.0001158   -0.0001044     0.0005672    0.0001308 
   0.008352076     0.0057330    0.0001773    -0.0000415    0.0000252    -0.0002582    0.0000672     0.0004571   -0.0000546 
   0.008452101     0.0049742   -0.0008897    -0.0008856    0.0003232     0.0002228    0.0002221     0.0000509   -0.0004120 
   0.008552126     0.0064617   -0.0001262    -0.0004810   -0.0007237    -0.0003970    0.0000860    -0.0001851    0.0003521 
   0.008652151     0.0070564    0.0007957    -0.0005582    0.0004909    -0.0000656   -0.0000231    -0.0002004   -0.0003319 
   0.008752176     0.0068954    0.0022542    -0.0001291    0.0007422     0.0000849    0.0004426    -0.0004025   -0.0006095 
   0.008852201     0.0071503    0.0003154     0.0001105   -0.0003532     0.0000644   -0.0003443     0.0003234    0.0001977 
   0.008952226     0.0055798   -0.0011349     0.0001855    0.0007617    -0.0002158   -0.0000899     0.0001532   -0.0004589 
   0.009052251     0.0064580    0.0011733    -0.0001479    0.0001117     0.0001003   -0.0001981    -0.0000163   -0.0006432 
   0.009152276     0.0075682    0.0007513    -0.0004136    0.0000118     0.0002194    0.0001160     0.0006129    0.0000905 
   0.009252301     0.0062885   -0.0008619    -0.0000942   -0.0003002    -0.0002132   -0.0001153     0.0000017   -0.0004829 
   0.009352326     0.0060832   -0.0004089    -0.0005906    0.0008616    -0.0000715    0.0000385     0.0002267   -0.0004791 
   0.009452351     0.0055916    0.0006810    -0.0003182   -0.0005780     0.0000743   -0.0001030     0.0000950   -0.0000891 
   0.009552376     0.0076077   -0.0002268     0.0004566   -0.0006595    -0.0001483    0.0002959     0.0003787    0.0000814 
   0.009652401     0.0070679    0.0000571     0.0002971    0.0002128    -0.0000757    0.0001056    -0.0000933    0.0000475 
   0.009752426     0.0087408    0.0000715    -0.0005217   -0.0002600     0.0002042    0.0000414     0.0004086    0.0006258 
   0.009852451     0.0080384   -0.0003655     0.0001440    0.0002640    -0.0001309   -0.0001174     0.0000832   -0.0001151 
   0.009952476     0.0073755   -0.0002895    -0.0000854   -0.0002758    -0.0002433   -0.0000178     0.0004783   -0.0002793 
   0.010052501     0.0084854   -0.0012690     0.0007215    0.0011153    -0.0000142   -0.0000208    -0.0001844    0.0001330 
   0.010152526     0.0085713    0.0003193     0.0007084   -0.0003908     0.0001074   -0.0000023     0.0000919    0.0001851 
   0.010252551     0.0063327    0.0017405     0.0001112    0.0003805     0.0000508   -0.0000923     0.0001918   -0.0002146 
   0.010352576     0.0077870   -0.0012262    -0.0002186    0.0004133     0.0000842    0.0000969     0.0001429    0.0005067 
   0.010452601     0.0064420   -0.0011978     0.0002009    0.0003818    -0.0000632   -0.0000052     0.0004822   -0.0002926 
   0.010552626     0.0068645   -0.0011314     0.0005263   -0.0002925     0.0000676    0.0002537    -0.0003764    0.0000339 
   0.010652651     0.0067248   -0.0013553     0.0001409    0.0000633    -0.0001687    0.0001050     0.0002285   -0.0002636 
   0.010752676     0.0055032    0.0006015     0.0001201    0.0005200     0.0000812    0.0001903     0.0002599    0.0004940 
   0.010852701     0.0059159    0.0005770     0.0002296   -0.0006829     0.0000777    0.0001136     0.0002315    0.0001974 
   0.010952726     0.0053101    0.0008752     0.0002812    0.0003114    -0.0000298   -0.0000424    -0.0002796   -0.0003183 
   0.011052751     0.0074300   -0.0001445     0.0011714    0.0001458     0.0001657   -0.0000876     0.0004088    0.0002606 
   0.011152776     0.0058139    0.0005220     0.0007517   -0.0007826    -0.0003459   -0.0000122    -0.0000467   -0.0004044 
   0.011252801     0.0069472    0.0004437    -0.0004270   -0.0001090    -0.0001459    0.0002269    -0.0001530    0.0001790 
   0.011352826     0.0078586    0.0001707     0.0007496   -0.0004505    -0.0001466    0.0000248     0.0004076    0.0001197 
   0.011452851     0.0052418   -0.0005698     0.0000283    0.0003666     0.0000266    0.0000158     0.0005318    0.0002872 
   0.011552876     0.0068762    0.0013531    -0.0004472   -0.0003065    -0.0001377   -0.0002369     0.0004841   -0.0000733 
   0.011652901     0.0065630   -0.0002414     0.0001634    0.0000039     0.0002079    0.0000285     0.0001492    0.0006313 
   0.011752926     0.0056227   -0.0001808    -0.0007095   -0.0004641    -0.0001798    0.0001001     0.0003987   -0.0003384 
   0.011852951     0.0081368   -0.0002709     0.0000290   -0.0005307    -0.0000903    0.0000915     0.0001328   -0.0002414 
   0.011952976     0.0063045    0.0000215     0.0006534   -0.0002217     0.0001063   -0.0000658    -0.0000076    0.0003812 
   0.012053002     0.0063182    0.0001118    -0.0009452   -0.0005436    -0.0000585   -0.0000556     0.0005403    0.0001168 
   0.012153027     0.0067305   -0.0005772     0.0014685    0.0003231    -0.0001620   -0.0000784     0.0001957    0.0000155 
   0.012253052     0.0070440    0.0014128    -0.0013049    0.0001628     0.0001209   -0.0002347     0.0002738    0.0000791 
   0.012353077     0.0078881   -0.0007223    -0.0000354    0.0001179    -0.0000205   -0.0002213     0.0002942   -0.0000243 
   0.012453102     0.0062132    0.0005171    -0.0004511    0.0002264     0.0000416   -0.0001159     0.0004873   -0.0001476 
   0.012553127     0.0087391    0.0002455     0.0005459    0.0004248     0.0002003   -0.0002890     0.0001555   -0.0005360 
   0.012653152     0.0061791   -0.0005251     0.0001181   -0.0001589    -0.0002400   -0.0001157     0.0002525    0.0000513 
   0.012753177     0.0077661    0.0000259    -0.0006493    0.0000802    -0.0001540   -0.0000433     0.0000223   -0.0000384 
   0.012853202     0.0062777    0.0006865     0.0008788    0.0001733     0.0001177   -0.0001884     0.0005735    0.0004651 
   0.012953227     0.0070088    0.0003287    -0.0000319   -0.0001019    -0.0002375   -0.0000842     0.0004585   -0.0000753 
   0.013053252     0.0075292    0.0006094    -0.0002897    0.0008789     0.0000350   -0.0002399     0.0003839   -0.0003322 
   0.013153277     0.0070552   -0.0002669     0.0001806    0.0001816    -0.0000927   -0.0000106     0.0003383    0.0001885 
   0.013253302     0.0063798    0.0001123    -0.0006582    0.0000052     0.0000166    0.0000881     0.0000242    0.0001209 
   0.013353327     0.0052461    0.0009824    -0.0002417   -0.0006992     0.0000232   -0.0002281     0.0001478   -0.0001242 
   0.013453352     0.0067191    0.0003272    -0.0000860   -0.0001822     0.0002924    0.0000298     0.0000517   -0.0001433 
   0.013553377     0.0068035   -0.0009998     0.0002741   -0.0012704    -0.0001381    0.0001921     0.0003928   -0.0000985 
   0.013653402     0.0065469   -0.0012327     0.0004607   -0.0002163     0.0000109   -0.0000286     0.0002294   -0.0001807 
   0.013753427     0.0074227    0.0011747     0.0001145   -0.0003764     0.0001729   -0.0002555     0.0002192    0.0001108 
   0.013853452     0.0095204    0.0009040    -0.0001944   -0.0004175     0.0002207   -0.0001191     0.0002674    0.0001518 
   0.013953477     0.0070609    0.0002153     0.0006102   -0.0001455     0.0002278   -0.0001681     0.0002485    0.0001857 
   0.014053502     0.0069185   -0.0007386    -0.0003207   -0.0003292     0.0000820    0.0001085     0.0001645   -0.0002522 
   0.014153527     0.0074593   -0.0002354    -0.0003195    0.0002724     0.0002064    0.0002217     0.0003675    0.0003414 
   0.014253552     0.0060743    0.0005003     0.0000738    0.0000798    -0.0001266   -0.0001800     0.0002093   -0.0004617 
   0.014353577     0.0073240   -0.0003484     0.0000121   -0.0002567     0.0001416    0.0000692     0.0005199    0.0001670 
   0.014453602     0.0051358   -0.0003593    -0.0006114    0.0001038     0.0002462    0.0000588    -0.0001740   -0.0001110 
   0.014553627     0.0061824    0.0001107    -0.0002277   -0.0003846    -0.0002353   -0.0000086     0.0003106   -0.0000300 
   0.014653652     0.0085824    0.0005881    -0.0002993    0.0004366    -0.0000461   -0.0001238     0.0002578   -0.0002718 
   0.014753677     0.0072581   -0.0000189     0.0000301   -0.0003894     0.0001580   -0.0002948     0.0002949    0.0000335 
   0.014853702     0.0085246   -0.0005585     0.0005523   -0.0002274     0.0000509   -0.0000160     0.0001523   -0.0000107 
   0.014953727     0.0082837   -0.0012224     0.0002012    0.0000700     0.0001196    0.0004362     0.0003656   -0.0000778 
   0.015053752     0.0068167   -0.0008787    -0.0001698   -0.0001697    -0.0001972   -0.0002521     0.0005142    0.0000424 
   0.015153777     0.0052864    0.0011327    -0.0000460   -0.0005426    -0.0000528    0.0002413     0.0002267   -0.0002543 
   0.015253802     0.0052735   -0.0011326    -0.0004050    0.0003996     0.0001363    0.0002203     0.0002674   -0.0002144 
   0.015353827     0.0063907    0.0007469     0.0000273   -0.0004360     0.0000212    0.0000002     0.0006976   -0.0001661 
   0.015453852     0.0082455    0.0000011     0.0001385    0.0000108     0.0000844    0.0000578     0.0005736    0.0000737 
   0.015553877     0.0070457    0.0007541     0.0000382    0.0004775     0.0000785    0.0000747     0.0006534   -0.0001240 
   0.015653902     0.0086087    0.0001032     0.0010927   -0.0001220     0.0002028    0.0002026     0.0004124   -0.0000503 
