! 26-Feb-26 2:17:44 PM
! E:\VNA_MEASUREMENTS\HEATED_LOAD\LOAD_TERMINSTION_1.S2P
! CHANNEL.1
! TR.MEASUREMENT
! CORRECTED.DATA
# GHZ S RI R 50.0
! FREQ.GHZ         S11RE         S11IM         S21RE         S21IM         S12RE         S12IM         S22RE         S22IM         
!; PortSelection: Port_12
   0.000050000     0.1450489    0.4525078     0.1920987    0.1472868    -0.0035295   -0.0015478    -0.0245195    0.0208260 
   0.000150025    -0.0269436    0.4970869    -0.7263543   -0.8746295     0.0005071   -0.0000513    -0.0005762   -0.0054857 
   0.000250050    -0.5121718   -0.4897283    -0.1008859    0.0435727    -0.0000232    0.0000844    -0.0016789   -0.0016150 
   0.000350075     0.0118680   -0.0059858    -0.0025002   -0.0065388     0.0003473    0.0002695    -0.0018153    0.0007305 
   0.000450100     0.0045059   -0.0024397    -0.0025460   -0.0044905     0.0000496    0.0002107    -0.0010994    0.0002253 
   0.000550125     0.0039408   -0.0016490    -0.0023074   -0.0065900     0.0003355   -0.0008381     0.0014427    0.0011905 
   0.000650150     0.0067348    0.0003919    -0.0027064   -0.0085738    -0.0001341    0.0009341     0.0006275   -0.0025291 
   0.000750175     0.0041982   -0.0005823    -0.0036360   -0.0061232     0.0002764   -0.0000721    -0.0003518    0.0004974 
   0.000850200     0.0052873   -0.0019547    -0.0010710   -0.0054186     0.0001126   -0.0004301    -0.0003619   -0.0008226 
   0.000950225     0.0050861   -0.0005356    -0.0037670   -0.0051066    -0.0001576   -0.0000460     0.0005585    0.0004981 
   0.001050250     0.0068708    0.0055675    -0.0055477   -0.0026173     0.0000757   -0.0002209     0.0006493    0.0000321 
   0.001150275     0.0057139    0.0007728    -0.0056883   -0.0047388     0.0002491    0.0000009     0.0012340    0.0004428 
   0.001250300     0.0027712    0.0021891    -0.0061297   -0.0044428     0.0001814   -0.0001158     0.0011662    0.0001759 
   0.001350325     0.0066851   -0.0007526    -0.0035504   -0.0005279     0.0003573    0.0000657    -0.0009147    0.0003360 
   0.001450350     0.0042134    0.0033539    -0.0040392   -0.0020329    -0.0004024    0.0003043    -0.0003795    0.0002238 
   0.001550375     0.0068672   -0.0006528    -0.0041526    0.0006513    -0.0000933    0.0001698     0.0010315   -0.0001782 
   0.001650400     0.0081474   -0.0005570    -0.0069413    0.0001655    -0.0003214   -0.0006907    -0.0001953    0.0007086 
   0.001750425     0.0080348   -0.0032977    -0.0044657   -0.0022084    -0.0005304    0.0002878    -0.0000387    0.0002425 
   0.001850450     0.0082514   -0.0002971    -0.0035765    0.0002218    -0.0003123   -0.0000413    -0.0002803    0.0014786 
   0.001950475     0.0052704    0.0005561    -0.0039267    0.0012947     0.0001623    0.0004107     0.0008033    0.0004031 
   0.002050500     0.0042997    0.0014172    -0.0038487    0.0008381     0.0000243   -0.0003887     0.0007114   -0.0001900 
   0.002150525     0.0060830    0.0014634    -0.0031622    0.0014074    -0.0000284    0.0003309     0.0000610    0.0005089 
   0.002250550     0.0073091   -0.0016238    -0.0050418    0.0007301    -0.0000646    0.0002545     0.0003033   -0.0006789 
   0.002350575     0.0075099    0.0003059    -0.0035746   -0.0013591     0.0000980    0.0004752     0.0007395    0.0003344 
   0.002450600     0.0074596   -0.0012784    -0.0054288    0.0001763     0.0006189    0.0002937     0.0008079    0.0000045 
   0.002550625     0.0063319   -0.0024568    -0.0020135    0.0013355    -0.0002773    0.0003663     0.0000623    0.0007527 
   0.002650650     0.0081429    0.0050360    -0.0035497    0.0021798     0.0003538    0.0001539    -0.0002034    0.0002651 
   0.002750675     0.0064312    0.0009005    -0.0028024    0.0020566    -0.0004729    0.0000184     0.0001891    0.0002309 
   0.002850700     0.0085697    0.0017683     0.0000591    0.0022292     0.0000086    0.0000080    -0.0005138   -0.0002243 
   0.002950725     0.0064451   -0.0004856    -0.0029655    0.0006086     0.0002333    0.0004665     0.0005801   -0.0001115 
   0.003050750     0.0061039    0.0006816    -0.0003664    0.0021229    -0.0001129    0.0001335     0.0003219   -0.0002880 
   0.003150775     0.0055371   -0.0011679    -0.0015543    0.0007092    -0.0000919    0.0001649    -0.0005639   -0.0000975 
   0.003250800     0.0053419   -0.0005350    -0.0014406    0.0007294    -0.0001746   -0.0002838    -0.0001420    0.0004808 
   0.003350825     0.0081177    0.0030071    -0.0014961    0.0003711    -0.0002866   -0.0003863     0.0000867    0.0008542 
   0.003450850     0.0084345   -0.0014896    -0.0008761    0.0007570    -0.0004801    0.0004142     0.0005626   -0.0010063 
   0.003550875     0.0075764    0.0003447    -0.0003804    0.0005017     0.0002359    0.0001864    -0.0000467   -0.0000675 
   0.003650900     0.0073039    0.0001010    -0.0016237    0.0013297    -0.0003357    0.0001020     0.0006263    0.0004022 
   0.003750925     0.0045023   -0.0020429    -0.0004209    0.0017950    -0.0001962   -0.0001203     0.0004779   -0.0001078 
   0.003850950     0.0076015   -0.0025058    -0.0014580   -0.0007897    -0.0001700   -0.0000265    -0.0001681   -0.0000483 
   0.003950975     0.0052751    0.0015689    -0.0016430    0.0018540    -0.0002846    0.0000261     0.0002053   -0.0006486 
   0.004051001     0.0047686   -0.0027218    -0.0006705    0.0008342    -0.0001554    0.0001449     0.0003083   -0.0002063 
   0.004151026     0.0060658    0.0020184    -0.0010998    0.0011334    -0.0002902    0.0001042    -0.0003378   -0.0006553 
   0.004251051     0.0034434    0.0028394    -0.0017145    0.0008893    -0.0001798   -0.0003000    -0.0001475   -0.0003628 
   0.004351076     0.0063841    0.0013663    -0.0011487    0.0012673    -0.0001484   -0.0002647     0.0006913    0.0008824 
   0.004451101     0.0067724    0.0002760    -0.0007241    0.0012206     0.0002375    0.0001782     0.0004078   -0.0006635 
   0.004551126     0.0071124   -0.0024115    -0.0021609    0.0012750    -0.0000864   -0.0000466    -0.0006341    0.0007157 
   0.004651151     0.0076803    0.0000540    -0.0008034   -0.0001928    -0.0000598    0.0000826     0.0001152    0.0000025 
   0.004751176     0.0076182   -0.0004374     0.0002791    0.0008762    -0.0000515   -0.0000771     0.0004766   -0.0004395 
   0.004851201     0.0072809   -0.0004769    -0.0005462    0.0010261    -0.0001111   -0.0004140    -0.0000431    0.0001046 
   0.004951226     0.0048358   -0.0013018    -0.0004766   -0.0000196    -0.0002443    0.0000490     0.0000872   -0.0001266 
   0.005051251     0.0078346    0.0007114    -0.0004091    0.0007048     0.0002141   -0.0003235     0.0002403   -0.0003351 
   0.005151276     0.0072775    0.0017198    -0.0000712    0.0014463    -0.0001569   -0.0002553     0.0001561   -0.0004344 
   0.005251301     0.0048921   -0.0006103    -0.0017243    0.0006536    -0.0001296   -0.0001850     0.0003626    0.0010533 
   0.005351326     0.0075491    0.0014225     0.0000792   -0.0001872     0.0002432    0.0000004     0.0005899    0.0001935 
   0.005451351     0.0073044   -0.0021808    -0.0005435    0.0000525     0.0001299   -0.0000244     0.0006854    0.0002245 
   0.005551376     0.0042982    0.0007028     0.0004688    0.0011090    -0.0002381   -0.0002589     0.0003072   -0.0003926 
   0.005651401     0.0095442   -0.0012380    -0.0010944    0.0007015    -0.0000311    0.0004434    -0.0000510   -0.0000671 
   0.005751426     0.0061612    0.0022152    -0.0007707    0.0014915    -0.0002431    0.0000585    -0.0002696   -0.0000587 
   0.005851451     0.0062192    0.0020455    -0.0001470    0.0002185     0.0001129    0.0000879    -0.0002484   -0.0002517 
   0.005951476     0.0059841    0.0011728     0.0004871   -0.0000469     0.0000189   -0.0000670     0.0005933    0.0005010 
   0.006051501     0.0058693    0.0019135    -0.0018832    0.0004340    -0.0002101   -0.0001320    -0.0002180    0.0003503 
   0.006151526     0.0098995   -0.0005126    -0.0001886   -0.0003315     0.0003693   -0.0001253     0.0004434   -0.0004416 
   0.006251551     0.0066381   -0.0018830    -0.0002666    0.0002508     0.0002876   -0.0000142     0.0002687    0.0006874 
   0.006351576     0.0050194    0.0010326    -0.0006528   -0.0006035    -0.0001339   -0.0000487     0.0001735   -0.0002494 
   0.006451601     0.0062141    0.0012811     0.0006845    0.0000165    -0.0001063   -0.0000381     0.0003021    0.0006214 
   0.006551626     0.0051085   -0.0002873     0.0004426   -0.0001379    -0.0000168    0.0000432    -0.0002467   -0.0000805 
   0.006651651     0.0056418    0.0001571     0.0000097    0.0006161     0.0000331    0.0000787     0.0000898    0.0001174 
   0.006751676     0.0060306   -0.0011502     0.0004817    0.0008165    -0.0001901   -0.0001127     0.0006438    0.0000454 
   0.006851701     0.0074350    0.0010867    -0.0008586    0.0003750    -0.0002431    0.0000599    -0.0002357    0.0003736 
   0.006951726     0.0059960   -0.0024927    -0.0012195    0.0008696    -0.0000831    0.0003779     0.0003409    0.0011326 
   0.007051751     0.0065224   -0.0018694     0.0007791    0.0005664     0.0000829   -0.0000929     0.0002297   -0.0000504 
   0.007151776     0.0053586    0.0005069    -0.0003668    0.0008003    -0.0000475    0.0001196     0.0006276   -0.0000336 
   0.007251801     0.0088385    0.0008286    -0.0000376   -0.0000348    -0.0002133   -0.0001077    -0.0000460   -0.0000846 
   0.007351826     0.0075458   -0.0019339     0.0000643   -0.0009296    -0.0001415   -0.0001216     0.0009601    0.0002646 
   0.007451851     0.0070830    0.0024240     0.0000915    0.0005006     0.0001090    0.0004226     0.0001709   -0.0002515 
   0.007551876     0.0067314    0.0010347     0.0008464    0.0004436     0.0001070   -0.0002522    -0.0000404   -0.0000366 
   0.007651901     0.0066121   -0.0006622     0.0002231    0.0005024    -0.0001182   -0.0000310    -0.0000772    0.0002111 
   0.007751926     0.0057920    0.0004128     0.0002105   -0.0004656     0.0002041    0.0000464     0.0000884   -0.0005286 
   0.007851951     0.0067108    0.0022287    -0.0004054    0.0000297     0.0002837   -0.0000978     0.0008144   -0.0000766 
   0.007951976     0.0071113   -0.0010137    -0.0005785    0.0004963     0.0000718   -0.0001658     0.0003770   -0.0002890 
   0.008052001     0.0050550   -0.0019364    -0.0004814    0.0003491    -0.0000938    0.0000217    -0.0001643    0.0002970 
   0.008152026     0.0059496   -0.0010172     0.0004965    0.0009949    -0.0000184   -0.0000268    -0.0000477   -0.0001360 
   0.008252051     0.0064418   -0.0011084     0.0002256   -0.0000164    -0.0001314    0.0003282     0.0004140    0.0002400 
   0.008352076     0.0084898   -0.0005863     0.0002159    0.0000475     0.0001295    0.0001815     0.0005118   -0.0003646 
   0.008452101     0.0065551    0.0005012     0.0002033   -0.0003753     0.0001089   -0.0001757    -0.0000052   -0.0004107 
   0.008552126     0.0063516   -0.0007806     0.0003257    0.0005072    -0.0000173    0.0000112     0.0002101    0.0006574 
   0.008652151     0.0065508    0.0013507     0.0001364   -0.0000220     0.0000339   -0.0000393     0.0004230   -0.0003792 
   0.008752176     0.0074864    0.0011318    -0.0001432   -0.0003363    -0.0000161    0.0002132    -0.0000943   -0.0005418 
   0.008852201     0.0063550   -0.0013886     0.0001622   -0.0000735    -0.0002574    0.0001261     0.0003782    0.0003472 
   0.008952226     0.0076119    0.0003002     0.0004528    0.0009953     0.0000431   -0.0001715     0.0004422   -0.0004818 
   0.009052251     0.0063818    0.0007217     0.0001994    0.0001675     0.0000800    0.0001119     0.0004436   -0.0001810 
   0.009152276     0.0073680   -0.0010613    -0.0000473    0.0003060    -0.0001505   -0.0000593     0.0008332   -0.0001553 
   0.009252301     0.0067349   -0.0010142    -0.0004830    0.0005654    -0.0001094    0.0001349    -0.0001409   -0.0000142 
   0.009352326     0.0058629   -0.0005080     0.0000055   -0.0001719    -0.0001129    0.0002748     0.0000632   -0.0002285 
   0.009452351     0.0073612   -0.0006111     0.0001404   -0.0010029     0.0002638    0.0001191     0.0005210    0.0000244 
   0.009552376     0.0062326   -0.0006027    -0.0001494   -0.0001911    -0.0000365    0.0000198     0.0002535    0.0002991 
   0.009652401     0.0070012    0.0017486    -0.0000116    0.0006856    -0.0000864   -0.0003757    -0.0000663    0.0001673 
   0.009752426     0.0072771    0.0007930    -0.0008680   -0.0001461     0.0000712    0.0000805     0.0000330    0.0002507 
   0.009852451     0.0078520   -0.0014518    -0.0005154    0.0000738     0.0000024   -0.0000964    -0.0000032    0.0001826 
   0.009952476     0.0069583    0.0007721    -0.0001230    0.0002664     0.0001372   -0.0001144     0.0000559   -0.0000817 
   0.010052501     0.0072874   -0.0009120     0.0002337    0.0007290     0.0000040    0.0000091     0.0003856   -0.0001678 
   0.010152526     0.0084218   -0.0001493     0.0003418    0.0001220    -0.0000384    0.0000035    -0.0000222    0.0002715 
   0.010252551     0.0069279    0.0019392     0.0001987    0.0007191    -0.0000706    0.0000432     0.0001147   -0.0000452 
   0.010352576     0.0086860   -0.0013381    -0.0006784   -0.0002977     0.0000954    0.0000562     0.0004681   -0.0000668 
   0.010452601     0.0086355    0.0001783    -0.0006453    0.0010292     0.0001537   -0.0000775    -0.0000190   -0.0003158 
   0.010552626     0.0076068   -0.0002755    -0.0000652    0.0005090     0.0001706   -0.0001376    -0.0001682    0.0001497 
   0.010652651     0.0079486   -0.0019934    -0.0002560    0.0001288    -0.0000408   -0.0000451     0.0007453   -0.0002846 
   0.010752676     0.0078851    0.0001058     0.0002551    0.0007607     0.0003230    0.0001361     0.0003281    0.0000219 
   0.010852701     0.0056830    0.0004243     0.0004456   -0.0005485     0.0001246    0.0000850     0.0002750    0.0001583 
   0.010952726     0.0060329   -0.0005280    -0.0001098    0.0002528     0.0002309   -0.0000948    -0.0003210   -0.0004233 
   0.011052751     0.0065164    0.0014571    -0.0000021    0.0000338     0.0002020   -0.0002429     0.0003469   -0.0000514 
   0.011152776     0.0054792    0.0006207     0.0003393    0.0002741    -0.0000012    0.0002814     0.0002458    0.0000849 
   0.011252801     0.0064374    0.0015019    -0.0005696    0.0001629     0.0000724    0.0000503    -0.0002513    0.0002155 
   0.011352826     0.0065788    0.0006845    -0.0002408   -0.0005586     0.0000058   -0.0001198     0.0003029   -0.0000949 
   0.011452851     0.0062951    0.0019565     0.0003357    0.0002344     0.0000037    0.0001163     0.0005488    0.0000969 
   0.011552876     0.0078424    0.0013208    -0.0005035    0.0000373     0.0001462    0.0001349     0.0000645    0.0000216 
   0.011652901     0.0067935    0.0010493    -0.0000994    0.0000993    -0.0000470   -0.0002291     0.0001537    0.0004412 
   0.011752926     0.0065251    0.0015814     0.0002840    0.0002758    -0.0000520    0.0000693     0.0003131    0.0001582 
   0.011852951     0.0080593   -0.0005765    -0.0008032    0.0002148    -0.0000108   -0.0000235     0.0000130   -0.0004595 
   0.011952976     0.0075839    0.0007916    -0.0001079    0.0000892    -0.0000447   -0.0000566     0.0005077    0.0003204 
   0.012053002     0.0062069    0.0012082    -0.0005354   -0.0005005     0.0002591   -0.0000128     0.0001988    0.0001149 
   0.012153027     0.0068369   -0.0014275     0.0001408   -0.0002129     0.0001881   -0.0000548     0.0004092   -0.0002670 
   0.012253052     0.0072440    0.0022868     0.0002336    0.0005545     0.0001506    0.0001531     0.0005046   -0.0000583 
   0.012353077     0.0070610   -0.0003036     0.0006516   -0.0003331    -0.0000331    0.0001222    -0.0001429    0.0001485 
   0.012453102     0.0050903    0.0003904     0.0007735    0.0001034     0.0001738   -0.0000795     0.0002547    0.0000868 
   0.012553127     0.0077107   -0.0007588     0.0001607   -0.0007036     0.0001016    0.0000582     0.0004745   -0.0001321 
   0.012653152     0.0055619   -0.0007540     0.0002819    0.0000864     0.0000141   -0.0000661     0.0005560   -0.0000545 
   0.012753177     0.0066360    0.0003222     0.0000213   -0.0003579    -0.0001313   -0.0000350     0.0002281   -0.0002040 
   0.012853202     0.0053964   -0.0013229    -0.0000203   -0.0006658    -0.0000037   -0.0000517     0.0002485    0.0003511 
   0.012953227     0.0068469   -0.0010558     0.0003302    0.0004423     0.0001713    0.0000353     0.0005219    0.0001661 
   0.013053252     0.0068651    0.0006484    -0.0003297    0.0004576    -0.0001580   -0.0001121     0.0003551    0.0001258 
   0.013153277     0.0073857   -0.0001430     0.0001522    0.0001836     0.0000284    0.0004027     0.0003534   -0.0000279 
   0.013253302     0.0061880    0.0008521     0.0000283   -0.0000394     0.0001134   -0.0000475     0.0000799   -0.0000593 
   0.013353327     0.0055580   -0.0003106    -0.0002453   -0.0005250     0.0001605   -0.0000391     0.0002489   -0.0001104 
   0.013453352     0.0076560   -0.0001732    -0.0000414    0.0004435    -0.0000369   -0.0000206     0.0003739   -0.0001895 
   0.013553377     0.0063812    0.0012755     0.0000581   -0.0004161    -0.0001757   -0.0001399     0.0005099    0.0000191 
   0.013653402     0.0069420   -0.0008857    -0.0010833    0.0005795    -0.0001451   -0.0002630     0.0003580    0.0001377 
   0.013753427     0.0079146    0.0003391     0.0004754    0.0001235     0.0000455   -0.0000897    -0.0000336   -0.0001483 
   0.013853452     0.0077852   -0.0012651    -0.0006583   -0.0005213     0.0000076    0.0000298     0.0001502    0.0005436 
   0.013953477     0.0080356   -0.0003374    -0.0001904   -0.0003663    -0.0001303   -0.0001875     0.0005033    0.0002064 
   0.014053502     0.0068152   -0.0027736    -0.0000814    0.0002344    -0.0000984   -0.0000808     0.0000321   -0.0001757 
   0.014153527     0.0076363   -0.0003840     0.0005574   -0.0006582    -0.0000433   -0.0001500     0.0001906    0.0001399 
   0.014253552     0.0056075    0.0014206     0.0007388    0.0000166    -0.0001341    0.0000192     0.0006065   -0.0003358 
   0.014353577     0.0076284    0.0003203    -0.0006386    0.0003462    -0.0002163   -0.0002237     0.0006878   -0.0000641 
   0.014453602     0.0055336    0.0004369     0.0005572    0.0001947    -0.0000634    0.0000999     0.0000726    0.0000633 
   0.014553627     0.0056189   -0.0012854    -0.0002084   -0.0003942    -0.0001875    0.0001811     0.0001375   -0.0001836 
   0.014653652     0.0082149    0.0004798     0.0001367    0.0001778     0.0002536    0.0001910     0.0002191   -0.0002808 
   0.014753677     0.0074817    0.0009729    -0.0001509    0.0004378     0.0001422   -0.0001701     0.0005405    0.0001010 
   0.014853702     0.0091335   -0.0004442     0.0003376   -0.0000321     0.0000005   -0.0001426     0.0003351    0.0002040 
   0.014953727     0.0092578   -0.0005176    -0.0003709   -0.0003695     0.0000404   -0.0001849     0.0002841   -0.0000195 
   0.015053752     0.0062078   -0.0010390    -0.0005771    0.0001443    -0.0000572   -0.0001879     0.0002412    0.0003977 
   0.015153777     0.0059613    0.0008345    -0.0003515   -0.0000057    -0.0001048   -0.0000999     0.0003628   -0.0002556 
   0.015253802     0.0059819    0.0005014     0.0000459   -0.0003250     0.0002469    0.0001614     0.0004698   -0.0002546 
   0.015353827     0.0065479   -0.0012367     0.0000476   -0.0007947     0.0000897    0.0000166     0.0006537   -0.0002558 
   0.015453852     0.0073783   -0.0002129     0.0003310    0.0001864     0.0000741    0.0001043     0.0003260    0.0001034 
   0.015553877     0.0079207    0.0005899    -0.0003815   -0.0004946     0.0001181   -0.0000313     0.0001151    0.0001231 
   0.015653902     0.0065415    0.0003038     0.0001914   -0.0000793     0.0001550   -0.0000004     0.0002799   -0.0001887 
