! 26-Feb-26 2:16:57 PM
! E:\VNA_MEASUREMENTS\HEATED_LOAD\LOAD_TERMINSTION_0.S2P
! CHANNEL.1
! TR.MEASUREMENT
! CORRECTED.DATA
# GHZ S RI R 50.0
! FREQ.GHZ         S11RE         S11IM         S21RE         S21IM         S12RE         S12IM         S22RE         S22IM         
!; PortSelection: Port_12
   0.000050000    -0.0313628   -0.1169080     0.3360604   -0.3249802    -0.0013795    0.0045251    -0.0017996    0.0022610 
   0.000150025    -0.2369382    0.0299432    -0.2094716    0.3780780     0.0008286    0.0004053     0.0036640   -0.0029535 
   0.000250050    -0.2083307   -0.1470101    -0.1404946   -0.0991041     0.0006849    0.0005029    -0.0010937   -0.0038269 
   0.000350075     0.0168223   -0.0020093    -0.0000628   -0.0033301     0.0001560    0.0006459    -0.0026117   -0.0012328 
   0.000450100     0.0029393   -0.0044577    -0.0025962   -0.0088045    -0.0005490   -0.0000963    -0.0009406    0.0000615 
   0.000550125     0.0062452    0.0006891    -0.0030305   -0.0096264     0.0003448   -0.0000917     0.0012787    0.0005036 
   0.000650150     0.0092579    0.0033317    -0.0022005   -0.0048265    -0.0000361   -0.0000126    -0.0003822   -0.0017190 
   0.000750175     0.0072494   -0.0011211    -0.0051465   -0.0047466    -0.0001691   -0.0002960    -0.0000758    0.0003036 
   0.000850200     0.0061454   -0.0024005    -0.0042233   -0.0049077    -0.0003432   -0.0001194    -0.0000986   -0.0007423 
   0.000950225     0.0063067    0.0015391    -0.0075198   -0.0048366    -0.0002741   -0.0004806    -0.0000410    0.0006556 
   0.001050250     0.0055022    0.0024651    -0.0062973   -0.0035446    -0.0000724    0.0002526    -0.0001292    0.0007369 
   0.001150275     0.0098369    0.0017742    -0.0033379   -0.0016656     0.0001716   -0.0003570     0.0008507    0.0004742 
   0.001250300     0.0021137    0.0003795    -0.0048784   -0.0015724     0.0000507    0.0000050     0.0008396    0.0006975 
   0.001350325     0.0050904   -0.0000295    -0.0055303   -0.0024170    -0.0001734    0.0003233    -0.0004042    0.0010090 
   0.001450350     0.0026241    0.0016721    -0.0083487    0.0006746     0.0004048   -0.0003823    -0.0000901    0.0013120 
   0.001550375     0.0063425   -0.0026811    -0.0064264    0.0006499     0.0000600   -0.0003764     0.0006073    0.0001630 
   0.001650400     0.0096791    0.0026700    -0.0040186   -0.0006227    -0.0003782   -0.0004321    -0.0012630   -0.0000026 
   0.001750425     0.0082803   -0.0009433    -0.0050618   -0.0004994     0.0006326   -0.0001684    -0.0008585    0.0005103 
   0.001850450     0.0087242    0.0007004    -0.0062853    0.0006555    -0.0000799    0.0004478    -0.0000095    0.0006993 
   0.001950475     0.0057426   -0.0029825    -0.0046433   -0.0004986    -0.0005158    0.0000616     0.0014121   -0.0001077 
   0.002050500     0.0058464    0.0021004    -0.0030335   -0.0000993    -0.0002523    0.0004957     0.0009581   -0.0001177 
   0.002150525     0.0064288   -0.0014069    -0.0021078   -0.0001634     0.0002176   -0.0002431     0.0003381    0.0009029 
   0.002250550     0.0063779   -0.0009328    -0.0037304    0.0000680    -0.0000632    0.0002236    -0.0005968   -0.0001817 
   0.002350575     0.0063070   -0.0005275    -0.0039762   -0.0000087    -0.0009009    0.0003356     0.0007182   -0.0005166 
   0.002450600     0.0048584    0.0003410    -0.0039033    0.0039730     0.0006852   -0.0000524     0.0001587    0.0000311 
   0.002550625     0.0052786   -0.0013989    -0.0044377    0.0019873     0.0001381   -0.0000718     0.0002993    0.0011122 
   0.002650650     0.0059035    0.0038254    -0.0015319    0.0015561    -0.0002174   -0.0000756    -0.0004686    0.0003229 
   0.002750675     0.0073873   -0.0004290    -0.0008641    0.0013101     0.0001809   -0.0001468     0.0000849   -0.0002417 
   0.002850700     0.0086941   -0.0017540    -0.0012692    0.0023594     0.0000828    0.0001933     0.0000632   -0.0002550 
   0.002950725     0.0091242    0.0000843    -0.0012778   -0.0009661     0.0000437   -0.0000906     0.0006565   -0.0001128 
   0.003050750     0.0064162    0.0010361    -0.0004555    0.0009643    -0.0001566    0.0001471    -0.0001522    0.0000774 
   0.003150775     0.0062219   -0.0001190    -0.0000785    0.0007947     0.0001233   -0.0000215    -0.0008985   -0.0001907 
   0.003250800     0.0084422    0.0003995    -0.0004182   -0.0005548    -0.0000138   -0.0003624    -0.0000370    0.0009553 
   0.003350825     0.0059811    0.0011969    -0.0014838    0.0015339     0.0000180   -0.0000796     0.0002143    0.0003542 
   0.003450850     0.0059796   -0.0028133    -0.0018514    0.0008094    -0.0001184   -0.0001162     0.0000600   -0.0003570 
   0.003550875     0.0054388   -0.0017316    -0.0012120    0.0012094     0.0000927   -0.0000240     0.0004512   -0.0002430 
   0.003650900     0.0059215    0.0002888    -0.0014164    0.0017754    -0.0000749    0.0001156     0.0003330    0.0000594 
   0.003750925     0.0078450   -0.0023316    -0.0002915    0.0018951     0.0001053   -0.0002049     0.0000776   -0.0004076 
   0.003850950     0.0050026   -0.0004407    -0.0012392    0.0014738     0.0000827   -0.0000448    -0.0001880    0.0002188 
   0.003950975     0.0059738    0.0022415    -0.0021841    0.0005672    -0.0002566    0.0001728    -0.0001151   -0.0004691 
   0.004051001     0.0067435   -0.0034703    -0.0004999    0.0015886     0.0000771    0.0000510    -0.0001508    0.0000190 
   0.004151026     0.0064477    0.0029302    -0.0005565    0.0018070     0.0001290    0.0000077    -0.0002571    0.0004005 
   0.004251051     0.0044212    0.0012025    -0.0000398    0.0010778    -0.0001891    0.0001645    -0.0009021   -0.0005031 
   0.004351076     0.0062079   -0.0021119     0.0001464    0.0000240     0.0001856   -0.0001515     0.0006353    0.0004508 
   0.004451101     0.0063424    0.0000637    -0.0022975    0.0007388    -0.0003695   -0.0002304     0.0006599   -0.0007119 
   0.004551126     0.0081102   -0.0002789     0.0004650    0.0001860     0.0000576   -0.0001213    -0.0007274    0.0001496 
   0.004651151     0.0093777   -0.0001270    -0.0002468    0.0004620    -0.0000591   -0.0001386     0.0000899    0.0002751 
   0.004751176     0.0073507    0.0001725    -0.0003857    0.0002841    -0.0004400   -0.0000116    -0.0002147   -0.0001309 
   0.004851201     0.0077665   -0.0012735     0.0008765   -0.0015661    -0.0001059    0.0003225     0.0006194    0.0002699 
   0.004951226     0.0079943   -0.0007420    -0.0010071    0.0003035    -0.0001433   -0.0000595    -0.0000096   -0.0002713 
   0.005051251     0.0081816    0.0003298    -0.0000431    0.0005144    -0.0000099    0.0000637     0.0001447   -0.0003744 
   0.005151276     0.0069746    0.0023197    -0.0009954    0.0006847    -0.0004114    0.0000827     0.0010108   -0.0005820 
   0.005251301     0.0054260    0.0004768     0.0005895   -0.0001074     0.0003070   -0.0000555     0.0004402    0.0010557 
   0.005351326     0.0091050    0.0021005     0.0001565    0.0006328    -0.0000041   -0.0003077     0.0003143    0.0004743 
   0.005451351     0.0072632   -0.0016427    -0.0007894   -0.0002636     0.0000979   -0.0000541     0.0007048   -0.0001265 
   0.005551376     0.0051154    0.0004800    -0.0000882    0.0005396    -0.0001042   -0.0000869    -0.0000553   -0.0003909 
   0.005651401     0.0085668   -0.0000156     0.0005996    0.0011298     0.0004673   -0.0000559    -0.0002257   -0.0004445 
   0.005751426     0.0066402    0.0005025    -0.0016537    0.0006898     0.0004502   -0.0000828    -0.0000046    0.0002190 
   0.005851451     0.0087596    0.0006246    -0.0011657    0.0001845    -0.0004062   -0.0000836    -0.0005583    0.0002096 
   0.005951476     0.0092070    0.0008769    -0.0009984    0.0015469     0.0001250    0.0000501     0.0001658    0.0001299 
   0.006051501     0.0061501    0.0006712    -0.0002353   -0.0006475    -0.0002542    0.0000309     0.0002292   -0.0001906 
   0.006151526     0.0074017   -0.0010547    -0.0001563   -0.0002704     0.0002278    0.0001959     0.0006873   -0.0004441 
   0.006251551     0.0063735    0.0014411    -0.0000519   -0.0000053    -0.0002951   -0.0000625     0.0002489    0.0002514 
   0.006351576     0.0041860    0.0007396    -0.0000345    0.0006719     0.0002396   -0.0000909     0.0003211    0.0002781 
   0.006451601     0.0043030    0.0005902    -0.0004939    0.0005110    -0.0000314    0.0001624    -0.0000544    0.0004146 
   0.006551626     0.0065006   -0.0021111     0.0000634    0.0003051    -0.0000814   -0.0000070    -0.0003281   -0.0001964 
   0.006651651     0.0071011    0.0002706    -0.0004730    0.0004450     0.0001173   -0.0003592    -0.0001659   -0.0000181 
   0.006751676     0.0054860    0.0001654     0.0002591    0.0003364    -0.0002154   -0.0003723     0.0004189    0.0004056 
   0.006851701     0.0065956    0.0005695    -0.0006543    0.0001640     0.0004302   -0.0001497    -0.0001412    0.0002423 
   0.006951726     0.0063396   -0.0011678    -0.0005507   -0.0000942    -0.0000295   -0.0002041     0.0007543    0.0005203 
   0.007051751     0.0075690    0.0002663    -0.0001626   -0.0002210    -0.0002916   -0.0000507     0.0002138   -0.0004524 
   0.007151776     0.0077327   -0.0001907     0.0007789   -0.0008003    -0.0000945    0.0001781     0.0006167   -0.0000207 
   0.007251801     0.0069464   -0.0002842     0.0010802    0.0013223     0.0001307    0.0000956    -0.0005915   -0.0001929 
   0.007351826     0.0063768   -0.0002026    -0.0004049   -0.0004753    -0.0001257    0.0000467     0.0009132    0.0001623 
   0.007451851     0.0077978    0.0038530     0.0004295    0.0000672     0.0000576   -0.0002081     0.0005551   -0.0000535 
   0.007551876     0.0081492    0.0001679    -0.0001670    0.0013402     0.0000942    0.0000764     0.0003211    0.0000258 
   0.007651901     0.0064193   -0.0008014    -0.0006006    0.0003444     0.0004314   -0.0000515     0.0002448    0.0004277 
   0.007751926     0.0062893   -0.0000826    -0.0001027   -0.0008730    -0.0002205    0.0002619     0.0000941   -0.0005194 
   0.007851951     0.0068725    0.0008209    -0.0001536    0.0005031    -0.0000927    0.0001108    -0.0002209   -0.0001883 
   0.007951976     0.0065024   -0.0007472     0.0006208   -0.0004545    -0.0003157   -0.0000688     0.0003337   -0.0001651 
   0.008052001     0.0052362   -0.0017867     0.0005161   -0.0001719    -0.0002316   -0.0000565     0.0002513    0.0009050 
   0.008152026     0.0066047    0.0003234    -0.0001589    0.0001134    -0.0003047   -0.0000520     0.0002954    0.0000394 
   0.008252051     0.0070570   -0.0016604    -0.0002976    0.0009768     0.0000306   -0.0000253     0.0006497    0.0006104 
   0.008352076     0.0061404   -0.0000739     0.0000866   -0.0003429    -0.0001666   -0.0001050     0.0002937   -0.0000769 
   0.008452101     0.0052031    0.0000932     0.0000359   -0.0002724    -0.0000226    0.0000009     0.0000332   -0.0002674 
   0.008552126     0.0066270   -0.0011660    -0.0009600    0.0004137     0.0001557    0.0001446     0.0001588    0.0006819 
   0.008652151     0.0058166    0.0011067     0.0002558   -0.0002221    -0.0002010    0.0001511     0.0004477    0.0001072 
   0.008752176     0.0066340   -0.0002280     0.0002691   -0.0004964    -0.0002831   -0.0001231    -0.0000810   -0.0007847 
   0.008852201     0.0071289   -0.0020002     0.0006147    0.0003616     0.0000007   -0.0001775     0.0004189    0.0004103 
   0.008952226     0.0087333   -0.0005845     0.0004261    0.0000038    -0.0000188    0.0000252     0.0006712   -0.0003353 
   0.009052251     0.0058399    0.0016480     0.0002680    0.0000839    -0.0002615    0.0002368     0.0002845   -0.0001495 
   0.009152276     0.0078599   -0.0001123    -0.0003790    0.0008508     0.0000042    0.0002147     0.0008570   -0.0005999 
   0.009252301     0.0057204   -0.0021897     0.0005802    0.0001801     0.0001461    0.0001084     0.0006348   -0.0000587 
   0.009352326     0.0049760    0.0003899     0.0004110    0.0004006     0.0000139   -0.0003503    -0.0001171   -0.0002923 
   0.009452351     0.0071280    0.0004648     0.0000271    0.0002245    -0.0001926   -0.0000482     0.0002056    0.0000342 
   0.009552376     0.0068985   -0.0013494    -0.0005204   -0.0000824    -0.0000490   -0.0000435     0.0002418    0.0003691 
   0.009652401     0.0061977    0.0008491    -0.0005883    0.0007063    -0.0001238    0.0001710    -0.0001794    0.0003607 
   0.009752426     0.0065097    0.0007841    -0.0001835   -0.0004313     0.0000333   -0.0000651     0.0003143    0.0006231 
   0.009852451     0.0081771   -0.0002681    -0.0005197   -0.0005918    -0.0000262    0.0000456    -0.0000259   -0.0001058 
   0.009952476     0.0076274   -0.0005233     0.0005597    0.0000363     0.0000649   -0.0001710     0.0003171   -0.0002945 
   0.010052501     0.0069603   -0.0020784    -0.0003143    0.0003148     0.0001061    0.0001071     0.0000320   -0.0002147 
   0.010152526     0.0078969    0.0004610     0.0002076    0.0001057     0.0000969    0.0001853    -0.0001683   -0.0001408 
   0.010252551     0.0066941   -0.0007912    -0.0001042   -0.0002845    -0.0000810   -0.0000335     0.0003854    0.0003694 
   0.010352576     0.0072682   -0.0008601    -0.0000428    0.0002426     0.0000147    0.0000373     0.0003376    0.0000847 
   0.010452601     0.0063544    0.0006135    -0.0008584   -0.0005253     0.0000266   -0.0000438    -0.0001052   -0.0002764 
   0.010552626     0.0074053    0.0003027     0.0003327   -0.0008158     0.0002733    0.0001894    -0.0000065   -0.0000316 
   0.010652651     0.0064101    0.0003397    -0.0005549    0.0001541    -0.0001454    0.0000782     0.0002372   -0.0002939 
   0.010752676     0.0058392   -0.0008563    -0.0004794    0.0001701    -0.0001706   -0.0001642     0.0002324   -0.0002160 
   0.010852701     0.0063469    0.0006138    -0.0003908   -0.0005732    -0.0000662   -0.0003202     0.0003121    0.0002170 
   0.010952726     0.0065903    0.0002684     0.0003829   -0.0003373    -0.0000792    0.0000017    -0.0001854   -0.0003468 
   0.011052751     0.0073446    0.0007697    -0.0007565    0.0007873    -0.0000689   -0.0000528     0.0004567    0.0005898 
   0.011152776     0.0062065   -0.0002296     0.0009436   -0.0000517    -0.0001415    0.0000027     0.0002219    0.0002333 
   0.011252801     0.0078172    0.0008622     0.0012422   -0.0000502    -0.0000439   -0.0001030    -0.0003102    0.0001247 
   0.011352826     0.0069530   -0.0005461     0.0009653   -0.0000925     0.0001241    0.0000331     0.0003442   -0.0000946 
   0.011452851     0.0065739   -0.0000894    -0.0004554   -0.0000929     0.0000349   -0.0000662     0.0001898   -0.0001260 
   0.011552876     0.0068535    0.0018727    -0.0004808    0.0011383    -0.0000790   -0.0002642     0.0001297    0.0000908 
   0.011652901     0.0068021   -0.0009501     0.0004912   -0.0006376     0.0001300   -0.0000444    -0.0000184    0.0002013 
   0.011752926     0.0068147    0.0008508     0.0003729    0.0005282    -0.0001041   -0.0000881     0.0002016   -0.0001276 
   0.011852951     0.0075637   -0.0005810     0.0000735    0.0001438    -0.0000211   -0.0000871     0.0003211   -0.0004231 
   0.011952976     0.0072415    0.0003970     0.0000064   -0.0002582     0.0000667   -0.0003428     0.0004755    0.0001808 
   0.012053002     0.0057672    0.0009199    -0.0001031    0.0008655    -0.0003470    0.0000047    -0.0000845    0.0002784 
   0.012153027     0.0079731   -0.0002631     0.0005119    0.0003596     0.0002705    0.0002476     0.0005455   -0.0001084 
   0.012253052     0.0055284    0.0021226    -0.0004323    0.0000972     0.0001572   -0.0001840     0.0006525    0.0002660 
   0.012353077     0.0068784    0.0008206    -0.0000133   -0.0000805     0.0000768    0.0001660     0.0001455    0.0001411 
   0.012453102     0.0057077    0.0009986     0.0003419   -0.0005681     0.0001444    0.0001733     0.0006073   -0.0002320 
   0.012553127     0.0083253   -0.0003862     0.0001671    0.0001300    -0.0000094    0.0000695     0.0000343   -0.0000981 
   0.012653152     0.0072603   -0.0005215     0.0000658   -0.0009118     0.0000305    0.0001527     0.0000660    0.0005247 
   0.012753177     0.0080037   -0.0005440    -0.0001522    0.0012029     0.0000983    0.0000428    -0.0000653   -0.0000341 
   0.012853202     0.0058895    0.0004632     0.0000719   -0.0003825    -0.0000027    0.0001671     0.0002587    0.0001845 
   0.012953227     0.0074824    0.0003608    -0.0008175   -0.0000844    -0.0002819   -0.0001723     0.0007835    0.0000033 
   0.013053252     0.0072488    0.0011296     0.0002717    0.0001941    -0.0001751    0.0002105     0.0005763   -0.0002299 
   0.013153277     0.0081752    0.0007059     0.0002425    0.0000106    -0.0002441   -0.0000772     0.0000709    0.0000726 
   0.013253302     0.0062557    0.0002719    -0.0005018   -0.0001510     0.0002024    0.0000927     0.0003552   -0.0001984 
   0.013353327     0.0053134   -0.0003776     0.0000503   -0.0003929    -0.0001592    0.0001741     0.0001083   -0.0000225 
   0.013453352     0.0062115    0.0016616     0.0003610    0.0003023     0.0001780   -0.0000396     0.0005875    0.0000404 
   0.013553377     0.0067514   -0.0002657     0.0004082   -0.0006543    -0.0001631   -0.0002830     0.0006767   -0.0004314 
   0.013653402     0.0066054    0.0005805    -0.0007095    0.0005205    -0.0000287   -0.0001039     0.0001958    0.0001573 
   0.013753427     0.0072407   -0.0001895     0.0003939    0.0004431    -0.0000392   -0.0000091    -0.0003667    0.0002615 
   0.013853452     0.0079269    0.0009075     0.0005077    0.0001382     0.0001049    0.0003012     0.0003550    0.0000470 
   0.013953477     0.0067802    0.0000559    -0.0000426    0.0005817     0.0000192    0.0000881     0.0004472    0.0004297 
   0.014053502     0.0076895   -0.0004641     0.0002394    0.0001754     0.0002071    0.0000235     0.0002518   -0.0000953 
   0.014153527     0.0077307    0.0005492    -0.0005457   -0.0004217    -0.0001772    0.0001294     0.0002171    0.0003409 
   0.014253552     0.0061591   -0.0008874     0.0000130   -0.0006021     0.0001002   -0.0001935     0.0006357   -0.0004551 
   0.014353577     0.0066537   -0.0007723     0.0006610    0.0001066     0.0002099    0.0000966     0.0004663    0.0004240 
   0.014453602     0.0068527   -0.0010480    -0.0004534   -0.0005823    -0.0001600    0.0001677    -0.0001425   -0.0000081 
   0.014553627     0.0065623   -0.0011615     0.0006523   -0.0002398    -0.0000576   -0.0001734     0.0004688   -0.0002208 
   0.014653652     0.0068186    0.0007288    -0.0002481   -0.0004747     0.0001912    0.0003227     0.0004904   -0.0002186 
   0.014753677     0.0066932   -0.0005767    -0.0004071    0.0004529     0.0002861   -0.0002039     0.0004196    0.0001967 
   0.014853702     0.0083300    0.0001184     0.0009111    0.0002834    -0.0000625    0.0000530     0.0002861   -0.0000060 
   0.014953727     0.0092202   -0.0001997     0.0006076    0.0002816    -0.0002180   -0.0000685     0.0004352    0.0000510 
   0.015053752     0.0071173   -0.0011093    -0.0010294    0.0003512    -0.0002490   -0.0001397     0.0006993    0.0005299 
   0.015153777     0.0061361    0.0004208    -0.0003475    0.0000286     0.0000418    0.0001116     0.0001211   -0.0000223 
   0.015253802     0.0068823    0.0014557    -0.0001106    0.0006819    -0.0002896    0.0000080     0.0002885   -0.0002040 
   0.015353827     0.0073315   -0.0006369     0.0002295    0.0003082    -0.0001036    0.0000209     0.0007102   -0.0000257 
   0.015453852     0.0068631   -0.0010456     0.0000811   -0.0004810     0.0001316   -0.0002306     0.0003090    0.0001901 
   0.015553877     0.0068612   -0.0006611     0.0001503   -0.0003439     0.0001582   -0.0002351     0.0002171   -0.0000523 
   0.015653902     0.0080519   -0.0003375    -0.0001066   -0.0001198    -0.0000929   -0.0001446     0.0002428    0.0000324 
