! 26-Feb-26 2:25:51 PM
! E:\VNA_MEASUREMENTS\HEATED_LOAD\SEMI_RIGID_2.S2P
! CHANNEL.1
! TR.MEASUREMENT
! CORRECTED.DATA
# GHZ S RI R 50.0
! FREQ.GHZ         S11RE         S11IM         S21RE         S21IM         S12RE         S12IM         S22RE         S22IM         
!; PortSelection: Port_12
   0.000050000     0.1938587    0.6683432     0.4258082    0.5664695     0.5017716    0.1860269    -0.5091968   -0.3622006 
   0.000150025     0.4638410   -0.8621539     3.0981220    2.8543080     1.5810150   -0.4358189     0.5315893    2.5948470 
   0.000250050    -0.5960448    0.4040541    -0.1438514   -0.4276841     0.5189967    0.1770054    -0.7253598   -0.4777633 
   0.000350075     0.0085649    0.0070996     1.0078030    0.0480275     1.0098360   -0.0028050    -0.0005122    0.0319087 
   0.000450100     0.0033097    0.0022739     1.0019470    0.0099164     1.0023520   -0.0071772     0.0000356    0.0066929 
   0.000550125    -0.0032138   -0.0011905     1.0008050   -0.0023111     1.0026390   -0.0001932     0.0010521   -0.0018040 
   0.000650150     0.0040369   -0.0033747     1.0244230   -0.0086464     1.0008850   -0.0054880     0.0162455   -0.0035435 
   0.000750175     0.0030619   -0.0049728     1.0081240   -0.0065616     1.0056700   -0.0071580     0.0058826   -0.0030562 
   0.000850200     0.0013851    0.0030357     0.9986632    0.0465807     0.9957810   -0.0025975    -0.0018290    0.0338696 
   0.000950225    -0.0019344   -0.0035582     0.9860275   -0.0124075     0.9977986   -0.0094324    -0.0099556   -0.0060278 
   0.001050250     0.0003938    0.0064356     0.9839457    0.0176487     0.9940459    0.0036416    -0.0104021    0.0160706 
   0.001150275     0.0039806   -0.0014150     1.0098470    0.0237269     1.0010020    0.0006546     0.0069840    0.0196128 
   0.001250300    -0.0028625    0.0000740     0.9845178    0.0113385     0.9995323   -0.0128853    -0.0102217    0.0114342 
   0.001350325     0.0079877   -0.0016923     1.0438280    0.0089323     1.0092860   -0.0059920     0.0327122    0.0078742 
   0.001450350     0.0002892    0.0024265     1.0063790    0.0102120     0.9909163   -0.0063314     0.0041197    0.0104381 
   0.001550375     0.0021342    0.0019978     1.0125840    0.0049745     1.0037140   -0.0000883     0.0099541    0.0072138 
   0.001650400    -0.0001578    0.0002095     0.9846234    0.0082337     0.9986814   -0.0128795    -0.0087117    0.0094399 
   0.001750425    -0.0012823    0.0001053     0.9798848    0.0007610     0.9910794   -0.0056062    -0.0139746    0.0068510 
   0.001850450    -0.0011000    0.0000932     0.9852629   -0.0018396     1.0035560   -0.0072984    -0.0091604    0.0058298 
   0.001950475     0.0003268   -0.0015224     0.9877101   -0.0178653     1.0032180   -0.0071644    -0.0084380   -0.0049333 
   0.002050500     0.0016130    0.0005240     1.0173590    0.0000929     1.0053100   -0.0076910     0.0141137    0.0045712 
   0.002150525     0.0048156    0.0009290     1.0142170   -0.0225601     1.0039010   -0.0115357     0.0082350   -0.0105028 
   0.002250550    -0.0002794    0.0001038     0.9852602   -0.0072713     1.0062750   -0.0056935    -0.0081314    0.0032876 
   0.002350575     0.0006111    0.0008268     0.9965335    0.0038867     1.0003970   -0.0083956    -0.0000649    0.0096485 
   0.002450600     0.0013313    0.0021893     1.0021470    0.0022594     1.0093570   -0.0050856     0.0052483    0.0085190 
   0.002550625     0.0017442    0.0018660     0.9997367   -0.0092155     1.0023210   -0.0075307     0.0005683    0.0012005 
   0.002650650    -0.0001474   -0.0001471     1.0024870   -0.0124257     0.9977896   -0.0084976     0.0020601   -0.0004866 
   0.002750675     0.0045202    0.0006933     1.0177270   -0.0088012     1.0025810   -0.0138842     0.0123448   -0.0010329 
   0.002850700     0.0020849    0.0032040     1.0065900    0.0022298     1.0018840   -0.0100065     0.0070340    0.0090176 
   0.002950725    -0.0005427    0.0015062     0.9686377    0.0004668     1.0096720   -0.0065484    -0.0165347    0.0145816 
   0.003050750     0.0018284    0.0024741     0.9925058   -0.0093906     0.9964548   -0.0132524    -0.0043286    0.0029991 
   0.003150775    -0.0013219   -0.0009206     1.0054230   -0.0241418     0.9994368   -0.0134267     0.0030266   -0.0072790 
   0.003250800     0.0000449   -0.0020518     0.9941752   -0.0286903     0.9947662   -0.0202477    -0.0064597   -0.0097693 
   0.003350825    -0.0004570    0.0010818     1.0089640   -0.0303782     0.9963313   -0.0098874     0.0029967   -0.0117904 
   0.003450850     0.0006629    0.0000406     0.9988109   -0.0303296     1.0055170   -0.0159304    -0.0024467   -0.0109525 
   0.003550875     0.0043396    0.0019744     1.0141880   -0.0171029     1.0047700   -0.0177144     0.0097389   -0.0036343 
   0.003650900     0.0014303    0.0012558     1.0092900   -0.0123108     0.9983851   -0.0184240     0.0066325    0.0000651 
   0.003750925    -0.0004322    0.0002259     0.9880030   -0.0119363     0.9908509   -0.0119475    -0.0079877    0.0054149 
   0.003850950     0.0015996   -0.0013818     1.0029810   -0.0288890     1.0023490   -0.0154492    -0.0004743   -0.0089006 
   0.003950975     0.0014848   -0.0002529     0.9960821   -0.0343898     0.9994791   -0.0139776    -0.0059306   -0.0100908 
   0.004051001     0.0028553    0.0002656     1.0104590   -0.0312539     1.0029660   -0.0171589     0.0041848   -0.0118010 
   0.004151026    -0.0001053    0.0018281     0.9837192   -0.0017708     1.0030800   -0.0138897    -0.0060896    0.0141337 
   0.004251051     0.0021855    0.0013511     1.0002750   -0.0067359     0.9975241   -0.0210914     0.0028638    0.0074776 
   0.004351076    -0.0000496   -0.0004235     0.9936107   -0.0213741     0.9905090   -0.0160691    -0.0050980   -0.0000487 
   0.004451101    -0.0003936    0.0010880     0.9875938   -0.0153962     0.9959051   -0.0187453    -0.0072863    0.0050874 
   0.004551126    -0.0022661   -0.0001196     0.9938004   -0.0166824     0.9917757   -0.0229381    -0.0034658    0.0021063 
   0.004651151     0.0022762   -0.0011401     0.9996580   -0.0308267     0.9992531   -0.0215592    -0.0023684   -0.0071514 
   0.004751176     0.0008289    0.0012181     1.0034140   -0.0196903     0.9979855   -0.0193703     0.0027855   -0.0013482 
   0.004851201     0.0004488    0.0009452     0.9970617    0.0046001     1.0001620   -0.0202129     0.0056149    0.0161277 
   0.004951226     0.0009934    0.0009879     0.9915538   -0.0154192     1.0036150   -0.0217487    -0.0032384    0.0055544 
   0.005051251     0.0018442    0.0006112     1.0025490   -0.0268958     0.9987412   -0.0141260    -0.0001404   -0.0033396 
   0.005151276     0.0003768    0.0023113     1.0022490   -0.0098926     1.0020150   -0.0234709     0.0059734    0.0060210 
   0.005251301     0.0008351    0.0005745     1.0139340   -0.0280766     0.9971949   -0.0206769     0.0071355   -0.0076960 
   0.005351326     0.0015130   -0.0004606     1.0032950   -0.0320821     0.9974042   -0.0235361    -0.0001016   -0.0067517 
   0.005451351    -0.0009546   -0.0004678     0.9928128   -0.0281841     0.9958293   -0.0255658    -0.0050396   -0.0012268 
   0.005551376     0.0008279   -0.0003040     1.0055460   -0.0308103     0.9983228   -0.0209202     0.0016506   -0.0055148 
   0.005651401     0.0029812    0.0018943     1.0045720   -0.0378873     1.0038300   -0.0227878    -0.0002537   -0.0101879 
   0.005751426     0.0000324   -0.0012358     0.9843086   -0.0288499     0.9975334   -0.0260327    -0.0104132    0.0016873 
   0.005851451    -0.0009469   -0.0013991     0.9897155   -0.0256330     0.9981701   -0.0277426    -0.0060545    0.0021178 
   0.005951476    -0.0014593   -0.0012729     0.9781847   -0.0255147     0.9963256   -0.0273652    -0.0125301    0.0059264 
   0.006051501     0.0016753    0.0006558     1.0152120   -0.0327053     1.0000670   -0.0258200     0.0072565   -0.0095165 
   0.006151526     0.0008107   -0.0005249     0.9940661   -0.0346293     0.9969666   -0.0269268    -0.0057659   -0.0038939 
   0.006251551    -0.0031526   -0.0007019     0.9680886   -0.0197392     0.9971956   -0.0244686    -0.0161729    0.0144290 
   0.006351576    -0.0023291    0.0028264     0.9941678   -0.0064426     0.9944023   -0.0254631     0.0035683    0.0133015 
   0.006451601     0.0002446    0.0023863     0.9965177   -0.0176795     1.0014910   -0.0247303     0.0016772    0.0069618 
   0.006551626    -0.0014746    0.0018250     0.9991164   -0.0173042     0.9988230   -0.0210144     0.0037440    0.0065179 
   0.006651651    -0.0007042    0.0018025     0.9934168   -0.0212662     0.9966444   -0.0240647    -0.0013261    0.0060573 
   0.006751676     0.0004559    0.0023387     1.0008920   -0.0185415     0.9979807   -0.0302849     0.0048052    0.0048271 
   0.006851701     0.0015958   -0.0014472     1.0062800   -0.0302372     1.0015200   -0.0288269     0.0042160   -0.0026719 
   0.006951726     0.0023997    0.0017639     1.0060210   -0.0299637     1.0015660   -0.0315397     0.0041496   -0.0028798 
   0.007051751     0.0002945   -0.0022092     0.9904897   -0.0469200     0.9969462   -0.0306909    -0.0111405   -0.0065003 
   0.007151776     0.0001619    0.0021884     0.9949787   -0.0216760     1.0021580   -0.0261767     0.0001709    0.0069096 
   0.007251801     0.0025971    0.0010267     1.0048700   -0.0254141     0.9998816   -0.0298613     0.0051071    0.0006056 
   0.007351826     0.0009142    0.0030068     1.0144780   -0.0318257     0.9988975   -0.0312329     0.0083342   -0.0068516 
   0.007451851    -0.0001199    0.0019249     0.9790908   -0.0203438     0.9974461   -0.0284900    -0.0072712    0.0139367 
   0.007551876     0.0018048    0.0018606     1.0213990   -0.0378385     1.0024700   -0.0285945     0.0105856   -0.0115352 
   0.007651901    -0.0000184    0.0009186     1.0071860   -0.0306550     0.9914292   -0.0306348     0.0042459   -0.0023951 
   0.007751926     0.0003696    0.0007738     0.9928194   -0.0195747     0.9991889   -0.0355722     0.0026366    0.0090434 
   0.007851951    -0.0000206    0.0011263     0.9975384   -0.0347123     0.9969671   -0.0314805    -0.0019805   -0.0000381 
   0.007951976    -0.0011497    0.0020594     1.0005570   -0.0202043     0.9993736   -0.0281191     0.0067468    0.0071969 
   0.008052001     0.0008690    0.0019637     1.0091840   -0.0198771     0.9990866   -0.0338363     0.0115028    0.0032400 
   0.008152026    -0.0010616   -0.0002285     0.9927192   -0.0239461     0.9971824   -0.0347302     0.0013565    0.0080287 
   0.008252051     0.0004934    0.0014819     0.9968759   -0.0320962     0.9955783   -0.0343056    -0.0003880    0.0020198 
   0.008352076     0.0026196    0.0015654     1.0086810   -0.0289756     0.9998034   -0.0348370     0.0079103   -0.0003144 
   0.008452101    -0.0003426    0.0017713     1.0035250   -0.0363756     0.9968030   -0.0313832     0.0020157   -0.0021981 
   0.008552126     0.0002435   -0.0005275     0.9901083   -0.0405841     0.9971930   -0.0396569    -0.0062970    0.0011099 
   0.008652151     0.0010355   -0.0003537     0.9974281   -0.0491091     0.9963346   -0.0343080    -0.0062657   -0.0056333 
   0.008752176     0.0005768    0.0011687     1.0002540   -0.0357119     0.9959359   -0.0356484     0.0010268   -0.0002412 
   0.008852201     0.0005498    0.0007228     0.9885223   -0.0450737     0.9992039   -0.0334414    -0.0090416    0.0006827 
   0.008952226    -0.0013484    0.0016683     0.9914297   -0.0356886     0.9981571   -0.0361021    -0.0025004    0.0047059 
   0.009052251     0.0018906    0.0008934     1.0063950   -0.0435159     0.9989872   -0.0383556     0.0015394   -0.0062793 
   0.009152276     0.0020130    0.0013851     1.0011610   -0.0436217     1.0015070   -0.0369886    -0.0000922   -0.0031547 
   0.009252301     0.0016554    0.0011521     0.9945027   -0.0468677     0.9963247   -0.0362015    -0.0064187   -0.0019300 
   0.009352326    -0.0000224    0.0030387     1.0004150   -0.0371228     0.9957114   -0.0363192     0.0010985    0.0003714 
   0.009452351     0.0018393    0.0001420     0.9991164   -0.0479230     0.9981681   -0.0359485    -0.0033321   -0.0029540 
   0.009552376     0.0022370    0.0022286     1.0096570   -0.0378372     0.9983280   -0.0347619     0.0057409   -0.0030091 
   0.009652401    -0.0016639    0.0018186     0.9953771   -0.0321664     0.9992198   -0.0365765     0.0023289    0.0061054 
   0.009752426     0.0007733    0.0004156     1.0063270   -0.0401631     0.9956487   -0.0385075     0.0040679   -0.0026551 
   0.009852451     0.0005134    0.0006338     0.9944586   -0.0321706     1.0000920   -0.0383364     0.0021019    0.0069551 
   0.009952476     0.0023205    0.0005042     1.0051920   -0.0413952     0.9965308   -0.0411802     0.0028390   -0.0028622 
   0.010052501    -0.0004095    0.0009729     0.9956018   -0.0416627     0.9976973   -0.0424570    -0.0018293    0.0022510 
   0.010152526     0.0002520   -0.0014545     0.9897730   -0.0480862     0.9944506   -0.0455144    -0.0070112    0.0014599 
   0.010252551     0.0024971    0.0015910     1.0043060   -0.0452205     0.9989744   -0.0406920     0.0016301   -0.0036161 
   0.010352576    -0.0001354    0.0026932     0.9980898   -0.0302549     0.9978129   -0.0413305     0.0061161    0.0060569 
   0.010452601     0.0007996    0.0025258     0.9922201   -0.0396477     0.9996250   -0.0396617    -0.0006327    0.0054866 
   0.010552626     0.0004140    0.0029999     1.0083700   -0.0374974     0.9992551   -0.0452106     0.0074267   -0.0019701 
   0.010652651     0.0011326    0.0009315     0.9985248   -0.0444062     0.9945746   -0.0441473     0.0000572    0.0002505 
   0.010752676     0.0000670    0.0028930     1.0035260   -0.0341618     0.9963297   -0.0440038     0.0077707    0.0021173 
   0.010852701     0.0009816   -0.0009548     0.9935316   -0.0537429     0.9969553   -0.0492654    -0.0063762   -0.0006623 
   0.010952726     0.0029819    0.0013210     1.0093180   -0.0505975     1.0012170   -0.0480129     0.0030055   -0.0073248 
   0.011052751     0.0000658    0.0026270     1.0088380   -0.0358487     0.9991290   -0.0435871     0.0098837   -0.0004870 
   0.011152776     0.0011477    0.0027998     1.0008070   -0.0386373     1.0003380   -0.0460888     0.0050011    0.0023817 
   0.011252801    -0.0006389   -0.0003743     0.9860619   -0.0428793     0.9975158   -0.0498985    -0.0023029    0.0078848 
   0.011352826     0.0007083    0.0016741     0.9987005   -0.0481509     0.9996181   -0.0488172     0.0000967   -0.0000414 
   0.011452851     0.0004735    0.0010672     0.9991096   -0.0443068     0.9961902   -0.0467073     0.0018908    0.0008043 
   0.011552876     0.0016308    0.0018085     1.0073590   -0.0504606     0.9984539   -0.0457021     0.0022448   -0.0050471 
   0.011652901    -0.0000589    0.0011774     0.9919409   -0.0333432     0.9994774   -0.0451315     0.0056566    0.0102249 
   0.011752926     0.0002135    0.0024648     0.9977087   -0.0409417     0.9980538   -0.0463359     0.0040856    0.0042531 
   0.011852951     0.0004365    0.0015494     0.9932740   -0.0403785     0.9966462   -0.0471020     0.0027708    0.0061480 
   0.011952976     0.0012168    0.0010023     0.9926692   -0.0463565     0.9983922   -0.0445027    -0.0002860    0.0052853 
   0.012053002    -0.0012151    0.0006496     0.9887624   -0.0352818     0.9967752   -0.0514615     0.0047810    0.0108392 
   0.012153027     0.0005296   -0.0000358     0.9993160   -0.0526813     0.9987983   -0.0521125    -0.0002520   -0.0013785 
   0.012253052     0.0014361    0.0008817     1.0064620   -0.0537120     0.9991632   -0.0508606     0.0015080   -0.0052248 
   0.012353077     0.0009054    0.0018656     1.0020220   -0.0530918     0.9988742   -0.0465703     0.0005493   -0.0021127 
   0.012453102     0.0014231    0.0000910     1.0004130   -0.0578153     0.9956825   -0.0523646    -0.0028757   -0.0029992 
   0.012553127    -0.0008948    0.0022231     0.9962291   -0.0423534     0.9963446   -0.0513445     0.0044179    0.0048761 
   0.012653152     0.0006881    0.0007181     0.9947013   -0.0546014     0.9987458   -0.0487574    -0.0023082    0.0017537 
   0.012753177     0.0009863    0.0017913     0.9972634   -0.0551559     1.0018660   -0.0534073    -0.0010586    0.0003120 
   0.012853202     0.0011902   -0.0000744     0.9940251   -0.0565111     0.9980208   -0.0565212    -0.0027818    0.0013953 
   0.012953227     0.0014402   -0.0000095     0.9935741   -0.0649042     0.9987453   -0.0556120    -0.0073776   -0.0005033 
   0.013053252    -0.0006125    0.0010871     0.9876539   -0.0475083     0.9988142   -0.0491205     0.0003772    0.0093829 
   0.013153277     0.0012167    0.0002605     0.9966371   -0.0624205     0.9975417   -0.0557935    -0.0045803   -0.0010085 
   0.013253302     0.0014741   -0.0002397     0.9911944   -0.0573291     0.9965791   -0.0586162    -0.0034038    0.0034300 
   0.013353327     0.0013634   -0.0010825     0.9853867   -0.0670114     0.9977127   -0.0566506    -0.0105683    0.0041017 
   0.013453352     0.0002353    0.0006773     0.9939894   -0.0558413     0.9991267   -0.0531931    -0.0008984    0.0029312 
   0.013553377     0.0019084    0.0002074     0.9977207   -0.0575241     0.9987962   -0.0570903    -0.0002346    0.0005667 
   0.013653402     0.0004213    0.0000490     0.9912937   -0.0617411     0.9966985   -0.0564276    -0.0052721    0.0031836 
   0.013753427     0.0003674    0.0027177     0.9934859   -0.0506025     0.9976494   -0.0527967     0.0025515    0.0049795 
   0.013853452     0.0014191    0.0018348     1.0035210   -0.0492389     0.9967417   -0.0552163     0.0057800    0.0001355 
   0.013953477     0.0012507    0.0015534     1.0063040   -0.0509476     0.9961239   -0.0576033     0.0067729   -0.0022008 
   0.014053502     0.0020977   -0.0006866     0.9854665   -0.0648805     0.9941337   -0.0554964    -0.0081550    0.0060691 
   0.014153527     0.0004698    0.0021791     0.9993913   -0.0524733     1.0012400   -0.0571843     0.0044006    0.0014242 
   0.014253552     0.0013236    0.0014234     1.0123130   -0.0586624     0.9994840   -0.0629342     0.0049019   -0.0080588 
   0.014353577     0.0009838    0.0005611     0.9949069   -0.0611497     0.9918903   -0.0598509    -0.0023745    0.0015585 
   0.014453602     0.0009473    0.0012354     0.9967719   -0.0679576     1.0001890   -0.0585607    -0.0044087   -0.0004929 
   0.014553627     0.0013754    0.0006692     0.9932341   -0.0584024     0.9965896   -0.0623703     0.0001990    0.0037249 
   0.014653652     0.0003017    0.0013154     1.0004030   -0.0552538     0.9960478   -0.0615607     0.0042415    0.0001322 
   0.014753677     0.0015829    0.0010690     1.0016230   -0.0589068     0.9950569   -0.0613064     0.0023123   -0.0010710 
   0.014853702     0.0006798    0.0021551     1.0018680   -0.0558986     0.9985082   -0.0596474     0.0044364   -0.0001452 
   0.014953727     0.0029638    0.0016908     1.0003700   -0.0725370     0.9958164   -0.0615538    -0.0062008   -0.0035318 
   0.015053752    -0.0011154    0.0015576     0.9885640   -0.0534065     0.9985320   -0.0607384     0.0037493    0.0081902 
   0.015153777     0.0009116    0.0019812     0.9927263   -0.0574740     0.9962776   -0.0601771     0.0012469    0.0050244 
   0.015253802     0.0018646    0.0009479     0.9976898   -0.0635733     0.9971070   -0.0632997    -0.0003688    0.0005381 
   0.015353827     0.0021774    0.0011082     0.9974473   -0.0693017     0.9967000   -0.0609559    -0.0038066   -0.0003409 
   0.015453852     0.0006952    0.0011963     1.0002920   -0.0602185     0.9977634   -0.0637805     0.0028695   -0.0002624 
   0.015553877     0.0030272    0.0005653     0.9953155   -0.0769057     0.9983300   -0.0669987    -0.0077790   -0.0007290 
   0.015653902     0.0026210    0.0013558     1.0005670   -0.0650942     0.9959593   -0.0647063     0.0003886   -0.0013525 
