! 26-Feb-26 2:24:38 PM
! E:\VNA_MEASUREMENTS\HEATED_LOAD\SEMI_RIGID_1.S2P
! CHANNEL.1
! TR.MEASUREMENT
! CORRECTED.DATA
# GHZ S RI R 50.0
! FREQ.GHZ         S11RE         S11IM         S21RE         S21IM         S12RE         S12IM         S22RE         S22IM         
!; PortSelection: Port_12
   0.000050000     1.0257160    0.9905712    -0.0994493   -0.9936226     0.3911189    0.8197642     0.5210989   -0.9528162 
   0.000150025     0.0951961   -0.0625372    -1.3987800    0.2270792     1.0893900   -0.0160651    -1.7188250   -0.5982476 
   0.000250050    -0.3381085   -1.5916960     0.3326701    1.8018730     1.0227090   -1.1628870    -0.7540514    1.1407380 
   0.000350075     0.0053230    0.0034034     1.0150970    0.0201012     1.0098800   -0.0033975     0.0098745    0.0136334 
   0.000450100    -0.0017944   -0.0030470     1.0117540   -0.0265934     0.9975818   -0.0050119     0.0098744   -0.0164894 
   0.000550125    -0.0006605   -0.0030071     1.0000410   -0.0007390     1.0080070   -0.0098781     0.0003428   -0.0020606 
   0.000650150     0.0031076   -0.0021336     1.0278100   -0.0000706     1.0008130   -0.0079955     0.0191223    0.0011475 
   0.000750175    -0.0054685   -0.0018364     0.9738691   -0.0208270     1.0002450   -0.0067982    -0.0169108   -0.0134071 
   0.000850200    -0.0024811    0.0037242     0.9947523    0.0141711     0.9927855   -0.0051299    -0.0039215    0.0118456 
   0.000950225     0.0010051   -0.0010350     1.0024130   -0.0025327     0.9966856   -0.0032114     0.0023413    0.0010493 
   0.001050250    -0.0013702   -0.0028682     0.9893916   -0.0128187     0.9858549   -0.0036900    -0.0085132   -0.0049220 
   0.001150275     0.0008748   -0.0023104     1.0150580   -0.0013425     1.0019720    0.0089052     0.0109965    0.0032600 
   0.001250300     0.0008231    0.0020580     1.0023240    0.0157274     1.0029810   -0.0060634     0.0023018    0.0135914 
   0.001350325     0.0021937   -0.0009707     1.0135490    0.0037589     0.9975397   -0.0053279     0.0106900    0.0061167 
   0.001450350     0.0001534   -0.0009694     1.0124160    0.0046675     0.9886430   -0.0106814     0.0079423    0.0059470 
   0.001550375     0.0037912    0.0035940     1.0244450    0.0072864     1.0046110    0.0054672     0.0174912    0.0090048 
   0.001650400    -0.0030920    0.0025368     0.9661748    0.0078407     1.0063090   -0.0089706    -0.0198714    0.0108381 
   0.001750425    -0.0011284    0.0017656     0.9811128    0.0259495     0.9964831   -0.0014921    -0.0099356    0.0242360 
   0.001850450    -0.0017193    0.0033044     0.9847538    0.0055930     0.9993291   -0.0010773    -0.0088044    0.0114424 
   0.001950475     0.0047469   -0.0008783     1.0087450   -0.0139725     1.0028880   -0.0060208     0.0059486   -0.0038747 
   0.002050500     0.0013033   -0.0034008     1.0220520   -0.0290046     0.9991618   -0.0121565     0.0137604   -0.0159340 
   0.002150525    -0.0003685    0.0016265     0.9968402    0.0158051     1.0018480   -0.0176442     0.0018087    0.0155663 
   0.002250550     0.0028765    0.0009788     0.9948734   -0.0115964     1.0027700   -0.0084225    -0.0027320   -0.0005237 
   0.002350575    -0.0006730   -0.0004239     0.9979220    0.0049040     0.9963817   -0.0068424    -0.0002743    0.0106402 
   0.002450600     0.0011224    0.0014924     1.0101260   -0.0152747     1.0039320   -0.0036562     0.0077705   -0.0042429 
   0.002550625     0.0037503    0.0003388     1.0134900   -0.0057309     1.0025870   -0.0063037     0.0097267    0.0020749 
   0.002650650    -0.0027515    0.0000743     0.9862740   -0.0080799     0.9955361   -0.0160961    -0.0081221    0.0029769 
   0.002750675     0.0021164   -0.0001662     0.9866776   -0.0064001     0.9990748   -0.0139490    -0.0089117    0.0050037 
   0.002850700     0.0033776    0.0011705     0.9926765   -0.0152346     1.0043430   -0.0052784    -0.0048408    0.0003261 
   0.002950725     0.0010302    0.0011172     0.9929494   -0.0081043     1.0036710   -0.0062582    -0.0029706    0.0057228 
   0.003050750     0.0013632   -0.0004592     1.0000410   -0.0184851     1.0017710   -0.0154184    -0.0004168   -0.0041855 
   0.003150775    -0.0002065   -0.0024159     1.0070030   -0.0218735     0.9969925   -0.0132220     0.0038722   -0.0063173 
   0.003250800     0.0009438   -0.0027769     1.0035160   -0.0266216     0.9960098   -0.0131750     0.0003343   -0.0084229 
   0.003350825     0.0020689    0.0025460     0.9965866   -0.0056898     0.9975138   -0.0143049    -0.0008229    0.0057478 
   0.003450850     0.0037140    0.0004562     1.0114520   -0.0221140     0.9992584   -0.0167421     0.0061772   -0.0070329 
   0.003550875     0.0027322   -0.0009813     1.0229450   -0.0348243     1.0009980   -0.0220401     0.0114170   -0.0175648 
   0.003650900     0.0020745    0.0009435     1.0022550   -0.0122196     1.0012970   -0.0189963     0.0026073    0.0011185 
   0.003750925    -0.0001515   -0.0006839     0.9912171   -0.0086514     0.9953856   -0.0153932    -0.0049427    0.0066830 
   0.003850950    -0.0012433   -0.0013352     0.9800101   -0.0222310     1.0011440   -0.0132969    -0.0131944    0.0007215 
   0.003950975     0.0016017    0.0033819     1.0035180   -0.0139817     0.9980813   -0.0084519     0.0030682    0.0018204 
   0.004051001     0.0038683    0.0019575     1.0222480   -0.0177873     1.0041220   -0.0149567     0.0149524   -0.0050096 
   0.004151026     0.0015652    0.0012146     0.9945526   -0.0067514     1.0009040   -0.0142801    -0.0010282    0.0083627 
   0.004251051     0.0011129    0.0006666     0.9981624   -0.0201922     0.9957520   -0.0174709    -0.0016700   -0.0009385 
   0.004351076     0.0014174   -0.0021045     1.0034100   -0.0302111     0.9955635   -0.0236739    -0.0004977   -0.0086947 
   0.004451101    -0.0014016   -0.0011274     0.9938812   -0.0111031     0.9961863   -0.0184909    -0.0020528    0.0064020 
   0.004551126     0.0010684   -0.0003758     1.0236840   -0.0272277     0.9932010   -0.0148917     0.0122844   -0.0104327 
   0.004651151     0.0008221    0.0008807     1.0093720   -0.0221331     1.0011470   -0.0141395     0.0065002   -0.0034882 
   0.004751176     0.0013561    0.0015412     1.0035260   -0.0193074     1.0027260   -0.0199119     0.0031358   -0.0010916 
   0.004851201     0.0013817    0.0019497     1.0034120   -0.0097642     1.0004660   -0.0140186     0.0057250    0.0063294 
   0.004951226     0.0017410    0.0003777     0.9996150   -0.0216631     1.0019460   -0.0257951     0.0004401   -0.0010316 
   0.005051251     0.0001827    0.0002762     0.9914724   -0.0300341     0.9974670   -0.0174021    -0.0077959   -0.0024864 
   0.005151276     0.0001539    0.0025261     1.0010140   -0.0121555     1.0005580   -0.0232650     0.0042630    0.0050197 
   0.005251301     0.0005040    0.0012258     0.9948520   -0.0269574     1.0011180   -0.0182497    -0.0033104   -0.0010663 
   0.005351326     0.0017909   -0.0002734     1.0102240   -0.0306210     0.9956230   -0.0242448     0.0038030   -0.0082637 
   0.005451351    -0.0010880    0.0000811     0.9873024   -0.0262950     0.9973514   -0.0206954    -0.0077446    0.0016012 
   0.005551376    -0.0002451   -0.0012261     0.9911488   -0.0358157     1.0003900   -0.0254722    -0.0084825   -0.0050380 
   0.005651401     0.0012335    0.0027698     0.9942474   -0.0153218     1.0003850   -0.0235628     0.0007086    0.0063256 
   0.005751426     0.0014472   -0.0022593     0.9863535   -0.0487627     0.9985253   -0.0240491    -0.0146955   -0.0106916 
   0.005851451     0.0002851   -0.0008840     0.9895017   -0.0428704     1.0010490   -0.0252370    -0.0107398   -0.0079555 
   0.005951476    -0.0006587   -0.0001917     0.9890973   -0.0196234     0.9978424   -0.0319992    -0.0040288    0.0051169 
   0.006051501     0.0007683   -0.0017496     1.0020600   -0.0540420     0.9999664   -0.0243830    -0.0070731   -0.0180085 
   0.006151526     0.0020642    0.0010965     0.9988872   -0.0215832     0.9964023   -0.0287761     0.0013116    0.0020065 
   0.006251551    -0.0030083    0.0013256     0.9766355   -0.0083645     0.9990156   -0.0272146    -0.0071188    0.0177588 
   0.006351576    -0.0010481    0.0016566     0.9875690   -0.0201888     0.9956114   -0.0224047    -0.0045721    0.0079404 
   0.006451601     0.0009804    0.0007483     0.9907185   -0.0231068     0.9996456   -0.0275621    -0.0033672    0.0052976 
   0.006551626    -0.0007294    0.0007332     0.9852803   -0.0239414     0.9961301   -0.0225060    -0.0068051    0.0071461 
   0.006651651    -0.0019981    0.0027201     0.9930315   -0.0153008     0.9955547   -0.0209396     0.0000711    0.0096839 
   0.006751676     0.0000123    0.0020233     1.0057910   -0.0225642     0.9971349   -0.0269111     0.0058072    0.0010050 
   0.006851701     0.0013280   -0.0003468     1.0056070   -0.0317280     1.0026360   -0.0268847     0.0028704   -0.0029922 
   0.006951726     0.0027616    0.0022587     1.0122830   -0.0200781     1.0026410   -0.0290047     0.0108110    0.0008357 
   0.007051751     0.0009200   -0.0011877     0.9969428   -0.0485979     1.0004240   -0.0280809    -0.0075798   -0.0095700 
   0.007151776     0.0014459    0.0024193     1.0023850   -0.0229236     1.0020530   -0.0237041     0.0040479    0.0038127 
   0.007251801     0.0007912    0.0012583     0.9970063   -0.0212351     0.9951016   -0.0289609     0.0018224    0.0054665 
   0.007351826     0.0010046    0.0023604     1.0070490   -0.0337087     0.9997460   -0.0297448     0.0038884   -0.0045262 
   0.007451851     0.0008167    0.0017908     1.0019300   -0.0237901     0.9928941   -0.0337258     0.0038665    0.0025510 
   0.007551876     0.0012708    0.0024354     1.0019630   -0.0264755     1.0035100   -0.0301565     0.0043313    0.0019530 
   0.007651901     0.0012396    0.0003873     0.9977142   -0.0361217     0.9920219   -0.0305747    -0.0028615   -0.0016612 
   0.007751926     0.0027303    0.0020742     1.0091130   -0.0262462     1.0008620   -0.0332014     0.0090560   -0.0003428 
   0.007851951     0.0000001    0.0027938     1.0066670   -0.0250737     0.9976038   -0.0303884     0.0069097    0.0012171 
   0.007951976    -0.0000058    0.0021643     1.0017190   -0.0182977     1.0034470   -0.0312126     0.0075475    0.0076562 
   0.008052001     0.0009918    0.0000263     1.0037900   -0.0249370     0.9996942   -0.0333430     0.0065133    0.0028448 
   0.008152026    -0.0002109    0.0016655     1.0018340   -0.0204880     0.9936893   -0.0309385     0.0071361    0.0059576 
   0.008252051     0.0003588    0.0012994     1.0019170   -0.0266484     0.9978258   -0.0334313     0.0046627    0.0025885 
   0.008352076     0.0040153   -0.0006657     1.0064980   -0.0454223     1.0013570   -0.0360672    -0.0002168   -0.0080906 
   0.008452101     0.0006397    0.0022681     1.0077200   -0.0226389     0.9985531   -0.0346746     0.0098349    0.0029084 
   0.008552126    -0.0003836   -0.0004189     0.9913673   -0.0425739     0.9948238   -0.0380403    -0.0069159   -0.0003548 
   0.008652151     0.0013865   -0.0021925     0.9967822   -0.0517831     0.9980277   -0.0370941    -0.0070794   -0.0066279 
   0.008752176     0.0014203    0.0019050     1.0132370   -0.0346336     0.9947935   -0.0356010     0.0077576   -0.0053905 
   0.008852201    -0.0000382   -0.0011924     0.9959739   -0.0520570     0.9957991   -0.0357146    -0.0076268   -0.0058325 
   0.008952226     0.0002565    0.0003520     1.0020690   -0.0384944     0.9990041   -0.0363497     0.0017044   -0.0012591 
   0.009052251     0.0023521    0.0005278     1.0043220   -0.0479645     0.9995155   -0.0390921    -0.0015808   -0.0072001 
   0.009152276     0.0012101    0.0023393     1.0008230   -0.0270469     0.9995468   -0.0359704     0.0065031    0.0050045 
   0.009252301     0.0015083    0.0014758     1.0011700   -0.0383833     0.9966391   -0.0371260     0.0012071   -0.0006465 
   0.009352326     0.0018301    0.0039179     1.0158590   -0.0309156     0.9987161   -0.0345371     0.0117678   -0.0037218 
   0.009452351     0.0007544    0.0004769     0.9963664   -0.0396267     0.9967963   -0.0400549    -0.0008594    0.0010397 
   0.009552376     0.0008498    0.0011609     1.0021800   -0.0330944     0.9992030   -0.0336863     0.0047399    0.0029188 
   0.009652401    -0.0006713    0.0023882     0.9952754   -0.0275966     1.0018620   -0.0368332     0.0043090    0.0084688 
   0.009752426    -0.0002285    0.0013125     1.0030830   -0.0345726     0.9980122   -0.0384849     0.0051553    0.0015303 
   0.009852451     0.0009578    0.0020822     1.0051270   -0.0289802     0.9999021   -0.0399521     0.0089418    0.0030188 
   0.009952476     0.0020440    0.0003876     1.0084490   -0.0396012     0.9971752   -0.0443209     0.0052396   -0.0036598 
   0.010052501     0.0004435    0.0017202     0.9986058   -0.0340020     0.9995124   -0.0384783     0.0035872    0.0040924 
   0.010152526    -0.0000014   -0.0012651     0.9931570   -0.0436839     0.9952509   -0.0413462    -0.0033481    0.0024802 
   0.010252551     0.0024130    0.0000361     1.0081230   -0.0435100     0.9985538   -0.0450230     0.0046098   -0.0052325 
   0.010352576    -0.0004852    0.0011745     0.9882579   -0.0305886     0.9976672   -0.0412313     0.0019876    0.0106668 
   0.010452601     0.0017426    0.0023148     0.9985073   -0.0449371     0.9974052   -0.0395432    -0.0006898    0.0001630 
   0.010552626     0.0008746    0.0025507     1.0083320   -0.0345260     0.9948273   -0.0435406     0.0087941   -0.0007459 
   0.010652651     0.0024904    0.0001180     1.0049170   -0.0545423     0.9970487   -0.0434755    -0.0024404   -0.0070880 
   0.010752676     0.0011234    0.0015778     1.0036100   -0.0384630     0.9967844   -0.0448230     0.0053118   -0.0002422 
   0.010852701     0.0008532   -0.0019554     0.9865858   -0.0592760     0.9944009   -0.0491994    -0.0122573   -0.0001829 
   0.010952726     0.0006303    0.0006113     0.9995598   -0.0451671     0.9993837   -0.0423786     0.0010125    0.0005205 
   0.011052751     0.0005542    0.0017347     1.0062900   -0.0418735     0.9983127   -0.0477861     0.0057800   -0.0022484 
   0.011152776    -0.0002168    0.0014254     1.0058990   -0.0403990     0.9990004   -0.0471816     0.0066429   -0.0011917 
   0.011252801    -0.0011835   -0.0004138     0.9866528   -0.0346535     0.9967300   -0.0502431     0.0020922    0.0108701 
   0.011352826     0.0011138    0.0015765     0.9986869   -0.0449719     0.9999242   -0.0479533     0.0016549    0.0014173 
   0.011452851     0.0005909    0.0005746     1.0014330   -0.0436144     0.9979318   -0.0475385     0.0031770    0.0001360 
   0.011552876     0.0016764    0.0021258     1.0082030   -0.0390099     0.9994907   -0.0434706     0.0090321   -0.0006023 
   0.011652901     0.0011750    0.0022684     0.9918115   -0.0367100     0.9993454   -0.0456005     0.0037754    0.0087044 
   0.011752926     0.0005197    0.0016763     0.9979404   -0.0460606     0.9961578   -0.0467766     0.0010990    0.0017751 
   0.011852951     0.0007899    0.0028421     1.0046180   -0.0397386     0.9968889   -0.0475114     0.0072090    0.0003744 
   0.011952976     0.0017457   -0.0000636     0.9943382   -0.0590246     0.9944425   -0.0470582    -0.0066879   -0.0009683 
   0.012053002     0.0002138    0.0017891     0.9909374   -0.0454987     0.9990010   -0.0496227    -0.0000871    0.0062416 
   0.012153027     0.0007103    0.0005621     0.9946181   -0.0542494     0.9981837   -0.0506323    -0.0031646    0.0008837 
   0.012253052     0.0009037    0.0014693     1.0004770   -0.0398353     0.9956114   -0.0503637     0.0064755    0.0030565 
   0.012353077     0.0008562   -0.0002225     0.9890085   -0.0567975     0.9950852   -0.0487715    -0.0065587    0.0032921 
   0.012453102     0.0019057   -0.0011223     0.9895689   -0.0704541     0.9965401   -0.0535956    -0.0137109   -0.0013074 
   0.012553127    -0.0001817    0.0012032     0.9855861   -0.0469575     1.0005800   -0.0504625    -0.0012495    0.0095470 
   0.012653152     0.0014093    0.0015794     1.0031890   -0.0522524     0.9973912   -0.0500501     0.0017786   -0.0023656 
   0.012753177     0.0006788    0.0011272     0.9989288   -0.0558233     1.0015100   -0.0511962    -0.0011626   -0.0002489 
   0.012853202     0.0007004    0.0007043     0.9908433   -0.0561254     0.9978760   -0.0560190    -0.0038671    0.0036473 
   0.012953227     0.0011369    0.0011411     1.0038910   -0.0581608     0.9980627   -0.0536678    -0.0000741   -0.0040851 
   0.013053252    -0.0001160    0.0012662     0.9946501   -0.0500439     1.0007480   -0.0523666     0.0015037    0.0042723 
   0.013153277     0.0012830    0.0008164     0.9900334   -0.0579528     0.9953395   -0.0541219    -0.0047184    0.0043595 
   0.013253302     0.0013402    0.0009517     1.0023760   -0.0584125     0.9984315   -0.0580641    -0.0002582   -0.0032375 
   0.013353327     0.0006688    0.0007910     0.9978775   -0.0603793     0.9972205   -0.0578365    -0.0025215   -0.0013679 
   0.013453352     0.0008233    0.0004032     0.9914919   -0.0562303     0.9973099   -0.0570244    -0.0021356    0.0040018 
   0.013553377     0.0031284    0.0025665     1.0119800   -0.0544346     0.9982811   -0.0560774     0.0057952   -0.0074102 
   0.013653402     0.0001924    0.0004729     0.9965120   -0.0577242     0.9931259   -0.0580553    -0.0012842    0.0009128 
   0.013753427     0.0013531    0.0021891     1.0034980   -0.0483367     0.9989851   -0.0544747     0.0071468    0.0001636 
   0.013853452     0.0007684    0.0020770     1.0024810   -0.0547831     0.9951397   -0.0532542     0.0027222   -0.0012608 
   0.013953477     0.0017171    0.0012610     1.0014870   -0.0520123     0.9965070   -0.0570337     0.0045959    0.0002371 
   0.014053502     0.0031097    0.0007041     1.0079850   -0.0707583     0.9959241   -0.0601261    -0.0043173   -0.0096908 
   0.014153527     0.0010597    0.0012998     0.9949971   -0.0559077     1.0010410   -0.0580711     0.0010726    0.0031646 
   0.014253552     0.0018939    0.0032037     1.0114880   -0.0519514     0.9998268   -0.0602326     0.0085071   -0.0050925 
   0.014353577     0.0003167    0.0017238     0.9946477   -0.0490322     0.9952289   -0.0594476     0.0052780    0.0057607 
   0.014453602     0.0024131    0.0006312     0.9980050   -0.0688711     0.9985000   -0.0581871    -0.0051036   -0.0021236 
   0.014553627     0.0006602    0.0005670     0.9829757   -0.0586163     0.9979687   -0.0573129    -0.0029290    0.0104834 
   0.014653652    -0.0004087    0.0022353     1.0038990   -0.0539782     0.9968442   -0.0585461     0.0057296   -0.0019987 
   0.014753677     0.0016678    0.0002019     1.0007640   -0.0689476     0.9980873   -0.0608451    -0.0036026   -0.0026675 
   0.014853702     0.0002949    0.0012704     0.9946713   -0.0627845     0.9989445   -0.0583026    -0.0010725    0.0027050 
   0.014953727     0.0015255    0.0020654     0.9984956   -0.0690151     0.9949486   -0.0592917    -0.0042110   -0.0015386 
   0.015053752     0.0001132    0.0027834     0.9904295   -0.0598018     0.9981845   -0.0607379    -0.0000925    0.0052269 
   0.015153777     0.0015260    0.0011099     0.9916564   -0.0610181     0.9968576   -0.0626990    -0.0002631    0.0046046 
   0.015253802     0.0021509   -0.0001209     0.9950032   -0.0653116     0.9977928   -0.0618540    -0.0016745    0.0019131 
   0.015353827     0.0021907    0.0014646     1.0021580   -0.0621411     0.9977606   -0.0606288     0.0019590   -0.0018656 
   0.015453852     0.0019852   -0.0005383     0.9990165   -0.0614346     0.9982712   -0.0647872     0.0020146    0.0006667 
   0.015553877     0.0022112    0.0006283     0.9991875   -0.0686479     0.9992044   -0.0664839    -0.0016317   -0.0009914 
   0.015653902     0.0024396    0.0007693     1.0038530   -0.0656435     0.9990112   -0.0664016     0.0014591   -0.0036113 
