! 26-Feb-26 2:23:24 PM
! E:\VNA_MEASUREMENTS\HEATED_LOAD\SEMI_RIGID_0.S2P
! CHANNEL.1
! TR.MEASUREMENT
! CORRECTED.DATA
# GHZ S RI R 50.0
! FREQ.GHZ         S11RE         S11IM         S21RE         S21IM         S12RE         S12IM         S22RE         S22IM         
!; PortSelection: Port_12
   0.000050000     0.3407978    0.0865666    -0.1274287    0.3843791     0.9976159    0.2352779    -0.4540152   -0.8484828 
   0.000150025    -0.0282703    0.3139247    -0.5998516    0.4454567     0.8734232    0.2051676    -1.2200670   -0.1968621 
   0.000250050    -0.7036631    0.1143654     0.5953462    0.2270416     0.4949955   -0.0379332    -0.3181070    0.0908423 
   0.000350075     0.0026740    0.0001582     0.9945245    0.0018247     1.0055400   -0.0096208    -0.0033873   -0.0024352 
   0.000450100     0.0013354    0.0019794     0.9962481    0.0002219     0.9973840    0.0014583    -0.0034655    0.0011999 
   0.000550125    -0.0046888   -0.0029558     0.9837679   -0.0234761     0.9992858   -0.0138178    -0.0110826   -0.0177366 
   0.000650150     0.0046437    0.0001092     1.0218320    0.0098473     1.0061880   -0.0036649     0.0151162    0.0085302 
   0.000750175    -0.0008299   -0.0009582     1.0022400   -0.0059573     0.9930909   -0.0091674     0.0009278   -0.0029027 
   0.000850200     0.0021816   -0.0018473     1.0051960    0.0040523     1.0021130   -0.0052493     0.0034851    0.0051202 
   0.000950225    -0.0020955   -0.0026309     0.9841874   -0.0111953     0.9996436   -0.0118328    -0.0107199   -0.0062126 
   0.001050250     0.0004657   -0.0016736     0.9999896    0.0017502     0.9901020   -0.0062626    -0.0007789    0.0048774 
   0.001150275     0.0016355   -0.0013338     1.0131100    0.0082164     1.0017570    0.0019267     0.0094150    0.0091782 
   0.001250300     0.0002158   -0.0007916     1.0082920    0.0041021     1.0010360   -0.0088672     0.0053694    0.0062802 
   0.001350325     0.0078308    0.0005263     1.0392710    0.0287137     1.0078800   -0.0042182     0.0292538    0.0219835 
   0.001450350     0.0003137    0.0012242     0.9936163    0.0099805     0.9933834   -0.0006277    -0.0037936    0.0119103 
   0.001550375     0.0038071    0.0032851     1.0066110    0.0315422     1.0066650    0.0013163     0.0069329    0.0259419 
   0.001650400     0.0011246    0.0026277     0.9915307    0.0188966     1.0061800   -0.0095492    -0.0021673    0.0166132 
   0.001750425    -0.0013747   -0.0002127     0.9874174   -0.0016769     0.9905518   -0.0052834    -0.0080975    0.0048702 
   0.001850450    -0.0022598    0.0035497     0.9822017    0.0130969     0.9973904   -0.0019001    -0.0097564    0.0162262 
   0.001950475     0.0058231    0.0016598     1.0192850   -0.0017130     1.0056070   -0.0072870     0.0141097    0.0025554 
   0.002050500     0.0008071    0.0006485     1.0067610   -0.0154122     0.9931116   -0.0103235     0.0033721   -0.0049699 
   0.002150525    -0.0018453    0.0005739     0.9967274   -0.0301294     1.0000990   -0.0060026    -0.0039409   -0.0139581 
   0.002250550    -0.0007462    0.0003657     0.9756680   -0.0241004     1.0068090   -0.0070726    -0.0164924   -0.0060445 
   0.002350575     0.0008289    0.0014891     1.0016620    0.0069407     1.0001490   -0.0039355     0.0029809    0.0122211 
   0.002450600     0.0003090    0.0000132     0.9962983    0.0020961     1.0038480   -0.0117637     0.0002905    0.0089028 
   0.002550625     0.0028609    0.0008173     1.0112280   -0.0262187     1.0027740   -0.0090341     0.0063904   -0.0121938 
   0.002650650     0.0016214    0.0007900     1.0035690   -0.0135766     0.9996957   -0.0154339     0.0037882   -0.0028577 
   0.002750675     0.0029393    0.0002457     0.9992549   -0.0024766     1.0044650   -0.0166196     0.0012397    0.0056183 
   0.002850700     0.0023373    0.0003374     0.9943967    0.0053471     1.0086470   -0.0109999     0.0000702    0.0120542 
   0.002950725     0.0007053    0.0016910     0.9869511   -0.0190223     1.0033480   -0.0014561    -0.0085390   -0.0010022 
   0.003050750    -0.0019251    0.0019736     0.9861923   -0.0151033     0.9945211   -0.0095688    -0.0098163    0.0005691 
   0.003150775    -0.0024481   -0.0017353     0.9765698   -0.0223064     0.9981480   -0.0090402    -0.0162875   -0.0008070 
   0.003250800    -0.0011171   -0.0015043     1.0026550   -0.0242459     0.9932917   -0.0129302    -0.0008215   -0.0066904 
   0.003350825    -0.0002335    0.0008141     0.9950866   -0.0061235     0.9954887   -0.0128714    -0.0014096    0.0065492 
   0.003450850     0.0027458   -0.0019029     1.0119090   -0.0398744     1.0022590   -0.0180715     0.0039628   -0.0188800 
   0.003550875     0.0017810    0.0004661     1.0086180   -0.0297389     1.0034670   -0.0137773     0.0042116   -0.0105832 
   0.003650900    -0.0003880   -0.0006205     0.9919335   -0.0291136     0.9981421   -0.0159160    -0.0070425   -0.0070021 
   0.003750925     0.0003968   -0.0012253     1.0049560   -0.0217187     0.9943172   -0.0159097     0.0013416   -0.0040760 
   0.003850950     0.0007884   -0.0010952     0.9846882   -0.0203702     1.0029110   -0.0115187    -0.0099817    0.0007864 
   0.003950975     0.0001361    0.0011013     0.9792740   -0.0230988     0.9993742   -0.0133256    -0.0143938    0.0004161 
   0.004051001     0.0028072   -0.0000876     1.0081170   -0.0238891     0.9992397   -0.0156718     0.0036396   -0.0058542 
   0.004151026    -0.0007523    0.0011369     0.9919600    0.0000684     1.0000180   -0.0174308    -0.0010626    0.0126226 
   0.004251051     0.0028109    0.0018924     1.0059600   -0.0172689     0.9983314   -0.0152712     0.0039144   -0.0000160 
   0.004351076    -0.0006601   -0.0013159     0.9999856   -0.0359388     0.9912895   -0.0232895    -0.0041543   -0.0115992 
   0.004451101    -0.0017915    0.0016222     0.9771290   -0.0060631     0.9978242   -0.0177737    -0.0111456    0.0137633 
   0.004551126     0.0003651    0.0011081     1.0055980   -0.0128854     0.9940669   -0.0200448     0.0051015    0.0019417 
   0.004651151     0.0020531    0.0028149     1.0119250   -0.0079456     1.0021220   -0.0190883     0.0109017    0.0041034 
   0.004751176     0.0019798    0.0024792     1.0073140   -0.0165068     1.0026750   -0.0189191     0.0065863   -0.0001961 
   0.004851201    -0.0001591   -0.0002811     0.9915880   -0.0137680     0.9987678   -0.0203086    -0.0029411    0.0062246 
   0.004951226     0.0025618    0.0003942     1.0000390   -0.0213656     1.0053770   -0.0201053     0.0009957   -0.0005213 
   0.005051251     0.0025530    0.0012921     1.0051470   -0.0288953     0.9998589   -0.0145740     0.0007560   -0.0053985 
   0.005151276     0.0007681    0.0007374     1.0056760   -0.0228030     0.9988838   -0.0239547     0.0037987   -0.0025349 
   0.005251301    -0.0000219    0.0012646     0.9986686   -0.0262263     0.9999114   -0.0208252    -0.0011966   -0.0023315 
   0.005351326     0.0026717    0.0000867     1.0096160   -0.0326297     1.0007860   -0.0213075     0.0036175   -0.0087164 
   0.005451351    -0.0008550   -0.0001240     0.9876684   -0.0301369     0.9974923   -0.0251167    -0.0083737   -0.0015800 
   0.005551376    -0.0006572   -0.0024174     0.9938418   -0.0482301     0.9973868   -0.0255043    -0.0105176   -0.0140412 
   0.005651401     0.0016104    0.0016670     1.0028590   -0.0248965     1.0003360   -0.0251508     0.0025509   -0.0014723 
   0.005751426    -0.0022141   -0.0011219     0.9709660   -0.0299384     0.9981611   -0.0251237    -0.0186777    0.0051956 
   0.005851451     0.0010057   -0.0001735     1.0063380   -0.0291106     1.0048000   -0.0261462     0.0030845   -0.0050871 
   0.005951476    -0.0020455   -0.0001085     0.9896980   -0.0210658     0.9960623   -0.0223901    -0.0045481    0.0057365 
   0.006051501     0.0006255   -0.0006461     1.0156820   -0.0419988     0.9980506   -0.0223175     0.0047903   -0.0148309 
   0.006151526     0.0006757    0.0005191     0.9847918   -0.0291027     0.9957561   -0.0279305    -0.0094244    0.0021746 
   0.006251551    -0.0019295    0.0003942     0.9725804   -0.0179310     0.9985144   -0.0263128    -0.0129316    0.0135724 
   0.006351576     0.0019129    0.0017164     1.0031070   -0.0232488     1.0001800   -0.0233532     0.0037641    0.0010971 
   0.006451601    -0.0002869   -0.0006359     0.9830565   -0.0161210     1.0064670   -0.0276946    -0.0050567    0.0120660 
   0.006551626     0.0004375    0.0005785     1.0045370   -0.0232647     1.0009060   -0.0257917     0.0051304    0.0005724 
   0.006651651    -0.0007914    0.0020263     1.0013080   -0.0227998     0.9978622   -0.0269703     0.0032640    0.0022481 
   0.006751676     0.0012204    0.0015257     1.0157740   -0.0259118     1.0002930   -0.0284978     0.0107517   -0.0046342 
   0.006851701     0.0023396   -0.0014920     1.0031970   -0.0400351     0.9994553   -0.0296714    -0.0013195   -0.0071779 
   0.006951726     0.0008930    0.0013891     0.9924077   -0.0360957     1.0023630   -0.0274074    -0.0056851   -0.0009714 
   0.007051751     0.0014840    0.0011687     1.0011760   -0.0331672     0.9999384   -0.0268679    -0.0002504   -0.0019915 
   0.007151776     0.0010549    0.0021351     1.0119370   -0.0262318     1.0041140   -0.0251715     0.0086782   -0.0015346 
   0.007251801     0.0000407    0.0021365     0.9989243   -0.0295917     0.9945933   -0.0280953    -0.0000024    0.0001342 
   0.007351826     0.0014293    0.0031490     1.0089990   -0.0254688     1.0028970   -0.0266949     0.0075173   -0.0001807 
   0.007451851    -0.0001663    0.0010532     0.9864369   -0.0376845     0.9928305   -0.0271476    -0.0093809    0.0016422 
   0.007551876     0.0008217    0.0009622     0.9955400   -0.0362678     1.0017690   -0.0288913    -0.0028108   -0.0003575 
   0.007651901     0.0019127    0.0025543     1.0057770   -0.0275071     0.9987565   -0.0309235     0.0053309    0.0001040 
   0.007751926     0.0008873    0.0021087     0.9995487   -0.0261311     0.9992618   -0.0296598     0.0033590    0.0040538 
   0.007851951     0.0001861    0.0018195     0.9954506   -0.0361115     0.9993784   -0.0282996    -0.0029582    0.0001407 
   0.007951976     0.0001635    0.0019269     0.9997166   -0.0203099     1.0022760   -0.0303749     0.0060673    0.0073589 
   0.008052001     0.0013768   -0.0007565     1.0042390   -0.0254178     1.0026020   -0.0353093     0.0070310    0.0026227 
   0.008152026    -0.0009377    0.0011253     0.9955743   -0.0199639     0.9960870   -0.0345997     0.0042313    0.0087367 
   0.008252051    -0.0006044    0.0019496     0.9925892   -0.0212825     0.9956186   -0.0304772     0.0019411    0.0097096 
   0.008352076     0.0012610    0.0011086     0.9951348   -0.0355225     0.9997624   -0.0319833    -0.0020390    0.0017781 
   0.008452101    -0.0002732    0.0022213     1.0100820   -0.0382878     0.9960318   -0.0368841     0.0047596   -0.0066238 
   0.008552126    -0.0001913    0.0004824     0.9917434   -0.0350894     1.0000910   -0.0402832    -0.0029325    0.0030386 
   0.008652151     0.0002771   -0.0001552     0.9911794   -0.0458679     0.9960743   -0.0336326    -0.0078235   -0.0015421 
   0.008752176     0.0006720    0.0014444     1.0055630   -0.0345424     0.9941304   -0.0389742     0.0038669   -0.0023653 
   0.008852201     0.0006394    0.0006759     0.9958010   -0.0372468     0.9996526   -0.0365092    -0.0013782    0.0013734 
   0.008952226    -0.0008016   -0.0007013     0.9826450   -0.0466013     0.9986721   -0.0366468    -0.0115601    0.0034945 
   0.009052251     0.0015119    0.0010086     1.0051160   -0.0409172     0.9977003   -0.0367043     0.0017268   -0.0042481 
   0.009152276     0.0026725    0.0005742     0.9983262   -0.0450722     1.0026670   -0.0375054    -0.0022025   -0.0025178 
   0.009252301     0.0013304    0.0014782     0.9924057   -0.0439044     0.9956704   -0.0384896    -0.0056355    0.0003285 
   0.009352326     0.0016506    0.0017488     1.0038110   -0.0435356     0.9961060   -0.0376103     0.0001502   -0.0047316 
   0.009452351     0.0021567   -0.0010252     1.0006990   -0.0560185     1.0007970   -0.0383796    -0.0059328   -0.0079039 
   0.009552376     0.0013316    0.0010362     1.0081700   -0.0393855     0.9966750   -0.0402110     0.0048756   -0.0041042 
   0.009652401    -0.0003493    0.0008845     0.9999813   -0.0372268     1.0039260   -0.0386245     0.0021575    0.0012841 
   0.009752426     0.0001500   -0.0000654     0.9972644   -0.0419927     0.9954062   -0.0406765    -0.0012557    0.0004076 
   0.009852451     0.0015192    0.0017331     1.0007660   -0.0325877     1.0012790   -0.0396290     0.0051798    0.0034752 
   0.009952476     0.0014729    0.0000978     0.9957383   -0.0375001     0.9975659   -0.0438418     0.0005603    0.0034600 
   0.010052501     0.0003342    0.0024248     0.9971910   -0.0366012     1.0007010   -0.0425026     0.0023009    0.0034397 
   0.010152526    -0.0000996    0.0002681     0.9907905   -0.0427633     0.9929717   -0.0424178    -0.0038802    0.0035229 
   0.010252551     0.0010810    0.0005255     1.0029230   -0.0400454     0.9994177   -0.0393425     0.0036456   -0.0007047 
   0.010352576    -0.0001638    0.0022381     0.9838287   -0.0337217     0.9988996   -0.0409298    -0.0016407    0.0114793 
   0.010452601     0.0009466    0.0035318     0.9976534   -0.0307454     1.0003390   -0.0389678     0.0066049    0.0072269 
   0.010552626     0.0000092    0.0025831     1.0046650   -0.0353423     0.9969065   -0.0452873     0.0069907    0.0006729 
   0.010652651     0.0014570    0.0004157     1.0013350   -0.0522508     0.9957740   -0.0428642    -0.0027988   -0.0046239 
   0.010752676     0.0012237    0.0022797     1.0035490   -0.0468508     0.9982739   -0.0414044     0.0010156   -0.0035176 
   0.010852701     0.0021625   -0.0010836     1.0032910   -0.0596452     0.9971356   -0.0469622    -0.0054816   -0.0087363 
   0.010952726     0.0028022    0.0016923     1.0111350   -0.0438144     1.0030900   -0.0440901     0.0071640   -0.0050695 
   0.011052751     0.0006013    0.0024930     1.0137010   -0.0379803     0.9985341   -0.0408120     0.0106350   -0.0038456 
   0.011152776    -0.0000600    0.0025043     0.9995900   -0.0294056     1.0011150   -0.0479048     0.0101010    0.0067094 
   0.011252801    -0.0002588   -0.0002805     0.9877977   -0.0430646     0.9960548   -0.0460234    -0.0022421    0.0069832 
   0.011352826     0.0016709    0.0027643     1.0090480   -0.0431415     1.0022740   -0.0484337     0.0068868   -0.0036229 
   0.011452851     0.0002089    0.0002777     0.9930845   -0.0463548     0.9996454   -0.0440194    -0.0013188    0.0037998 
   0.011552876     0.0005025    0.0012736     1.0013670   -0.0481612     0.9968982   -0.0496039     0.0013825   -0.0012124 
   0.011652901     0.0006139    0.0015623     0.9983519   -0.0403597     0.9988486   -0.0468844     0.0045829    0.0039903 
   0.011752926     0.0020658    0.0034536     1.0079100   -0.0429596     0.9987237   -0.0445465     0.0064706   -0.0022044 
   0.011852951     0.0001662    0.0017041     0.9997159   -0.0440560     0.9973928   -0.0491900     0.0037143    0.0009405 
   0.011952976     0.0017678    0.0004383     0.9923900   -0.0578381     0.9978920   -0.0471041    -0.0064164    0.0003419 
   0.012053002     0.0002309    0.0015743     0.9957339   -0.0340865     0.9990053   -0.0498031     0.0078741    0.0081348 
   0.012153027     0.0000530    0.0016905     0.9943001   -0.0478495     0.9960580   -0.0526778     0.0004087    0.0031937 
   0.012253052     0.0014036    0.0019841     1.0034190   -0.0438363     0.9996924   -0.0497856     0.0059379    0.0003535 
   0.012353077    -0.0003309    0.0002035     0.9925109   -0.0474517     0.9944696   -0.0471790     0.0002958    0.0049047 
   0.012453102     0.0014358   -0.0000426     0.9956775   -0.0617429     0.9968265   -0.0520449    -0.0067412   -0.0018428 
   0.012553127    -0.0017566    0.0004183     0.9827656   -0.0451993     0.9988263   -0.0530548    -0.0011097    0.0113861 
   0.012653152     0.0001886    0.0005324     0.9955832   -0.0530629     0.9991677   -0.0463788    -0.0012310    0.0021974 
   0.012753177     0.0007567    0.0009138     0.9983061   -0.0503201     0.9980699   -0.0508712     0.0016422    0.0014768 
   0.012853202     0.0020352   -0.0003062     1.0016780   -0.0562059     1.0006320   -0.0549044    -0.0000496   -0.0026309 
   0.012953227     0.0025752    0.0016295     1.0016650   -0.0588518     0.9981622   -0.0511228    -0.0015555   -0.0029834 
   0.013053252    -0.0006688    0.0013594     0.9965931   -0.0458923     0.9986997   -0.0524015     0.0041320    0.0044803 
   0.013153277     0.0010456    0.0010817     0.9956380   -0.0528021     0.9949452   -0.0545360     0.0005212    0.0026068 
   0.013253302     0.0019267    0.0003537     0.9956985   -0.0620583     0.9989653   -0.0580021    -0.0048700   -0.0007906 
   0.013353327     0.0007089    0.0009168     1.0018520   -0.0564801     0.9998227   -0.0559231     0.0010676   -0.0022257 
   0.013453352     0.0000467    0.0017519     0.9922672   -0.0534510     0.9979178   -0.0556145    -0.0000697    0.0044693 
   0.013553377     0.0010048    0.0009507     0.9975331   -0.0587033     0.9963426   -0.0570341    -0.0012508    0.0000837 
   0.013653402     0.0010570    0.0008814     0.9966314   -0.0579552     0.9940984   -0.0575669    -0.0016059    0.0006839 
   0.013753427     0.0004962    0.0015060     0.9932214   -0.0463333     0.9952756   -0.0545833     0.0050657    0.0067191 
   0.013853452    -0.0000758    0.0018231     0.9998477   -0.0414275     0.9974134   -0.0540187     0.0097459    0.0042902 
   0.013953477    -0.0000673    0.0005387     1.0002080   -0.0544220     0.9977991   -0.0584749     0.0034356    0.0001813 
   0.014053502     0.0018223    0.0009570     1.0011610   -0.0591119     0.9956025   -0.0574507     0.0001864   -0.0020087 
   0.014153527     0.0017863    0.0011764     0.9892083   -0.0620664     1.0001230   -0.0553778    -0.0044357    0.0051232 
   0.014253552     0.0015362    0.0014849     1.0154080   -0.0609864     0.9998394   -0.0651597     0.0045085   -0.0103571 
   0.014353577     0.0003419    0.0012877     0.9957136   -0.0581746     0.9943559   -0.0586816    -0.0000500    0.0018887 
   0.014453602     0.0017981    0.0008144     0.9948002   -0.0696626     0.9978064   -0.0591399    -0.0066172   -0.0001852 
   0.014553627     0.0013602    0.0008651     0.9947295   -0.0555485     0.9991996   -0.0607918     0.0024771    0.0036403 
   0.014653652     0.0006691    0.0019086     1.0104280   -0.0541381     0.9962262   -0.0583033     0.0071121   -0.0054340 
   0.014753677     0.0027254    0.0003188     1.0052190   -0.0711241     0.9967532   -0.0613464    -0.0041417   -0.0060875 
   0.014853702     0.0011950    0.0005377     1.0009980   -0.0707709     0.9970841   -0.0640167    -0.0043837   -0.0036492 
   0.014953727     0.0015408    0.0009060     0.9930501   -0.0662300     0.9955991   -0.0602237    -0.0037738    0.0026952 
   0.015053752    -0.0013393    0.0022136     0.9880533   -0.0405367     1.0016250   -0.0590497     0.0112798    0.0120740 
   0.015153777     0.0011092    0.0006294     0.9861088   -0.0630831     0.9945716   -0.0622524    -0.0033557    0.0073773 
   0.015253802     0.0040430    0.0003791     0.9965131   -0.0660130     0.9981741   -0.0608078    -0.0022182    0.0006833 
   0.015353827     0.0017604    0.0003819     0.9963527   -0.0657657     0.9990520   -0.0615246    -0.0016245    0.0011341 
   0.015453852     0.0006103    0.0005557     0.9964535   -0.0612319     0.9953000   -0.0629961     0.0015276    0.0020740 
   0.015553877     0.0013977    0.0009097     0.9925900   -0.0627004     0.9956635   -0.0637979     0.0004948    0.0040759 
   0.015653902     0.0011931    0.0012326     0.9969699   -0.0613338     0.9983097   -0.0649625     0.0025576    0.0019301 
